! VERSION = 6.00
BEGIN_HEADER
 ICCAP_INPUTS
  VG         V  B GROUND SMU4 0.001 LIN        1    0          -5         101  -0.05     
  VS         V  E GROUND SMU2 0.1 CON        0
  VB         V  C GROUND SMU3 0.1 LIN        3    0          5          3    2.5       
  VD         V  S GROUND SMU1 0.1 LIN        2    -0.1       -5         2    -4.9      
 ICCAP_OUTPUTS
  IG         I  B GROUND SMU4 B
  ID         I  S GROUND SMU1 B
  IB         I  C GROUND SMU3 B
END_HEADER

BEGIN_DB
 ICCAP_VAR VS         0              
 ICCAP_VAR VB         0              
 ICCAP_VAR VD         -0.1           

 #VG              IG              ID              IB             
  0               1.639e-010      -1.4228e-009    -9.211e-009    
  -0.05           1.2583e-009     2.4308e-009     -3.356e-009    
  -0.1            6.62e-010       2.4452e-009     -8.206e-009    
  -0.15           1.1526e-009     2.4752e-009     -9.274e-009    
  -0.2            5.211e-010      2.3942e-009     -6.902e-009    
  -0.25           1.0417e-009     2.4952e-009     -9.151e-009    
  -0.3            1.5038e-009     2.2525e-009     -5.449e-009    
  -0.35           9.326e-010      2.4918e-009     -9.013e-009    
  -0.4            1.3846e-009     2.53e-011       -1.0451e-008   
  -0.45           9.286e-010      2.4971e-009     -1.502e-009    
  -0.5            1.3837e-009     2.81e-011       -1.0493e-008   
  -0.55           9.202e-010      2.4926e-009     -1.358e-009    
  -0.6            1.3872e-009     3.03e-011       -1.0263e-008   
  -0.65           9.083e-010      2.478e-009      -1.458e-009    
  -0.7            1.3856e-009     -1.88e-011      -1.011e-008    
  -0.75           -2.668e-010     1.7987e-009     -1.46e-009     
  -0.8            1.3898e-009     -8.182e-010     -1.0175e-008   
  -0.85           3.3588e-009     -2.4566e-009    -1.451e-009    
  -0.9            -1.4672e-009    -1.5066e-008    -5.621e-009    
  -0.95           1.3873e-009     -4.1761e-008    -9.151e-009    
  -1              -2.96e-010      -1.2824e-007    -9.194e-009    
  -1.05           1.3455e-009     -3.6471e-007    -1.013e-008    
  -1.1            2.6752e-009     -8.411e-007     -2.251e-009    
  -1.15           -1.8621e-009    -1.6535e-006    -1.0116e-008   
  -1.2            1.7995e-009     -2.8896e-006    -6.586e-009    
  -1.25           1.4256e-009     -4.3895e-006    -8.859e-009    
  -1.3            1.3315e-009     -6.0329e-006    -1.0977e-008   
  -1.35           2.5028e-009     -7.6564e-006    -2.914e-009    
  -1.4            1.7079e-009     -9.2206e-006    -7.601e-009    
  -1.45           1.4086e-009     -1.06719e-005   -8.701e-009    
  -1.5            -1.598e-009     -1.195e-005     -9.019e-009    
  -1.55           1.3696e-009     -1.3202e-005    -9.775e-009    
  -1.6            2.8833e-009     -1.4315e-005    -1.7e-009      
  -1.65           2.0228e-009     -1.5339e-005    -5.249e-009    
  -1.7            1.4915e-009     -1.6283e-005    -9.189e-009    
  -1.75           1.3568e-009     -1.7161e-005    -1.0065e-008   
  -1.8            2.7707e-009     -1.7981e-005    -1.985e-009    
  -1.85           1.8939e-009     -1.8741e-005    -5.996e-009    
  -1.9            1.4579e-009     -1.9453e-005    -8.893e-009    
  -1.95           1.3473e-009     -2.0126e-005    -1.056e-008    
  -2              2.6196e-009     -2.0745e-005    -2.515e-009    
  -2.05           1.789e-009      -2.1343e-005    -6.805e-009    
  -2.1            1.4319e-009     -2.1907e-005    -9.133e-009    
  -2.15           1.3402e-009     -2.2441e-005    -1.1188e-008   
  -2.2            2.4835e-009     -2.2941e-005    -3.05e-009     
  -2.25           1.6989e-009     -2.3424e-005    -7.817e-009    
  -2.3            1.4095e-009     -2.3893e-005    -8.974e-009    
  -2.35           3.1521e-009     -2.4322e-005    -1.379e-009    
  -2.4            2.334e-009      -2.4746e-005    -3.595e-009    
  -2.45           1.6189e-009     -2.5154e-005    -8.477e-009    
  -2.5            1.3995e-009     -2.5544e-005    -9.349e-009    
  -2.55           3.0466e-009     -2.5908e-005    -1.555e-009    
  -2.6            2.1883e-009     -2.627e-005     -4.227e-009    
  -2.65           1.558e-009      -2.6619e-005    -8.948e-009    
  -2.7            1.3861e-009     -2.6952e-005    -9.578e-009    
  -2.75           2.9328e-009     -2.7271e-005    -1.716e-009    
  -2.8            2.0456e-009     -2.7582e-005    -5.07e-009     
  -2.85           1.513e-009      -2.7886e-005    -9.005e-009    
  -2.9            1.3804e-009     -2.8178e-005    -9.745e-009    
  -2.95           2.7904e-009     -2.8453e-005    -2.02e-009     
  -3              1.9256e-009     -2.8726e-005    -5.794e-009    
  -3.05           1.476e-009      -2.8993e-005    -9.04e-009     
  -3.1            1.3707e-009     -2.9255e-005    -1.026e-008    
  -3.15           2.6504e-009     -2.9494e-005    -2.454e-009    
  -3.2            1.81e-009       -2.9739e-005    -6.733e-009    
  -3.25           1.4514e-009     -2.9976e-005    -8.994e-009    
  -3.3            1.3615e-009     -3.0205e-005    -1.1149e-008   
  -3.35           2.5061e-009     -3.0419e-005    -3.023e-009    
  -3.4            1.7197e-009     -3.064e-005     -7.801e-009    
  -3.45           1.4341e-009     -3.0853e-005    -8.931e-009    
  -3.5            3.1669e-009     -3.1051e-005    -1.26e-009     
  -3.55           2.3507e-009     -3.1257e-005    -3.62e-009     
  -3.6            1.6431e-009     -3.1452e-005    -8.668e-009    
  -3.65           1.4192e-009     -3.1645e-005    -9.367e-009    
  -3.7            3.0553e-009     -3.183e-005     -1.463e-009    
  -3.75           2.1985e-009     -3.2015e-005    -4.271e-009    
  -3.8            1.5729e-009     -3.2195e-005    -9.085e-009    
  -3.85           1.4034e-009     -3.2365e-005    -9.564e-009    
  -3.9            2.945e-009      -3.2532e-005    -1.765e-009    
  -3.95           2.0637e-009     -3.2698e-005    -5.252e-009    
  -4              1.5291e-009     -3.2865e-005    -9.201e-009    
  -4.05           1.3892e-009     -3.3025e-005    -1.0018e-008   
  -4.1            2.8099e-009     -3.3174e-005    -2.003e-009    
  -4.15           1.9352e-009     -3.3328e-005    -5.966e-009    
  -4.2            1.4885e-009     -3.3475e-005    -9.096e-009    
  -4.25           1.3763e-009     -3.3624e-005    -1.0405e-008   
  -4.3            2.6644e-009     -3.3761e-005    -2.511e-009    
  -4.35           1.8182e-009     -3.3906e-005    -7.073e-009    
  -4.4            1.4623e-009     -3.4045e-005    -8.794e-009    
  -4.45           1.3647e-009     -3.418e-005     -1.13e-008     
  -4.5            2.5155e-009     -3.4305e-005    -3.149e-009    
  -4.55           1.7171e-009     -3.4436e-005    -7.884e-009    
  -4.6            1.4386e-009     -3.4566e-005    -9.072e-009    
  -4.65           3.1902e-009     -3.4682e-005    -1.394e-009    
  -4.7            2.3511e-009     -3.4809e-005    -3.884e-009    
  -4.75           1.6364e-009     -3.4932e-005    -8.754e-009    
  -4.8            1.4194e-009     -3.5049e-005    -9.233e-009    
  -4.85           3.0744e-009     -3.5157e-005    -1.612e-009    
  -4.9            2.1978e-009     -3.5273e-005    -4.578e-009    
  -4.95           1.576e-009      -3.5392e-005    -9.176e-009    
  -5              1.4045e-009     -3.5499e-005    -9.744e-009    
END_DB

BEGIN_DB
 ICCAP_VAR VS         0              
 ICCAP_VAR VB         0              
 ICCAP_VAR VD         -5             

 #VG              IG              ID              IB             
  0               -1.6287e-009    -1.2574e-009    -9.24e-009     
  -0.05           4.963e-010      2.3862e-009     -6.407e-009    
  -0.1            1.0248e-009     2.4922e-009     -9.021e-009    
  -0.15           1.4918e-009     2.2566e-009     -5.32e-009     
  -0.2            9.279e-010      2.4904e-009     -9.033e-009    
  -0.25           1.3782e-009     1.56e-011       -1.0491e-008   
  -0.3            9.378e-010      2.493e-009      -1.469e-009    
  -0.35           1.374e-009      8.3e-012        -1.0676e-008   
  -0.4            9.487e-010      2.4906e-009     -1.501e-009    
  -0.45           1.3752e-009     3.1e-012        -1.0586e-008   
  -0.5            9.503e-010      2.4913e-009     -1.611e-009    
  -0.55           1.3738e-009     -6e-012         -1.0692e-008   
  -0.6            9.619e-010      2.4821e-009     -1.49e-009     
  -0.65           1.3721e-009     -4.3e-011       -1.0768e-008   
  -0.7            9.656e-010      2.3482e-009     -1.513e-009    
  -0.75           1.3745e-009     -5.865e-010     -1.086e-008    
  -0.8            3.2955e-009     -1.4721e-009    -1.517e-009    
  -0.85           1.4031e-009     -8.8989e-009    -9.896e-009    
  -0.9            -1.7354e-009    -3.4677e-008    -8.83e-009     
  -0.95           -4.347e-010     -1.0876e-007    -7.895e-009    
  -1              1.3703e-009     -3.3889e-007    -9.403e-009    
  -1.05           2.9232e-009     -8.6225e-007    -1.651e-009    
  -1.1            -1.8636e-009    -1.8858e-006    -1.0147e-008   
  -1.15           1.7748e-009     -3.7037e-006    -6.592e-009    
  -1.2            1.4204e-009     -6.3509e-006    -8.931e-009    
  -1.25           1.3298e-009     -9.9446e-006    -1.1219e-008   
  -1.3            -2.299e-010     -1.4305e-005    -9.733e-009    
  -1.35           1.3379e-009     -1.9896e-005    -1.0634e-008   
  -1.4            2.5219e-009     -2.6166e-005    -2.707e-009    
  -1.45           1.7242e-009     -3.3385e-005    -7.401e-009    
  -1.5            1.4098e-009     -4.1372e-005    -8.875e-009    
  -1.55           3.142e-009      -5.0013e-005    -1.171e-009    
  -1.6            2.3533e-009     -5.9525e-005    -3.497e-009    
  -1.65           1.622e-009      -6.9659e-005    -8.319e-009    
  -1.7            1.3897e-009     -8.0404e-005    -9.219e-009    
  -1.75           3.028e-009      -9.1617e-005    -1.585e-009    
  -1.8            2.1648e-009     -0.000103715    -4.362e-009    
  -1.85           1.3974e-009     -0.00011606     -8.405e-009    
  -1.9            3.0464e-009     -0.00012877     -1.522e-009    
  -1.95           2.1866e-009     -0.00014213     -4.252e-009    
  -2              1.5516e-009     -0.00015593     -8.946e-009    
  -2.05           1.379e-009      -0.00017006     -9.604e-009    
  -2.1            2.9056e-009     -0.00018446     -1.886e-009    
  -2.15           2.012e-009      -0.00019944     -5.057e-009    
  -2.2            1.4942e-009     -0.00021467     -8.961e-009    
  -2.25           1.3651e-009     -0.00023021     -1.0012e-008   
  -2.3            2.7367e-009     -0.00024587     -2.153e-009    
  -2.35           1.8642e-009     -0.00026206     -6.19e-009     
  -2.4            1.4567e-009     -0.00027845     -8.959e-009    
  -2.45           1.3518e-009     -0.00029513     -1.0751e-008   
  -2.5            2.5506e-009     -0.00031182     -2.722e-009    
  -2.55           1.7317e-009     -0.00032902     -7.264e-009    
  -2.6            1.4295e-009     -0.00034633     -9.02e-009     
  -2.65           3.1835e-009     -0.00036367     -1.334e-009    
  -2.7            2.371e-009      -0.00038149     -3.549e-009    
  -2.75           1.6351e-009     -0.00039937     -8.363e-009    
  -2.8            1.41e-009       -0.00041744     -9.042e-009    
  -2.85           3.0489e-009     -0.00043548     -1.578e-009    
  -2.9            2.183e-009      -0.00045395     -4.352e-009    
  -2.95           1.5615e-009     -0.00047244     -8.911e-009    
  -3              1.3975e-009     -0.00049105     -9.529e-009    
  -3.05           2.9039e-009     -0.00050966     -1.846e-009    
  -3.1            2.0168e-009     -0.00052848     -5.165e-009    
  -3.15           1.5072e-009     -0.0005475      -8.942e-009    
  -3.2            1.3831e-009     -0.00056646     -9.865e-009    
  -3.25           2.7427e-009     -0.0005854      -2.325e-009    
  -3.3            1.8717e-009     -0.00060456     -6.184e-009    
  -3.35           1.4711e-009     -0.00062372     -8.82e-009     
  -3.4            1.3722e-009     -0.00064303     -1.0717e-008   
  -3.45           2.5582e-009     -0.000662       -2.71e-009     
  -3.5            1.7561e-009     -0.00068126     -7.397e-009    
  -3.55           1.4444e-009     -0.00070039     -8.937e-009    
  -3.6            3.1999e-009     -0.0007193      -1.27e-009     
  -3.65           2.3789e-009     -0.00073828     -3.602e-009    
  -3.7            1.652e-009      -0.00075735     -8.276e-009    
  -3.75           1.4244e-009     -0.00077601     -9.086e-009    
  -3.8            3.0722e-009     -0.00079427     -1.583e-009    
  -3.85           2.2001e-009     -0.00081232     -4.355e-009    
  -3.9            1.5772e-009     -0.00083018     -9.19e-009     
  -3.95           1.4034e-009     -0.00084746     -9.539e-009    
  -4              2.9318e-009     -0.00086433     -1.681e-009    
  -4.05           2.0388e-009     -0.00088089     -5.257e-009    
  -4.1            1.5239e-009     -0.00089695     -9.172e-009    
  -4.15           1.3894e-009     -0.00091246     -1.0012e-008   
  -4.2            2.7557e-009     -0.00092733     -2.286e-009    
  -4.25           1.8869e-009     -0.00094179     -6.273e-009    
  -4.3            1.4818e-009     -0.00095577     -9.012e-009    
  -4.35           1.3737e-009     -0.00096923     -1.0673e-008   
  -4.4            2.5711e-009     -0.00098196     -2.928e-009    
  -4.45           1.7648e-009     -0.00099447     -7.427e-009    
  -4.5            1.4519e-009     -0.00100636     -8.795e-009    
  -4.55           3.2265e-009     -0.00101777     -1.431e-009    
  -4.6            2.3863e-009     -0.0010289      -3.508e-009    
  -4.65           1.6572e-009     -0.0010395      -8.386e-009    
  -4.7            1.428e-009      -0.00104973     -9.121e-009    
  -4.75           3.0949e-009     -0.00105949     -1.658e-009    
  -4.8            2.2022e-009     -0.00106902     -4.44e-009     
  -4.85           1.5806e-009     -0.00107818     -9.019e-009    
  -4.9            1.4068e-009     -0.00108699     -9.653e-009    
  -4.95           2.9473e-009     -0.00109545     -1.909e-009    
  -5              2.0388e-009     -0.00110377     -5.16e-009     
END_DB

BEGIN_DB
 ICCAP_VAR VS         0              
 ICCAP_VAR VB         2.5            
 ICCAP_VAR VD         -0.1           

 #VG              IG              ID              IB             
  0               -1.6554e-009    -1.2573e-009    -9.166e-009    
  -0.05           1.6085e-009     2.1533e-009     -6.472e-009    
  -0.1            1.0251e-009     2.4946e-009     -8.865e-009    
  -0.15           1.5064e-009     2.2588e-009     -5.173e-009    
  -0.2            9.284e-010      2.4944e-009     -9.096e-009    
  -0.25           1.4105e-009     1.94e-011       -1.044e-008    
  -0.3            9.361e-010      2.4901e-009     -1.428e-009    
  -0.35           1.4091e-009     1.67e-011       -1.0565e-008   
  -0.4            9.478e-010      2.4925e-009     -1.441e-009    
  -0.45           1.4086e-009     8.7e-012        -1.0564e-008   
  -0.5            9.578e-010      2.492e-009      -1.477e-009    
  -0.55           1.4118e-009     3.7e-012        -1.0644e-008   
  -0.6            9.618e-010      2.4938e-009     -1.644e-009    
  -0.65           1.4101e-009     9e-013          -1.0715e-008   
  -0.7            9.698e-010      2.4905e-009     -1.474e-009    
  -0.75           1.412e-009      -8.6e-012       -1.0969e-008   
  -0.8            9.816e-010      2.4939e-009     -1.62e-009     
  -0.85           1.4101e-009     -1.39e-011      -1.1118e-008   
  -0.9            9.926e-010      2.491e-009      -1.749e-009    
  -0.95           1.4675e-009     2.292e-009      -4.903e-009    
  -1              8.906e-010      2.4872e-009     -9.134e-009    
  -1.05           1.3707e-009     2.3652e-009     -1.0141e-008   
  -1.1            7.822e-010      2.4726e-009     -9.004e-009    
  -1.15           1.2786e-009     2.4207e-009     -9.615e-009    
  -1.2            6.704e-010      2.4411e-009     -8.273e-009    
  -1.25           1.1793e-009     2.4585e-009     -9.164e-009    
  -1.3            5.516e-010      2.3697e-009     -7.242e-009    
  -1.35           -1.127e-010     1.9416e-009     -8.908e-009    
  -1.4            2.4149e-009     -2.234e-010     -5.897e-009    
  -1.45           2.0514e-009     -3.2227e-009    -8.283e-009    
  -1.5            -2.0181e-009    -1.7372e-008    -9.352e-009    
  -1.55           1.5671e-009     -6.2141e-008    -9.102e-009    
  -1.6            -2.112e-010     -2.0507e-007    -8.95e-009     
  -1.65           2.0928e-009     -5.7745e-007    -4.816e-009    
  -1.7            -1.3705e-009    -1.2676e-006    -9.056e-009    
  -1.75           1.4642e-009     -2.4255e-006    -9.055e-009    
  -1.8            1.3647e-009     -3.8965e-006    -1.1242e-008   
  -1.85           2.4854e-009     -5.469e-006     -3.181e-009    
  -1.9            1.7032e-009     -7.0481e-006    -7.983e-009    
  -1.95           1.438e-009      -8.5246e-006    -9.19e-009     
  -2              3.1579e-009     -9.8593e-006    -1.425e-009    
  -2.05           2.2935e-009     -1.10852e-005   -4.009e-009    
  -2.1            -2.243e-010     -1.2151e-005    -1.0093e-008   
  -2.15           2.1224e-009     -1.3171e-005    -4.493e-009    
  -2.2            1.5459e-009     -1.4083e-005    -9.142e-009    
  -2.25           1.3972e-009     -1.4922e-005    -9.696e-009    
  -2.3            2.8415e-009     -1.5687e-005    -2.048e-009    
  -2.35           1.9479e-009     -1.6399e-005    -5.847e-009    
  -2.4            1.498e-009      -1.7067e-005    -9.064e-009    
  -2.45           1.3796e-009     -1.7696e-005    -1.0541e-008   
  -2.5            2.6581e-009     -1.8271e-005    -2.545e-009    
  -2.55           1.8179e-009     -1.8824e-005    -6.929e-009    
  -2.6            1.4618e-009     -1.9349e-005    -8.95e-009     
  -2.65           1.3616e-009     -1.9842e-005    -1.1342e-008   
  -2.7            2.469e-009      -2.0302e-005    -3.223e-009    
  -2.75           1.6971e-009     -2.0751e-005    -8.08e-009     
  -2.8            1.4336e-009     -2.1177e-005    -9.091e-009    
  -2.85           3.1578e-009     -2.1576e-005    -1.514e-009    
  -2.9            2.2896e-009     -2.1967e-005    -4.091e-009    
  -2.95           1.6075e-009     -2.234e-005     -8.946e-009    
  -3              1.4127e-009     -2.2696e-005    -9.552e-009    
  -3.05           3.0131e-009     -2.3033e-005    -1.681e-009    
  -3.1            2.0985e-009     -2.3367e-005    -4.95e-009     
  -3.15           1.5392e-009     -2.3685e-005    -9.284e-009    
  -3.2            1.3946e-009     -2.3995e-005    -9.83e-009     
  -3.25           2.8403e-009     -2.4282e-005    -2.224e-009    
  -3.3            1.9295e-009     -2.4572e-005    -5.978e-009    
  -3.35           1.492e-009      -2.4852e-005    -9.013e-009    
  -3.4            1.3772e-009     -2.512e-005     -1.0644e-008   
  -3.45           2.6462e-009     -2.5372e-005    -2.693e-009    
  -3.5            1.7977e-009     -2.5628e-005    -7.1e-009      
  -3.55           1.4565e-009     -2.5874e-005    -8.867e-009    
  -3.6            3.2823e-009     -2.6101e-005    -1.132e-009    
  -3.65           2.4451e-009     -2.6334e-005    -3.416e-009    
  -3.7            1.6786e-009     -2.6562e-005    -8.372e-009    
  -3.75           1.432e-009      -2.6785e-005    -9.171e-009    
  -3.8            3.1525e-009     -2.699e-005     -1.431e-009    
  -3.85           2.2555e-009     -2.7195e-005    -4.2e-009      
  -3.9            1.5968e-009     -2.7398e-005    -8.99e-009     
  -3.95           1.4116e-009     -2.7593e-005    -9.576e-009    
  -4              2.9881e-009     -2.7779e-005    -1.814e-009    
  -4.05           2.0767e-009     -2.7964e-005    -5.306e-009    
  -4.1            1.5322e-009     -2.815e-005     -9.176e-009    
  -4.15           1.3918e-009     -2.8331e-005    -9.9e-009      
