! VERSION = 6.00
BEGIN_HEADER
 ICCAP_INPUTS
  VG         V  B GROUND SMU4 0.001 LIN        1    0          -5         101  -0.05     
  VS         V  E GROUND SMU2 0.1 CON        0
  VB         V  C GROUND SMU3 0.1 LIN        3    0          5          3    2.5       
  VD         V  S GROUND SMU1 0.1 LIN        2    -0.1       -5         2    -4.9      
 ICCAP_OUTPUTS
  IG         I  B GROUND SMU4 B
  ID         I  S GROUND SMU1 B
  IB         I  C GROUND SMU3 B
END_HEADER

BEGIN_DB
 ICCAP_VAR VS         0              
 ICCAP_VAR VB         0              
 ICCAP_VAR VD         -0.1           

 #VG              IG              ID              IB             
  0               -8.128e-010     -1.5021e-009    -1.9245e-008   
  -0.05           2.5516e-009     1.6614e-009     -1.0527e-008   
  -0.1            -2.1016e-009    1.003e-010      7.365e-009     
  -0.15           -2.0328e-009    3.213e-010      8.141e-009     
  -0.2            -1.9328e-009    5.429e-010      8.739e-009     
  -0.25           -1.8239e-009    7.533e-010      8.961e-009     
  -0.3            -2.9823e-009    -1.499e-009     4.968e-009     
  -0.35           1.6496e-009     1.27e-011       -1.4743e-008   
  -0.4            1.6173e-009     -1.57e-010      -2.0473e-008   
  -0.45           1.5489e-009     -3.921e-010     -2.4345e-008   
  -0.5            3.5896e-009     -6.096e-010     -2.4401e-008   
  -0.55           1.5567e-009     2.8031e-009     -4.545e-009    
  -0.6            -1.9908e-009    4.246e-010      8.316e-009     
  -0.65           -1.8808e-009    6.397e-010      8.765e-009     
  -0.7            -1.7625e-009    8.294e-010      9.034e-009     
  -0.75           -3.1006e-009    -1.5448e-009    5.096e-009     
  -0.8            1.6388e-009     -3.057e-010     -1.7523e-008   
  -0.85           1.5891e-009     -1.2508e-009    -2.2632e-008   
  -0.9            1.5096e-009     -4.1895e-009    -2.4956e-008   
  -0.95           -2.3753e-009    -1.4933e-008    -1.1842e-008   
  -1              3.2423e-009     -4.6561e-008    -2.4808e-008   
  -1.05           -1.2107e-009    -1.4452e-007    8.625e-009     
  -1.1            3.694e-009      -4.0078e-007    -2.1464e-008   
  -1.15           2.7493e-009     -9.1147e-007    -3.741e-009    
  -1.2            3.6686e-009     -1.7809e-006    8.986e-009     
  -1.25           1.6286e-009     -3.0349e-006    -1.3407e-008   
  -1.3            3.5082e-009     -4.4998e-006    -2.4061e-008   
  -1.35           2.412e-009      -6.0561e-006    -5.595e-009    
  -1.4            1.7064e-009     -7.6142e-006    -1.0985e-008   
  -1.45           1.6557e-009     -9.0899e-006    -1.16e-008     
  -1.5            1.5053e-009     -1.04494e-005   -2.1684e-008   
  -1.55           -5.802e-010     -1.164e-005     -1.0705e-008   
  -1.6            1.6527e-009     -1.2826e-005    -1.2e-008      
  -1.65           3.6673e-009     -1.3861e-005    -2.2554e-008   
  -1.7            2.6747e-009     -1.4819e-005    -4.145e-009    
  -1.75           1.7892e-009     -1.5696e-005    -1.0268e-008   
  -1.8            1.6707e-009     -1.6511e-005    -1.0419e-008   
  -1.85           1.554e-009      -1.7279e-005    -1.9202e-008   
  -1.9            2.3561e-009     -1.7975e-005    -5.835e-009    
  -1.95           1.7018e-009     -1.8631e-005    -1.1228e-008   
  -2              1.6613e-009     -1.9255e-005    -1.2147e-008   
  -2.05           3.6788e-009     -1.9824e-005    -2.2596e-008   
  -2.1            2.6812e-009     -2.0369e-005    -3.994e-009    
  -2.15           1.7958e-009     -2.0882e-005    -1.0451e-008   
  -2.2            1.6822e-009     -2.1373e-005    -1.0599e-008   
  -2.25           1.5705e-009     -2.1835e-005    -1.9377e-008   
  -2.3            2.3627e-009     -2.2272e-005    -5.876e-009    
  -2.35           1.7176e-009     -2.2691e-005    -1.1297e-008   
  -2.4            1.6776e-009     -2.3089e-005    -1.2181e-008   
  -2.45           1.513e-009      -2.347e-005     -2.2542e-008   
  -2.5            2.0831e-009     -2.3835e-005    -8.125e-009    
  -2.55           1.6984e-009     -2.4187e-005    -1.0856e-008   
  -2.6            1.6534e-009     -2.4526e-005    -1.4386e-008   
  -2.65           3.4897e-009     -2.4848e-005    -2.4153e-008   
  -2.7            2.3763e-009     -2.5158e-005    -6.011e-009    
  -2.75           1.7316e-009     -2.546e-005     -1.1309e-008   
  -2.8            1.689e-009      -2.5746e-005    -1.2166e-008   
  -2.85           1.5212e-009     -2.6029e-005    -2.2718e-008   
  -2.9            2.0944e-009     -2.6293e-005    -8.121e-009    
  -2.95           1.7092e-009     -2.6555e-005    -1.0926e-008   
  -3              1.6631e-009     -2.6807e-005    -1.4332e-008   
  -3.05           3.5031e-009     -2.7042e-005    -2.4519e-008   
  -3.1            2.3867e-009     -2.7282e-005    -6.037e-009    
  -3.15           1.7456e-009     -2.7511e-005    -1.1456e-008   
  -3.2            1.6979e-009     -2.7729e-005    -1.2289e-008   
  -3.25           1.5243e-009     -2.7941e-005    -2.2388e-008   
  -3.3            2.1095e-009     -2.8154e-005    -7.709e-009    
  -3.35           1.7179e-009     -2.8357e-005    -1.0767e-008   
  -3.4            1.6669e-009     -2.8555e-005    -1.4764e-008   
  -3.45           3.5308e-009     -2.8744e-005    -2.4464e-008   
  -3.5            2.39e-009       -2.8934e-005    -6.131e-009    
  -3.55           1.7473e-009     -2.9118e-005    -1.1363e-008   
  -3.6            1.7039e-009     -2.9296e-005    -1.1973e-008   
  -3.65           3.7498e-009     -2.9464e-005    -2.2616e-008   
  -3.7            2.7384e-009     -2.9633e-005    -4.268e-009    
  -3.75           1.8413e-009     -2.9804e-005    -1.0144e-008   
  -3.8            1.7229e-009     -2.996e-005     -1.0541e-008   
  -3.85           1.596e-009      -3.0116e-005    -1.977e-008    
  -3.9            2.4058e-009     -3.0268e-005    -5.936e-009    
  -3.95           1.7548e-009     -3.0416e-005    -1.1238e-008   
  -4              1.7046e-009     -3.0567e-005    -1.2157e-008   
  -4.05           1.5278e-009     -3.0708e-005    -2.2604e-008   
  -4.1            2.1301e-009     -3.0844e-005    -7.735e-009    
  -4.15           1.7259e-009     -3.0992e-005    -1.0797e-008   
  -4.2            1.6763e-009     -3.1121e-005    -1.4283e-008   
  -4.25           3.5868e-009     -3.1243e-005    -2.4576e-008   
  -4.3            2.4141e-009     -3.1371e-005    -6.016e-009    
  -4.35           1.7597e-009     -3.1498e-005    -1.1139e-008   
  -4.4            1.7132e-009     -3.1624e-005    -1.2134e-008   
  -4.45           1.5346e-009     -3.1735e-005    -2.2482e-008   
  -4.5            2.1367e-009     -3.1857e-005    -7.574e-009    
  -4.55           1.7328e-009     -3.1973e-005    -1.076e-008    
  -4.6            1.6773e-009     -3.2086e-005    -1.4446e-008   
  -4.65           3.5929e-009     -3.219e-005     -2.4264e-008   
  -4.7            2.4291e-009     -3.2299e-005    -6.148e-009    
  -4.75           1.7609e-009     -3.2414e-005    -1.0929e-008   
  -4.8            1.7107e-009     -3.2522e-005    -1.2016e-008   
  -4.85           1.533e-009      -3.2619e-005    -2.2556e-008   
  -4.9            2.1442e-009     -3.272e-005     -7.699e-009    
  -4.95           1.7328e-009     -3.2818e-005    -1.0905e-008   
  -5              1.6777e-009     -3.2918e-005    -1.4361e-008   
END_DB

BEGIN_DB
 ICCAP_VAR VS         0              
 ICCAP_VAR VB         0              
 ICCAP_VAR VD         -5             

 #VG              IG              ID              IB             
  0               3.3279e-009     1.0753e-009     8.782e-009     
  -0.05           -2.0247e-009    3.495e-010      8.321e-009     
  -0.1            -1.9157e-009    5.721e-010      8.67e-009      
  -0.15           -1.7961e-009    7.707e-010      8.858e-009     
  -0.2            -3.0144e-009    -1.5065e-009    5.061e-009     
  -0.25           1.6595e-009     -4.6e-012       -1.5618e-008   
  -0.3            1.6175e-009     -1.808e-010     -2.0878e-008   
  -0.35           1.5348e-009     -4.163e-010     -2.4956e-008   
  -0.4            3.5806e-009     -6.458e-010     -2.4236e-008   
  -0.45           1.5845e-009     2.8083e-009     -5.09e-009     
  -0.5            -1.9761e-009    4.561e-010      8.531e-009     
  -0.55           -1.8646e-009    6.665e-010      8.626e-009     
  -0.6            -2.8888e-009    -1.5232e-009    5.042e-009     
  -0.65           1.6646e-009     7.3e-011        -1.3183e-008   
  -0.7            1.6462e-009     -1.159e-010     -1.8347e-008   
  -0.75           1.584e-009      -4.67e-010      -2.3678e-008   
  -0.8            1.488e-009      -1.1649e-009    -2.5071e-008   
  -0.85           2.7559e-009     -1.7206e-009    -7.276e-009    
  -0.9            -3.4141e-009    -1.0422e-008    6.96e-009      
  -0.95           1.6504e-009     -3.2716e-008    -1.1581e-008   
  -1              1.2525e-009     -1.0885e-007    -2.0567e-008   
  -1.05           -1.9892e-009    -3.1947e-007    7.314e-009     
  -1.1            -2.8999e-009    -8.3864e-007    8.645e-009     
  -1.15           -2.0081e-009    -1.857e-006     -1.0736e-008   
  -1.2            1.6026e-009     -3.7307e-006    -1.4926e-008   
  -1.25           3.3691e-009     -6.3605e-006    -2.5064e-008   
  -1.3            2.2041e-009     -9.8678e-006    -6.766e-009    
  -1.35           -6.694e-010     -1.4156e-005    -1.0184e-008   
  -1.4            1.6659e-009     -1.9654e-005    -1.0725e-008   
  -1.45           1.5271e-009     -2.587e-005     -2.039e-008    
  -1.5            2.2112e-009     -3.2729e-005    -6.698e-009    
  -1.55           1.6752e-009     -4.0425e-005    -1.1254e-008   
  -1.6            1.6495e-009     -4.891e-005     -1.2625e-008   
  -1.65           3.6103e-009     -5.7926e-005    -2.3547e-008   
  -1.7            2.5314e-009     -6.7478e-005    -5.033e-009    
  -1.75           1.7358e-009     -7.7677e-005    -1.059e-008    
  -1.8            1.6748e-009     -8.8433e-005    -1.0857e-008   
  -1.85           1.5352e-009     -9.9891e-005    -2.0781e-008   
  -1.9            2.2184e-009     -0.000111459    -6.723e-009    
  -1.95           9.78e-011       -0.00012364     -2.2169e-008   
  -2              1.5264e-009     -0.00013612     -2.1236e-008   
  -2.05           2.1454e-009     -0.0001489      -7.152e-009    
  -2.1            1.6869e-009     -0.00016225     -1.0896e-008   
  -2.15           1.6644e-009     -0.00017603     -1.3251e-008   
  -2.2            3.5798e-009     -0.00018992     -2.4258e-008   
  -2.25           2.4611e-009     -0.00020401     -5.509e-009    
  -2.3            1.7351e-009     -0.00021847     -1.085e-008    
  -2.35           1.695e-009      -0.00023331     -1.1183e-008   
  -2.4            1.5347e-009     -0.00024838     -2.1808e-008   
  -2.45           2.1451e-009     -0.00026364     -7.132e-009    
  -2.5            1.7063e-009     -0.00027918     -1.1219e-008   
  -2.55           1.6762e-009     -0.00029516     -1.3054e-008   
  -2.6            3.6129e-009     -0.00031103     -2.4409e-008   
  -2.65           2.4604e-009     -0.00032697     -5.398e-009    
  -2.7            1.7536e-009     -0.00034324     -1.0954e-008   
  -2.75           1.7106e-009     -0.00035995     -1.123e-008    
  -2.8            1.5463e-009     -0.00037672     -2.1802e-008   
  -2.85           2.1664e-009     -0.00039334     -6.977e-009    
  -2.9            1.7211e-009     -0.0004103      -1.0857e-008   
  -2.95           1.6911e-009     -0.0004276      -1.3217e-008   
  -3              3.627e-009      -0.00044475     -2.4226e-008   
  -3.05           2.5021e-009     -0.00046192     -5.19e-009     
  -3.1            1.771e-009      -0.00047924     -1.0505e-008   
  -3.15           1.7209e-009     -0.00049693     -1.1391e-008   
  -3.2            1.5537e-009     -0.00051451     -2.1554e-008   
  -3.25           2.1906e-009     -0.00053207     -6.919e-009    
  -3.3            1.7294e-009     -0.00054994     -1.0958e-008   
  -3.35           1.6991e-009     -0.00056779     -1.321e-008    
  -3.4            3.6605e-009     -0.00058543     -2.4221e-008   
  -3.45           2.5337e-009     -0.00060306     -5.09e-009     
  -3.5            1.7817e-009     -0.00062082     -1.0565e-008   
  -3.55           1.727e-009      -0.00063883     -1.1079e-008   
  -3.6            1.5643e-009     -0.00065664     -2.1321e-008   
  -3.65           2.2238e-009     -0.00067438     -6.748e-009    
  -3.7            1.7371e-009     -0.00069224     -1.0915e-008   
  -3.75           1.7049e-009     -0.00071008     -1.3034e-008   
  -3.8            3.7047e-009     -0.00072806     -2.4055e-008   
  -3.85           2.5728e-009     -0.00074507     -5.099e-009    
  -3.9            1.7917e-009     -0.00076195     -1.0712e-008   
  -3.95           1.7344e-009     -0.00077888     -1.1016e-008   
  -4              1.5699e-009     -0.00079533     -2.1227e-008   
  -4.05           2.2693e-009     -0.00081137     -6.797e-009    
  -4.1            1.7424e-009     -0.0008269      -1.1025e-008   
  -4.15           1.7096e-009     -0.00084247     -1.2902e-008   
  -4.2            1.5061e-009     -0.00085718     -2.3811e-008   
  -4.25           2.0325e-009     -0.00087152     -8.53e-009     
  -4.3            1.7297e-009     -0.00088513     -1.0409e-008   
  -4.35           1.6703e-009     -0.00089881     -1.5048e-008   
  -4.4            3.5144e-009     -0.00091153     -2.5091e-008   
  -4.45           2.3242e-009     -0.00092389     -6.817e-009    
  -4.5            1.7432e-009     -0.00093586     -1.0995e-008   
  -4.55           1.7095e-009     -0.00094729     -1.2501e-008   
  -4.6            3.7717e-009     -0.0009582      -2.3313e-008   
  -4.65           2.672e-009      -0.00096855     -4.586e-009    
  -4.7            1.8181e-009     -0.00097867     -1.0634e-008   
  -4.75           1.7308e-009     -0.00098852     -1.0597e-008   
  -4.8            1.5903e-009     -0.00099784     -2.0213e-008   
  -4.85           2.3536e-009     -0.00100707     -6.411e-009    
  -4.9            1.7472e-009     -0.00101558     -1.1031e-008   
  -4.95           1.7108e-009     -0.001024       -1.2358e-008   
  -5              3.8034e-009     -0.00103205     -2.3265e-008   
END_DB

BEGIN_DB
 ICCAP_VAR VS         0              
 ICCAP_VAR VB         2.5            
 ICCAP_VAR VD         -0.1           

 #VG              IG              ID              IB             
  0               -8.15e-011      2.025e-010      -1.0217e-008   
  -0.05           1.8701e-009     2.5676e-009     -7.36e-009     
  -0.1            -1.8881e-009    6.73e-010       8.134e-009     
  -0.15           -2.9068e-009    -1.5318e-009    4.801e-009     
  -0.2            1.7355e-009     7.48e-011       -1.4349e-008   
  -0.25           1.7022e-009     -1.087e-010     -1.957e-008    
  -0.3            1.6246e-009     -3.149e-010     -2.3401e-008   
  -0.35           1.5267e-009     -5.336e-010     -2.4147e-008   
  -0.4            1.809e-009      2.6444e-009     -6.85e-009     
  -0.45           -1.9311e-009    6.192e-010      8.136e-009     
  -0.5            -2.8486e-009    -1.5405e-009    4.765e-009     
  -0.55           1.7497e-009     1.243e-010      -1.2985e-008   
  -0.6            1.7279e-009     -5.72e-011      -1.8069e-008   
  -0.65           1.657e-009      -2.588e-010     -2.2444e-008   
  -0.7            1.5583e-009     -4.747e-010     -2.4368e-008   
  -0.75           1.7409e-009     2.721e-009      -6.469e-009    
  -0.8            -1.9764e-009    5.59e-010       8.114e-009     
  -0.85           -2.7844e-009    -1.5423e-009    4.78e-009      
  -0.9            1.7545e-009     1.693e-010      -1.1949e-008   
  -0.95           1.7421e-009     -4.5e-012       -1.6581e-008   
  -1              1.6857e-009     -1.886e-010     -2.1443e-008   
  -1.05           1.5951e-009     -4.115e-010     -2.4362e-008   
  -1.1            1.6814e-009     2.7884e-009     -5.407e-009    
  -1.15           -2.0331e-009    5.019e-010      8.107e-009     
  -1.2            -1.9273e-009    6.969e-010      8.22e-009      
  -1.25           -2.963e-009     -1.526e-009     4.734e-009     
  -1.3            1.7547e-009     3.74e-011       -1.5121e-008   
  -1.35           1.7102e-009     -1.724e-010     -2.0395e-008   
  -1.4            1.6259e-009     -5.388e-010     -2.4071e-008   
  -1.45           1.5191e-009     -1.4619e-009    -2.3794e-008   
  -1.5            2.7126e-009     -3.4341e-009    -7.168e-009    
  -1.55           -2.1773e-009    -1.9416e-008    -1.0308e-008   
  -1.6            1.5479e-009     -6.8511e-008    -2.1673e-008   
  -1.65           2.551e-010      -2.2873e-007    4.845e-009     
  -1.7            1.6256e-009     -6.0562e-007    -1.8135e-008   
  -1.75           3.1828e-009     -1.3176e-006    7.581e-009     
  -1.8            -1.9022e-009    -2.4035e-006    8.124e-009     
  -1.85           -2.3291e-009    -3.8263e-006    4.714e-009     
  -1.9            1.6264e-009     -5.4089e-006    -1.7785e-008   
  -1.95           3.3247e-009     -6.9032e-006    -2.3744e-008   
  -2              2.1393e-009     -8.3051e-006    -7.411e-009    
  -2.05           1.7678e-009     -9.5832e-006    -1.0781e-008   
  -2.1            1.7001e-009     -1.07405e-005   -1.456e-008    
  -2.15           -3.697e-010     -1.1736e-005    -1.345e-008    
  -2.2            -2.1643e-009    -1.2697e-005    7.225e-009     
  -2.25           -1.918e-009     -1.353e-005     8.139e-009     
  -2.3            -2.3348e-009    -1.4329e-005    4.769e-009     
  -2.35           1.6395e-009     -1.5077e-005    -1.7821e-008   
  -2.4            3.3546e-009     -1.574e-005     -2.4154e-008   
  -2.45           2.1447e-009     -1.6359e-005    -7.163e-009    
  -2.5            1.7665e-009     -1.695e-005     -1.0669e-008   
  -2.55           1.7091e-009     -1.7493e-005    -1.3962e-008   
  -2.6            3.7272e-009     -1.8001e-005    -2.4541e-008   
  -2.65           2.5019e-009     -1.8478e-005    -5.415e-009    
  -2.7            1.8021e-009     -1.8937e-005    -1.0313e-008   
  -2.75           1.747e-009      -1.9368e-005    -1.1054e-008   
  -2.8            1.5595e-009     -1.9776e-005    -2.2003e-008   
  -2.85           2.2183e-009     -2.017e-005     -6.973e-009    
  -2.9            1.7552e-009     -2.0538e-005    -1.0736e-008   
  -2.95           1.7213e-009     -2.09e-005      -1.2994e-008   
  -3              3.8105e-009     -2.123e-005     -2.4698e-008   
  -3.05           2.617e-009      -2.1558e-005    -4.952e-009    
  -3.1            1.8076e-009     -2.1874e-005    -1.0415e-008   
  -3.15           1.7435e-009     -2.2173e-005    -1.0662e-008   
  -3.2            1.5861e-009     -2.2464e-005    -2.0987e-008   
  -3.25           2.3361e-009     -2.2744e-005    -6.64e-009     
  -3.3            1.7547e-009     -2.3013e-005    -1.0758e-008   
  -3.35           1.7206e-009     -2.3272e-005    -1.2389e-008   
  -3.4            1.5178e-009     -2.3517e-005    -2.3501e-008   
  -3.45           2.0895e-009     -2.3762e-005    -7.986e-009    
  -3.5            1.7381e-009     -2.3996e-005    -1.0511e-008   
  -3.55           1.6852e-009     -2.4226e-005    -1.4625e-008   
  -3.6            3.635e-009      -2.4445e-005    -2.4846e-008   
  -3.65           2.4211e-009     -2.4663e-005    -6.207e-009    
  -3.7            1.7718e-009     -2.4872e-005    -1.1127e-008   
  -3.75           1.7216e-009     -2.5075e-005    -1.2037e-008   
  -3.8            1.5421e-009     -2.5261e-005    -2.2511e-008   
  -3.85           2.1584e-009     -2.5454e-005    -7.606e-009    
  -3.9            1.7398e-009     -2.5639e-005    -1.0916e-008   
  -3.95           1.6918e-009     -2.5819e-005    -1.3793e-008   
  -4              3.6741e-009     -2.599e-005     -2.4472e-008   
  -4.05           2.4987e-009     -2.6161e-005    -6.038e-009    
  -4.1            1.778e-009      -2.6331e-005    -1.1158e-008   
  -4.15           1.7227e-009     -2.6494e-005    -1.1729e-008   
