! VERSION = 6.00
BEGIN_HEADER
 ICCAP_INPUTS
  VG         V  B GROUND SMU4 0.001 LIN        1    0          -5         101  -0.05     
  VS         V  E GROUND SMU2 0.1 CON        0
  VB         V  C GROUND SMU3 0.1 LIN        3    0          5          3    2.5       
  VD         V  S GROUND SMU1 0.1 LIN        2    -0.1       -5         2    -4.9      
 ICCAP_OUTPUTS
  IG         I  B GROUND SMU4 B
  ID         I  S GROUND SMU1 B
  IB         I  C GROUND SMU3 B
END_HEADER

BEGIN_DB
 ICCAP_VAR VS         0              
 ICCAP_VAR VB         0              
 ICCAP_VAR VD         -0.1           

 #VG              IG              ID              IB             
  0               9.931e-010      9.406e-010      1.3382e-008    
  -0.05           -1.9899e-009    6.566e-010      1.7296e-008    
  -0.1            -1.4225e-009    -1.832e-009     4.496e-009     
  -0.15           2.3851e-009     -6.026e-010     -1.7295e-008   
  -0.2            3.185e-010      2.1075e-009     -4.246e-009    
  -0.25           4.905e-010      2.1652e-009     1.0295e-008    
  -0.3            -2.1702e-009    5.56e-010       1.667e-008     
  -0.35           -1.3089e-009    -1.9364e-009    3.318e-009     
  -0.4            2.521e-009      -4.8e-010       -1.6899e-008   
  -0.45           4.427e-010      2.1533e-009     1.0395e-008    
  -0.5            -2.2283e-009    5.242e-010      1.6163e-008    
  -0.55           -1.2676e-009    -1.9684e-009    3.106e-009     
  -0.6            2.5598e-009     -4.513e-010     -1.6646e-008   
  -0.65           -1.6322e-009    1.5602e-009     1.4343e-008    
  -0.7            -1.6409e-009    -1.709e-009     5.498e-009     
  -0.75           2.2146e-009     -2.06e-009      -1.9593e-008   
  -0.8            1.9031e-009     -1.8026e-009    -5.898e-009    
  -0.85           1.592e-009      -9.3576e-009    -7.673e-009    
  -0.9            -2.5795e-009    -3.4822e-008    -1.7663e-008   
  -0.95           -2.0726e-009    -1.1494e-007    2.0182e-008    
  -1              2.1288e-009     -3.5864e-007    -1.7017e-008   
  -1.05           2.4815e-009     -8.7981e-007    -6.324e-009    
  -1.1            1.024e-009      -1.7668e-006    4.196e-009     
  -1.15           -2.3252e-009    -3.316e-006     1.3166e-008    
  -1.2            -1.7333e-009    -5.2178e-006    2.303e-009     
  -1.25           -2.5464e-009    -7.461e-006     5.044e-009     
  -1.3            -7.463e-010     -9.5921e-006    -1.0805e-008   
  -1.35           2.6921e-009     -1.2011e-005    -1.0168e-008   
  -1.4            1.9948e-009     -1.4148e-005    8.545e-009     
  -1.45           -2.2277e-009    -1.6311e-005    1.4291e-008    
  -1.5            2.6006e-009     -1.8387e-005    -1.2348e-008   
  -1.55           5.964e-010      -2.0129e-005    1.0455e-008    
  -1.6            -1.6358e-009    -2.1975e-005    2.2278e-008    
  -1.65           -2.5717e-009    -2.3858e-005    5.395e-009     
  -1.7            -8.097e-010     -2.539e-005     -1.0775e-008   
  -1.75           2.6886e-009     -2.7019e-005    -1.4754e-008   
  -1.8            -1.7115e-009    -2.8533e-005    2.3824e-008    
  -1.85           -2.559e-009     -3.011e-005     5.098e-009     
  -1.9            -7.679e-010     -3.1452e-005    -1.084e-008    
  -1.95           1.5796e-009     -3.2877e-005    -1.6074e-008   
  -2              2.6384e-009     -3.4282e-005    -8.862e-009    
  -2.05           -2.2543e-009    -3.5552e-005    1.395e-008     
  -2.1            -1.632e-009     -3.6806e-005    2.806e-009     
  -2.15           -2.5687e-009    -3.7997e-005    5.508e-009     
  -2.2            -8.12e-010      -3.9079e-005    -1.0807e-008   
  -2.25           2.6925e-009     -4.0227e-005    -1.4855e-008   
  -2.3            -1.5333e-009    -4.1386e-005    1.7575e-008    
  -2.35           -2.5835e-009    -4.2455e-005    6.071e-009     
  -2.4            2.4623e-009     -4.3474e-005    -1.5351e-008   
  -2.45           7.351e-010      -4.4374e-005    1.0227e-008    
  -2.5            -1.4432e-009    -4.5334e-005    1.692e-008     
  -2.55           -2.5877e-009    -4.6355e-005    6.986e-009     
  -2.6            2.3598e-009     -4.7314e-005    -1.6132e-008   
  -2.65           1.6323e-009     -4.8176e-005    -4.352e-009    
  -2.7            2.6183e-009     -4.9094e-005    -8.834e-009    
  -2.75           -2.3019e-009    -4.9951e-005    1.3575e-008    
  -2.8            -1.6936e-009    -5.0803e-005    2.314e-009     
  -2.85           -2.5573e-009    -5.1631e-005    5.319e-009     
  -2.9            -7.654e-010     -5.2325e-005    -1.08e-008     
  -2.95           1.5763e-009     -5.3118e-005    -1.6245e-008   
  -3              2.6373e-009     -5.394e-005     -8.856e-009    
  -3.05           -2.2545e-009    -5.4648e-005    1.3744e-008    
  -3.1            -1.6359e-009    -5.5411e-005    2.854e-009     
  -3.15           -2.5703e-009    -5.6095e-005    5.359e-009     
  -3.2            2.5485e-009     -5.6823e-005    -1.3745e-008   
  -3.25           2.4506e-009     -5.7461e-005    7.452e-009     
  -3.3            -1.5433e-009    -5.8084e-005    2.0049e-008    
  -3.35           -2.5835e-009    -5.8823e-005    6.054e-009     
  -3.4            2.4666e-009     -5.9485e-005    -1.5092e-008   
  -3.45           7.319e-010      -6.0015e-005    1.0335e-008    
  -3.5            -1.4519e-009    -6.0625e-005    1.7502e-008    
  -3.55           -2.5895e-009    -6.1305e-005    6.772e-009     
  -3.6            2.3774e-009     -6.1892e-005    -1.6092e-008   
  -3.65           1.6407e-009     -6.2487e-005    -4.234e-009    
  -3.7            2.6174e-009     -6.3043e-005    -8.811e-009    
  -3.75           -2.3122e-009    -6.3604e-005    1.3461e-008    
  -3.8            -1.7123e-009    -6.4156e-005    2.216e-009     
  -3.85           -2.5518e-009    -6.47e-005      5.279e-009     
  -3.9            -7.537e-010     -6.5144e-005    -1.0979e-008   
  -3.95           -1.1019e-009    -6.5676e-005    -8.63e-009     
  -4              2.5092e-009     -6.6246e-005    -1.4384e-008   
  -4.05           -2.4701e-009    -6.6739e-005    1.1824e-008    
  -4.1            -2.0228e-009    -6.7236e-005    1.59e-009      
  -4.15           -1.4328e-009    -6.7717e-005    4.12e-009      
  -4.2            -2.5905e-009    -6.8181e-005    6.844e-009     
  -4.25           2.3664e-009     -6.8621e-005    -1.6099e-008   
  -4.3            1.6365e-009     -6.9085e-005    -4.388e-009    
  -4.35           2.6182e-009     -6.9539e-005    -8.797e-009    
  -4.4            -2.3021e-009    -6.9964e-005    1.3404e-008    
  -4.45           2.38e-010       -7.0328e-005    -1.0979e-008   
  -4.5            2.6951e-009     -7.0809e-005    -1.8601e-008   
  -4.55           -1.7398e-009    -7.1164e-005    2.4396e-008    
  -4.6            -2.5478e-009    -7.1644e-005    5.143e-009     
  -4.65           2.655e-009      -7.1999e-005    -1.1866e-008   
  -4.7            -1.5256e-009    -7.2388e-005    1.9268e-008    
  -4.75           -2.5827e-009    -7.2822e-005    6.289e-009     
  -4.8            2.4509e-009     -7.3216e-005    -1.5318e-008   
  -4.85           -2.4376e-009    -7.3593e-005    1.2074e-008    
  -4.9            -1.9489e-009    -7.3964e-005    1.598e-009     
  -4.95           -1.3844e-009    -7.4322e-005    4.611e-009     
  -5              -2.5889e-009    -7.4679e-005    7.426e-009     
END_DB

BEGIN_DB
 ICCAP_VAR VS         0              
 ICCAP_VAR VB         0              
 ICCAP_VAR VD         -5             

 #VG              IG              ID              IB             
  0               1.1346e-009     9.865e-010      -9.23e-009     
  -0.05           4.986e-010      2.1658e-009     1.0327e-008    
  -0.1            -2.1513e-009    5.617e-010      1.6607e-008    
  -0.15           -1.3173e-009    -1.9282e-009    3.509e-009     
  -0.2            2.6118e-009     -1.2254e-009    -2.4227e-008   
  -0.25           -1.7405e-009    1.5559e-009     1.6194e-008    
  -0.3            -7.045e-010     -2.1235e-009    5.243e-009     
  -0.35           2.1327e-009     -1.5058e-009    -1.8072e-008   
  -0.4            4.798e-010      2.1609e-009     -6.4e-009      
  -0.45           -2.1775e-009    5.465e-010      1.66e-008      
  -0.5            -1.3005e-009    -1.9391e-009    3.315e-009     
  -0.55           2.6236e-009     -1.2198e-009    -2.4221e-008   
  -0.6            -1.7688e-009    1.5194e-009     1.6864e-008    
  -0.65           -1.5601e-009    -1.7545e-009    5.01e-009      
  -0.7            2.1555e-009     -1.0736e-009    -1.7822e-008   
  -0.75           1.8358e-009     -7.793e-010     -6.194e-009    
  -0.8            1.5461e-009     -4.6017e-009    -7.917e-009    
  -0.85           -2.5877e-009    -1.9154e-008    -1.765e-008    
  -0.9            2.4616e-009     -7.0386e-008    -1.528e-008    
  -0.95           2.3212e-009     -2.0398e-007    -1.2103e-008   
  -1              -1.6449e-009    -6.1606e-007    1.7147e-008    
  -1.05           2.3556e-009     -1.3889e-006    1.6235e-008    
  -1.1            -1.7526e-009    -2.7533e-006    2.466e-008     
  -1.15           -2.5451e-009    -5.0146e-006    5.245e-009     
  -1.2            2.6569e-009     -7.8793e-006    -1.2045e-008   
  -1.25           -1.4395e-009    -1.1895e-005    9.074e-009     
  -1.3            -2.5888e-009    -1.6788e-005    6.815e-009     
  -1.35           2.3865e-009     -2.2629e-005    -1.5952e-008   
  -1.4            1.6581e-009     -2.9074e-005    -4.209e-009    
  -1.45           2.6115e-009     -3.6624e-005    -8.66e-009     
  -1.5            -2.3257e-009    -4.4881e-005    1.3043e-008    
  -1.55           -1.7272e-009    -5.4023e-005    2.215e-009     
  -1.6            -2.5491e-009    -6.4129e-005    5.226e-009     
  -1.65           -7.345e-010     -7.4281e-005    -1.1017e-008   
  -1.7            1.6333e-009     -8.6348e-005    -1.7075e-008   
  -1.75           2.6273e-009     -9.9567e-005    -8.836e-009    
  -1.8            -2.2921e-009    -0.000112647    1.3488e-008    
  -1.85           2.6047e-009     -0.00012665     -5.203e-009    
  -1.9            -1.4067e-009    -0.00014054     1.6113e-008    
  -1.95           -2.5916e-009    -0.0001569      7.157e-009     
  -2              2.3278e-009     -0.00017311     -1.6382e-008   
  -2.05           1.5853e-009     -0.0001898      -4.76e-009     
  -2.1            2.6296e-009     -0.00020724     -8.897e-009    
  -2.15           -2.2771e-009    -0.00022494     1.3695e-008    
  -2.2            -1.6689e-009    -0.00024332     2.466e-009     
  -2.25           -2.5641e-009    -0.0002628      5.331e-009     
  -2.3            -7.856e-010     -0.0002812      -1.0887e-008   
  -2.35           2.6947e-009     -0.00030195     -1.5685e-008   
  -2.4            -1.5806e-009    -0.00032378     1.7464e-008    
  -2.45           -2.58e-009      -0.00034536     5.79e-009      
  -2.5            -8.463e-010     -0.00036581     -1.0689e-008   
  -2.55           2.6872e-009     -0.00038841     -1.3858e-008   
  -2.6            -1.6615e-009    -0.00041138     2.2792e-008    
  -2.65           -2.5678e-009    -0.00043621     5.407e-009     
  -2.7            -7.977e-010     -0.00045836     -1.0848e-008   
  -2.75           2.6965e-009     -0.00048328     -1.5238e-008   
  -2.8            -1.7513e-009    -0.00050797     2.4403e-008    
  -2.85           -2.5487e-009    -0.0005342      5.114e-009     
  -2.9            -7.432e-010     -0.00055849     -1.0897e-008   
  -2.95           1.6216e-009     -0.00058485     -1.6888e-008   
  -3              2.6251e-009     -0.00061389     -8.89e-009     
  -3.05           -2.2816e-009    -0.00064055     1.3533e-008    
  -3.1            -1.6762e-009    -0.00066736     2.509e-009     
  -3.15           -2.5595e-009    -0.00069495     5.331e-009     
  -3.2            -7.762e-010     -0.00072137     -1.0915e-008   
  -3.25           1.5609e-009     -0.00075016     -1.5964e-008   
  -3.3            2.6339e-009     -0.00078108     -8.761e-009    
  -3.35           -2.2566e-009    -0.00080957     1.3962e-008    
  -3.4            -1.638e-009     -0.00083908     2.762e-009     
  -3.45           -2.5664e-009    -0.00086842     5.434e-009     
  -3.5            2.267e-010      -0.00089733     -1.0779e-008   
  -3.55           2.692e-009      -0.00092937     -1.8692e-008   
  -3.6            -1.7332e-009    -0.00095771     2.4263e-008    
  -3.65           -2.5501e-009    -0.00099059     5.188e-009     
  -3.7            -7.492e-010     -0.00101985     -1.0889e-008   
  -3.75           1.6097e-009     -0.00105194     -1.6812e-008   
  -3.8            2.6297e-009     -0.0010855      -8.908e-009    
  -3.85           -2.2817e-009    -0.00111708     1.3406e-008    
  -3.9            1.987e-009      -0.0011501      1.4195e-008    
  -3.95           2.526e-009      -0.001182       -7.348e-009    
  -4              6.133e-010      -0.0012127      1.0447e-008    
  -4.05           -1.6246e-009    -0.0012462      2.1696e-008    
  -4.1            -2.5755e-009    -0.0012816      5.417e-009     
  -4.15           -8.222e-010     -0.0013128      -1.0767e-008   
  -4.2            2.6872e-009     -0.0013473      -1.4577e-008   
  -4.25           -1.699e-009     -0.0013805      2.3518e-008    
  -4.3            -2.5583e-009    -0.0014168      5.404e-009     
  -4.35           -7.775e-010     -0.0014497      -1.0834e-008   
  -4.4            1.5732e-009     -0.0014845      -1.5969e-008   
  -4.45           2.6352e-009     -0.0015207      -8.798e-009    
  -4.5            -2.2543e-009    -0.0015547      1.3901e-008    
  -4.55           -1.6441e-009    -0.00159        2.59e-009      
  -4.6            -2.5692e-009    -0.0016249      5.437e-009     
  -4.65           -8.057e-010     -0.001658       -1.0821e-008   
  -4.7            2.6914e-009     -0.0016934      -1.5135e-008   
  -4.75           -1.7374e-009    -0.0017283      2.4179e-008    
  -4.8            -2.5522e-009    -0.0017656      5.274e-009     
  -4.85           -7.513e-010     -0.0017991      -1.1003e-008   
  -4.9            -1.0945e-009    -0.0018343      -8.708e-009    
  -4.95           2.5193e-009     -0.0018722      -1.4079e-008   
  -5              -2.4757e-009    -0.0019044      1.3074e-008    
END_DB

BEGIN_DB
 ICCAP_VAR VS         0              
 ICCAP_VAR VB         2.5            
 ICCAP_VAR VD         -0.1           

 #VG              IG              ID              IB             
  0               8.746e-010      8.265e-010      1.6772e-008    
  -0.05           -1.594e-009     1.6218e-009     1.3595e-008    
  -0.1            -7.984e-010     -2.1132e-009    5.715e-009     
  -0.15           1.9836e-009     -1.5488e-009    -1.5339e-008   
  -0.2            5.693e-010      2.174e-009      -7.43e-009     
  -0.25           -2.0656e-009    1.4062e-009     2.3486e-008    
  -0.3            -1.3752e-009    -1.8759e-009    4.136e-009     
  -0.35           2.4472e-009     -5.424e-010     -1.7233e-008   
  -0.4            5.077e-010      2.1685e-009     1.029e-008     
  -0.45           -2.1573e-009    5.673e-010      1.6818e-008    
  -0.5            -1.321e-009     -1.922e-009     3.375e-009     
  -0.55           2.5148e-009     -4.885e-010     -1.6824e-008   
  -0.6            4.439e-010      2.152e-009      1.041e-008     
  -0.65           -2.2289e-009    5.23e-010       1.6225e-008    
  -0.7            -1.2632e-009    -1.9684e-009    3.08e-009      
  -0.75           1.522e-010      -1.8206e-009    -9.136e-009    
  -0.8            1.5591e-009     -9.447e-010     -2.0193e-008   
  -0.85           7.823e-010      2.1964e-009     -8.755e-009    
  -0.9            -1.7181e-009    1.5681e-009     1.576e-008     
  -0.95           -7.231e-010     -2.1208e-009    5.212e-009     
  -1              2.1212e-009     -1.5125e-009    -1.7787e-008   
  -1.05           4.869e-010      2.1603e-009     -6.498e-009    
  -1.1            -2.175e-009     5.529e-010      1.6625e-008    
  -1.15           -1.3024e-009    -1.9373e-009    3.224e-009     
  -1.2            2.6237e-009     -1.2136e-009    -2.4263e-008   
  -1.25           -1.7748e-009    1.5315e-009     1.7147e-008    
  -1.3            -1.5572e-009    -1.6998e-009    5.289e-009     
  -1.35           2.3719e-009     -1.5075e-009    -2.2164e-008   
  -1.4            3.128e-010      1.6318e-009     -4.36e-009     
  -1.45           -2.3508e-009    -3.0648e-009    1.5266e-008    
  -1.5            -1.7657e-009    -1.3318e-008    -8.725e-009    
  -1.55           2.6889e-009     -5.0912e-008    -1.4739e-008   
  -1.6            -4.713e-010     -1.8396e-007    1.1516e-008    
  -1.65           -8.822e-010     -5.6245e-007    -1.0416e-008   
  -1.7            2.6498e-009     -1.4269e-006    7.732e-009     
  -1.75           -1.5047e-009    -2.6728e-006    1.9034e-008    
  -1.8            -2.586e-009     -4.4686e-006    6.372e-009     
  -1.85           -8.866e-010     -6.4476e-006    -1.0776e-008   
  -1.9            2.6731e-009     -8.577e-006     -1.2787e-008   
  -1.95           -1.588e-009     -1.05647e-005   2.1263e-008    
  -2              1.7379e-009     -1.253e-005     5.961e-009     
  -2.05           2.5969e-009     -1.4402e-005    -8.56e-009     
  -2.1            -2.3586e-009    -1.6094e-005    1.2728e-008    
  -2.15           -1.7879e-009    -1.7736e-005    1.944e-009     
  -2.2            -1.3045e-009    -1.9285e-005    5.118e-009     
  -2.25           -2.5853e-009    -2.0779e-005    8.089e-009     
  -2.3            2.3365e-009     -2.2207e-005    -2.42e-008     
  -2.35           1.6032e-009     -2.3593e-005    -4.762e-009    
  -2.4            2.6218e-009     -2.4927e-005    -8.814e-009    
  -2.45           -2.2953e-009    -2.6172e-005    1.3327e-008    
  -2.5            -1.6913e-009    -2.742e-005     2.445e-009     
  -2.55           -2.5626e-009    -2.8608e-005    5.317e-009     
  -2.6            2.6469e-009     -2.9742e-005    -1.1593e-008   
  -2.65           -1.5072e-009    -3.0832e-005    1.9026e-008    
  -2.7            -2.5883e-009    -3.1971e-005    6.385e-009     
  -2.75           2.4459e-009     -3.3029e-005    -1.5446e-008   
  -2.8            -2.4326e-009    -3.4034e-005    1.2053e-008    
  -2.85           -1.9415e-009    -3.5036e-005    1.535e-009     
  -2.9            -1.3822e-009    -3.6012e-005    4.617e-009     
  -2.95           -2.5918e-009    -3.6938e-005    7.388e-009     
  -3              -9.723e-010     -3.7826e-005    -9.961e-009    
  -3.05           2.271e-010      -3.8736e-005    -1.078e-008    
  -3.1            2.6922e-009     -3.9626e-005    -1.8744e-008   
  -3.15           -1.5485e-009    -4.0464e-005    1.7464e-008    
  -3.2            -2.5808e-009    -4.1302e-005    6.015e-009     
  -3.25           2.4862e-009     -4.2122e-005    -1.4722e-008   
  -3.3            2.4809e-009     -4.2905e-005    7.064e-009     
  -3.35           -1.4741e-009    -4.364e-005     1.8184e-008    
  -3.4            -2.5909e-009    -4.4428e-005    6.631e-009     
  -3.45           2.4152e-009     -4.5191e-005    -1.5859e-008   
  -3.5            1.7048e-009     -4.5912e-005    -3.936e-009    
  -3.55           2.5958e-009     -4.6644e-005    -8.618e-009    
  -3.6            -2.3506e-009    -4.7289e-005    1.3005e-008    
  -3.65           -1.774e-009     -4.7984e-005    2.06e-009      
  -3.7            -1.301e-009     -4.8646e-005    5.218e-009     
  -3.75           -2.5831e-009    -4.929e-005     7.993e-009     
  -3.8            -1.0533e-009    -4.9887e-005    -9.137e-009    
  -3.85           2.5641e-009     -5.0546e-005    -1.3282e-008   
  -3.9            -1.3494e-009    -5.1134e-005    1.4447e-008    
  -3.95           -2.5881e-009    -5.1752e-005    7.698e-009     
  -4              2.248e-009      -5.2331e-005    -1.6746e-008   
  -4.05           1.4929e-009     -5.2901e-005    -5.394e-009    
  -4.1            2.6438e-009     -5.3481e-005    -8.625e-009    
  -4.15           -2.2248e-009    -5.402e-005     1.4228e-008    
