! VERSION = 6.00
BEGIN_HEADER
 ICCAP_INPUTS
  VG         V  B GROUND SMU4 0.001 LIN        2    0          -5         6    -1        
  VS         V  E GROUND SMU2 0.1 CON        0
  VD         V  S GROUND SMU1 0.1 LIN        1    0          -5         101  -0.05     
  VB         V  C GROUND SMU3 0.1 LIN        3    0          2.5        2    2.5       
 ICCAP_OUTPUTS
  ID         I  S GROUND SMU1 B
  IB         I  C GROUND SMU3 B
  IG         I  B GROUND SMU4 B
END_HEADER

BEGIN_DB
 ICCAP_VAR VG         0              
 ICCAP_VAR VS         0              
 ICCAP_VAR VB         0              

 #VD              ID              IB              IG             
  0               1.1088e-009     1.163e-008      1.3327e-009    
  -0.05           -1.8919e-009    1.4192e-008     -1.3876e-009   
  -0.1            -7.448e-010     -1.7624e-008    2.6022e-009    
  -0.15           2.0632e-009     -6.185e-009     1.789e-010     
  -0.2            3.692e-010      1.7877e-008     -2.2177e-009   
  -0.25           -2.1026e-009    7.402e-009      -1.1995e-009   
  -0.3            -5.312e-010     -1.6353e-008    2.8592e-009    
  -0.35           1.9185e-009     -3.739e-009     -4.96e-011     
  -0.4            1.764e-010      1.5777e-008     -1.3221e-009   
  -0.45           3.386e-010      1.7406e-008     -2.2561e-009   
  -0.5            -2.1341e-009    7.715e-009      -1.1722e-009   
  -0.55           -4.99e-010      -1.63e-008      2.8753e-009    
  -0.6            1.9033e-009     -3.525e-009     -8.64e-011     
  -0.65           1.507e-010      1.576e-008      -1.3229e-009   
  -0.7            3.041e-010      1.7419e-008     -1.2815e-009   
  -0.75           4.603e-010      1.9262e-008     -2.0467e-009   
  -0.8            -2.0028e-009    8.141e-009      -1.3051e-009   
  -0.85           -6.55e-010      -1.7015e-008    2.6788e-009    
  -0.9            1.9977e-009     -4.987e-009     6.75e-011      
  -0.95           2.699e-010      1.7218e-008     -1.3109e-009   
  -1              4.318e-010      1.8852e-008     -2.1059e-009   
  -1.05           -2.032e-009     7.861e-009      -1.2766e-009   
  -1.1            -6.156e-010     -1.6807e-008    2.7193e-009    
  -1.15           1.9765e-009     -4.527e-009     5.73e-011      
  -1.2            2.535e-010      1.614e-008      -1.3301e-009   
  -1.25           4.076e-010      1.8339e-008     -2.1461e-009   
  -1.3            -2.0649e-009    7.554e-009      -1.2464e-009   
  -1.35           -5.857e-010     -1.6552e-008    2.7752e-009    
  -1.4            1.9452e-009     -4.247e-009     1.9e-012       
  -1.45           2.196e-010      1.6295e-008     -1.3042e-009   
  -1.5            3.805e-010      1.8251e-008     -2.1809e-009   
  -1.55           -2.0893e-009    7.495e-009      -1.2219e-009   
  -1.6            -5.563e-010     -1.6387e-008    2.8064e-009    
  -1.65           1.9229e-009     -3.886e-009     -2.9e-011      
  -1.7            1.904e-010      1.6369e-008     -1.3349e-009   
  -1.75           3.516e-010      1.7357e-008     -2.2229e-009   
  -1.8            -2.1212e-009    7.678e-009      -1.1927e-009   
  -1.85           -5.285e-010     -1.6341e-008    2.8326e-009    
  -1.9            1.926e-009      -3.519e-009     -5.7e-011      
  -1.95           1.694e-010      1.5861e-008     -1.2984e-009   
  -2              3.305e-010      1.7641e-008     -2.2634e-009   
  -2.05           -2.154e-009     7.023e-009      -1.1613e-009   
  -2.1            -4.933e-010     -1.6301e-008    2.897e-009     
  -2.15           -2.0188e-009    1.5329e-008     -1.296e-009    
  -2.2            -6.413e-010     -1.6881e-008    2.7143e-009    
  -2.25           1.9842e-009     -4.911e-009     5e-011         
  -2.3            2.652e-010      1.6665e-008     -1.3141e-009   
  -2.35           4.181e-010      1.864e-008      -2.1171e-009   
  -2.4            -2.0542e-009    7.858e-009      -1.264e-009    
  -2.45           -6.062e-010     -1.6715e-008    2.6997e-009    
  -2.5            1.9878e-009     -4.419e-009     2.01e-011      
  -2.55           2.305e-010      1.7701e-008     -1.407e-009    
  -2.6            3.929e-010      1.8411e-008     -2.1944e-009   
  -2.65           -2.0947e-009    7.407e-009      -1.2377e-009   
  -2.7            -5.785e-010     -1.6625e-008    2.7969e-009    
  -2.75           1.9344e-009     -4.117e-009     9.3e-012       
  -2.8            2.105e-010      1.6552e-008     -1.2385e-009   
  -2.85           3.589e-010      1.7444e-008     -2.1967e-009   
  -2.9            -2.1223e-009    7.364e-009      -1.2061e-009   
  -2.95           -5.436e-010     -1.6512e-008    2.8701e-009    
  -3              1.8918e-009     -3.8e-009       -7.36e-011     
  -3.05           1.766e-010      1.5868e-008     -1.3699e-009   
  -3.1            3.452e-010      1.792e-008      -1.3908e-009   
  -3.15           4.94e-010       1.8291e-008     -2.0198e-009   
  -3.2            -1.9743e-009    8.415e-009      -1.337e-009    
  -3.25           -6.954e-010     -1.7158e-008    2.6927e-009    
  -3.3            2.0071e-009     -5.252e-009     1.329e-010     
  -3.35           3.066e-010      1.8169e-008     -1.2852e-009   
  -3.4            4.604e-010      2.0536e-008     -2.0451e-009   
  -3.45           -2.015e-009     8.115e-009      -1.31e-009     
  -3.5            -6.591e-010     -1.6893e-008    2.658e-009     
  -3.55           1.992e-009      -4.91e-009      9.03e-011      
  -3.6            2.784e-010      1.706e-008      -1.2777e-009   
  -3.65           4.275e-010      1.8442e-008     -2.0916e-009   
  -3.7            -2.0402e-009    7.883e-009      -1.2815e-009   
  -3.75           -6.308e-010     -1.6613e-008    2.7465e-009    
  -3.8            1.9799e-009     -4.662e-009     4.26e-011      
  -3.85           2.439e-010      1.6738e-008     -1.2776e-009   
  -3.9            4.037e-010      1.8203e-008     -2.1551e-009   
  -3.95           -2.084e-009     7.695e-009      -1.2455e-009   
  -4              -5.939e-010     -1.6641e-008    2.8053e-009    
  -4.05           1.9553e-009     -1.948e-009     -4e-013        
  -4.1            2.199e-010      1.6754e-008     -1.2921e-009   
  -4.15           3.817e-010      1.741e-008      -2.183e-009    
  -4.2            -2.114e-009     7.612e-009      -1.216e-009    
  -4.25           -5.624e-010     -1.6467e-008    2.7971e-009    
  -4.3            1.9285e-009     -3.857e-009     -4.06e-011     
  -4.35           1.9e-010        1.6108e-008     -1.3119e-009   
  -4.4            3.565e-010      1.6246e-008     -2.2474e-009   
  -4.45           -2.142e-009     8.212e-009      -1.1866e-009   
  -4.5            -5.366e-010     -1.6496e-008    2.8941e-009    
  -4.55           1.9076e-009     -3.602e-009     -7.56e-011     
  -4.6            1.562e-010      1.5749e-008     -1.3397e-009   
  -4.65           3.094e-010      1.7438e-008     -1.3167e-009   
  -4.7            4.739e-010      1.8895e-008     -2.0449e-009   
  -4.75           -2.0075e-009    7.918e-009      -1.3145e-009   
  -4.8            -6.715e-010     -1.7086e-008    2.7292e-009    
  -4.85           2.0209e-009     -5.046e-009     9.97e-011      
  -4.9            2.85e-010       1.8835e-008     -1.395e-009    
  -4.95           4.473e-010      1.8764e-008     -2.102e-009    
  -5              -2.0473e-009    7.747e-009      -1.2855e-009   
END_DB

BEGIN_DB
 ICCAP_VAR VG         -1             
 ICCAP_VAR VS         0              
 ICCAP_VAR VB         0              

 #VD              ID              IB              IG             
  0               -4.0414e-008    -1.8028e-008    -1.3505e-009   
  -0.05           -7.5577e-007    -1.6899e-008    4.676e-010     
  -0.1            -1.008e-006     -1.9e-008       -8.235e-010    
  -0.15           -3.8744e-006    -2.3876e-008    1.4199e-009    
  -0.2            -1.3531e-006    -2.4206e-008    1.3912e-009    
  -0.25           -1.4495e-006    -2.4527e-008    1.3863e-009    
  -0.3            -1.4432e-006    -2.4903e-008    1.3678e-009    
  -0.35           -1.4675e-006    -2.5316e-008    1.3658e-009    
  -0.4            -1.5093e-006    -2.5508e-008    1.352e-009     
  -0.45           -1.5492e-006    -2.5878e-008    1.3427e-009    
  -0.5            -1.5679e-006    -1.6423e-008    2.4997e-009    
  -0.55           -1.6635e-006    -1.6429e-008    2.4689e-009    
  -0.6            -1.5636e-006    -1.6544e-008    2.417e-009     
  -0.65           -1.6133e-006    -1.6381e-008    2.371e-009     
  -0.7            -1.5629e-006    -1.6913e-008    2.3222e-009    
  -0.75           -1.6761e-006    -1.7214e-008    2.2233e-009    
  -0.8            -1.7954e-006    -1.7251e-008    2.2124e-009    
  -0.85           -1.3264e-006    -1.7031e-008    2.1733e-009    
  -0.9            -2.0248e-006    -1.7755e-008    2.0834e-009    
  -0.95           -1.971e-006     -1.7885e-008    2.0294e-009    
  -1              -2.0406e-006    -1.7904e-008    1.94e-009      
  -1.05           -2.1781e-006    -1.8065e-008    1.9056e-009    
  -1.1            -2.0351e-006    -1.8243e-008    1.8314e-009    
  -1.15           -1.6519e-006    -1.8038e-008    1.7938e-009    
  -1.2            -1.5775e-006    -1.8667e-008    1.74e-009      
  -1.25           -1.4848e-006    -1.9615e-008    1.7046e-009    
  -1.3            -1.4825e-006    -1.9999e-008    1.6486e-009    
  -1.35           -1.8904e-006    -1.9651e-008    1.6182e-009    
  -1.4            -1.7746e-006    -2.0415e-008    1.5717e-009    
  -1.45           -1.872e-006     -2.0776e-008    1.5565e-009    
  -1.5            -1.7988e-006    -1.5618e-008    1.6382e-009    
  -1.55           -5.2486e-006    -1.965e-008     1.621e-009     
  -1.6            -1.8713e-006    -2.033e-008     1.565e-009     
  -1.65           -2.2912e-006    -1.6392e-008    1.6991e-009    
  -1.7            -1.7068e-006    -1.8825e-008    1.6494e-009    
  -1.75           -1.6701e-006    -1.9716e-008    1.6298e-009    
  -1.8            -1.9116e-006    -1.7519e-008    1.7505e-009    
  -1.85           -1.8806e-006    -1.8947e-008    1.7001e-009    
  -1.9            -1.6942e-006    -1.9442e-008    1.6522e-009    
  -1.95           -2.2333e-006    -1.9229e-008    1.6084e-009    
  -2              -1.6723e-006    -2.1594e-008    1.563e-009     
  -2.05           -2.301e-006     -1.6593e-008    1.6966e-009    
  -2.1            -1.9415e-006    -1.9031e-008    1.6339e-009    
  -2.15           -2.375e-006     -2.0645e-008    1.6038e-009    
  -2.2            -2.0192e-006    -2.0091e-008    1.563e-009     
  -2.25           -1.7371e-006    -1.7355e-008    1.6938e-009    
  -2.3            -2.7896e-006    -1.9304e-008    1.651e-009     
  -2.35           -2.0559e-006    -1.8296e-008    1.7682e-009    
  -2.4            -2.0512e-006    -1.868e-008     1.7927e-009    
  -2.45           -2.0373e-006    -1.8376e-008    1.644e-009     
  -2.5            -1.962e-006     -1.8967e-008    1.5931e-009    
  -2.55           -1.9304e-006    -2.1869e-008    1.5525e-009    
  -2.6            -2.9893e-006    -2.0201e-008    1.5212e-009    
  -2.65           -3.0134e-006    -2.0792e-008    1.487e-009     
  -2.7            -3.0052e-006    -2.1386e-008    1.4619e-009    
  -2.75           -3.443e-006     -1.5131e-008    1.5655e-009    
  -2.8            -2.9712e-006    -2.0465e-008    1.5622e-009    
  -2.85           -3.0731e-006    -2.0861e-008    1.6229e-009    
  -2.9            -7.2857e-006    -1.5334e-008    1.6759e-009    
  -2.95           -3.2621e-006    -1.9568e-008    1.5854e-009    
  -3              -6.1913e-006    -1.9108e-008    1.6611e-009    
  -3.05           -1.08017e-005   -2.102e-008     1.6162e-009    
  -3.1            -3.278e-006     -2.1357e-008    1.5406e-009    
  -3.15           -3.0936e-006    -2.1807e-008    1.5488e-009    
  -3.2            -3.2628e-006    -2.245e-008     1.4584e-009    
  -3.25           -3.2365e-006    -1.3486e-008    1.5816e-009    
  -3.3            -3.1989e-006    -2.1515e-008    1.5644e-009    
  -3.35           -3.2332e-006    -1.4959e-008    1.6643e-009    
  -3.4            -3.1547e-006    -2.0375e-008    1.6057e-009    
  -3.45           -3.0465e-006    -2.1017e-008    1.5757e-009    
  -3.5            -3.2225e-006    -1.5662e-008    1.7123e-009    
  -3.55           -3.1439e-006    -1.9893e-008    1.6574e-009    
  -3.6            -3.1453e-006    -2.0503e-008    1.6243e-009    
  -3.65           -3.1773e-006    -2.0925e-008    1.5763e-009    
  -3.7            -3.3915e-006    -2.1288e-008    1.5635e-009    
  -3.75           -3.0889e-006    -2.1931e-008    1.5025e-009    
  -3.8            -3.1468e-006    -1.4158e-008    1.6091e-009    
  -3.85           -3.0216e-006    -2.0958e-008    1.5761e-009    
  -3.9            -3.1696e-006    -1.5504e-008    1.6787e-009    
  -3.95           -3.1055e-006    -1.984e-008     1.6363e-009    
  -4              -3.1146e-006    -2.0452e-008    1.595e-009     
  -4.05           -3.4204e-006    -2.0913e-008    1.5546e-009    
  -4.1            -3.457e-006     -1.55e-008      1.6742e-009    
  -4.15           -3.3199e-006    -2.0035e-008    1.6558e-009    
  -4.2            -3.0817e-006    -2.0389e-008    1.6053e-009    
  -4.25           -3.1129e-006    -2.1204e-008    1.5812e-009    
  -4.3            -3.2161e-006    -2.1429e-008    1.5398e-009    
  -4.35           -3.3815e-006    -1.467e-008     1.6099e-009    
  -4.4            -3.0178e-006    -2.0254e-008    1.5534e-009    
  -4.45           -3.2966e-006    -1.607e-008     1.7051e-009    
  -4.5            -3.1806e-006    -1.9361e-008    1.6665e-009    
  -4.55           -3.2953e-006    -1.9956e-008    1.636e-009     
  -4.6            -3.3108e-006    -2.0474e-008    1.5737e-009    
  -4.65           -3.3412e-006    -2.0894e-008    1.5338e-009    
  -4.7            -3.2939e-006    -2.1499e-008    1.5141e-009    
  -4.75           -3.4511e-006    -1.3715e-008    2.8841e-009    
  -4.8            -3.2906e-006    -2.2579e-008    1.458e-009     
  -4.85           -3.3128e-006    -2.2966e-008    1.4256e-009    
  -4.9            -3.3032e-006    -2.3376e-008    1.4388e-009    
  -4.95           -3.2873e-006    -2.3837e-008    1.4061e-009    
  -5              -3.4683e-006    -2.4176e-008    1.3983e-009    
END_DB

BEGIN_DB
 ICCAP_VAR VG         -2             
 ICCAP_VAR VS         0              
 ICCAP_VAR VB         0              

 #VD              ID              IB              IG             
  0               -1.8067e-006    1.1871e-008     1.5504e-009    
  -0.05           -0.00012788     -1.6953e-008    -3.661e-010    
  -0.1            -0.00025195     1.1296e-008     -1.3377e-009   
  -0.15           -0.00037113     1.346e-008      -1.3058e-009   
  -0.2            -0.00048675     1.7042e-008     -2.0292e-009   
  -0.25           -0.00059798     1.4104e-008     -1.2773e-009   
  -0.3            -0.00070828     -1.048e-009     2.8987e-009    
  -0.35           -0.00080581     -1.8032e-008    1.9729e-009    
  -0.4            -0.00090483     -1.6301e-008    2.507e-009     
  -0.45           -0.00099245     -1.4709e-008    1.617e-009     
  -0.5            -0.00108058     -1.7363e-008    2.1849e-009    
  -0.55           -0.0011606      1.5141e-008     2.3166e-009    
  -0.6            -0.0012317      -2.3561e-008    1.4085e-009    
  -0.65           -0.0013021      -1.8773e-008    1.786e-009     
  -0.7            -0.0013606      -1.6566e-008    2.3873e-009    
  -0.75           -0.0014126      -2.3298e-008    1.4491e-009    
  -0.8            -0.0014636      -1.8601e-008    1.8138e-009    
  -0.85           -0.0014966      -1.6413e-008    2.4194e-009    
  -0.9            -0.0015244      -2.3067e-008    1.4525e-009    
  -0.95           -0.0015574      -1.8312e-008    1.8844e-009    
  -1              -0.0015829      -1.6424e-008    2.4543e-009    
  -1.05           -0.001598       -1.4098e-008    1.5861e-009    
  -1.1            -0.0016199      -1.7222e-008    2.1775e-009    
  -1.15           -0.0016342      -2.4902e-008    1.3402e-009    
  -1.2            -0.0016457      -1.9924e-008    1.6579e-009    
  -1.25           -0.0016561      -1.7149e-008    2.2438e-009    
  -1.3            -0.001672       -2.4356e-008    1.3814e-009    
  -1.35           -0.0016788      -1.9606e-008    1.6832e-009    
  -1.4            -0.0016937      -1.6957e-008    2.2461e-009    
  -1.45           -0.0016952      -2.4141e-008    1.379e-009     
  -1.5            -0.0017066      -1.9163e-008    1.7581e-009    
  -1.55           -0.0017058      -1.6711e-008    2.3003e-009    
  -1.6            -0.0017139      -2.3728e-008    1.4592e-009    
  -1.65           -0.0017151      -1.859e-008     1.7967e-009    
  -1.7            -0.0017268      -1.6599e-008    2.4313e-009    
  -1.75           -0.0017223      -2.3119e-008    1.4507e-009    
  -1.8            -0.0017294      -1.8472e-008    1.8603e-009    
  -1.85           -0.0017369      -1.6614e-008    2.4531e-009    
  -1.9            -0.0017457      -2.3023e-008    1.4921e-009    
  -1.95           -0.0017412      -1.8217e-008    1.9245e-009    
  -2              -0.0017471      -1.6264e-008    2.4831e-009    
  -2.05           -0.0017585      -2.2419e-008    1.5302e-009    
  -2.1            -0.0017557      -1.7887e-008    1.9418e-009    
  -2.15           -0.0017566      -1.6301e-008    2.5255e-009    
  -2.2            -0.0017669      -2.2426e-008    1.4786e-009    
  -2.25           -0.0017614      -1.8057e-008    1.9774e-009    
  -2.3            -0.0017624      -1.5943e-008    2.5533e-009    
  -2.35           -0.0017571      -2.146e-008     1.4943e-009    
  -2.4            -0.0017585      -1.7822e-008    2.0292e-009    
  -2.45           -0.0017625      -2.5498e-008    1.335e-009     
  -2.5            -0.001766       -2.1032e-008    1.5584e-009    
  -2.55           -0.0017705      -1.7623e-008    2.0809e-009    
  -2.6            -0.001766       -2.5208e-008    1.3501e-009    
  -2.65           -0.001771       -2.0592e-008    1.6191e-009    
  -2.7            -0.0017832      -1.745e-008     2.1657e-009    
  -2.75           -0.0017758      -2.482e-008     1.3755e-009    
  -2.8            -0.0017813      -2.0097e-008    1.6367e-009    
  -2.85           -0.0017868      -1.7299e-008    2.2914e-009    
  -2.9            -0.001784       -2.4385e-008    1.4287e-009    
  -2.95           -0.001786       -1.9572e-008    1.6988e-009    
  -3              -0.0017913      -1.6983e-008    2.257e-009     
  -3.05           -0.0017935      -2.425e-008     1.3629e-009    
  -3.1            -0.001793       -1.9198e-008    1.6859e-009    
  -3.15           -0.0017963      -1.6778e-008    2.4225e-009    
  -3.2            -0.0018         -2.3868e-008    1.4515e-009    
  -3.25           -0.0017979      -1.8725e-008    1.7725e-009    
  -3.3            -0.0018036      -1.6684e-008    2.3913e-009    
  -3.35           -0.0018055      -2.3529e-008    1.44e-009      
  -3.4            -0.0018006      -1.8673e-008    1.7753e-009    
  -3.45           -0.0018017      -1.6436e-008    2.4059e-009    
  -3.5            -0.0018089      -2.3162e-008    1.4215e-009    
  -3.55           -0.0018103      -1.8266e-008    1.8606e-009    
  -3.6            -0.0018148      -1.6374e-008    2.4635e-009    
  -3.65           -0.0018156      -1.3874e-008    1.5514e-009    
  -3.7            -0.0018172      -1.7436e-008    2.1333e-009    
  -3.75           -0.0018169      -2.4957e-008    1.3398e-009    
  -3.8            -0.0018132      -2.0313e-008    1.6107e-009    
  -3.85           -0.0018183      -1.728e-008     2.1556e-009    
  -3.9            -0.0018389      -1.5723e-008    2.6915e-009    
  -3.95           -0.0018237      -1.962e-008     1.6477e-009    
  -4              -0.0018242      -1.7009e-008    2.2153e-009    
  -4.05           -0.0018296      -2.4357e-008    1.3471e-009    
  -4.1            -0.0018269      -1.9342e-008    1.7066e-009    
  -4.15           -0.0018348      -1.6815e-008    2.2957e-009    
