! VERSION = 6.00
BEGIN_HEADER
 ICCAP_INPUTS
  VG         V  B GROUND SMU4 0.001 LIN        2    0          -5         6    -1        
  VS         V  E GROUND SMU2 0.1 CON        0
  VD         V  S GROUND SMU1 0.1 LIN        1    0          -5         101  -0.05     
  VB         V  C GROUND SMU3 0.1 LIN        3    0          2.5        2    2.5       
 ICCAP_OUTPUTS
  ID         I  S GROUND SMU1 B
  IB         I  C GROUND SMU3 B
  IG         I  B GROUND SMU4 B
END_HEADER

BEGIN_DB
 ICCAP_VAR VG         0              
 ICCAP_VAR VS         0              
 ICCAP_VAR VB         0              

 #VD              ID              IB              IG             
  0               1.0507e-009     7.273e-009      1.1475e-009    
  -0.05           1.5209e-009     1.6085e-008     -1.7232e-009   
  -0.1            -2.072e-009     5.237e-009      -7.025e-010    
  -0.15           -2.0499e-009    -8.667e-009     -8.614e-010    
  -0.2            -1.5557e-009    -1.2541e-008    1.7794e-009    
  -0.25           2.1453e-009     -8.371e-009     6.669e-010     
  -0.3            1.4577e-009     1.9304e-008     -1.8735e-009   
  -0.35           -1.729e-009     5.157e-009      -1.4889e-009   
  -0.4            -1.3555e-009    -2.3676e-008    2.4388e-009    
  -0.45           2.1313e-009     1.0225e-008     5.289e-010     
  -0.5            1.3679e-009     2.4496e-008     -2.0979e-009   
  -0.55           -1.8671e-009    4.184e-009      -1.3589e-009   
  -0.6            -1.2525e-009    -2.5034e-008    2.5691e-009    
  -0.65           2.1042e-009     1.0737e-008     3.907e-010     
  -0.7            4.811e-010      1.6073e-008     -2.2752e-009   
  -0.75           -1.9642e-009    2.815e-009      -1.2274e-009   
  -0.8            -1.7816e-009    -8.884e-009     1.72e-010      
  -0.85           -9.239e-010     -1.9611e-008    1.542e-009     
  -0.9            2.1536e-009     -8.699e-009     7.788e-010     
  -0.95           1.5443e-009     1.4849e-008     -1.663e-009    
  -1              -2.0676e-009    5.29e-009       -7.431e-010    
  -1.05           -1.5014e-009    -1.6621e-008    2.0442e-009    
  -1.1            2.1288e-009     -7.024e-009     5.338e-010     
  -1.15           1.3736e-009     2.4287e-008     -2.0878e-009   
  -1.2            -1.866e-009     4.096e-009      -1.3592e-009   
  -1.25           -5.365e-010     -1.7246e-008    2.4463e-009    
  -1.3            2.0639e-009     -3.812e-009     2.654e-010     
  -1.35           2.1155e-009     1.0537e-008     4.466e-010     
  -1.4            1.3103e-009     2.6598e-008     -2.2123e-009   
  -1.45           -1.9284e-009    3.345e-009      -1.2761e-009   
  -1.5            -4.544e-010     -1.6856e-008    2.5352e-009    
  -1.55           2.1145e-009     1.0571e-008     4.289e-010     
  -1.6            5.117e-010      1.6128e-008     -2.2244e-009   
  -1.65           -1.9412e-009    3.112e-009      -1.2625e-009   
  -1.7            -4.378e-010     -1.6972e-008    2.5483e-009    
  -1.75           2.1111e-009     1.0688e-008     4.195e-010     
  -1.8            2.1411e-009     9.771e-009      5.915e-010     
  -1.85           1.4083e-009     2.2245e-008     -2.0029e-009   
  -1.9            -1.8149e-009    4.534e-009      -1.4134e-009   
  -1.95           -5.914e-010     -1.7171e-008    2.3743e-009    
  -2              2.0825e-009     -4.434e-009     3.263e-010     
  -2.05           4.283e-010      1.5606e-008     -2.3348e-009   
  -2.1            -1.9935e-009    2.218e-009      -1.1776e-009   
  -2.15           -1.7357e-009    -8.528e-009     2.198e-010     
  -2.2            -8.828e-010     -1.8584e-008    1.6504e-009    
  -2.25           2.1485e-009     -8.697e-009     7.225e-010     
  -2.3            1.5009e-009     1.686e-008      -1.7581e-009   
  -2.35           -2.0737e-009    5.137e-009      -6.794e-010    
  -2.4            -1.4701e-009    -1.8614e-008    2.1422e-009    
  -2.45           2.1179e-009     -6.313e-009     4.798e-010     
  -2.5            5.535e-010      1.6327e-008     -2.1687e-009   
  -2.55           -1.9112e-009    3.8e-009        -1.3051e-009   
  -2.6            -1.2131e-009    -2.5049e-008    2.6092e-009    
  -2.65           2.0928e-009     1.0774e-008     3.41e-010      
  -2.7            2.1267e-009     1.0291e-008     5.209e-010     
  -2.75           1.3561e-009     2.4867e-008     -2.1138e-009   
  -2.8            -1.8816e-009    4.043e-009      -1.3476e-009   
  -2.85           -1.2456e-009    -2.5053e-008    2.5826e-009    
  -2.9            2.1024e-009     1.0796e-008     3.824e-010     
  -2.95           2.1298e-009     1.0051e-008     5.57e-010      
  -3              1.3806e-009     2.3444e-008     -2.0581e-009   
  -3.05           -1.8468e-009    4.312e-009      -1.3824e-009   
  -3.1            -1.2732e-009    -2.4891e-008    2.5497e-009    
  -3.15           2.1113e-009     1.0675e-008     4.183e-010     
  -3.2            2.1371e-009     9.751e-009      5.921e-010     
  -3.25           1.4065e-009     2.2453e-008     -2.0038e-009   
  -3.3            -1.8109e-009    4.648e-009      -1.4186e-009   
  -3.35           -1.3041e-009    -2.4652e-008    2.518e-009     
  -3.4            1.612e-009      1.2277e-008     -1.5283e-009   
  -3.45           -2.0598e-009    5.976e-009      -8.303e-010    
  -3.5            -1.544e-009     -1.3943e-008    1.8597e-009    
  -3.55           2.1471e-009     -7.961e-009     6.311e-010     
  -3.6            2.1573e-009     8.241e-009      7.852e-010     
  -3.65           1.55e-009       1.485e-008      -1.6617e-009   
  -3.7            -2.0706e-009    5.435e-009      -7.58e-010     
  -3.75           -1.509e-009     -1.6309e-008    2.0195e-009    
  -3.8            2.136e-009      -7.308e-009     5.474e-010     
  -3.85           1.3807e-009     2.3825e-008     -2.0628e-009   
  -3.9            -1.8487e-009    4.405e-009      -1.3777e-009   
  -3.95           -1.2729e-009    -2.4677e-008    2.5479e-009    
  -4              2.1155e-009     1.0715e-008     4.143e-010     
  -4.05           5.035e-010      1.6173e-008     -2.239e-009    
  -4.1            -1.402e-010     -1.2329e-008    2.6706e-009    
  -4.15           1.3793e-009     2.397e-008      -2.0639e-009   
  -4.2            -1.8505e-009    4.483e-009      -1.3772e-009   
  -4.25           -5.497e-010     -1.7279e-008    2.4238e-009    
  -4.3            2.1367e-009     1.0457e-008     5.415e-010     
  -4.35           1.3751e-009     2.4074e-008     -2.0818e-009   
  -4.4            -1.8559e-009    4.142e-009      -1.3657e-009   
  -4.45           -1.2612e-009    -2.4811e-008    2.5525e-009    
  -4.5            2.1095e-009     1.0751e-008     4.069e-010     
  -4.55           2.1369e-009     9.884e-009      5.828e-010     
  -4.6            1.4013e-009     2.2567e-008     -2.0069e-009   
  -4.65           -1.8221e-009    4.524e-009      -1.4058e-009   
  -4.7            -1.2996e-009    -2.4804e-008    2.5249e-009    
  -4.75           1.611e-009      1.2122e-008     -1.5242e-009   
  -4.8            -2.0567e-009    5.95e-009       -8.322e-010    
  -4.85           -1.542e-009     -1.3706e-008    1.8504e-009    
  -4.9            2.1415e-009     -8.165e-009     6.367e-010     
  -4.95           2.1543e-009     8.031e-009      7.857e-010     
  -5              1.5523e-009     1.4297e-008     -1.6364e-009   
END_DB

BEGIN_DB
 ICCAP_VAR VG         -1             
 ICCAP_VAR VS         0              
 ICCAP_VAR VB         0              

 #VD              ID              IB              IG             
  0               -5.4084e-009    1.2003e-008     -1.859e-010    
  -0.05           -1.2939e-007    2.2006e-008     -2.0248e-009   
  -0.1            -1.5773e-007    1.8665e-008     -1.3661e-009   
  -0.15           -1.6575e-007    1.3219e-008     -2.3172e-009   
  -0.2            -1.7156e-007    1.5691e-008     -1.9776e-009   
  -0.25           -1.7434e-007    2.4752e-008     -1.7471e-009   
  -0.3            -1.7777e-007    1.9836e-008     -1.5286e-009   
  -0.35           -1.8077e-007    1.5141e-008     -1.362e-009    
  -0.4            -1.7884e-007    9.856e-009      8.499e-010     
  -0.45           -1.8724e-007    -8.219e-009     2.6479e-009    
  -0.5            -1.9628e-007    -1.8039e-008    1.6624e-009    
  -0.55           -1.9183e-007    -1.088e-008     -7.763e-010    
  -0.6            -1.9471e-007    1.8663e-008     -1.3789e-009   
  -0.65           -1.9591e-007    1.3108e-008     -2.3291e-009   
  -0.7            -1.9818e-007    1.5486e-008     -1.9871e-009   
  -0.75           -2.0097e-007    2.5019e-008     -1.7618e-009   
  -0.8            -2.0191e-007    2.0373e-008     -1.5391e-009   
  -0.85           -1.9939e-007    1.0332e-008     7.122e-010     
  -0.9            -2.1287e-007    -1.8298e-008    2.6734e-009    
  -0.95           -2.1517e-007    -1.0204e-008    1.995e-010     
  -1              -2.0859e-007    1.1799e-008     -2.4702e-009   
  -1.05           -2.111e-007     1.3659e-008     -2.2648e-009   
  -1.1            -2.1319e-007    1.5912e-008     -1.895e-009    
  -1.15           -2.1031e-007    8.901e-009      1.9084e-009    
  -1.2            -2.2303e-007    -1.7654e-008    1.7655e-009    
  -1.25           -2.1666e-007    -1.1003e-008    -7.213e-010    
  -1.3            -2.1944e-007    1.8002e-008     -1.4361e-009   
  -1.35           -2.1552e-007    1.0023e-008     7.9e-010       
  -1.4            -2.2292e-007    -8.632e-009     2.6306e-009    
  -1.45           -2.2212e-007    -9.461e-009     -9.955e-010    
  -1.5            -2.2154e-007    7.963e-009      -2.5572e-009   
  -1.55           -2.2637e-007    1.8015e-008     -1.4599e-009   
  -1.6            -2.2708e-007    1.2413e-008     -2.3945e-009   
  -1.65           -2.293e-007     1.5066e-008     -2.0987e-009   
  -1.7            -2.3059e-007    1.6964e-008     -1.6924e-009   
  -1.75           -2.3211e-007    1.8789e-008     -1.484e-009    
  -1.8            -2.3196e-007    1.2414e-008     -2.408e-009    
  -1.85           -2.3163e-007    8.586e-009      4.53e-011      
  -1.9            -2.4258e-007    -1.557e-008     2.4514e-009    
  -1.95           -2.4358e-007    -2.4158e-008    2.2552e-009    
  -2              -2.4495e-007    -2.2787e-008    2.0131e-009    
  -2.05           -2.4647e-007    -1.9038e-008    1.736e-009     
  -2.1            -2.489e-007     -1.4615e-008    2.6737e-009    
  -2.15           -2.4832e-007    -1.285e-008     2.5593e-009    
  -2.2            -2.4962e-007    -1.677e-008     2.2523e-009    
  -2.25           -2.5151e-007    -2.2745e-008    1.9976e-009    
  -2.3            -2.5286e-007    -1.8778e-008    1.72e-009      
  -2.35           -2.5505e-007    -1.453e-008     2.6692e-009    
  -2.4            -2.5467e-007    -1.2949e-008    2.5531e-009    
  -2.45           -2.5614e-007    -1.6841e-008    2.2342e-009    
  -2.5            -2.5646e-007    -2.2582e-008    1.9813e-009    
  -2.55           -2.5812e-007    -1.8484e-008    1.7027e-009    
  -2.6            -2.6037e-007    -1.4323e-008    2.6666e-009    
  -2.65           -2.5928e-007    -1.3353e-008    2.5478e-009    
  -2.7            -2.5921e-007    -1.6849e-008    2.2195e-009    
  -2.75           -2.6042e-007    -2.2294e-008    1.9687e-009    
  -2.8            -2.6333e-007    -1.8313e-008    1.6945e-009    
  -2.85           -2.6505e-007    -1.4081e-008    2.6685e-009    
  -2.9            -2.6406e-007    -1.3525e-008    2.5437e-009    
  -2.95           -2.6484e-007    -1.6705e-008    2.2164e-009    
  -3              -2.655e-007     -2.2233e-008    1.9494e-009    
  -3.05           -2.6888e-007    -1.8136e-008    1.6679e-009    
  -3.1            -2.6943e-007    -1.3959e-008    2.6651e-009    
  -3.15           -2.6923e-007    -1.3663e-008    2.5303e-009    
  -3.2            -2.6931e-007    -1.6822e-008    2.1987e-009    
  -3.25           -2.7078e-007    -2.2061e-008    1.9396e-009    
  -3.3            -2.7273e-007    -1.7907e-008    1.6586e-009    
  -3.35           -2.7388e-007    -1.3726e-008    2.6617e-009    
  -3.4            -2.7352e-007    -1.3714e-008    2.5319e-009    
  -3.45           -2.745e-007     -2.4293e-008    2.367e-009     
  -3.5            -2.766e-007     -1.7438e-008    1.9201e-009    
  -3.55           -2.7615e-007    -1.7649e-008    1.6418e-009    
  -3.6            -2.6729e-007    -1.0771e-008    -7.864e-010    
  -3.65           -2.7018e-007    1.8688e-008     -1.3695e-009   
  -3.7            -2.6503e-007    9.501e-009      8.42e-010      
  -3.75           -2.7226e-007    -8.438e-009     2.6451e-009    
  -3.8            -2.8202e-007    -1.8249e-008    1.6828e-009    
  -3.85           -2.7147e-007    -1.0887e-008    -7.698e-010    
  -3.9            -2.7356e-007    1.8575e-008     -1.3853e-009   
  -3.95           -2.7092e-007    9.614e-009      8.276e-010     
  -4              -2.7862e-007    -8.46e-009      2.6428e-009    
  -4.05           -2.8564e-007    -1.8637e-008    1.7019e-009    
  -4.1            -2.7513e-007    -1.0946e-008    -7.483e-010    
  -4.15           -2.7775e-007    1.8257e-008     -1.4039e-009   
  -4.2            -2.7387e-007    9.822e-009      8.145e-010     
  -4.25           -2.8147e-007    -8.495e-009     2.6399e-009    
  -4.3            -2.8992e-007    -1.9445e-008    1.742e-009     
  -4.35           -2.8035e-007    -1.0937e-008    -7.321e-010    
  -4.4            -2.8277e-007    1.8203e-008     -1.4165e-009   
  -4.45           -2.7787e-007    9.928e-009      7.966e-010     
  -4.5            -2.8477e-007    -8.674e-009     2.6331e-009    
  -4.55           -2.942e-007     -1.9834e-008    1.7671e-009    
  -4.6            -2.9605e-007    -1.5281e-008    2.6716e-009    
  -4.65           -2.9655e-007    -9.494e-009     1.772e-010     
  -4.7            -2.86e-007      1.1831e-008     -2.455e-009    
  -4.75           -2.8751e-007    8.182e-009      -4.27e-011     
  -4.8            -2.9806e-007    -1.4019e-008    2.5452e-009    
  -4.85           -2.9866e-007    -1.6881e-008    2.1982e-009    
  -4.9            -2.9998e-007    -2.2136e-008    1.9263e-009    
  -4.95           -3.015e-007     -1.7819e-008    1.6537e-009    
  -5              -3.0266e-007    -1.3577e-008    2.6637e-009    
END_DB

BEGIN_DB
 ICCAP_VAR VG         -2             
 ICCAP_VAR VS         0              
 ICCAP_VAR VB         0              

 #VD              ID              IB              IG             
  0               -2.8255e-007    -7.985e-009     2.6673e-009    
  -0.05           -1.6374e-005    1.4704e-008     -1.9088e-009   
  -0.1            -3.1638e-005    1.9159e-008     -1.3033e-009   
  -0.15           -4.6078e-005    1.601e-008      -1.9023e-009   
  -0.2            -5.9725e-005    1.0491e-008     7.204e-010     
  -0.25           -7.2472e-005    -7.399e-009     2.6604e-009    
  -0.3            -8.4292e-005    -9.64e-009      1.925e-010     
  -0.35           -9.4947e-005    1.3846e-008     -2.2953e-009   
  -0.4            -0.000104887    9.086e-009      1.8636e-009    
  -0.45           -0.000113608    -1.7516e-008    2.672e-009     
  -0.5            -0.00012103     -1.7466e-008    -4.684e-010    
  -0.55           -0.00012733     6.357e-009      -2.5575e-009   
  -0.6            -0.00013243     1.2084e-008     -2.4536e-009   
  -0.65           -0.00013645     1.6742e-008     -1.6651e-009   
  -0.7            -0.00013958     8.69e-009       9.489e-010     
  -0.75           -0.00014188     -9.735e-009     2.6534e-009    
  -0.8            -0.00014329     -2.4141e-008    2.1163e-009    
  -0.85           -0.00014442     -1.3489e-008    2.5607e-009    
  -0.9            -0.00014505     -2.0177e-008    1.7784e-009    
  -0.95           -0.00014545     -9.242e-009     -1.0224e-009   
  -1              -0.00014575     1.1781e-008     -2.4756e-009   
  -1.05           -0.00014624     1.6462e-008     -1.7506e-009   
  -1.1            -0.00014651     1.4135e-008     -2.2544e-009   
  -1.15           -0.00014703     1.063e-008      6.098e-010     
  -1.2            -0.00014745     -7.442e-009     2.6579e-009    
  -1.25           -0.00014779     -1.4786e-008    2.5073e-009    
  -1.3            -0.00014784     -1.8054e-008    1.6482e-009    
  -1.35           -0.0001482      -1.6859e-008    2.2796e-009    
  -1.4            -0.00014808     -1.0865e-008    -8.042e-010    
  -1.45           -0.00014815     8.408e-009      -2.5314e-009   
  -1.5            -0.00014829     1.4864e-008     -2.1752e-009   
  -1.55           -0.00014861     1.0611e-008     6.713e-010     
  -1.6            -0.00014902     -7.535e-009     2.6668e-009    
  -1.65           -0.00014917     -1.5823e-008    2.4314e-009    
  -1.7            -0.00014923     -1.5846e-008    2.6741e-009    
  -1.75           -0.00014935     -1.7037e-008    2.1726e-009    
  -1.8            -0.00014931     -1.0599e-008    -8.551e-010    
  -1.85           -0.00014925     9.07e-009       -2.521e-009    
  -1.9            -0.00014936     1.5441e-008     -2.08e-009     
  -1.95           -0.00014962     1.0427e-008     7.329e-010     
  -2              -0.00015004     -7.65e-009      2.6701e-009    
  -2.05           -0.0001502      -1.6564e-008    2.341e-009     
  -2.1            -0.00015006     -1.1071e-008    -7.582e-010    
  -2.15           -0.00014992     7.95e-009       -2.5372e-009   
  -2.2            -0.00015006     1.4679e-008     -2.2279e-009   
  -2.25           -0.0001502      1.8235e-008     -1.4515e-009   
  -2.3            -0.00015061     7.565e-009      1.0662e-009    
  -2.35           -0.00015075     -2.1793e-008    1.8998e-009    
  -2.4            -0.00015097     -1.5769e-008    2.4516e-009    
  -2.45           -0.00015094     -1.6301e-008    2.6708e-009    
  -2.5            -0.0001511      -2.4768e-008    2.3804e-009    
  -2.55           -0.00015091     -1.112e-008     -7.376e-010    
  -2.6            -0.00015086     7.705e-009      -2.5401e-009   
  -2.65           -0.00015091     1.4444e-008     -2.261e-009    
  -2.7            -0.00015116     1.0836e-008     6.054e-010     
  -2.75           -0.0001515      -7.413e-009     2.6508e-009    
  -2.8            -0.00015166     -1.4952e-008    2.51e-009      
  -2.85           -0.00015163     -1.802e-008     1.6408e-009    
  -2.9            -0.00015177     -1.6911e-008    2.2787e-009    
  -2.95           -0.00015159     -1.0879e-008    -8.02e-010     
  -3              -0.00015152     8.297e-009      -2.5316e-009   
  -3.05           -0.00015156     1.5159e-008     -2.1717e-009   
  -3.1            -0.00015179     1.065e-008      6.689e-010     
  -3.15           -0.00015212     -7.31e-009      2.665e-009     
  -3.2            -0.00015222     -1.6009e-008    2.4357e-009    
  -3.25           -0.00015202     -1.1283e-008    -6.905e-010    
  -3.3            -0.00015188     7.547e-009      -2.5373e-009   
  -3.35           -0.00015192     1.393e-008      -2.3094e-009   
  -3.4            -0.00015205     2.017e-008      -1.5135e-009   
  -3.45           -0.00015232     7.649e-009      1.0155e-009    
  -3.5            -0.00015252     -2.2921e-008    1.992e-009     
  -3.55           -0.00015267     -1.4715e-008    2.5207e-009    
  -3.6            -0.00015262     -1.787e-008     1.6435e-009    
  -3.65           -0.00015275     -1.6831e-008    2.2784e-009    
  -3.7            -0.00015261     -1.0854e-008    -7.94e-010     
  -3.75           -0.00015237     8.159e-009      -2.5324e-009   
  -3.8            -0.00015248     1.4895e-008     -2.1731e-009   
  -3.85           -0.00015268     1.0564e-008     6.584e-010     
  -3.9            -0.00015302     -7.265e-009     2.6636e-009    
  -3.95           -0.00015304     -1.5788e-008    2.4314e-009    
  -4              -0.00015306     -1.5065e-008    2.6886e-009    
  -4.05           -0.00015316     -1.6567e-008    2.1584e-009    
  -4.1            -0.00015331     -1.0936e-008    2.6677e-009    
  -4.15           -0.00015323     -2.3672e-008    2.049e-009     
