! VERSION = 6.00
BEGIN_HEADER
 ICCAP_INPUTS
  VG         V  B GROUND SMU4 0.001 LIN        2    0          -5         6    -1        
  VS         V  E GROUND SMU2 0.1 CON        0
  VD         V  S GROUND SMU1 0.1 LIN        1    0          -5         101  -0.05     
  VB         V  C GROUND SMU3 0.1 LIN        3    0          2.5        2    2.5       
 ICCAP_OUTPUTS
  ID         I  S GROUND SMU1 B
  IB         I  C GROUND SMU3 B
  IG         I  B GROUND SMU4 B
END_HEADER

BEGIN_DB
 ICCAP_VAR VG         0              
 ICCAP_VAR VS         0              
 ICCAP_VAR VB         0              

 #VD              ID              IB              IG             
  0               2.147e-010      1.2588e-008     8.235e-010     
  -0.05           2.1958e-009     -7.004e-009     5.635e-010     
  -0.1            2.2099e-009     9.016e-009      7.295e-010     
  -0.15           1.5399e-009     1.7329e-008     -1.7961e-009   
  -0.2            -1.6862e-009    5.334e-009      -1.5604e-009   
  -0.25           -1.4238e-009    -2.2126e-008    2.3642e-009    
  -0.3            2.1465e-009     -4.743e-009     3.462e-010     
  -0.35           2.1884e-009     1.0128e-008     5.301e-010     
  -0.4            6.015e-010      1.7041e-008     -2.1219e-009   
  -0.45           -1.9106e-009    4.129e-009      -1.3563e-009   
  -0.5            -1.2718e-009    -2.4484e-008    2.5849e-009    
  -0.55           2.1596e-009     1.0545e-008     3.908e-010     
  -0.6            2.1957e-009     1.0011e-008     5.651e-010     
  -0.65           2.2112e-009     8.915e-009      7.31e-010      
  -0.7            1.5423e-009     1.725e-008      -1.8037e-009   
  -0.75           -1.691e-009     5.141e-009      -1.5562e-009   
  -0.8            -1.4247e-009    -2.2349e-008    2.3652e-009    
  -0.85           2.1459e-009     -4.698e-009     3.467e-010     
  -0.9            2.1883e-009     1.0139e-008     5.28e-010      
  -0.95           5.981e-010      1.6965e-008     -2.1173e-009   
  -1              -1.9066e-009    3.908e-009      -1.3595e-009   
  -1.05           -5.32e-010      -1.7436e-008    2.4694e-009    
  -1.1            2.1868e-009     1.0248e-008     5.163e-010     
  -1.15           5.857e-010      1.6935e-008     -2.1475e-009   
  -1.2            -1.925e-009     3.986e-009      -1.3424e-009   
  -1.25           -1.2584e-009    -2.4369e-008    2.5958e-009    
  -1.3            1.5974e-009     1.4924e-008     -1.6761e-009   
  -1.35           -2.1255e-009    5.338e-009      -7.59e-010     
  -1.4            -1.5407e-009    -1.6447e-008    2.0462e-009    
  -1.45           2.1939e-009     -7.169e-009     5.533e-010     
  -1.5            2.2087e-009     9.064e-009      7.168e-010     
  -1.55           1.5345e-009     1.7757e-008     -1.8183e-009   
  -1.6            -1.7036e-009    5.314e-009      -1.5434e-009   
  -1.65           -1.4166e-009    -2.2634e-008    2.3774e-009    
  -1.7            2.1409e-009     -4.51e-009      3.367e-010     
  -1.75           2.188e-009      1.0317e-008     5.14e-010      
  -1.8            5.885e-010      1.6942e-008     -2.1466e-009   
  -1.85           -1.9233e-009    3.957e-009      -1.3439e-009   
  -1.9            -5.163e-010     -1.7226e-008    2.488e-009     
  -1.95           2.1886e-009     1.0348e-008     4.993e-010     
  -2              2.2123e-009     9.362e-009      6.691e-010     
  -2.05           1.496e-009      1.9738e-008     -1.9116e-009   
  -2.1            -1.7657e-009    5.203e-009      -1.5003e-009   
  -2.15           -1.8307e-009    -9.674e-009     1.629e-010     
  -2.2            -9.566e-010     -2.0087e-008    1.524e-009     
  -2.25           2.2133e-009     -8.777e-009     7.739e-010     
  -2.3            1.5946e-009     1.4664e-008     -1.6585e-009   
  -2.35           -2.1247e-009    5.703e-009      -7.781e-010    
  -2.4            -1.5382e-009    -1.5699e-008    2.0038e-009    
  -2.45           2.1941e-009     -7.211e-009     5.781e-010     
  -2.5            1.4258e-009     2.3284e-008     -2.0673e-009   
  -2.55           -1.8731e-009    4.552e-009      -1.3987e-009   
  -2.6            -5.716e-010     -1.718e-008     2.4181e-009    
  -2.65           2.1296e-009     -4.09e-009      3.07e-010      
  -2.7            4.163e-010      1.5693e-008     -2.3729e-009   
  -2.75           -2.0409e-009    2.021e-009      -1.158e-009    
  -2.8            -1.7638e-009    -8.495e-009     2.327e-010     
  -2.85           -8.821e-010     -1.854e-008     1.7358e-009    
  -2.9            2.2085e-009     -8.756e-009     7.102e-010     
  -2.95           1.5262e-009     1.8196e-008     -1.8365e-009   
  -3              -1.7153e-009    5.287e-009      -1.5337e-009   
  -3.05           -1.4124e-009    -2.2667e-008    2.3921e-009    
  -3.1            2.1374e-009     -4.386e-009     3.227e-010     
  -3.15           4.343e-010      1.5623e-008     -2.3537e-009   
  -3.2            -2.0311e-009    2.058e-009      -1.1757e-009   
  -3.25           -1.7721e-009    -8.626e-009     2.199e-010     
  -3.3            -8.95e-010      -1.8851e-008    1.6972e-009    
  -3.35           2.2092e-009     -8.61e-009      7.259e-010     
  -3.4            1.5348e-009     1.7499e-008     -1.8044e-009   
  -3.45           -1.6902e-009    5.312e-009      -1.5525e-009   
  -3.5            -1.4214e-009    -2.2312e-008    2.3688e-009    
  -3.55           2.1446e-009     -4.297e-009     3.395e-010     
  -3.6            4.592e-010      1.5585e-008     -2.3409e-009   
  -3.65           -2.0232e-009    2.264e-009      -1.1964e-009   
  -3.7            -1.1341e-009    -2.3559e-008    2.6722e-009    
  -3.75           1.4877e-009     2.0103e-008     -1.9329e-009   
  -3.8            -1.7878e-009    4.894e-009      -1.4762e-009   
  -3.85           -6.602e-010     -1.7593e-008    2.3035e-009    
  -3.9            2.1602e-009     -5.254e-009     3.888e-010     
  -3.95           2.195e-009      9.995e-009      5.689e-010     
  -4              2.2093e-009     8.942e-009      7.339e-010     
  -4.05           1.5462e-009     1.7109e-008     -1.7882e-009   
  -4.1            -1.6838e-009    5.184e-009      -1.5648e-009   
  -4.15           -1.4328e-009    -2.2266e-008    2.363e-009     
  -4.2            2.1499e-009     -4.727e-009     3.509e-010     
  -4.25           2.1931e-009     1.0333e-008     5.321e-010     
  -4.3            2.2105e-009     9.279e-009      7.014e-010     
  -4.35           1.5192e-009     1.8439e-008     -1.8487e-009   
  -4.4            -1.7314e-009    5.001e-009      -1.5297e-009   
  -4.45           -1.4073e-009    -2.2798e-008    2.4039e-009    
  -4.5            1.626e-010      1.2489e-008     -2.5281e-009   
  -4.55           -1.4908e-009    -1.9637e-008    2.218e-009     
  -4.6            2.1732e-009     -5.865e-009     4.488e-010     
  -4.65           2.2041e-009     9.873e-009      6.214e-010     
  -4.7            2.2102e-009     8.482e-009      7.849e-010     
  -4.75           1.5873e-009     1.552e-008      -1.697e-009    
  -4.8            -2.1314e-009    5.513e-009      -7.431e-010    
  -4.85           -2.1003e-009    -8.605e-009     -8.959e-010    
  -4.9            -1.6089e-009    -1.222e-008     1.7392e-009    
  -4.95           2.2112e-009     -8.479e-009     7.047e-010     
  -5              1.5232e-009     1.8236e-008     -1.8393e-009   
END_DB

BEGIN_DB
 ICCAP_VAR VG         -1             
 ICCAP_VAR VS         0              
 ICCAP_VAR VB         0              

 #VD              ID              IB              IG             
  0               -6.8686e-009    -1.7997e-008    -2.4401e-009   
  -0.05           -1.3019e-007    1.9116e-008     -1.4185e-009   
  -0.1            -1.6089e-007    1.1822e-008     -2.4672e-009   
  -0.15           -1.6969e-007    1.4329e-008     -2.2307e-009   
  -0.2            -1.7422e-007    1.6705e-008     -1.838e-009    
  -0.25           -1.7125e-007    8.907e-009      1.9858e-009    
  -0.3            -1.8605e-007    -1.7886e-008    1.6786e-009    
  -0.35           -1.8685e-007    -1.3859e-008    2.6887e-009    
  -0.4            -1.8742e-007    -9.152e-009     1.316e-010     
  -0.45           -1.9115e-007    1.2118e-008     -2.453e-009    
  -0.5            -1.9387e-007    1.476e-008      -2.191e-009    
  -0.55           -1.9547e-007    1.6796e-008     -1.7845e-009   
  -0.6            -1.8932e-007    2.0475e-008     -1.5624e-009   
  -0.65           -1.9013e-007    1.0317e-008     7.177e-010     
  -0.7            -2.0806e-007    -1.8468e-008    2.7018e-009    
  -0.75           -2.0443e-007    -1.0367e-008    2.054e-010     
  -0.8            -2.0543e-007    1.1713e-008     -2.4966e-009   
  -0.85           -2.1012e-007    1.3504e-008     -2.3027e-009   
  -0.9            -2.0942e-007    1.6286e-008     -1.9326e-009   
  -0.95           -2.0553e-007    8.903e-009      1.9268e-009    
  -1              -2.2208e-007    -1.7793e-008    1.7926e-009    
  -1.05           -2.1048e-007    -1.0921e-008    -7.179e-010    
  -1.1            -2.1533e-007    1.8182e-008     -1.4598e-009   
  -1.15           -2.1048e-007    1.0048e-008     7.933e-010     
  -1.2            -2.2389e-007    -8.688e-009     2.662e-009     
  -1.25           -2.2446e-007    -2.0588e-008    1.8295e-009    
  -1.3            -2.2751e-007    -1.5911e-008    1.5592e-009    
  -1.35           -2.2093e-007    -1.0591e-008    -8.369e-010    
  -1.4            -2.271e-007     6.327e-009      -2.6013e-009   
  -1.45           -2.3087e-007    1.6946e-008     -1.759e-009    
  -1.5            -2.2283e-007    1.9944e-008     -1.5375e-009   
  -1.55           -2.2153e-007    1.0371e-008     7.327e-010     
  -1.6            -2.3945e-007    -1.8533e-008    2.7015e-009    
  -1.65           -2.3566e-007    -1.0061e-008    1.917e-010     
  -1.7            -2.3691e-007    1.1642e-008     -2.4911e-009   
  -1.75           -2.3657e-007    1.3668e-008     -2.2815e-009   
  -1.8            -2.3959e-007    1.6267e-008     -1.9018e-009   
  -1.85           -2.3448e-007    9.056e-009      1.9445e-009    
  -1.9            -2.4907e-007    -1.7857e-008    1.7687e-009    
  -1.95           -2.4352e-007    -1.4882e-008    2.6978e-009    
  -2              -2.4432e-007    -9.612e-009     1.643e-010     
  -2.05           -2.4654e-007    1.1898e-008     -2.4787e-009   
  -2.1            -2.4599e-007    1.4175e-008     -2.2503e-009   
  -2.15           -2.4204e-007    1.6564e-008     -1.8606e-009   
  -2.2            -2.4281e-007    8.61e-009       1.9731e-009    
  -2.25           -2.571e-007     -1.7829e-008    1.7029e-009    
  -2.3            -2.4232e-007    -1.0833e-008    -7.638e-010    
  -2.35           -2.4541e-007    1.8623e-008     -1.4084e-009   
  -2.4            -2.4058e-007    9.763e-009      8.286e-010     
  -2.45           -2.5361e-007    -8.449e-009     2.6765e-009    
  -2.5            -2.5522e-007    -1.9193e-008    1.7407e-009    
  -2.55           -2.4808e-007    -1.0944e-008    -7.446e-010    
  -2.6            -2.5575e-007    1.8432e-008     -1.4253e-009   
  -2.65           -2.4557e-007    9.983e-009      8.143e-010     
  -2.7            -2.6003e-007    -8.569e-009     2.6704e-009    
  -2.75           -2.5999e-007    -1.9626e-008    1.7729e-009    
  -2.8            -2.5307e-007    -1.0877e-008    -7.251e-010    
  -2.85           -2.61e-007      1.8221e-008     -1.4487e-009   
  -2.9            -2.5109e-007    9.99e-009       7.987e-010     
  -2.95           -2.6314e-007    -8.66e-009      2.6641e-009    
  -3              -2.6435e-007    -2.0382e-008    1.8082e-009    
  -3.05           -2.5635e-007    -1.0899e-008    -6.984e-010    
  -3.1            -2.6444e-007    1.8135e-008     -1.4745e-009   
  -3.15           -2.5415e-007    1.0094e-008     7.809e-010     
  -3.2            -2.6968e-007    -8.673e-009     2.6609e-009    
  -3.25           -2.6809e-007    -2.0772e-008    1.8531e-009    
  -3.3            -2.6961e-007    -1.6167e-008    1.5767e-009    
  -3.35           -2.6247e-007    -1.0764e-008    -8.302e-010    
  -3.4            -2.679e-007     6.001e-009      -2.5984e-009   
  -3.45           -2.7409e-007    1.6952e-008     -1.7774e-009   
  -3.5            -2.6555e-007    2.0254e-008     -1.5523e-009   
  -3.55           -2.6458e-007    1.0344e-008     7.235e-010     
  -3.6            -2.8255e-007    -1.8509e-008    2.6985e-009    
  -3.65           -2.7685e-007    -1.021e-008     1.999e-010     
  -3.7            -2.7562e-007    1.1706e-008     -2.4942e-009   
  -3.75           -2.7823e-007    1.3637e-008     -2.2862e-009   
  -3.8            -2.8016e-007    1.6244e-008     -1.9204e-009   
  -3.85           -2.7515e-007    8.763e-009      1.9376e-009    
  -3.9            -2.8814e-007    -1.7929e-008    1.7768e-009    
  -3.95           -2.8293e-007    -1.513e-008     2.6963e-009    
  -4              -2.8409e-007    -9.654e-009     1.743e-010     
  -4.05           -2.8334e-007    1.1765e-008     -2.4809e-009   
  -4.1            -2.8521e-007    1.4182e-008     -2.2533e-009   
  -4.15           -2.8363e-007    1.6454e-008     -1.8628e-009   
  -4.2            -2.7866e-007    8.677e-009      1.9681e-009    
  -4.25           -2.9818e-007    -1.7903e-008    1.708e-009     
  -4.3            -2.8104e-007    -1.0807e-008    -7.617e-010    
  -4.35           -2.8972e-007    1.8483e-008     -1.4069e-009   
  -4.4            -2.8586e-007    1.2837e-008     -2.3703e-009   
  -4.45           -2.9118e-007    1.5701e-008     -2.0393e-009   
  -4.5            -2.9116e-007    1.7436e-008     -1.6183e-009   
  -4.55           -2.8038e-007    1.6724e-008     -1.4274e-009   
  -4.6            -2.8116e-007    9.895e-009      8.132e-010     
  -4.65           -2.9671e-007    -8.56e-009      2.6709e-009    
  -4.7            -2.9252e-007    -1.9721e-008    1.7739e-009    
  -4.75           -2.8844e-007    -1.0907e-008    -7.241e-010    
  -4.8            -2.9563e-007    1.8179e-008     -1.4523e-009   
  -4.85           -2.8509e-007    9.967e-009      7.973e-010     
  -4.9            -3.0618e-007    -8.657e-009     2.6622e-009    
  -4.95           -3.1166e-007    -1.7839e-008    1.8164e-009    
  -5              -2.9382e-007    -1.0841e-008    -6.981e-010    
END_DB

BEGIN_DB
 ICCAP_VAR VG         -2             
 ICCAP_VAR VS         0              
 ICCAP_VAR VB         0              

 #VD              ID              IB              IG             
  0               -2.9816e-007    -1.6469e-008    1.1263e-009    
  -0.05           -1.7019e-005    1.6547e-008     -1.8998e-009   
  -0.1            -3.2888e-005    1.8588e-008     -1.3766e-009   
  -0.15           -4.7882e-005    7.758e-009      1.0602e-009    
  -0.2            -6.2019e-005    -9.285e-009     2.6695e-009    
  -0.25           -7.5136e-005    -1.7157e-008    2.1461e-009    
  -0.3            -8.7256e-005    -1.0817e-008    -7.715e-010    
  -0.35           -9.8548e-005    7.734e-009      -2.6015e-009   
  -0.4            -0.000108487    1.1911e-008     -2.4607e-009   
  -0.45           -0.0001173      1.3236e-008     5.03e-011      
  -0.5            -0.0001256      -1.7862e-008    1.8825e-009    
  -0.55           -0.00013252     -1.5561e-008    2.4417e-009    
  -0.6            -0.00013749     -1.6046e-008    1.5648e-009    
  -0.65           -0.0001419      -1.712e-008     2.1966e-009    
  -0.7            -0.00014452     -1.0553e-008    -8.494e-010    
  -0.75           -0.00014664     9.044e-009      -2.5655e-009   
  -0.8            -0.00014823     1.5189e-008     -2.1167e-009   
  -0.85           -0.00014924     1.0267e-008     7.204e-010     
  -0.9            -0.00015045     -7.6e-009       2.7037e-009    
  -0.95           -0.00015121     -1.6082e-008    2.3823e-009    
  -1              -0.00015105     -1.0837e-008    -7.338e-010    
  -1.05           -0.00015169     8.23e-009       -2.5839e-009   
  -1.1            -0.00015205     1.3841e-008     -2.2761e-009   
  -1.15           -0.00015205     1.9623e-008     -1.5282e-009   
  -1.2            -0.00015258     7.855e-009      1.0475e-009    
  -1.25           -0.00015332     -1.1496e-008    2.6191e-009    
  -1.3            -0.00015308     -2.2107e-008    1.9519e-009    
  -1.35           -0.00015354     -1.5057e-008    2.4773e-009    
  -1.4            -0.00015357     -1.7075e-008    1.6292e-009    
  -1.45           -0.00015377     -2.4265e-008    2.4214e-009    
  -1.5            -0.00015349     -1.0908e-008    -7.047e-010    
  -1.55           -0.00015382     8.181e-009      -2.5908e-009   
  -1.6            -0.00015413     1.3193e-008     -2.3088e-009   
  -1.65           -0.00015391     2.0715e-008     -1.5706e-009   
  -1.7            -0.00015443     8.002e-009      1.0208e-009    
  -1.75           -0.00015469     -2.2838e-008    2.0459e-009    
  -1.8            -0.00015491     -1.4221e-008    2.5308e-009    
  -1.85           -0.00015486     -1.8868e-008    1.7262e-009    
  -1.9            -0.0001551      -2.3897e-008    2.4803e-009    
  -1.95           -0.00015468     -1.732e-008     1.6365e-009    
  -2              -0.00015567     -1.6719e-008    2.2516e-009    
  -2.05           -0.00015523     -1.0746e-008    -8.211e-010    
  -2.1            -0.00015483     8.56e-009       -2.5684e-009   
  -2.15           -0.00015559     1.4788e-008     -2.1759e-009   
  -2.2            -0.00015544     1.0389e-008     6.827e-010     
  -2.25           -0.00015604     -7.586e-009     2.7021e-009    
  -2.3            -0.00015615     -1.5488e-008    2.4331e-009    
  -2.35           -0.0001561      -1.5887e-008    1.5566e-009    
  -2.4            -0.0001564      -1.7051e-008    2.1881e-009    
  -2.45           -0.00015586     -1.0642e-008    -8.597e-010    
  -2.5            -0.0001556      9.082e-009      -2.5619e-009   
  -2.55           -0.00015619     1.538e-008      -2.1102e-009   
  -2.6            -0.00015612     1.5347e-008     -1.3824e-009   
  -2.65           -0.00015661     1.6543e-008     -1.8509e-009   
  -2.7            -0.00015662     1.3173e-008     -2.3198e-009   
  -2.75           -0.00015696     8.891e-009      1.9966e-009    
  -2.8            -0.0001573      -2.1187e-008    2.6517e-009    
  -2.85           -0.00015727     -2.316e-008     2.0636e-009    
  -2.9            -0.00015726     -1.0708e-008    2.223e-010     
  -2.95           -0.00015728     1.4643e-008     -2.2101e-009   
  -3              -0.00015712     1.7646e-008     -1.4579e-009   
  -3.05           -0.00015752     7.7e-009        1.0957e-009    
  -3.1            -0.00015772     -2.0994e-008    1.8831e-009    
  -3.15           -0.00015737     -9.665e-009     -9.912e-010    
  -3.2            -0.00015765     1.1236e-008     -2.5178e-009   
  -3.25           -0.00015782     1.6476e-008     -1.8542e-009   
  -3.3            -0.0001578      1.3195e-008     -2.3223e-009   
  -3.35           -0.00015801     8.516e-009      1.9938e-009    
  -3.4            -0.00015845     -2.0932e-008    2.6517e-009    
  -3.45           -0.00015825     -2.3158e-008    2.0718e-009    
  -3.5            -0.00015867     -1.4015e-008    2.544e-009     
  -3.55           -0.00015821     -1.9185e-008    1.7545e-009    
  -3.6            -0.00015865     -1.6222e-008    2.3464e-009    
  -3.65           -0.00015805     -1.0881e-008    -7.671e-010    
  -3.7            -0.00015825     8.162e-009      -2.5854e-009   
  -3.75           -0.00015834     1.4069e-008     -2.248e-009    
  -3.8            -0.00015816     1.8754e-008     -1.4955e-009   
  -3.85           -0.00015848     7.715e-009      1.0676e-009    
  -3.9            -0.00015871     -2.1844e-008    1.946e-009     
  -3.95           -0.00015912     -1.5144e-008    2.4791e-009    
  -4              -0.00015877     -1.7063e-008    1.6222e-009    
  -4.05           -0.00015924     -1.6928e-008    2.2453e-009    
  -4.1            -0.0001586      -1.0686e-008    -8.273e-010    
  -4.15           -0.00015891     8.786e-009      -2.5711e-009   
