! VERSION = 6.00
BEGIN_HEADER
 ICCAP_INPUTS
  VG         V  B GROUND SMU4 0.001 LIN        2    0          -5         6    -1        
  VS         V  E GROUND SMU3 0.1 CON        0
  VD         V  S GROUND SMU2 0.1 LIN        1    0          -10        201  -0.05     
  VB         V  C GROUND SMU1 0.1 LIN        3    0          2.5        2    2.5       
 ICCAP_OUTPUTS
  ID         I  S GROUND SMU2 B
  IB         I  C GROUND SMU1 B
  IG         I  B GROUND SMU4 B
END_HEADER

BEGIN_DB
 ICCAP_VAR VG         0              
 ICCAP_VAR VS         0              
 ICCAP_VAR VB         0              

 #VD              ID              IB              IG             
  0               1.5862e-009     3.8637e-009     -8.458e-010    
  -0.05           -1.5222e-009    -2.6268e-009    1.6323e-009    
  -0.1            2.2721e-009     9.229e-010      9.048e-010     
  -0.15           -2.1456e-009    3.0585e-009     -1.0271e-009   
  -0.2            1.8907e-009     -4.2049e-009    1.3153e-009    
  -0.25           -2.2375e-009    2.8173e-009     -9.109e-010    
  -0.3            2.0555e-009     -3.9369e-009    1.1749e-009    
  -0.35           -2.2761e-009    2.6116e-009     -7.949e-010    
  -0.4            2.1862e-009     -4.3498e-009    1.06e-009      
  -0.45           -1.9326e-009    2.3998e-009     -1.2272e-009   
  -0.5            2.2609e-009     -4.3476e-009    9.535e-010     
  -0.55           -2.0918e-009    2.1526e-009     -1.0803e-009   
  -0.6            2.3014e-009     -4.3122e-009    8.286e-010     
  -0.65           -2.215e-009     2.9087e-009     -9.586e-010    
  -0.7            1.9858e-009     -4.0942e-009    1.2267e-009    
  -0.75           -2.2659e-009    2.7016e-009     -8.471e-010    
  -0.8            2.1377e-009     -4.3394e-009    1.1071e-009    
  -0.85           -1.8626e-009    2.4882e-009     -1.3001e-009   
  -0.9            2.2411e-009     -4.3428e-009    9.999e-010     
  -0.95           -2.0236e-009    2.2503e-009     -1.1385e-009   
  -1              2.2759e-009     -4.3367e-009    8.874e-010     
  -1.05           -2.1703e-009    3.0054e-009     -1.0115e-009   
  -1.1            1.9052e-009     -4.2199e-009    1.2915e-009    
  -1.15           -2.2486e-009    2.7792e-009     -8.953e-010    
  -1.2            2.0741e-009     -4.3249e-009    1.1551e-009    
  -1.25           -2.2873e-009    2.579e-009      -7.768e-010    
  -1.3            2.2059e-009     -4.3445e-009    1.0405e-009    
  -1.35           -1.958e-009     2.3573e-009     -1.2034e-009   
  -1.4            2.272e-009      -4.3669e-009    9.343e-010     
  -1.45           -2.1111e-009    2.1105e-009     -1.0626e-009   
  -1.5            2.3061e-009     -4.2745e-009    8.142e-010     
  -1.55           -2.2322e-009    2.8809e-009     -9.436e-010    
  -1.6            2.005e-009      -4.0392e-009    1.2098e-009    
  -1.65           -2.2718e-009    2.6707e-009     -8.291e-010    
  -1.7            2.1572e-009     -4.3335e-009    1.0903e-009    
  -1.75           -1.8824e-009    2.4598e-009     -1.2785e-009   
  -1.8            2.2522e-009     -4.3504e-009    9.836e-010     
  -1.85           -2.0452e-009    2.2224e-009     -1.1189e-009   
  -1.9            2.2827e-009     -4.3131e-009    8.722e-010     
  -1.95           -2.1825e-009    2.9724e-009     -9.924e-010    
  -2              1.9248e-009     -4.1603e-009    1.2761e-009    
  -2.05           -2.2521e-009    2.7521e-009     -8.821e-010    
  -2.1            2.095e-009      -4.3158e-009    1.1364e-009    
  -2.15           -2.2919e-009    2.5665e-009     -7.64e-010     
  -2.2            2.2186e-009     -4.335e-009     1.0334e-009    
  -2.25           -1.9712e-009    2.3379e-009     -1.1843e-009   
  -2.3            2.2777e-009     -4.3447e-009    9.25e-010      
  -2.35           -2.1249e-009    3.0914e-009     -1.0506e-009   
  -2.4            2.3073e-009     -4.255e-009     8.022e-010     
  -2.45           -2.2402e-009    2.8583e-009     -9.315e-010    
  -2.5            2.0216e-009     -4.0061e-009    1.1981e-009    
  -2.55           -2.2749e-009    2.6613e-009     -8.152e-010    
  -2.6            2.1713e-009     -4.3111e-009    1.0793e-009    
  -2.65           -1.899e-009     2.4416e-009     -1.2579e-009   
  -2.7            2.2609e-009     -4.3463e-009    9.702e-010     
  -2.75           -2.0613e-009    2.1949e-009     -1.1045e-009   
  -2.8            2.2869e-009     -4.3251e-009    8.592e-010     
  -2.85           -2.1995e-009    2.9584e-009     -9.801e-010    
  -2.9            1.9471e-009     -4.1521e-009    1.2572e-009    
  -2.95           -2.2634e-009    2.7403e-009     -8.667e-010    
  -3              2.1096e-009     -4.3106e-009    1.1266e-009    
  -3.05           -2.304e-009     2.5324e-009     -7.475e-010    
  -3.1            2.2291e-009     -4.3355e-009    1.0218e-009    
  -3.15           -1.9942e-009    2.3032e-009     -1.1687e-009   
  -3.2            2.2837e-009     -4.3296e-009    9.075e-010     
  -3.25           -2.1433e-009    3.0633e-009     -1.0343e-009   
  -3.3            1.8736e-009     -4.2358e-009    1.3267e-009    
  -3.35           -2.2474e-009    2.8234e-009     -9.171e-010    
  -3.4            2.0442e-009     -3.9696e-009    1.177e-009     
  -3.45           -2.2785e-009    2.6225e-009     -8.05e-010     
  -3.5            2.1864e-009     -4.321e-009     1.0617e-009    
  -3.55           -1.9209e-009    2.4071e-009     -1.234e-009    
  -3.6            2.2667e-009     -4.3418e-009    9.587e-010     
  -3.65           -2.0785e-009    2.167e-009      -1.0876e-009   
  -3.7            2.2922e-009     -4.2964e-009    8.418e-010     
  -3.75           -2.2112e-009    2.9238e-009     -9.659e-010    
  -3.8            1.9707e-009     -4.0973e-009    1.2326e-009    
  -3.85           -2.2665e-009    2.7076e-009     -8.527e-010    
  -3.9            2.1332e-009     -4.3155e-009    1.1082e-009    
  -3.95           -1.8477e-009    2.5072e-009     -1.3075e-009   
  -4              2.2383e-009     -4.3141e-009    1.0004e-009    
  -4.05           -2.0124e-009    2.2667e-009     -1.1459e-009   
  -4.1            2.2847e-009     -4.3478e-009    8.96e-010      
  -4.15           -2.163e-009     3.0166e-009     -1.0139e-009   
  -4.2            1.8983e-009     -4.1899e-009    1.3019e-009    
  -4.25           -2.2561e-009    2.7987e-009     -8.999e-010    
  -4.3            2.0619e-009     -3.8903e-009    1.1593e-009    
  -4.35           -2.282e-009     2.6017e-009     -7.844e-010    
  -4.4            2.2021e-009     -4.3203e-009    1.0527e-009    
  -4.45           -1.9455e-009    2.3677e-009     -1.2126e-009   
  -4.5            2.2724e-009     -4.3348e-009    9.452e-010     
  -4.55           -2.0981e-009    2.1212e-009     -1.0698e-009   
  -4.6            2.2944e-009     -4.292e-009     8.242e-010     
  -4.65           -2.225e-009     2.8896e-009     -9.507e-010    
  -4.7            1.9951e-009     -4.0569e-009    1.2139e-009    
  -4.75           -2.2722e-009    2.6805e-009     -8.357e-010    
  -4.8            2.1486e-009     -4.3021e-009    1.0943e-009    
  -4.85           -1.8768e-009    2.4715e-009     -1.2811e-009   
  -4.9            2.2454e-009     -4.3333e-009    9.914e-010     
  -4.95           -2.0344e-009    2.2395e-009     -1.1237e-009   
  -5              2.2886e-009     -4.3308e-009    8.755e-010     
  -5.05           -2.1756e-009    2.9851e-009     -1.0027e-009   
  -5.1            1.9274e-009     -4.1749e-009    1.2795e-009    
  -5.15           -2.2616e-009    2.7722e-009     -8.886e-010    
  -5.2            2.08e-009       -4.3242e-009    1.1448e-009    
  -5.25           -2.2884e-009    2.5652e-009     -7.669e-010    
  -5.3            2.2162e-009     -4.3123e-009    1.0334e-009    
  -5.35           -1.9723e-009    2.335e-009      -1.1875e-009   
  -5.4            2.2718e-009     -4.3195e-009    9.239e-010     
  -5.45           -2.1256e-009    3.1022e-009     -1.0501e-009   
  -5.5            2.3084e-009     -4.2489e-009    7.965e-010     
  -5.55           -2.2348e-009    2.8552e-009     -9.311e-010    
  -5.6            2.0284e-009     -3.9835e-009    1.1956e-009    
  -5.65           -2.2713e-009    2.6496e-009     -8.136e-010    
  -5.7            2.1727e-009     -4.3413e-009    1.0738e-009    
  -5.75           -1.9045e-009    2.4281e-009     -1.2577e-009   
  -5.8            2.2573e-009     -4.359e-009     9.689e-010     
  -5.85           -2.0705e-009    2.1877e-009     -1.1027e-009   
  -5.9            2.2891e-009     -4.3052e-009    8.493e-010     
  -5.95           -2.1986e-009    2.9555e-009     -9.774e-010    
  -6              1.9609e-009     -4.1032e-009    1.2518e-009    
  -6.05           -2.2612e-009    2.7275e-009     -8.612e-010    
  -6.1            2.1148e-009     -4.3455e-009    1.1231e-009    
  -6.15           -2.2966e-009    2.5218e-009     -7.433e-010    
  -6.2            2.2305e-009     -4.3205e-009    1.0111e-009    
  -6.25           -2.0037e-009    2.2919e-009     -1.1607e-009   
  -6.3            2.2757e-009     -4.329e-009     9.044e-010     
  -6.35           -2.152e-009     3.0548e-009     -1.0256e-009   
  -6.4            1.8857e-009     -4.2254e-009    1.3159e-009    
  -6.45           -2.2411e-009    2.8191e-009     -9.091e-010    
  -6.5            2.0554e-009     -3.9151e-009    1.1707e-009    
  -6.55           -2.2813e-009    2.6111e-009     -7.904e-010    
  -6.6            2.1901e-009     -4.3474e-009    1.0557e-009    
  -6.65           -1.9336e-009    2.387e-009      -1.2229e-009   
  -6.7            2.2585e-009     -4.3625e-009    9.474e-010     
  -6.75           -2.0919e-009    2.1417e-009     -1.0789e-009   
  -6.8            2.2969e-009     -4.2898e-009    8.272e-010     
  -6.85           -2.2118e-009    2.9041e-009     -9.577e-010    
  -6.9            1.9897e-009     -4.0654e-009    1.2277e-009    
  -6.95           -2.2647e-009    2.694e-009      -8.4e-010      
  -7              2.1427e-009     -4.3463e-009    1.0979e-009    
  -7.05           -1.8707e-009    2.4787e-009     -1.2922e-009   
  -7.1            2.2425e-009     -4.3514e-009    9.92e-010      
  -7.15           -2.0325e-009    2.2383e-009     -1.133e-009    
  -7.2            2.2824e-009     -4.3147e-009    8.8e-010       
  -7.25           -2.1767e-009    2.9961e-009     -1.0001e-009   
  -7.3            1.9247e-009     -4.1509e-009    1.2843e-009    
  -7.35           -2.2524e-009    2.775e-009      -8.834e-010    
  -7.4            2.0845e-009     -4.369e-009     1.1495e-009    
  -7.45           -2.287e-009     2.5589e-009     -7.692e-010    
  -7.5            2.2115e-009     -4.3393e-009    1.0368e-009    
  -7.55           -1.9719e-009    2.3476e-009     -1.1899e-009   
  -7.6            2.2671e-009     -4.3274e-009    9.281e-010     
  -7.65           -2.1215e-009    3.1105e-009     -1.0517e-009   
  -7.7            2.3124e-009     -4.2686e-009    8.054e-010     
  -7.75           -2.2292e-009    2.8666e-009     -9.32e-010     
  -7.8            2.024e-009      -4.003e-009     1.1986e-009    
  -7.85           -2.2713e-009    2.65e-009       -8.168e-010    
  -7.9            2.168e-009      -4.3455e-009    1.0767e-009    
  -7.95           -1.9042e-009    2.4362e-009     -1.2596e-009   
  -8              2.2542e-009     -4.3543e-009    9.725e-010     
  -8.05           -2.0683e-009    2.2018e-009     -1.1067e-009   
  -8.1            2.2906e-009     -4.2915e-009    8.512e-010     
  -8.15           -2.1973e-009    2.9513e-009     -9.787e-010    
  -8.2            1.9552e-009     -4.1345e-009    1.2527e-009    
  -8.25           -2.2588e-009    2.7324e-009     -8.62e-010     
  -8.3            2.1156e-009     -4.3615e-009    1.1268e-009    
  -8.35           -2.2971e-009    2.518e-009      -7.433e-010    
  -8.4            2.2299e-009     -4.3283e-009    1.0131e-009    
  -8.45           -2.003e-009     2.2923e-009     -1.1602e-009   
  -8.5            2.2742e-009     -4.3331e-009    9.009e-010     
  -8.55           -2.1494e-009    3.05e-009       -1.024e-009    
  -8.6            1.8925e-009     -4.1962e-009    1.3186e-009    
  -8.65           -2.2434e-009    2.8232e-009     -9.091e-010    
  -8.7            2.0557e-009     -3.924e-009     1.172e-009     
  -8.75           -2.2811e-009    2.6079e-009     -7.931e-010    
  -8.8            2.1937e-009     -4.3566e-009    1.0558e-009    
  -8.85           -1.937e-009     2.3772e-009     -1.2227e-009   
  -8.9            2.2611e-009     -4.3525e-009    9.508e-010     
  -8.95           -2.0974e-009    2.1443e-009     -1.0771e-009   
  -9              2.2965e-009     -4.2779e-009    8.263e-010     
  -9.05           -2.2151e-009    2.9041e-009     -9.537e-010    
  -9.1            1.9915e-009     -4.053e-009     1.2242e-009    
  -9.15           -2.267e-009     2.6882e-009     -8.368e-010    
  -9.2            2.1443e-009     -4.3372e-009    1.1026e-009    
  -9.25           -1.8726e-009    2.4752e-009     -1.2949e-009   
  -9.3            2.2454e-009     -4.346e-009     9.92e-010      
  -9.35           -2.0422e-009    2.2442e-009     -1.1258e-009   
  -9.4            2.2856e-009     -4.3218e-009    8.777e-010     
  -9.45           -2.1807e-009    2.9933e-009     -9.982e-010    
  -9.5            1.9342e-009     -4.1672e-009    1.2752e-009    
  -9.55           -2.256e-009     2.7652e-009     -8.809e-010    
  -9.6            2.0959e-009     -4.3329e-009    1.141e-009     
  -9.65           -2.2922e-009    2.5556e-009     -7.618e-010    
  -9.7            2.22e-009       -4.3367e-009    1.0294e-009    
  -9.75           -1.9795e-009    2.3249e-009     -1.1834e-009   
  -9.8            2.2746e-009     -4.3427e-009    9.154e-010     
  -9.85           -2.1361e-009    3.0904e-009     -1.0465e-009   
  -9.9            1.8641e-009     -4.2561e-009    1.338e-009     
  -9.95           -2.2373e-009    2.8511e-009     -9.261e-010    
  -10             2.0325e-009     -3.9783e-009    1.1884e-009    
END_DB

BEGIN_DB
 ICCAP_VAR VG         -1             
 ICCAP_VAR VS         0              
 ICCAP_VAR VB         0              

 #VD              ID              IB              IG             
  0               1.9976e-008     7.886e-010      -8.912e-010    
  -0.05           -4.3509e-007    2.9689e-009     1.6738e-009    
  -0.1            -5.2808e-007    -2.8735e-009    1.6516e-009    
  -0.15           -5.5445e-007    -2.8021e-009    1.6354e-009    
  -0.2            -5.6979e-007    -2.7329e-009    1.6233e-009    
  -0.25           -5.8246e-007    -2.6388e-009    1.6045e-009    
  -0.3            -5.9418e-007    -2.4925e-009    1.7523e-009    
  -0.35           -6.0633e-007    -3.0821e-009    1.7034e-009    
  -0.4            -6.1295e-007    -2.9415e-009    1.6657e-009    
  -0.45           -6.1991e-007    -2.8515e-009    1.6468e-009    
  -0.5            -6.2725e-007    -2.7836e-009    1.6329e-009    
  -0.55           -6.3547e-007    -2.704e-009     1.6224e-009    
  -0.6            -6.4388e-007    -2.5996e-009    1.7822e-009    
  -0.65           -6.5635e-007    -3.2108e-009    1.7347e-009    
  -0.7            -6.6062e-007    -3.0332e-009    1.6893e-009    
  -0.75           -6.6395e-007    -2.9026e-009    1.6566e-009    
  -0.8            -6.6951e-007    -2.83e-009      1.6396e-009    
  -0.85           -6.7539e-007    -2.7642e-009    1.6308e-009    
  -0.9            -6.8224e-007    -2.6791e-009    1.6142e-009    
  -0.95           -6.8885e-007    -2.545e-009     1.7667e-009    
  -1              -6.9963e-007    -3.1355e-009    1.7206e-009    
  -1.05           -7.0202e-007    -2.9879e-009    1.6756e-009    
  -1.1            -7.0545e-007    -2.8799e-009    1.6495e-009    
  -1.15           -7.0935e-007    -2.8009e-009    1.6343e-009    
  -1.2            -7.1484e-007    -2.7323e-009    1.6222e-009    
  -1.25           -7.2044e-007    -2.6341e-009    1.6044e-009    
  -1.3            -7.2631e-007    -2.4924e-009    1.7541e-009    
  -1.35           -7.3483e-007    -3.0906e-009    1.7061e-009    
  -1.4            -7.3679e-007    -2.9443e-009    1.6629e-009    
  -1.45           -7.3931e-007    -2.8508e-009    1.6433e-009    
  -1.5            -7.432e-007     -2.7829e-009    1.6315e-009    
  -1.55           -7.4782e-007    -2.701e-009     1.619e-009     
  -1.6            -7.5312e-007    -2.5988e-009    1.7863e-009    
  -1.65           -7.6409e-007    -3.2286e-009    1.7428e-009    
  -1.7            -7.6468e-007    -3.0407e-009    1.6914e-009    
  -1.75           -7.6621e-007    -2.9086e-009    1.6546e-009    
  -1.8            -7.6902e-007    -2.8229e-009    1.6382e-009    
  -1.85           -7.7217e-007    -2.7595e-009    1.6246e-009    
  -1.9            -7.7689e-007    -2.6768e-009    1.614e-009     
  -1.95           -7.8151e-007    -2.5595e-009    1.7748e-009    
  -2              -7.909e-007     -3.1619e-009    1.7271e-009    
  -2.05           -7.9075e-007    -2.9936e-009    1.6778e-009    
  -2.1            -7.9193e-007    -2.8786e-009    1.6479e-009    
  -2.15           -7.9432e-007    -2.796e-009     1.6335e-009    
  -2.2            -7.9743e-007    -2.7314e-009    1.6205e-009    
  -2.25           -8.0133e-007    -2.6423e-009    1.6083e-009    
  -2.3            -8.0587e-007    -2.5068e-009    1.7616e-009    
  -2.35           -8.1327e-007    -3.1037e-009    1.7114e-009    
  -2.4            -8.1351e-007    -2.9537e-009    1.6669e-009    
  -2.45           -8.1456e-007    -2.8489e-009    1.6425e-009    
  -2.5            -8.1662e-007    -2.7795e-009    1.6296e-009    
  -2.55           -8.1947e-007    -2.7133e-009    1.6196e-009    
  -2.6            -8.2392e-007    -2.609e-009     1.7905e-009    
  -2.65           -8.3387e-007    -3.2396e-009    1.7453e-009    
  -2.7            -8.3389e-007    -3.0494e-009    1.6973e-009    
  -2.75           -8.3427e-007    -2.9172e-009    1.6588e-009    
  -2.8            -8.3557e-007    -2.824e-009     1.639e-009     
  -2.85           -8.3733e-007    -2.7588e-009    1.625e-009     
  -2.9            -8.4097e-007    -2.6829e-009    1.6132e-009    
  -2.95           -8.4464e-007    -2.569e-009     1.7815e-009    
  -3              -8.5438e-007    -3.1802e-009    1.7336e-009    
  -3.05           -8.5351e-007    -3.0098e-009    1.6851e-009    
  -3.1            -8.5391e-007    -2.8763e-009    1.651e-009     
  -3.15           -8.5574e-007    -2.801e-009     1.6377e-009    
  -3.2            -8.5742e-007    -2.7386e-009    1.6222e-009    
  -3.25           -8.6134e-007    -2.6517e-009    1.6065e-009    
  -3.3            -8.6416e-007    -2.524e-009     1.7699e-009    
  -3.35           -8.7267e-007    -3.1256e-009    1.7172e-009    
  -3.4            -8.7221e-007    -2.9604e-009    1.671e-009     
  -3.45           -8.7325e-007    -2.8462e-009    1.6426e-009    
  -3.5            -8.7405e-007    -2.7804e-009    1.6297e-009    
  -3.55           -8.7759e-007    -2.7118e-009    1.6177e-009    
  -3.6            -8.8092e-007    -2.6076e-009    1.795e-009     
  -3.65           -8.9132e-007    -3.2587e-009    1.7491e-009    
  -3.7            -8.9087e-007    -3.05e-009      1.6972e-009    
  -3.75           -8.9103e-007    -2.9106e-009    1.6559e-009    
  -3.8            -8.9176e-007    -2.8217e-009    1.6367e-009    
  -3.85           -8.9361e-007    -2.7586e-009    1.6245e-009    
  -3.9            -8.9705e-007    -2.6803e-009    1.6131e-009    
  -3.95           -9.0044e-007    -2.5569e-009    1.7807e-009    
  -4              -9.0999e-007    -3.1754e-009    1.7332e-009    
  -4.05           -9.0886e-007    -2.9993e-009    1.6835e-009    
  -4.1            -9.0912e-007    -2.8804e-009    1.6488e-009    
  -4.15           -9.1023e-007    -2.7946e-009    1.6332e-009    
  -4.2            -9.1267e-007    -2.7343e-009    1.6216e-009    
  -4.25           -9.1616e-007    -2.6421e-009    1.6039e-009    
  -4.3            -9.1983e-007    -2.5064e-009    1.7655e-009    
  -4.35           -9.2685e-007    -3.1101e-009    1.7124e-009    
