! VERSION = 6.00
BEGIN_HEADER
 ICCAP_INPUTS
  VG         V  B GROUND SMU4 0.001 LIN        2    0          -5         6    -1        
  VS         V  E GROUND SMU3 0.1 CON        0
  VD         V  S GROUND SMU2 0.1 LIN        1    0          -10        201  -0.05     
  VB         V  C GROUND SMU1 0.1 LIN        3    0          2.5        2    2.5       
 ICCAP_OUTPUTS
  ID         I  S GROUND SMU2 B
  IB         I  C GROUND SMU1 B
  IG         I  B GROUND SMU4 B
END_HEADER

BEGIN_DB
 ICCAP_VAR VG         0              
 ICCAP_VAR VS         0              
 ICCAP_VAR VB         0              

 #VD              ID              IB              IG             
  0               -2.0448e-009    2.3206e-009     3.05e-011      
  -0.05           -1.9571e-009    1.0081e-009     -1.345e-009    
  -0.1            2.3088e-009     -3.7973e-009    9.974e-010     
  -0.15           -2.1263e-009    2.1715e-009     -1.1682e-009   
  -0.2            2.3514e-009     -3.8252e-009    8.885e-010     
  -0.25           -2.2645e-009    2.9026e-009     -1.0217e-009   
  -0.3            2.0136e-009     -3.7718e-009    1.3026e-009    
  -0.35           -2.3513e-009    2.6608e-009     -8.969e-010    
  -0.4            2.1643e-009     -3.7991e-009    1.1495e-009    
  -0.45           -2.3749e-009    2.4513e-009     -7.812e-010    
  -0.5            2.2838e-009     -3.8023e-009    1.0283e-009    
  -0.55           -2.0868e-009    2.2438e-009     -1.2157e-009   
  -0.6            2.3428e-009     -3.8383e-009    9.21e-010      
  -0.65           -2.2284e-009    2.9878e-009     -1.0564e-009   
  -0.7            1.9671e-009     -3.8222e-009    1.352e-009     
  -0.75           -2.3351e-009    2.7207e-009     -9.314e-010    
  -0.8            2.1262e-009     -3.6267e-009    1.1851e-009    
  -0.85           -2.3723e-009    2.5071e-009     -8.133e-010    
  -0.9            2.2548e-009     -3.8018e-009    1.059e-009     
  -0.95           -2.0425e-009    2.3006e-009     -1.2651e-009   
  -1              2.3371e-009     -3.8143e-009    9.462e-010     
  -1.05           -2.1922e-009    3.0739e-009     -1.0968e-009   
  -1.1            1.9163e-009     -3.8333e-009    1.4022e-009    
  -1.15           -2.3113e-009    2.7851e-009     -9.653e-010    
  -1.2            2.081e-009      -3.7182e-009    1.2309e-009    
  -1.25           -2.3696e-009    2.5593e-009     -8.462e-010    
  -1.3            2.2252e-009     -3.7912e-009    1.0889e-009    
  -1.35           -1.9969e-009    2.3569e-009     -1.3096e-009   
  -1.4            2.3228e-009     -3.8217e-009    9.768e-010     
  -1.45           -2.155e-009     2.1454e-009     -1.1374e-009   
  -1.5            2.3552e-009     -3.8355e-009    8.68e-010      
  -1.55           -2.2845e-009    2.8558e-009     -9.953e-010    
  -1.6            2.0417e-009     -3.745e-009     1.2725e-009    
  -1.65           -2.3631e-009    2.6185e-009     -8.79e-010     
  -1.7            2.1904e-009     -3.776e-009     1.1237e-009    
  -1.75           -1.9463e-009    2.4147e-009     -1.3618e-009   
  -1.8            2.3008e-009     -3.8089e-009    1.007e-009     
  -1.85           -2.1183e-009    2.2001e-009     -1.1833e-009   
  -1.9            2.3503e-009     -3.8215e-009    8.996e-010     
  -1.95           -2.2539e-009    2.9263e-009     -1.0298e-009   
  -2              1.9971e-009     -3.7728e-009    1.3179e-009    
  -2.05           -2.3491e-009    2.6772e-009     -9.064e-010    
  -2.1            2.1539e-009     -3.7854e-009    1.1622e-009    
  -2.15           -2.381e-009     2.4683e-009     -7.892e-010    
  -2.2            2.2805e-009     -3.7578e-009    1.0424e-009    
  -2.25           -2.0628e-009    2.2648e-009     -1.2309e-009   
  -2.3            2.3462e-009     -3.7419e-009    9.316e-010     
  -2.35           -2.2185e-009    3.0185e-009     -1.0709e-009   
  -2.4            1.9532e-009     -3.8034e-009    1.3611e-009    
  -2.45           -2.3311e-009    2.7439e-009     -9.392e-010    
  -2.5            2.1117e-009     -3.6708e-009    1.2028e-009    
  -2.55           -2.3714e-009    2.5205e-009     -8.239e-010    
  -2.6            2.2481e-009     -3.8196e-009    1.0669e-009    
  -2.65           -2.0335e-009    2.3102e-009     -1.275e-009    
  -2.7            2.3298e-009     -3.9568e-009    9.525e-010     
  -2.75           -2.1885e-009    2.0847e-009     -1.1057e-009   
  -2.8            2.3552e-009     -3.8978e-009    8.436e-010     
  -2.85           -2.31e-009      2.8006e-009     -9.688e-010    
  -2.9            2.0707e-009     -3.7298e-009    1.2345e-009    
  -2.95           -2.3692e-009    2.5757e-009     -8.546e-010    
  -3              2.2164e-009     -3.8443e-009    1.0928e-009    
  -3.05           -1.9828e-009    2.3659e-009     -1.323e-009    
  -3.1            2.3182e-009     -3.7976e-009    9.837e-010     
  -3.15           -2.1455e-009    2.1562e-009     -1.1451e-009   
  -3.2            2.358e-009      -3.8288e-009    8.769e-010     
  -3.25           -2.2803e-009    2.8756e-009     -1.0052e-009   
  -3.3            2.0345e-009     -3.7502e-009    1.2808e-009    
  -3.35           -2.3599e-009    2.6328e-009     -8.831e-010    
  -3.4            2.1854e-009     -3.7735e-009    1.133e-009     
  -3.45           -1.9374e-009    2.4231e-009     -1.3722e-009   
  -3.5            2.3016e-009     -3.8116e-009    1.0136e-009    
  -3.55           -2.1032e-009    2.217e-009      -1.1907e-009   
  -3.6            2.353e-009      -3.8174e-009    9.059e-010     
  -3.65           -2.2491e-009    2.9418e-009     -1.0403e-009   
  -3.7            1.9913e-009     -3.7892e-009    1.3194e-009    
  -3.75           -2.3517e-009    2.6837e-009     -9.118e-010    
  -3.8            2.1469e-009     -3.8e-009       1.1643e-009    
  -3.85           -2.3835e-009    2.4775e-009     -7.936e-010    
  -3.9            2.2761e-009     -3.7912e-009    1.0422e-009    
  -3.95           -2.0685e-009    2.262e-009      -1.2325e-009   
  -4              2.346e-009      -3.8277e-009    9.304e-010     
  -4.05           -2.2188e-009    3.0226e-009     -1.0718e-009   
  -4.1            1.9493e-009     -3.8143e-009    1.3676e-009    
  -4.15           -2.3313e-009    2.7498e-009     -9.422e-010    
  -4.2            2.112e-009      -3.6696e-009    1.2001e-009    
  -4.25           -2.3765e-009    2.5222e-009     -8.256e-010    
  -4.3            2.2508e-009     -3.7881e-009    1.0669e-009    
  -4.35           -2.0283e-009    2.3221e-009     -1.2794e-009   
  -4.4            2.3352e-009     -3.81e-009      9.601e-010     
  -4.45           -2.1842e-009    2.1046e-009     -1.1058e-009   
  -4.5            2.3579e-009     -3.8175e-009    8.534e-010     
  -4.55           -2.3078e-009    2.8064e-009     -9.731e-010    
  -4.6            2.0698e-009     -3.7217e-009    1.2407e-009    
  -4.65           -2.3677e-009    2.5744e-009     -8.564e-010    
  -4.7            2.2122e-009     -3.8e-009       1.1046e-009    
  -4.75           -1.9762e-009    2.3785e-009     -1.3283e-009   
  -4.8            2.3202e-009     -3.8243e-009    9.868e-010     
  -4.85           -2.1431e-009    2.1649e-009     -1.153e-009    
  -4.9            2.3548e-009     -3.839e-009     8.81e-010      
  -4.95           -2.2766e-009    2.8839e-009     -1.0075e-009   
  -5              2.0292e-009     -3.7638e-009    1.2831e-009    
  -5.05           -2.3556e-009    2.6409e-009     -8.889e-010    
  -5.1            2.1783e-009     -3.7896e-009    1.1324e-009    
  -5.15           -1.9288e-009    2.4349e-009     -1.3819e-009   
  -5.2            -7.246e-010     -3.7977e-009    1.7061e-009    
  -5.25           2.3757e-009     1.3378e-009     7.7e-010       
  -5.3            -2.3543e-009    2.661e-009      -8.973e-010    
  -5.35           2.1701e-009     -3.7864e-009    1.1474e-009    
  -5.4            -2.3798e-009    2.4418e-009     -7.83e-010     
  -5.45           2.2882e-009     -3.804e-009     1.0253e-009    
  -5.5            -2.0882e-009    2.2406e-009     -1.2059e-009   
  -5.55           2.3445e-009     -3.8359e-009    9.18e-010      
  -5.6            -2.2329e-009    2.9865e-009     -1.0567e-009   
  -5.65           1.9626e-009     -3.8086e-009    1.3458e-009    
  -5.7            -2.3401e-009    2.7123e-009     -9.268e-010    
  -5.75           2.1257e-009     -3.6365e-009    1.1834e-009    
  -5.8            -2.3737e-009    2.5041e-009     -8.091e-010    
  -5.85           2.2556e-009     -3.8029e-009    1.0549e-009    
  -5.9            -2.0418e-009    2.3027e-009     -1.2572e-009   
  -5.95           2.3349e-009     -3.8235e-009    9.484e-010     
  -6              -2.194e-009     3.0689e-009     -1.0979e-009   
  -6.05           1.9238e-009     -3.8124e-009    1.394e-009     
  -6.1            -2.3139e-009    2.7887e-009     -9.619e-010    
  -6.15           2.0812e-009     -3.7001e-009    1.2279e-009    
  -6.2            -2.3711e-009    2.565e-009      -8.435e-010    
  -6.25           2.2255e-009     -3.798e-009     1.0919e-009    
  -6.3            -1.9947e-009    2.3558e-009     -1.312e-009    
  -6.35           2.3239e-009     -3.8146e-009    9.781e-010     
  -6.4            -2.1528e-009    2.141e-009      -1.1416e-009   
  -6.45           2.3521e-009     -3.847e-009     8.696e-010     
  -6.5            -2.2866e-009    2.8644e-009     -9.961e-010    
  -6.55           2.0375e-009     -3.7409e-009    1.2764e-009    
  -6.6            -2.3641e-009    2.6219e-009     -8.786e-010    
  -6.65           2.189e-009      -3.798e-009     1.1265e-009    
  -6.7            -1.9464e-009    2.4168e-009     -1.367e-009    
  -6.75           2.3011e-009     -3.8099e-009    1.0077e-009    
  -6.8            -2.1115e-009    2.2098e-009     -1.1857e-009   
  -6.85           2.3503e-009     -3.8229e-009    9.014e-010     
  -6.9            -2.2452e-009    2.9517e-009     -1.0379e-009   
  -6.95           1.989e-009      -3.7817e-009    1.3277e-009    
  -7              -2.3459e-009    2.6912e-009     -9.139e-010    
  -7.05           2.1463e-009     -3.794e-009     1.1697e-009    
  -7.1            -2.3844e-009    2.4823e-009     -7.995e-010    
  -7.15           2.2697e-009     -3.8086e-009    1.0438e-009    
  -7.2            -2.0629e-009    2.2848e-009     -1.2412e-009   
  -7.25           2.3435e-009     -3.8116e-009    9.373e-010     
  -7.3            -2.2096e-009    3.0379e-009     -1.0775e-009   
  -7.35           1.943e-009      -3.8241e-009    1.3811e-009    
  -7.4            -2.3213e-009    2.7649e-009     -9.529e-010    
  -7.45           2.099e-009      -3.6815e-009    1.2151e-009    
  -7.5            -2.3741e-009    2.541e-009      -8.34e-010     
  -7.55           2.234e-009      -3.7971e-009    1.082e-009     
  -7.6            -2.0142e-009    2.3345e-009     -1.2962e-009   
  -7.65           2.3264e-009     -3.8239e-009    9.733e-010     
  -7.7            -2.1707e-009    2.1268e-009     -1.1251e-009   
  -7.75           2.3609e-009     -3.8317e-009    8.617e-010     
  -7.8            -2.2945e-009    2.844e-009      -9.886e-010    
  -7.85           2.0529e-009     -3.7404e-009    1.2614e-009    
  -7.9            -2.3662e-009    2.6045e-009     -8.687e-010    
  -7.95           2.1941e-009     -3.7996e-009    1.1167e-009    
  -8              -1.9642e-009    2.4068e-009     -1.3542e-009   
  -8.05           2.305e-009      -3.8204e-009    1.0027e-009    
  -8.1            -2.1286e-009    2.1907e-009     -1.174e-009    
  -8.15           2.3548e-009     -3.8464e-009    8.943e-010     
  -8.2            -2.2597e-009    2.9279e-009     -1.0247e-009   
  -8.25           2.0017e-009     -3.7783e-009    1.312e-009     
  -8.3            -2.3471e-009    2.6805e-009     -9.045e-010    
  -8.35           2.1507e-009     -3.81e-009      1.1588e-009    
  -8.4            -2.3813e-009    2.4674e-009     -7.915e-010    
  -8.45           2.2764e-009     -3.815e-009     1.0388e-009    
  -8.5            -2.0776e-009    2.2658e-009     -1.2253e-009   
  -8.55           2.3454e-009     -3.8369e-009    9.318e-010     
  -8.6            -2.2142e-009    3.0268e-009     -1.0709e-009   
  -8.65           1.9495e-009     -3.8205e-009    1.3747e-009    
  -8.7            -2.3227e-009    2.7499e-009     -9.464e-010    
  -8.75           2.1018e-009     -3.6602e-009    1.2109e-009    
  -8.8            -2.3727e-009    2.5341e-009     -8.258e-010    
  -8.85           2.2356e-009     -3.8087e-009    1.0769e-009    
  -8.9            -2.021e-009     2.3345e-009     -1.2906e-009   
  -8.95           2.3299e-009     -3.8173e-009    9.638e-010     
  -9              -2.1744e-009    2.1204e-009     -1.121e-009    
  -9.05           2.3641e-009     -3.8271e-009    8.589e-010     
  -9.1            -2.2965e-009    2.8371e-009     -9.847e-010    
  -9.15           2.0611e-009     -3.7538e-009    1.2555e-009    
  -9.2            -2.3637e-009    2.6017e-009     -8.626e-010    
  -9.25           2.1998e-009     -3.8135e-009    1.1129e-009    
  -9.3            -1.9624e-009    2.4042e-009     -1.349e-009    
  -9.35           2.3068e-009     -3.8533e-009    9.95e-010      
  -9.4            -2.1257e-009    2.1841e-009     -1.169e-009    
  -9.45           2.3548e-009     -3.8433e-009    8.954e-010     
  -9.5            -2.2593e-009    2.9111e-009     -1.0249e-009   
  -9.55           2.0014e-009     -3.7844e-009    1.309e-009     
  -9.6            -2.349e-009     2.6725e-009     -9.04e-010     
  -9.65           2.1517e-009     -3.7962e-009    1.156e-009     
  -9.7            -2.3823e-009    2.4626e-009     -7.915e-010    
  -9.75           2.2753e-009     -3.8011e-009    1.0367e-009    
  -9.8            -2.0755e-009    2.2627e-009     -1.2286e-009   
  -9.85           2.3459e-009     -3.8394e-009    9.311e-010     
  -9.9            -2.2153e-009    3.0137e-009     -1.0702e-009   
  -9.95           1.9446e-009     -3.8064e-009    1.3655e-009    
  -10             -2.3252e-009    2.7474e-009     -9.441e-010    
END_DB

BEGIN_DB
 ICCAP_VAR VG         -1             
 ICCAP_VAR VS         0              
 ICCAP_VAR VB         0              

 #VD              ID              IB              IG             
  0               1.0911e-008     -2.4189e-009    -1.997e-010    
  -0.05           -1.5548e-007    -3.2783e-009    -1.74e-009     
  -0.1            -1.9106e-007    3.8415e-009     -1.7254e-009   
  -0.15           -2.0286e-007    3.8233e-009     -1.7175e-009   
  -0.2            -2.0988e-007    3.8053e-009     -1.6991e-009   
  -0.25           -2.156e-007     3.7498e-009     -1.679e-009    
  -0.3            -2.2068e-007    3.6668e-009     -1.6361e-009   
  -0.35           -2.2552e-007    3.5705e-009     -1.7509e-009   
  -0.4            -2.319e-007     3.8406e-009     -1.7337e-009   
  -0.45           -2.3602e-007    3.8246e-009     -1.7212e-009   
  -0.5            -2.398e-007     3.825e-009      -1.7081e-009   
  -0.55           -2.4338e-007    3.7928e-009     -1.6952e-009   
  -0.6            -2.4677e-007    3.7208e-009     -1.6665e-009   
  -0.65           -2.502e-007     3.6335e-009     -1.6179e-009   
  -0.7            -2.5378e-007    3.5212e-009     -1.7435e-009   
  -0.75           -2.5891e-007    3.8305e-009     -1.7273e-009   
  -0.8            -2.6202e-007    3.8267e-009     -1.7134e-009   
  -0.85           -2.649e-007     3.8202e-009     -1.7054e-009   
  -0.9            -2.6772e-007    3.7638e-009     -1.6872e-009   
  -0.95           -2.7048e-007    3.69e-009       -1.6496e-009   
  -1              -2.735e-007     3.5956e-009     -1.6014e-009   
  -1.05           -2.7672e-007    3.49e-009       -1.7402e-009   
  -1.1            -2.8129e-007    3.8342e-009     -1.7225e-009   
  -1.15           -2.8387e-007    3.8285e-009     -1.7143e-009   
  -1.2            -2.8618e-007    3.7974e-009     -1.7019e-009   
  -1.25           -2.8845e-007    3.7461e-009     -1.6725e-009   
  -1.3            -2.9108e-007    3.6575e-009     -1.6316e-009   
  -1.35           -2.9364e-007    3.554e-009      -1.7544e-009   
  -1.4            -2.9838e-007    3.8422e-009     -1.7301e-009   
  -1.45           -3.0063e-007    3.8338e-009     -1.7179e-009   
  -1.5            -3.0273e-007    3.8194e-009     -1.7103e-009   
  -1.55           -3.0491e-007    3.7816e-009     -1.6934e-009   
  -1.6            -3.0691e-007    3.7131e-009     -1.6618e-009   
  -1.65           -3.0904e-007    3.6214e-009     -1.6145e-009   
  -1.7            -3.1157e-007    3.5137e-009     -1.7423e-009   
  -1.75           -3.1577e-007    3.8355e-009     -1.725e-009    
  -1.8            -3.1772e-007    3.8257e-009     -1.7157e-009   
  -1.85           -3.1956e-007    3.8137e-009     -1.7055e-009   
  -1.9            -3.2124e-007    3.7642e-009     -1.6836e-009   
  -1.95           -3.2302e-007    3.6815e-009     -1.6447e-009   
  -2              -3.2504e-007    3.5843e-009     -1.5954e-009   
  -2.05           -3.2762e-007    3.4743e-009     -1.7348e-009   
  -2.1            -3.3145e-007    3.8281e-009     -1.7214e-009   
  -2.15           -3.3297e-007    3.8224e-009     -1.712e-009    
  -2.2            -3.3454e-007    3.8005e-009     -1.6979e-009   
  -2.25           -3.3594e-007    3.7334e-009     -1.6711e-009   
  -2.3            -3.3752e-007    3.6488e-009     -1.627e-009    
  -2.35           -3.3962e-007    3.5422e-009     -1.7462e-009   
  -2.4            -3.4372e-007    3.8356e-009     -1.73e-009     
  -2.45           -3.4515e-007    3.8325e-009     -1.7186e-009   
  -2.5            -3.4659e-007    3.8202e-009     -1.7084e-009   
  -2.55           -3.4782e-007    3.78e-009       -1.6888e-009   
  -2.6            -3.4923e-007    3.7023e-009     -1.6553e-009   
  -2.65           -3.5082e-007    3.6106e-009     -1.6062e-009   
  -2.7            -3.5295e-007    3.497e-009      -1.7388e-009   
  -2.75           -3.5657e-007    3.8341e-009     -1.7236e-009   
  -2.8            -3.5811e-007    3.8249e-009     -1.7133e-009   
  -2.85           -3.592e-007     3.8002e-009     -1.7024e-009   
  -2.9            -3.604e-007     3.7497e-009     -1.679e-009    
  -2.95           -3.6178e-007    3.6702e-009     -1.6374e-009   
  -3              -3.6374e-007    3.5701e-009     -1.7517e-009   
  -3.05           -3.6766e-007    3.8384e-009     -1.7351e-009   
  -3.1            -3.6901e-007    3.8301e-009     -1.7215e-009   
  -3.15           -3.7048e-007    3.8232e-009     -1.7116e-009   
  -3.2            -3.7166e-007    3.7934e-009     -1.696e-009    
  -3.25           -3.7273e-007    3.7235e-009     -1.6634e-009   
  -3.3            -3.7423e-007    3.6306e-009     -1.6173e-009   
  -3.35           -3.7612e-007    3.5249e-009     -1.7438e-009   
  -3.4            -3.8013e-007    3.8321e-009     -1.7268e-009   
  -3.45           -3.8139e-007    3.8244e-009     -1.7149e-009   
  -3.5            -3.825e-007     3.8116e-009     -1.7049e-009   
  -3.55           -3.8383e-007    3.766e-009      -1.685e-009    
  -3.6            -3.8507e-007    3.6922e-009     -1.6477e-009   
  -3.65           -3.8669e-007    3.5898e-009     -1.5974e-009   
  -3.7            -3.8867e-007    3.4863e-009     -1.7353e-009   
  -3.75           -3.9245e-007    3.8301e-009     -1.7235e-009   
  -3.8            -3.9358e-007    3.8215e-009     -1.7129e-009   
  -3.85           -3.9478e-007    3.8022e-009     -1.7008e-009   
  -3.9            -3.9588e-007    3.743e-009      -1.6727e-009   
  -3.95           -3.9721e-007    3.6548e-009     -1.6291e-009   
  -4              -3.9923e-007    3.5487e-009     -1.7493e-009   
  -4.05           -4.0329e-007    3.8375e-009     -1.7301e-009   
  -4.1            -4.0457e-007    3.8314e-009     -1.7172e-009   
  -4.15           -4.0584e-007    3.8205e-009     -1.7065e-009   
  -4.2            -4.0699e-007    3.778e-009      -1.6901e-009   
  -4.25           -4.0835e-007    3.713e-009      -1.6592e-009   
  -4.3            -4.0976e-007    3.6198e-009     -1.611e-009    
  -4.35           -4.1183e-007    3.5096e-009     -1.7395e-009   
