! VERSION = 6.00
BEGIN_HEADER
 ICCAP_INPUTS
  VG         V  B GROUND SMU4 0.001 LIN        1    0          -5         101  -0.05     
  VS         V  E GROUND SMU2 0.1 CON        0
  VB         V  C GROUND SMU3 0.1 LIN        3    0          5          3    2.5       
  VD         V  S GROUND SMU1 0.1 LIN        2    -0.1       -5         2    -4.9      
 ICCAP_OUTPUTS
  IG         I  B GROUND SMU4 B
  ID         I  S GROUND SMU1 B
  IB         I  C GROUND SMU3 B
END_HEADER

BEGIN_DB
 ICCAP_VAR VS         0              
 ICCAP_VAR VB         0              
 ICCAP_VAR VD         -0.1           

 #VG              IG              ID              IB             
  0               8.895e-010      8.284e-010      1.5854e-008    
  -0.05           3.495e-010      2.066e-009      1.0732e-008    
  -0.1            5.154e-010      2.1056e-009     1.0281e-008    
  -0.15           -2.1261e-009    1.3358e-009     2.515e-008     
  -0.2            -1.3187e-009    -1.8791e-009    3.624e-009     
  -0.25           2.4801e-009     -4.908e-010     -1.7135e-008   
  -0.3            4.656e-010      2.1022e-009     1.0556e-008    
  -0.35           -2.1842e-009    5.277e-010      1.6373e-008    
  -0.4            -1.2789e-009    -1.9118e-009    3.106e-009     
  -0.45           2.5221e-009     -4.475e-010     -1.6916e-008   
  -0.5            -1.5787e-009    1.5778e-009     1.3603e-008    
  -0.55           -7.982e-010     -2.0557e-009    5.741e-009     
  -0.6            1.9466e-009     -1.5222e-009    -1.542e-008    
  -0.65           5.751e-010      2.1066e-009     -7.403e-009    
  -0.7            -2.0162e-009    1.3229e-009     2.3194e-008    
  -0.75           -1.3888e-009    -2.0301e-009    4.323e-009     
  -0.8            2.4048e-009     -1.4568e-009    -1.7275e-008   
  -0.85           5.377e-010      -1.0927e-009    1.0301e-008    
  -0.9            -2.417e-009     -1.3162e-008    -1.5985e-008   
  -0.95           2.6566e-009     -4.9935e-008    -1.6372e-008   
  -1              -2.62e-010      -1.6808e-007    9.111e-009     
  -1.05           -7.384e-010     -5.163e-007     -1.1057e-008   
  -1.1            2.1504e-009     -1.4176e-006    1.4345e-008    
  -1.15           -1.8977e-009    -3.3254e-006    1.6092e-008    
  -1.2            -1.335e-009     -6.5398e-006    5.072e-009     
  -1.25           -2.5485e-009    -1.11234e-005   7.775e-009     
  -1.3            2.6373e-009     -1.678e-005     -1.0769e-008   
  -1.35           1.8758e-009     -2.2841e-005    9.077e-009     
  -1.4            -2.3061e-009    -2.8598e-005    1.3102e-008    
  -1.45           -1.7392e-009    -3.4356e-005    2.049e-009     
  -1.5            -2.5107e-009    -3.9635e-005    5.163e-009     
  -1.55           2.6314e-009     -4.4612e-005    -1.2227e-008   
  -1.6            -1.5276e-009    -4.8964e-005    1.9979e-008    
  -1.65           -2.548e-009     -5.3087e-005    6.116e-009     
  -1.7            2.4415e-009     -5.6971e-005    -1.5146e-008   
  -1.75           7.296e-010      -6.0441e-005    1.0368e-008    
  -1.8            -1.4288e-009    -6.3677e-005    1.7251e-008    
  -1.85           -2.5503e-009    -6.6695e-005    6.991e-009     
  -1.9            2.3471e-009     -6.9628e-005    -1.6106e-008   
  -1.95           1.6194e-009     -7.229e-005     -4.318e-009    
  -2              2.5826e-009     -7.4794e-005    -8.886e-009    
  -2.05           -2.2779e-009    -7.7073e-005    1.3411e-008    
  -2.1            -1.6863e-009    -7.9331e-005    2.277e-009     
  -2.15           -2.5223e-009    -8.1441e-005    5.292e-009     
  -2.2            -7.59e-010      -8.345e-005     -1.0977e-008   
  -2.25           2.6605e-009     -8.54e-005      -1.6303e-008   
  -2.3            -1.5883e-009    -8.7146e-005    1.7421e-008    
  -2.35           -2.5412e-009    -8.8877e-005    5.652e-009     
  -2.4            -8.274e-010     -9.0544e-005    -1.0759e-008   
  -2.45           2.6517e-009     -9.2184e-005    -1.4227e-008   
  -2.5            -1.6553e-009    -9.3639e-005    2.3127e-008    
  -2.55           -2.5336e-009    -9.5093e-005    5.377e-009     
  -2.6            -7.854e-010     -9.6507e-005    -1.0847e-008   
  -2.65           2.6615e-009     -9.7898e-005    -1.5266e-008   
  -2.7            -1.7254e-009    -9.9123e-005    2.443e-008     
  -2.75           -2.5195e-009    -0.000100386    5.296e-009     
  -2.8            -7.495e-010     -0.000101599    -1.0977e-008   
  -2.85           2.6658e-009     -0.000102809    -1.6735e-008   
  -2.9            -1.6028e-009    -0.000103862    1.7238e-008    
  -2.95           -2.5368e-009    -0.000104972    5.732e-009     
  -3              2.039e-010      -0.000106089    -1.0504e-008   
  -3.05           2.6563e-009     -0.000107054    -1.8949e-008   
  -3.1            -1.6719e-009    -0.000108039    2.3487e-008    
  -3.15           -2.5285e-009    -0.000108995    5.44e-009      
  -3.2            -7.833e-010     -0.000109925    -1.0847e-008   
  -3.25           2.6593e-009     -0.000110883    -1.5611e-008   
  -3.3            -1.7412e-009    -0.000111706    2.479e-008     
  -3.35           -2.5141e-009    -0.00011256     5.05e-009      
  -3.4            -7.335e-010     -0.000113405    -1.1035e-008   
  -3.45           -2.4828e-009    -0.00011423     -1.7043e-008   
  -3.5            1.7056e-009     -0.00011503     -1.8752e-008   
  -3.55           2.5674e-009     -0.0001158      -8.744e-009    
  -3.6            7.326e-010      -0.00011655     1.0358e-008    
  -3.65           -1.4236e-009    -0.0001173      1.7153e-008    
  -3.7            -2.5543e-009    -0.00011798     6.936e-009     
  -3.75           2.3452e-009     -0.00011868     -1.6309e-008   
  -3.8            1.6076e-009     -0.00011937     -4.649e-009    
  -3.85           2.5847e-009     -0.00012004     -8.895e-009    
  -3.9            -2.2734e-009    -0.00012065     1.3648e-008    
  -3.95           -1.6738e-009    -0.00012133     2.509e-009     
  -4              -2.5253e-009    -0.00012192     5.147e-009     
  -4.05           -7.633e-010     -0.00012255     -1.0964e-008   
  -4.1            2.6616e-009     -0.00012317     -1.6178e-008   
  -4.15           -1.5781e-009    -0.00012367     1.7421e-008    
  -4.2            -2.5424e-009    -0.00012427     5.732e-009     
  -4.25           1.955e-010      -0.00012487     -1.008e-008    
  -4.3            2.6548e-009     -0.00012536     -1.8943e-008   
  -4.35           -1.6514e-009    -0.00012587     2.3092e-008    
  -4.4            -2.5325e-009    -0.00012641     5.537e-009     
  -4.45           2.5298e-009     -0.00012689     -1.3546e-008   
  -4.5            6.427e-010      -0.00012742     1.0474e-008    
  -4.55           -1.5467e-009    -0.00012791     2.0393e-008    
  -4.6            -2.5453e-009    -0.00012839     5.981e-009     
  -4.65           2.4541e-009     -0.00012884     -1.4911e-008   
  -4.7            7.146e-010      -0.00012932     1.043e-008     
  -4.75           -1.4492e-009    -0.00012977     1.7861e-008    
  -4.8            -2.5513e-009    -0.0001302      6.683e-009     
  -4.85           2.3641e-009     -0.00013063     -1.5969e-008   
  -4.9            1.6568e-009     -0.00013107     -4.263e-009    
  -4.95           2.5746e-009     -0.00013152     -8.791e-009    
  -5              -2.2988e-009    -0.00013189     1.3286e-008    
END_DB

BEGIN_DB
 ICCAP_VAR VS         0              
 ICCAP_VAR VB         0              
 ICCAP_VAR VD         -5             

 #VG              IG              ID              IB             
  0               -9.181e-010     -8.032e-010     -1.6385e-008   
  -0.05           -1.2771e-009    -1.9319e-009    3.241e-009     
  -0.1            2.6361e-009     -1.1778e-009    -2.5689e-008   
  -0.15           -1.7294e-009    1.4744e-009     1.5823e-008    
  -0.2            -6.639e-010     -2.0413e-009    5.043e-009     
  -0.25           -8.264e-010     -2.035e-009     -8.589e-009    
  -0.3            1.8413e-009     -1.5267e-009    -1.2807e-008   
  -0.35           6.018e-010      2.1036e-009     -7.422e-009    
  -0.4            -1.9511e-009    1.3886e-009     2.1044e-008    
  -0.45           -1.404e-009     -1.795e-009     4.513e-009     
  -0.5            2.5262e-009     -1.2847e-009    -2.4493e-008   
  -0.55           -2.5179e-009    5.92e-011       1.2727e-008    
  -0.6            2.3999e-009     -1.3652e-009    -2.2756e-008   
  -0.65           3.077e-010      2.0103e-009     -4.169e-009    
  -0.7            -2.377e-009     2.877e-010      1.519e-008     
  -0.75           -1.9645e-009    -1.4383e-009    2.28e-009      
  -0.8            2.6548e-009     -2.8143e-009    -2.5415e-008   
  -0.85           -1.8027e-009    -4.9368e-009    1.745e-008     
  -0.9            -1.9382e-009    -2.4948e-008    -2.0013e-008   
  -0.95           -1.3509e-009    -9.1702e-008    4.65e-009      
  -1              4.55e-010       -3.2283e-007    -1.0265e-008   
  -1.05           -1.8168e-009    -1.02892e-006   2.618e-008     
  -1.1            -1.5408e-009    -2.6757e-006    -7.529e-009    
  -1.15           1.8782e-009     -6.3467e-006    -2.1648e-008   
  -1.2            2.6643e-009     -1.2305e-005    -8.936e-009    
  -1.25           -1.8898e-009    -2.1357e-005    2.704e-008     
  -1.3            -1.3182e-009    -3.3767e-005    5.028e-009     
  -1.35           -2.5219e-009    -4.9615e-005    7.008e-009     
  -1.4            -9.813e-010     -6.9095e-005    -9.262e-009    
  -1.45           2.079e-010      -9.2217e-005    -9.61e-009     
  -1.5            2.6711e-009     -0.00011766     -7.257e-009    
  -1.55           -1.7722e-009    -0.00014571     2.5686e-008    
  -1.6            -2.4881e-009    -0.00017716     5.049e-009     
  -1.65           2.6601e-009     -0.0002122      -1.1941e-008   
  -1.7            -1.5396e-009    -0.00024775     2.0373e-008    
  -1.75           -2.5251e-009    -0.0002867      5.594e-009     
  -1.8            2.4912e-009     -0.00032904     -1.4917e-008   
  -1.85           -2.4542e-009    -0.0003708      1.2443e-008    
  -1.9            -1.9746e-009    -0.00041706     1.668e-009     
  -1.95           -1.3784e-009    -0.00046382     4.399e-009     
  -2              -2.5335e-009    -0.00051239     6.487e-009     
  -2.05           -9.333e-010     -0.0005635      -9.901e-009    
  -2.1            2.6405e-009     -0.00061607     -1.0586e-008   
  -2.15           -1.4437e-009    -0.00066809     1.7664e-008    
  -2.2            -2.5301e-009    -0.00072273     6.203e-009     
  -2.25           2.4068e-009     -0.00078045     -1.6064e-008   
  -2.3            1.6628e-009     -0.00083731     -4.026e-009    
  -2.35           2.5507e-009     -0.00089564     -8.36e-009     
  -2.4            7.261e-010      -0.00095429     1.0348e-008    
  -2.45           -1.3973e-009    -0.00101452     1.6337e-008    
  -2.5            -2.529e-009     -0.00107599     6.576e-009     
  -2.55           -8.349e-010     -0.0011386      1.5859e-008    
  -2.6            -1.9787e-009    -0.0012012      2.7312e-008    
  -2.65           -1.3678e-009    -0.0012655      4.5e-009       
  -2.7            -2.529e-009     -0.0013305      6.732e-009     
  -2.75           2.3293e-009     -0.001398       -1.6517e-008   
  -2.8            1.559e-009      -0.001464       -4.913e-009    
  -2.85           2.5683e-009     -0.0015312      -8.663e-009    
  -2.9            -2.2737e-009    -0.0015971      1.3917e-008    
  -2.95           -1.625e-009     -0.0016659      2.549e-009     
  -3              -2.5107e-009    -0.0017345      5.06e-009      
  -3.05           -7.706e-010     -0.0018048      -1.0845e-008   
  -3.1            2.6672e-009     -0.0018756      -1.511e-008    
  -3.15           -1.7274e-009    -0.001944       2.4544e-008    
  -3.2            -2.4949e-009    -0.002015       5.005e-009     
  -3.25           -7.238e-010     -0.0020868      -1.1025e-008   
  -3.3            2.6672e-009     -0.0021593      -1.6565e-008   
  -3.35           -1.802e-009     -0.0022292      2.5816e-008    
  -3.4            -2.4745e-009    -0.0023013      5.11e-009      
  -3.45           -6.701e-010     -0.0023738      -1.1074e-008   
  -3.5            1.6799e-009     -0.002447       -1.8126e-008   
  -3.55           2.5487e-009     -0.0025192      -8.36e-009     
  -3.6            -2.3246e-009    -0.0025895      1.3466e-008    
  -3.65           -1.7131e-009    -0.0026618      2.04e-009      
  -3.7            -2.4892e-009    -0.0027339      5.177e-009     
  -3.75           -7.153e-010     -0.0028058      -1.1033e-008   
  -3.8            2.6655e-009     -0.0028769      -1.6813e-008   
  -3.85           -1.8085e-009    -0.0029456      2.5874e-008    
  -3.9            -2.4671e-009    -0.0030154      5.099e-009     
  -3.95           -6.647e-010     -0.0030837      -1.1101e-008   
  -4              1.6974e-009     -0.0031512      -1.8257e-008   
  -4.05           2.5443e-009     -0.0032165      -8.3e-009      
  -4.1            7.23e-010       -0.0032789      1.0185e-008    
  -4.15           -1.4086e-009    -0.0033402      1.6609e-008    
  -4.2            -2.5299e-009    -0.0034001      6.447e-009     
  -4.25           2.3534e-009     -0.0034594      -1.6265e-008   
  -4.3            1.5977e-009     -0.0035149      -4.629e-009    
  -4.35           2.5587e-009     -0.0035686      -8.619e-009    
  -4.4            -2.2877e-009    -0.003619       1.3717e-008    
  -4.45           -1.6567e-009    -0.003669       2.591e-009     
  -4.5            -2.5006e-009    -0.0037169      5.071e-009     
  -4.55           2.6462e-009     -0.0037643      -1.1073e-008   
  -4.6            -1.4596e-009    -0.0038067      1.8242e-008    
  -4.65           -2.5275e-009    -0.003849       5.997e-009     
  -4.7            2.4127e-009     -0.0038908      -1.565e-008    
  -4.75           1.6786e-009     -0.0039296      -3.807e-009    
  -4.8            2.5387e-009     -0.0039672      -8.28e-009     
  -4.85           7.145e-010      -0.0040029      1.0172e-008    
  -4.9            -1.4119e-009    -0.0040371      1.6854e-008    
  -4.95           -2.5287e-009    -0.0040708      6.398e-009     
  -5              2.3532e-009     -0.004104       -1.6198e-008   
END_DB

BEGIN_DB
 ICCAP_VAR VS         0              
 ICCAP_VAR VB         2.5            
 ICCAP_VAR VD         -0.1           

 #VG              IG              ID              IB             
  0               -9.828e-010     -9.423e-010     -2.1509e-008   
  -0.05           2.0764e-009     -1.4651e-009    -1.7103e-008   
  -0.1            5.045e-010      2.0846e-009     -6.819e-009    
  -0.15           -2.1305e-009    5.56e-010       1.6002e-008    
  -0.2            -1.3097e-009    -1.8951e-009    3.855e-009     
  -0.25           2.5997e-009     -1.2104e-009    -2.5397e-008   
  -0.3            3.417e-010      2.0557e-009     1.0859e-008    
  -0.35           5.138e-010      2.0886e-009     1.0211e-008    
  -0.4            -2.1013e-009    1.3349e-009     2.4807e-008    
  -0.45           -1.3264e-009    -1.8803e-009    3.677e-009     
  -0.5            2.5897e-009     -1.225e-009     -2.545e-008    
  -0.55           -1.636e-009     1.5267e-009     1.4198e-008    
  -0.6            -7.412e-010     -2.0421e-009    5.297e-009     
  -0.65           2.0222e-009     -1.4804e-009    -1.6228e-008   
  -0.7            5.249e-010      2.0901e-009     -6.887e-009    
  -0.75           -2.0868e-009    1.3397e-009     2.443e-008     
  -0.8            -1.3415e-009    -1.8683e-009    4.015e-009     
  -0.85           2.5732e-009     -1.229e-009     -2.5234e-008   
  -0.9            3.688e-010      2.0642e-009     1.0721e-008    
  -0.95           5.436e-010      2.0961e-009     1.0014e-008    
  -1              -2.072e-009     1.3496e-009     2.4088e-008    
  -1.05           -1.3501e-009    -1.861e-009     4.117e-009     
  -1.1            2.4488e-009     -5.343e-010     -1.6865e-008   
  -1.15           5.088e-010      2.0892e-009     1.0462e-008    
  -1.2            -2.1193e-009    5.62e-010       1.6181e-008    
  -1.25           -1.3179e-009    -1.886e-009     3.671e-009     
  -1.3            2.5844e-009     -1.2328e-009    -2.5146e-008   
  -1.35           3.454e-010      1.9783e-009     1.075e-008     
  -1.4            5.195e-010      1.6894e-009     1.02e-008      
  -1.45           -2.0811e-009    -2.5527e-009    1.6278e-008    
  -1.5            -1.8107e-009    -9.5113e-009    3.739e-009     
  -1.55           2.414e-009      -3.896e-008     1.4362e-008    
  -1.6            1.6653e-009     -1.7204e-007    3.764e-009     
  -1.65           2.5636e-009     -5.93e-007      -8.604e-009    
  -1.7            1.3228e-009     -1.7394e-006    6.395e-009     
  -1.75           -1.8063e-009    -4.0132e-006    1.6402e-008    
  -1.8            -2.4943e-009    -7.8084e-006    5.089e-009     
  -1.85           1.8508e-009     -1.2998e-005    -1.4995e-008   
  -1.9            -2.3388e-009    -1.8633e-005    1.3038e-008    
  -1.95           -1.7478e-009    -2.4494e-005    2.07e-009      
  -2              -2.5036e-009    -2.9981e-005    5.26e-009      
  -2.05           2.6329e-009     -3.5158e-005    -1.1904e-008   
  -2.1            -1.5119e-009    -3.9599e-005    1.9932e-008    
  -2.15           -2.5398e-009    -4.377e-005     6.098e-009     
  -2.2            -8.664e-010     -4.7589e-005    -1.0839e-008   
  -2.25           2.6374e-009     -5.1111e-005    -1.2662e-008   
  -2.3            -1.5482e-009    -5.4187e-005    2.1097e-008    
  -2.35           -2.5368e-009    -5.7132e-005    5.744e-009     
  -2.4            -8.449e-010     -5.9884e-005    -1.0986e-008   
  -2.45           2.6462e-009     -6.2499e-005    -1.296e-008    
  -2.5            -1.5929e-009    -6.4792e-005    2.2043e-008    
  -2.55           -2.5334e-009    -6.7041e-005    5.49e-009      
  -2.6            -8.22e-010      -6.9164e-005    -1.075e-008    
  -2.65           2.6474e-009     -7.1208e-005    -1.3863e-008   
  -2.7            -1.6395e-009    -7.3021e-005    2.3194e-008    
  -2.75           -2.5292e-009    -7.4822e-005    5.451e-009     
  -2.8            -8.015e-010     -7.655e-005     -1.0967e-008   
  -2.85           2.6496e-009     -7.8219e-005    -1.4737e-008   
  -2.9            -1.6628e-009    -7.9709e-005    2.4131e-008    
  -2.95           -2.5219e-009    -8.12e-005      5.321e-009     
  -3              -7.715e-010     -8.264e-005     -1.1145e-008   
  -3.05           2.649e-009      -8.4047e-005    -1.5517e-008   
  -3.1            -1.7157e-009    -8.5299e-005    2.4858e-008    
  -3.15           -2.5173e-009    -8.6568e-005    5.213e-009     
  -3.2            -7.485e-010     -8.7797e-005    -1.1206e-008   
  -3.25           2.6488e-009     -8.9005e-005    -1.6392e-008   
  -3.3            -1.7542e-009    -9.0083e-005    2.5641e-008    
  -3.35           -2.5012e-009    -9.1188e-005    5.244e-009     
  -3.4            -7.298e-010     -9.225e-005     -1.1336e-008   
  -3.45           1.5997e-009     -9.3305e-005    -1.7156e-008   
  -3.5            2.5736e-009     -9.4269e-005    -8.611e-009    
  -3.55           7.759e-010      -9.5225e-005    1.0318e-008    
  -3.6            -2.4805e-009    -9.6167e-005    1.4386e-008    
  -3.65           1.6421e-009     -9.7079e-005    -1.8077e-008   
  -3.7            2.5619e-009     -9.7933e-005    -8.442e-009    
  -3.75           7.545e-010      -9.8775e-005    1.0426e-008    
  -3.8            -1.3534e-009    -9.9627e-005    1.5151e-008    
  -3.85           -2.5297e-009    -0.0001004      7.014e-009     
  -3.9            2.2879e-009     -0.000101191    -1.6717e-008   
  -3.95           2.3957e-009     -0.000101966    -5.516e-009    
  -4              -1.5357e-009    -0.000102709    2.0829e-008    
  -4.05           -2.5295e-009    -0.000103418    5.737e-009     
  -4.1            -8.461e-010     -0.000104136    -1.0589e-008   
  -4.15           2.6539e-009     -0.000104871    -1.2488e-008   
