! VERSION = 6.00
BEGIN_HEADER
 ICCAP_INPUTS
  VG         V  B GROUND SMU4 0.001 LIN        2    0          -5         6    -1        
  VS         V  E GROUND SMU2 0.1 CON        0
  VD         V  S GROUND SMU1 0.1 LIN        1    0          -5         101  -0.05     
  VB         V  C GROUND SMU3 0.1 LIN        3    0          2.5        2    2.5       
 ICCAP_OUTPUTS
  ID         I  S GROUND SMU1 B
  IB         I  C GROUND SMU3 B
  IG         I  B GROUND SMU4 B
END_HEADER

BEGIN_DB
 ICCAP_VAR VG         0              
 ICCAP_VAR VS         0              
 ICCAP_VAR VB         0              

 #VD              ID              IB              IG             
  0               9.553e-010      9.805e-009      1.1147e-009    
  -0.05           2.942e-010      1.4475e-008     -2.4401e-009   
  -0.1            -2.0155e-009    1.531e-009      -1.0414e-009   
  -0.15           -1.6297e-009    -8.735e-009     2.6499e-009    
  -0.2            1.3864e-009     2.2476e-008     -2.0079e-009   
  -0.25           -1.8118e-009    4.683e-009      -1.4012e-009   
  -0.3            -1.2874e-009    -2.4895e-008    2.5235e-009    
  -0.35           2.0903e-009     1.0731e-008     4.327e-010     
  -0.4            5.009e-010      1.6047e-008     -2.2279e-009   
  -0.45           -1.9414e-009    3.16e-009       -1.2497e-009   
  -0.5            -4.277e-010     -1.7104e-008    2.5563e-009    
  -0.55           2.0833e-009     1.0739e-008     3.926e-010     
  -0.6            2.1097e-009     1.0021e-008     5.691e-010     
  -0.65           1.3672e-009     2.3503e-008     -2.0556e-009   
  -0.7            -1.8453e-009    4.313e-009      -1.3714e-009   
  -0.75           -5.461e-010     -1.7007e-008    2.4289e-009    
  -0.8            2.1041e-009     1.0318e-008     5.232e-010     
  -0.85           1.3424e-009     2.4969e-008     -2.1077e-009   
  -0.9            -1.8764e-009    4.132e-009      -1.3372e-009   
  -0.95           -1.2319e-009    -2.5063e-008    2.5791e-009    
  -1              2.0727e-009     1.0823e-008     3.583e-010     
  -1.05           2.1018e-009     1.034e-008      5.314e-010     
  -1.1            2.1261e-009     9.169e-009      6.887e-010     
  -1.15           1.4547e-009     1.8375e-008     -1.8353e-009   
  -1.2            -2.0574e-009    5.377e-009      -6.232e-010    
  -1.25           -2.0454e-009    -9.348e-009     -7.94e-010     
  -1.3            -1.513e-009     -1.4831e-008    1.9327e-009    
  -1.35           2.1045e-009     -7.357e-009     5.787e-010     
  -1.4            1.3788e-009     2.2865e-008     -2.0202e-009   
  -1.45           -1.8347e-009    4.321e-009      -1.388e-009    
  -1.5            -5.657e-010     -1.7146e-008    2.4159e-009    
  -1.55           2.1026e-009     1.015e-008      5.361e-010     
  -1.6            1.3496e-009     2.4342e-008     -2.0861e-009   
  -1.65           -1.8692e-009    4.054e-009      -1.35e-009     
  -1.7            -1.2442e-009    -2.5121e-008    2.5776e-009    
  -1.75           1.5374e-009     1.42e-008       -1.6271e-009   
  -1.8            -2.0506e-009    5.503e-009      -7.554e-010    
  -1.85           -1.4928e-009    -1.6391e-008    2.0275e-009    
  -1.9            2.103e-009      -6.995e-009     5.393e-010     
  -1.95           5.825e-010      1.6538e-008     -2.0906e-009   
  -2              -1.8667e-009    4.057e-009      -1.3482e-009   
  -2.05           -5.255e-010     -1.6983e-008    2.4622e-009    
  -2.1            2.0997e-009     1.0468e-008     4.94e-010      
  -2.15           5.53e-010       1.6265e-008     -2.1432e-009   
  -2.2            -1.9021e-009    3.695e-009      -1.3053e-009   
  -2.25           -1.2114e-009    -2.4943e-008    2.5961e-009    
  -2.3            2.0656e-009     1.0778e-008     3.298e-010     
  -2.35           2.1001e-009     1.0465e-008     4.959e-010     
  -2.4            1.3259e-009     2.5672e-008     -2.141e-009    
  -2.45           -1.8898e-009    3.562e-009      -1.313e-009    
  -2.5            -1.2145e-009    -2.4722e-008    2.5966e-009    
  -2.55           1.5165e-009     1.5656e-008     -1.7034e-009   
  -2.6            -2.0582e-009    5.35e-009       -7.167e-010    
  -2.65           -2.0367e-009    -8.707e-009     -8.664e-010    
  -2.7            -1.5486e-009    -1.2701e-008    1.776e-009     
  -2.75           2.1232e-009     -8.341e-009     6.586e-010     
  -2.8            1.4367e-009     1.962e-008      -1.884e-009    
  -2.85           -2.0631e-009    5.033e-009      -5.88e-010     
  -2.9            -1.4129e-009    -2.1319e-008    2.2923e-009    
  -2.95           2.0791e-009     -5.577e-009     3.828e-010     
  -3              2.1093e-009     1.0096e-008     5.549e-010     
  -3.05           2.1283e-009     8.913e-009      7.071e-010     
  -3.1            1.4722e-009     1.7762e-008     -1.7991e-009   
  -3.15           -2.0608e-009    5.139e-009      -6.481e-010    
  -3.2            -2.0444e-009    -9.135e-009     -8.186e-010    
  -3.25           -1.5277e-009    -1.4302e-008    1.8877e-009    
  -3.3            2.1182e-009     -7.809e-009     6.072e-010     
  -3.35           1.4028e-009     2.1852e-008     -1.984e-009    
  -3.4            -1.8004e-009    4.925e-009      -1.4179e-009   
  -3.45           -5.975e-010     -1.737e-008     2.3663e-009    
  -3.5            2.0588e-009     -4.8e-009       3.298e-010     
  -3.55           2.103e-009      1.0439e-008     4.962e-010     
  -3.6            5.533e-010      1.6409e-008     -2.1364e-009   
  -3.65           -1.8868e-009    3.757e-009      -1.3152e-009   
  -3.7            -4.899e-010     -1.6938e-008    2.494e-009     
  -3.75           7.49e-011       1.2128e-008     -2.506e-009    
  -3.8            -1.3833e-009    -2.2481e-008    2.3549e-009    
  -3.85           2.0581e-009     -4.739e-009     3.289e-010     
  -3.9            4.21e-010       1.5473e-008     -2.3248e-009   
  -3.95           -1.982e-009     2.083e-009      -1.1666e-009   
  -4              -1.7169e-009    -8.585e-009     2.228e-010     
  -4.05           -8.72e-010      -1.8424e-008    1.6913e-009    
  -4.1            2.1297e-009     -8.701e-009     7.038e-010     
  -4.15           1.47e-009       1.7766e-008     -1.8053e-009   
  -4.2            -2.0614e-009    5.243e-009      -6.396e-010    
  -4.25           -2.0503e-009    -9.12e-009      -8.104e-010    
  -4.3            -1.527e-009     -1.4419e-008    1.8963e-009    
  -4.35           2.1181e-009     -7.925e-009     6.008e-010     
  -4.4            2.134e-009      8.424e-009      7.549e-010     
  -4.45           1.5138e-009     1.5844e-008     -1.7119e-009   
  -4.5            -2.0587e-009    5.504e-009      -7.102e-010    
  -4.55           -2.0423e-009    -8.585e-009     -8.637e-010    
  -4.6            -1.5498e-009    -1.2854e-008    1.7856e-009    
  -4.65           2.1277e-009     -8.462e-009     6.595e-010     
  -4.7            1.4398e-009     1.9677e-008     -1.8806e-009   
  -4.75           -2.0691e-009    5.056e-009      -5.836e-010    
  -4.8            -2.0548e-009    -9.588e-009     -7.702e-010    
  -4.85           -2.0339e-009    -8.319e-009     -9.087e-010    
  -4.9            -1.5693e-009    -1.1605e-008    1.6769e-009    
  -4.95           2.1316e-009     -8.815e-009     7.108e-010     
  -5              1.482e-009      1.7732e-008     -1.7906e-009   
END_DB

BEGIN_DB
 ICCAP_VAR VG         -1             
 ICCAP_VAR VS         0              
 ICCAP_VAR VB         0              

 #VD              ID              IB              IG             
  0               -7.921e-009     -1.2831e-008    -1.0219e-009   
  -0.05           -1.3204e-007    -1.7551e-008    1.0537e-009    
  -0.1            -1.6656e-007    -7.62e-009      2.6619e-009    
  -0.15           -1.8222e-007    -1.1377e-008    2.6239e-009    
  -0.2            -1.8496e-007    -8.627e-009     3.92e-011      
  -0.25           -1.8164e-007    1.2856e-008     -2.3476e-009   
  -0.3            -1.8665e-007    1.5423e-008     -2.0307e-009   
  -0.35           -1.8983e-007    2.5791e-008     -1.7926e-009   
  -0.4            -1.8787e-007    9.031e-009      1.9564e-009    
  -0.45           -2.0289e-007    -1.7487e-008    1.6488e-009    
  -0.5            -1.968e-007     -1.1022e-008    -7.794e-010    
  -0.55           -2.0063e-007    1.8466e-008     -1.3699e-009   
  -0.6            -2.0378e-007    1.3197e-008     -2.3223e-009   
  -0.65           -2.0848e-007    1.5394e-008     -1.991e-009    
  -0.7            -2.0978e-007    2.5367e-008     -1.7652e-009   
  -0.75           -2.1218e-007    2.0666e-008     -1.5439e-009   
  -0.8            -2.1453e-007    1.5817e-008     -1.371e-009    
  -0.85           -2.1609e-007    1.297e-008      -2.3207e-009   
  -0.9            -2.1986e-007    1.5625e-008     -1.9911e-009   
  -0.95           -2.2132e-007    2.5245e-008     -1.7652e-009   
  -1              -2.2357e-007    2.0599e-008     -1.5544e-009   
  -1.05           -2.2533e-007    1.5803e-008     -1.376e-009    
  -1.1            -2.2593e-007    1.2898e-008     -2.3223e-009   
  -1.15           -2.295e-007     1.5376e-008     -2.0001e-009   
  -1.2            -2.3063e-007    2.5327e-008     -1.7676e-009   
  -1.25           -2.2637e-007    8.881e-009      1.9731e-009    
  -1.3            -2.4322e-007    -1.7674e-008    1.6237e-009    
  -1.35           -2.4666e-007    -1.3252e-008    2.646e-009     
  -1.4            -2.4661e-007    -1.4091e-008    2.5009e-009    
  -1.45           -2.4915e-007    -2.4232e-008    2.3365e-009    
  -1.5            -2.4968e-007    -1.7614e-008    1.8959e-009    
  -1.55           -2.5226e-007    -1.7409e-008    1.6215e-009    
  -1.6            -2.4158e-007    -1.0805e-008    -7.919e-010    
  -1.65           -2.4647e-007    1.8827e-008     -1.3612e-009   
  -1.7            -2.5024e-007    1.3009e-008     -2.3072e-009   
  -1.75           -2.5016e-007    1.5589e-008     -1.9678e-009   
  -1.8            -2.472e-007     9.251e-009      1.8556e-009    
  -1.85           -2.6179e-007    -1.7603e-008    1.8599e-009    
  -1.9            -2.6438e-007    -1.6569e-008    2.6664e-009    
  -1.95           -2.657e-007     -1.0599e-008    2.092e-010     
  -2              -2.5516e-007    1.1687e-008     -2.4671e-009   
  -2.05           -2.5876e-007    1.3243e-008     -2.2899e-009   
  -2.1            -2.6122e-007    1.5798e-008     -1.9347e-009   
  -2.15           -2.567e-007     9.012e-009      1.8771e-009    
  -2.2            -2.7255e-007    -1.7499e-008    1.8127e-009    
  -2.25           -2.7529e-007    -1.5925e-008    2.6654e-009    
  -2.3            -2.7671e-007    -1.0218e-008    1.954e-010     
  -2.35           -2.6541e-007    1.1701e-008     -2.4611e-009   
  -2.4            -2.6831e-007    1.3663e-008     -2.2632e-009   
  -2.45           -2.7065e-007    1.5934e-008     -1.9029e-009   
  -2.5            -2.6586e-007    8.938e-009      1.8953e-009    
  -2.55           -2.8113e-007    -1.7639e-008    1.7675e-009    
  -2.6            -2.7093e-007    -1.1e-008       -7.171e-010    
  -2.65           -2.7946e-007    1.8091e-008     -1.4428e-009   
  -2.7            -2.687e-007     1.0165e-008     7.789e-010     
  -2.75           -2.7699e-007    -8.696e-009     2.6126e-009    
  -2.8            -2.7489e-007    -9.554e-009     -9.827e-010    
  -2.85           -2.7331e-007    7.749e-009      -2.5486e-009   
  -2.9            -2.8355e-007    1.853e-008      -1.4708e-009   
  -2.95           -2.831e-007     1.4159e-008     -2.4609e-009   
  -3              -2.8279e-007    1.3546e-008     -2.267e-009    
  -3.05           -2.8461e-007    1.6023e-008     -1.9049e-009   
  -3.1            -2.7984e-007    9.051e-009      1.8934e-009    
  -3.15           -2.9655e-007    -1.7547e-008    1.7841e-009    
  -3.2            -2.9905e-007    -1.5463e-008    2.664e-009     
  -3.25           -3.0044e-007    -9.973e-009     1.776e-010     
  -3.3            -2.8849e-007    1.1844e-008     -2.4536e-009   
  -3.35           -3.0248e-007    1.3928e-008     -2.247e-009    
  -3.4            -2.9277e-007    1.6232e-008     -1.8741e-009   
  -3.45           -2.8911e-007    8.777e-009      1.9162e-009    
  -3.5            -3.0307e-007    -1.7668e-008    1.7389e-009    
  -3.55           -2.9196e-007    -1.0946e-008    -7.299e-010    
  -3.6            -2.9707e-007    1.8195e-008     -1.4239e-009   
  -3.65           -2.9036e-007    1.0032e-008     7.934e-010     
  -3.7            -2.9937e-007    -8.717e-009     2.6185e-009    
  -3.75           -3.103e-007     -1.9997e-008    1.7808e-009    
  -3.8            -3.1321e-007    -1.5579e-008    2.6605e-009    
  -3.85           -3.1609e-007    -1.0025e-008    1.834e-010     
  -3.9            -3.0137e-007    1.1884e-008     -2.4533e-009   
  -3.95           -3.0296e-007    1.393e-008      -2.2457e-009   
  -4              -3.0581e-007    1.6103e-008     -1.8717e-009   
  -4.05           -3.0044e-007    8.817e-009      1.9112e-009    
  -4.1            -3.1989e-007    -1.7668e-008    1.7441e-009    
  -4.15           -3.0551e-007    -1.0988e-008    -7.317e-010    
  -4.2            -3.1039e-007    1.8133e-008     -1.4192e-009   
  -4.25           -3.0453e-007    1.0028e-008     7.947e-010     
  -4.3            -3.1271e-007    -8.795e-009     2.6168e-009    
  -4.35           -3.2401e-007    -2.0147e-008    1.7862e-009    
  -4.4            -3.1074e-007    -1.0915e-008    -7.037e-010    
  -4.45           -3.1585e-007    1.7858e-008     -1.4485e-009   
  -4.5            -3.0806e-007    1.0062e-008     7.706e-010     
  -4.55           -3.1713e-007    -8.878e-009     2.6117e-009    
  -4.6            -3.3277e-007    -2.0513e-008    1.8319e-009    
  -4.65           -3.3272e-007    -1.6317e-008    2.6649e-009    
  -4.7            -3.3123e-007    -1.0416e-008    1.989e-010     
  -4.75           -3.1831e-007    1.1594e-008     -2.4625e-009   
  -4.8            -3.2654e-007    1.3443e-008     -2.2703e-009   
  -4.85           -3.2391e-007    1.5869e-008     -1.9124e-009   
  -4.9            -3.2257e-007    8.885e-009      1.8905e-009    
  -4.95           -3.368e-007     -1.7593e-008    1.7941e-009    
  -5              -3.2339e-007    -1.0987e-008    -7.036e-010    
END_DB

BEGIN_DB
 ICCAP_VAR VG         -2             
 ICCAP_VAR VS         0              
 ICCAP_VAR VB         0              

 #VD              ID              IB              IG             
  0               -5.1848e-007    -7.629e-009     2.6352e-009    
  -0.05           -3.8576e-005    1.5839e-008     -6.985e-010    
  -0.1            -7.5245e-005    7.223e-009      -2.5497e-009   
  -0.15           -0.000110636    1.3703e-008     -2.457e-009    
  -0.2            -0.00014477     1.2668e-008     -5.8e-012      
  -0.25           -0.00017751     -1.7315e-008    1.9747e-009    
  -0.3            -0.00020867     -1.4818e-008    2.4729e-009    
  -0.35           -0.00023818     -1.7946e-008    1.6515e-009    
  -0.4            -0.00026603     -1.6641e-008    2.251e-009     
  -0.45           -0.00029183     -1.0728e-008    -8.025e-010    
  -0.5            -0.00031569     8.679e-009      -2.5262e-009   
  -0.55           -0.00033764     1.4453e-008     -2.15e-009     
  -0.6            -0.00035786     1.0457e-008     6.657e-010     
  -0.65           -0.00037589     -7.389e-009     2.6602e-009    
  -0.7            -0.00039161     -1.5727e-008    2.4146e-009    
  -0.75           -0.00040487     -1.6099e-008    2.6595e-009    
  -0.8            -0.00041622     -1.6775e-008    2.1654e-009    
  -0.85           -0.0004253      -1.058e-008     -8.459e-010    
  -0.9            -0.00043252     9.234e-009      -2.5153e-009   
  -0.95           -0.00043895     1.4988e-008     -2.0733e-009   
  -1              -0.00044488     1.0278e-008     7.133e-010     
  -1.05           -0.00044978     -7.471e-009     2.6619e-009    
  -1.1            -0.00045376     -1.6201e-008    2.3367e-009    
  -1.15           -0.00045608     -1.0908e-008    -7.441e-010    
  -1.2            -0.00045832     8.159e-009      -2.5326e-009   
  -1.25           -0.00046065     1.3974e-008     -2.2237e-009   
  -1.3            -0.00046282     1.8925e-008     -1.4847e-009   
  -1.35           -0.00046568     7.711e-009      1.044e-009     
  -1.4            -0.00046795     -1.1964e-008    2.5723e-009    
  -1.45           -0.00046912     -2.15e-008      1.8769e-009    
  -1.5            -0.00047097     -1.5522e-008    2.4156e-009    
  -1.55           -0.000472       -1.6359e-008    2.6611e-009    
  -1.6            -0.00047339     -1.6791e-008    2.1741e-009    
  -1.65           -0.00047399     -1.0616e-008    -8.363e-010    
  -1.7            -0.00047444     9.038e-009      -2.5162e-009   
  -1.75           -0.00047555     1.4947e-008     -2.0895e-009   
  -1.8            -0.00047734     1.033e-008      7.086e-010     
  -1.85           -0.00047893     -7.447e-009     2.6623e-009    
  -1.9            -0.00048021     -1.6077e-008    2.3502e-009    
  -1.95           -0.00048031     -1.0954e-008    -7.366e-010    
  -2              -0.00048054     8.289e-009      -2.5333e-009   
  -2.05           -0.0004814      1.3712e-008     -2.2364e-009   
  -2.1            -0.00048247     1.9419e-008     -1.497e-009    
  -2.15           -0.00048418     7.919e-009      1.0325e-009    
  -2.2            -0.00048504     -2.2061e-008    1.9538e-009    
  -2.25           -0.00048623     -1.4726e-008    2.4595e-009    
  -2.3            -0.00048656     -1.7426e-008    1.6274e-009    
  -2.35           -0.0004865      -8.682e-009     -1.0818e-009   
  -2.4            -0.00048688     1.2097e-008     -2.4132e-009   
  -2.45           -0.00048769     2.5919e-008     -1.8132e-009   
  -2.5            -0.00048822     1.3439e-008     -2.2801e-009   
  -2.55           -0.00048905     2.0841e-008     -1.5544e-009   
  -2.6            -0.00049064     8.106e-009      1.0003e-009    
  -2.65           -0.00049199     -1.0878e-008    2.6063e-009    
  -2.7            -0.00049235     -1.7629e-008    1.754e-009     
  -2.75           -0.00049316     -2.3668e-008    2.4735e-009    
  -2.8            -0.0004933      -1.7965e-008    1.6516e-009    
  -2.85           -0.00049425     -1.6456e-008    2.2615e-009    
  -2.9            -0.00049405     -1.0798e-008    -7.945e-010    
  -2.95           -0.00049391     8.4e-009        -2.526e-009    
  -3              -0.00049452     1.4467e-008     -2.1626e-009   
  -3.05           -0.00049575     1.0449e-008     6.598e-010     
  -3.1            -0.0004969      -7.521e-009     2.6584e-009    
  -3.15           -0.0004977      -1.5461e-008    2.417e-009     
  -3.2            -0.00049786     -1.6358e-008    2.6614e-009    
  -3.25           -0.00049845     -1.6923e-008    2.1754e-009    
  -3.3            -0.00049829     -1.0708e-008    -8.416e-010    
  -3.35           -0.00049803     8.971e-009      -2.5147e-009   
  -3.4            -0.00049852     1.5067e-008     -2.0842e-009   
  -3.45           -0.00049977     1.034e-008      7.084e-010     
  -3.5            -0.00050077     -7.416e-009     2.6581e-009    
  -3.55           -0.0005014      -2.3514e-008    2.487e-009     
  -3.6            -0.00050162     -1.8283e-008    1.6827e-009    
  -3.65           -0.00050231     -1.639e-008     2.2847e-009    
  -3.7            -0.00050173     -1.0869e-008    -7.885e-010    
  -3.75           -0.0005016      8.291e-009      -2.5262e-009   
  -3.8            -0.00050208     1.4543e-008     -2.1803e-009   
  -3.85           -0.00050253     1.7658e-008     -1.4338e-009   
  -3.9            -0.00050302     1.5835e-008     -1.9339e-009   
  -3.95           -0.0005042      9.964e-009      8.031e-010     
  -4              -0.00050545     -7.739e-009     2.6587e-009    
  -4.05           -0.0005056      -1.6782e-008    2.1975e-009    
  -4.1            -0.00050521     -1.0709e-008    -8.331e-010    
  -4.15           -0.00050505     8.884e-009      -2.5185e-009   
