! VERSION = 6.00
BEGIN_HEADER
 ICCAP_INPUTS
  VG         V  B GROUND SMU4 0.001 LIN        1    0          -5         101  -0.05     
  VS         V  E GROUND SMU2 0.1 CON        0
  VB         V  C GROUND SMU3 0.1 LIN        3    0          5          3    2.5       
  VD         V  S GROUND SMU1 0.1 LIN        2    -0.1       -5         2    -4.9      
 ICCAP_OUTPUTS
  IG         I  B GROUND SMU4 B
  ID         I  S GROUND SMU1 B
  IB         I  C GROUND SMU3 B
END_HEADER

BEGIN_DB
 ICCAP_VAR VS         0              
 ICCAP_VAR VB         0              
 ICCAP_VAR VD         -0.1           

 #VG              IG              ID              IB             
  0               -9.793e-010     -1.4467e-009    -2.2703e-008   
  -0.05           1.6636e-009     2.247e-010      -1.1012e-008   
  -0.1            1.6573e-009     7.71e-011       -1.3598e-008   
  -0.15           1.6303e-009     -7.67e-011      -1.8602e-008   
  -0.2            1.5748e-009     -2.967e-010     -2.2772e-008   
  -0.25           3.6888e-009     -5.243e-010     -2.45e-008     
  -0.3            1.4583e-009     2.8357e-009     -3.586e-009    
  -0.35           -2.037e-009     3.517e-010      8.142e-009     
  -0.4            -1.9398e-009    5.696e-010      8.832e-009     
  -0.45           -1.829e-009     7.694e-010      9.109e-009     
  -0.5            -1.9004e-009    -2.1347e-009    5.156e-009     
  -0.55           1.6551e-009     1.073e-010      -1.298e-008    
  -0.6            1.6374e-009     -4.11e-011      -1.7577e-008   
  -0.65           1.5887e-009     -2.66e-010      -2.2087e-008   
  -0.7            1.506e-009      -5.138e-010     -2.4472e-008   
  -0.75           1.747e-009      2.5413e-009     -6.654e-009    
  -0.8            -1.9293e-009    1.465e-010      8.762e-009     
  -0.85           -3.0235e-009    -2.6326e-009    9.094e-009     
  -0.9            1.5574e-009     -6.9799e-009    -2.3495e-008   
  -0.95           -2.3003e-009    -2.3499e-008    -1.0824e-008   
  -1              3.4769e-009     -6.7429e-008    -2.4193e-008   
  -1.05           -1.0004e-009    -1.7472e-007    8.094e-009     
  -1.1            1.6017e-009     -3.8747e-007    -1.5206e-008   
  -1.15           3.3406e-009     -7.2508e-007    -2.4557e-008   
  -1.2            3.4369e-009     -1.1729e-006    8.617e-009     
  -1.25           -2.6102e-009    -1.7018e-006    8.985e-009     
  -1.3            1.6749e-009     -2.3015e-006    -1.0207e-008   
  -1.35           1.5833e-009     -2.881e-006     -1.7357e-008   
  -1.4            3.1965e-009     -3.4334e-006    -2.4615e-008   
  -1.45           2.0431e-009     -3.9619e-006    -7.938e-009    
  -1.5            1.6763e-009     -4.4641e-006    -1.0706e-008   
  -1.55           1.6315e-009     -4.9421e-006    -1.4117e-008   
  -1.6            3.5006e-009     -5.3905e-006    -2.4376e-008   
  -1.65           2.3272e-009     -5.815e-006     -5.946e-009    
  -1.7            1.7061e-009     -6.2245e-006    -1.1164e-008   
  -1.75           1.6701e-009     -6.6174e-006    -1.2004e-008   
  -1.8            3.7255e-009     -6.993e-006     -2.2489e-008   
  -1.85           2.6579e-009     -7.356e-006     -4.216e-009    
  -1.9            1.7885e-009     -7.7031e-006    -9.954e-009    
  -1.95           1.6923e-009     -8.0403e-006    -1.0379e-008   
  -2              1.567e-009      -8.3604e-006    -1.9555e-008   
  -2.05           3.0542e-009     -8.6663e-006    -2.3803e-008   
  -2.1            1.9522e-009     -8.9673e-006    -8.288e-009    
  -2.15           1.7001e-009     -9.2563e-006    -1.0366e-008   
  -2.2            1.6296e-009     -9.5378e-006    -1.5928e-008   
  -2.25           3.3733e-009     -9.8078e-006    -2.4528e-008   
  -2.3            2.1982e-009     -1.00722e-005   -6.587e-009    
  -2.35           1.7103e-009     -1.03291e-005   -1.0923e-008   
  -2.4            1.6775e-009     -1.05792e-005   -1.2987e-008   
  -2.45           3.6598e-009     -1.08185e-005   -2.3785e-008   
  -2.5            2.524e-009      -1.10508e-005   -4.889e-009    
  -2.55           1.7692e-009     -1.12797e-005   -1.0594e-008   
  -2.6            -1.1389e-009    -1.1492e-005    7.251e-009     
  -2.65           1.5704e-009     -1.1714e-005    -1.9918e-008   
  -2.7            3.0233e-009     -1.1921e-005    -2.3448e-008   
  -2.75           1.9379e-009     -1.2132e-005    -8.866e-009    
  -2.8            1.7203e-009     -1.2333e-005    -1.0191e-008   
  -2.85           1.6387e-009     -1.253e-005     -1.659e-008    
  -2.9            3.3554e-009     -1.2713e-005    -2.4755e-008   
  -2.95           2.1659e-009     -1.2901e-005    -7.149e-009    
  -3              1.7279e-009     -1.3087e-005    -1.0888e-008   
  -3.05           1.6851e-009     -1.3267e-005    -1.3602e-008   
  -3.1            3.6484e-009     -1.3439e-005    -2.402e-008    
  -3.15           2.4943e-009     -1.3608e-005    -5.287e-009    
  -3.2            1.7743e-009     -1.3773e-005    -1.0896e-008   
  -3.25           1.7194e-009     -1.3943e-005    -1.1424e-008   
  -3.3            1.5502e-009     -1.41e-005      -2.1461e-008   
  -3.35           2.1995e-009     -1.4259e-005    -7.152e-009    
  -3.4            1.7328e-009     -1.4412e-005    -1.0946e-008   
  -3.45           1.6926e-009     -1.4562e-005    -1.3374e-008   
  -3.5            3.6911e-009     -1.4704e-005    -2.4077e-008   
  -3.55           2.5307e-009     -1.4852e-005    -5.13e-009     
  -3.6            1.7816e-009     -1.4991e-005    -1.0648e-008   
  -3.65           1.7224e-009     -1.5133e-005    -1.1234e-008   
  -3.7            1.5553e-009     -1.5266e-005    -2.131e-008    
  -3.75           2.2283e-009     -1.5399e-005    -6.914e-009    
  -3.8            1.7382e-009     -1.5538e-005    -1.1016e-008   
  -3.85           1.6978e-009     -1.5668e-005    -1.3307e-008   
  -3.9            3.7288e-009     -1.5794e-005    -2.3941e-008   
  -3.95           2.5674e-009     -1.5914e-005    -5.137e-009    
  -4              1.7906e-009     -1.6037e-005    -1.0662e-008   
  -4.05           1.7288e-009     -1.6152e-005    -1.0981e-008   
  -4.1            1.5648e-009     -1.6267e-005    -2.1189e-008   
  -4.15           2.2539e-009     -1.638e-005     -6.873e-009    
  -4.2            1.7369e-009     -1.6493e-005    -1.0971e-008   
  -4.25           1.7039e-009     -1.6606e-005    -1.2724e-008   
  -4.3            3.7671e-009     -1.6714e-005    -2.3796e-008   
  -4.35           2.6305e-009     -1.6825e-005    -4.861e-009    
  -4.4            1.7976e-009     -1.6923e-005    -1.0879e-008   
  -4.45           1.7257e-009     -1.7034e-005    -1.0789e-008   
  -4.5            1.5785e-009     -1.7128e-005    -2.0507e-008   
  -4.55           3.063e-009      -1.7226e-005    -2.3835e-008   
  -4.6            1.9432e-009     -1.7327e-005    -9.382e-009    
  -4.65           1.7236e-009     -1.7422e-005    -1.0483e-008   
  -4.7            1.642e-009      -1.752e-005     -1.6426e-008   
  -4.75           3.4027e-009     -1.7613e-005    -2.4891e-008   
  -4.8            2.1884e-009     -1.7696e-005    -7.407e-009    
  -4.85           1.7201e-009     -1.7789e-005    -1.101e-008    
  -4.9            1.6849e-009     -1.7878e-005    -1.3456e-008   
  -4.95           3.6927e-009     -1.7967e-005    -2.3752e-008   
  -5              2.5465e-009     -1.805e-005     -5.607e-009    
END_DB

BEGIN_DB
 ICCAP_VAR VS         0              
 ICCAP_VAR VB         0              
 ICCAP_VAR VD         -5             

 #VG              IG              ID              IB             
  0               6.349e-010      1.2844e-009     7.229e-009     
  -0.05           -2.0734e-009    -1.8278e-009    5.5e-009       
  -0.1            1.6494e-009     -6.51e-011      -1.787e-008    
  -0.15           1.587e-009      -2.881e-010     -2.314e-008    
  -0.2            1.494e-009      -5.183e-010     -2.4744e-008   
  -0.25           1.7577e-009     2.6626e-009     -6.957e-009    
  -0.3            -1.9111e-009    6.234e-010      8.79e-009      
  -0.35           -1.8018e-009    8.136e-010      8.95e-009      
  -0.4            -3.0523e-009    -1.4744e-009    5.134e-009     
  -0.45           1.6586e-009     -3.43e-011      -1.6687e-008   
  -0.5            1.6018e-009     -2.434e-010     -2.2307e-008   
  -0.55           1.513e-009      -4.763e-010     -2.4826e-008   
  -0.6            3.5213e-009     -6.8e-010       -2.3605e-008   
  -0.65           1.6327e-009     2.7567e-009     -5.778e-009    
  -0.7            -1.9739e-009    4.339e-010      8.652e-009     
  -0.75           -1.8676e-009    4.304e-010      8.779e-009     
  -0.8            -2.9285e-009    -2.5495e-009    5.061e-009     
  -0.85           1.6704e-009     -4.1859e-009    -1.3947e-008   
  -0.9            -2.2766e-009    -1.6459e-008    -1.0247e-008   
  -0.95           3.5402e-009     -4.856e-008     -2.428e-008    
  -1              1.1311e-009     -1.3014e-007    -2.493e-008    
  -1.05           -2.0515e-009    -3.1179e-007    7.324e-009     
  -1.1            -1.7985e-009    -6.404e-007     8.614e-009     
  -1.15           -2.1329e-009    -1.1524e-006    -1.3299e-008   
  -1.2            1.5304e-009     -1.9073e-006    -1.979e-008    
  -1.25           2.9717e-009     -2.8512e-006    -2.3744e-008   
  -1.3            1.8851e-009     -4.022e-006     -9.101e-009    
  -1.35           1.6781e-009     -5.4324e-006    -1.0163e-008   
  -1.4            1.5991e-009     -7.0755e-006    -1.6369e-008   
  -1.45           3.3121e-009     -8.9137e-006    -2.4911e-008   
  -1.5            2.1218e-009     -1.09613e-005   -7.285e-009    
  -1.55           -4.981e-010     -1.3207e-005    8.185e-009     
  -1.6            1.6829e-009     -1.5714e-005    -1.0003e-008   
  -1.65           1.5924e-009     -1.841e-005     -1.7168e-008   
  -1.7            3.2586e-009     -2.1259e-005    -2.4878e-008   
  -1.75           2.0852e-009     -2.4311e-005    -7.524e-009    
  -1.8            1.6874e-009     -2.7559e-005    -1.0684e-008   
  -1.85           1.6499e-009     -3.107e-005     -1.348e-008    
  -1.9            3.5578e-009     -3.4653e-005    -2.443e-008    
  -1.95           2.3908e-009     -3.8387e-005    -5.95e-009     
  -2              1.7216e-009     -4.2309e-005    -1.102e-008    
  -2.05           1.685e-009      -4.6427e-005    -1.1322e-008   
  -2.1            1.5144e-009     -5.0667e-005    -2.2001e-008   
  -2.15           2.1124e-009     -5.5035e-005    -7.273e-009    
  -2.2            1.6967e-009     -5.9585e-005    -1.0712e-008   
  -2.25           1.6647e-009     -6.4296e-005    -1.355e-008    
  -2.3            3.5978e-009     -6.9075e-005    -2.4365e-008   
  -2.35           2.4443e-009     -7.3965e-005    -5.575e-009    
  -2.4            1.7432e-009     -7.9065e-005    -1.0766e-008   
  -2.45           1.7024e-009     -8.4297e-005    -1.139e-008    
  -2.5            1.5279e-009     -8.9657e-005    -2.1954e-008   
  -2.55           2.145e-009      -9.508e-005     -7.274e-009    
  -2.6            1.7122e-009     -0.000100637    -1.0672e-008   
  -2.65           1.6811e-009     -0.000106411    -1.3375e-008   
  -2.7            3.6342e-009     -0.000112216    -2.4187e-008   
  -2.75           -2.995e-010     -0.00011779     7.412e-009     
  -2.8            -2.0767e-009    -0.00012376     7.336e-009     
  -2.85           -1.8089e-009    -0.00012996     8.642e-009     
  -2.9            -2.2546e-009    -0.0001362      5.128e-009     
  -2.95           1.5977e-009     -0.00014285     -1.8416e-008   
  -3              3.1807e-009     -0.00014914     -2.455e-008    
  -3.05           2.0215e-009     -0.00015561     -8.469e-009    
  -3.1            1.7186e-009     -0.00016224     -1.042e-008    
  -3.15           1.6588e-009     -0.00016902     -1.4754e-008   
  -3.2            3.5009e-009     -0.00017581     -2.4777e-008   
  -3.25           2.32e-009       -0.00018258     -6.496e-009    
  -3.3            1.7302e-009     -0.0001896      -1.124e-008    
  -3.35           1.6968e-009     -0.00019665     -1.2334e-008   
  -3.4            3.7486e-009     -0.00020373     -2.2766e-008   
  -3.45           2.6965e-009     -0.00021087     -4.611e-009    
  -3.5            1.813e-009      -0.00021816     -1.0269e-008   
  -3.55           1.7141e-009     -0.0002256      -1.0525e-008   
  -3.6            1.5823e-009     -0.00023291     -1.9698e-008   
  -3.65           3.0995e-009     -0.00024039     -2.4139e-008   
  -3.7            1.9848e-009     -0.00024778     -8.826e-009    
  -3.75           1.7166e-009     -0.00025555     -1.0313e-008   
  -3.8            1.641e-009      -0.00026321     -1.5994e-008   
  -3.85           3.4213e-009     -0.00027077     -2.4247e-008   
  -3.9            2.2596e-009     -0.00027867     -7.244e-009    
  -3.95           1.7334e-009     -0.00028661     -1.1133e-008   
  -4              1.6828e-009     -0.00029453     -1.3026e-008   
  -4.05           3.701e-009      -0.00030244     -2.3305e-008   
  -4.1            2.5861e-009     -0.00031032     -4.954e-009    
  -4.15           1.7925e-009     -0.00031828     -1.0985e-008   
  -4.2            1.7137e-009     -0.00032648     -1.1276e-008   
  -4.25           1.5615e-009     -0.00033478     -2.0838e-008   
  -4.3            2.283e-009      -0.0003427      -6.642e-009    
  -4.35           1.7401e-009     -0.00035104     -1.1119e-008   
  -4.4            1.6883e-009     -0.00035944     -1.2934e-008   
  -4.45           3.7244e-009     -0.00036786     -2.3267e-008   
  -4.5            2.6293e-009     -0.00037616     -4.988e-009    
  -4.55           1.8097e-009     -0.0003845      -1.0789e-008   
  -4.6            1.7134e-009     -0.00039267     -1.119e-008    
  -4.65           1.5656e-009     -0.00040097     -2.0442e-008   
  -4.7            2.3194e-009     -0.00040973     -6.582e-009    
  -4.75           1.7409e-009     -0.00041844     -1.1414e-008   
  -4.8            1.6912e-009     -0.00042689     -1.2815e-008   
  -4.85           3.754e-009      -0.00043555     -2.3105e-008   
  -4.9            2.6621e-009     -0.00044379     -4.838e-009    
  -4.95           1.8196e-009     -0.00045235     -1.0581e-008   
  -5              1.7185e-009     -0.0004608      -1.1207e-008   
END_DB

BEGIN_DB
 ICCAP_VAR VS         0              
 ICCAP_VAR VB         2.5            
 ICCAP_VAR VD         -0.1           

 #VG              IG              ID              IB             
  0               -1.29e-010      -1.5186e-009    -1.0572e-008   
  -0.05           1.9721e-009     2.4666e-009     -8.601e-009    
  -0.1            -1.89e-009      7.561e-010      8.901e-009     
  -0.15           -2.9967e-009    -1.4771e-009    5.074e-009     
  -0.2            1.6999e-009     1.12e-011       -1.4974e-008   
  -0.25           1.6631e-009     -1.581e-010     -2.0343e-008   
  -0.3            1.5925e-009     -3.846e-010     -2.3963e-008   
  -0.35           3.6543e-009     -6.185e-010     -2.406e-008    
  -0.4            1.5906e-009     2.7859e-009     -4.792e-009    
  -0.45           -2.0654e-009    4.418e-010      8.244e-009     
  -0.5            -1.9575e-009    6.604e-010      8.749e-009     
  -0.55           -1.8514e-009    8.677e-010      9.167e-009     
  -0.6            -1.9873e-009    -2.0113e-009    5.121e-009     
  -0.65           1.7082e-009     3e-011          -1.4523e-008   
  -0.7            1.6758e-009     -1.278e-010     -2.001e-008    
  -0.75           1.6036e-009     -3.611e-010     -2.3875e-008   
  -0.8            3.7086e-009     -5.939e-010     -2.4196e-008   
  -0.85           1.5669e-009     2.7971e-009     -4.401e-009    
  -0.9            -2.1018e-009    4.127e-010      8.162e-009     
  -0.95           -1.994e-009     6.325e-010      8.694e-009     
  -1              -1.8868e-009    8.422e-010      9.125e-009     
  -1.05           -3.1134e-009    -1.4565e-009    5.068e-009     
  -1.1            1.6983e-009     -4.83e-011      -1.7268e-008   
  -1.15           1.6422e-009     -2.562e-010     -2.232e-008    
  -1.2            1.556e-009      -4.933e-010     -2.4591e-008   
  -1.25           1.7934e-009     2.6449e-009     -6.636e-009    
  -1.3            -2.0226e-009    6.025e-010      8.63e-009      
  -1.35           -1.9173e-009    7.657e-010      9.047e-009     
  -1.4            -3.0824e-009    -1.7302e-009    4.997e-009     
  -1.45           1.7056e-009     -1.4022e-009    -1.6538e-008   
  -1.5            1.6569e-009     -6.308e-009     -2.1741e-008   
  -1.55           -2.2374e-009    -2.4855e-008    -1.0825e-008   
  -1.6            3.7776e-009     -7.6889e-008    -2.2316e-008   
  -1.65           -8.907e-010     -2.0417e-007    7.439e-009     
  -1.7            1.6792e-009     -4.4964e-007    -1.2963e-008   
  -1.75           3.6748e-009     -8.1518e-007    -2.3807e-008   
  -1.8            3.5687e-009     -1.2681e-006    8.609e-009     
  -1.85           -2.7103e-009    -1.7794e-006    9.127e-009     
  -1.9            1.7179e-009     -2.3193e-006    -1.0402e-008   
  -1.95           1.6122e-009     -2.8256e-006    -1.8181e-008   
  -2              3.2392e-009     -3.2963e-006    -2.4476e-008   
  -2.05           2.0732e-009     -3.7422e-006    -8.816e-009    
  -2.1            1.7171e-009     -4.1642e-006    -1.0773e-008   
  -2.15           1.6585e-009     -4.5659e-006    -1.4978e-008   
  -2.2            3.5403e-009     -4.9423e-006    -2.4653e-008   
  -2.25           2.3369e-009     -5.3014e-006    -6.777e-009    
  -2.3            1.7299e-009     -5.6484e-006    -1.1281e-008   
  -2.35           1.7e-009        -5.9839e-006    -1.2634e-008   
  -2.4            3.7758e-009     -6.3008e-006    -2.3287e-008   
  -2.45           2.6614e-009     -6.6061e-006    -4.735e-009    
  -2.5            1.8001e-009     -6.9044e-006    -1.072e-008    
  -2.55           1.7203e-009     -7.1918e-006    -1.0994e-008   
  -2.6            1.5731e-009     -7.4702e-006    -2.0495e-008   
  -2.65           2.298e-009      -7.7348e-006    -6.819e-009    
  -2.7            1.732e-009      -7.9969e-006    -1.1319e-008   
  -2.75           1.7016e-009     -8.2517e-006    -1.273e-008    
  -2.8            3.7695e-009     -8.4969e-006    -2.3662e-008   
  -2.85           2.6248e-009     -8.7321e-006    -4.928e-009    
  -2.9            1.7873e-009     -8.9637e-006    -1.0823e-008   
  -2.95           1.7231e-009     -9.1904e-006    -1.0938e-008   
  -3              1.5682e-009     -9.4082e-006    -2.0871e-008   
  -3.05           2.2813e-009     -9.6222e-006    -6.766e-009    
  -3.1            1.7312e-009     -9.8304e-006    -1.1135e-008   
  -3.15           1.7008e-009     -1.00367e-005   -1.292e-008    
  -3.2            3.7815e-009     -1.02326e-005   -2.4058e-008   
  -3.25           2.5925e-009     -1.04235e-005   -5.309e-009    
  -3.3            1.777e-009      -1.06145e-005   -1.0679e-008   
  -3.35           1.7258e-009     -1.07993e-005   -1.1224e-008   
  -3.4            1.5608e-009     -1.09772e-005   -2.1378e-008   
  -3.45           2.2234e-009     -1.11533e-005   -7.016e-009    
  -3.5            1.7317e-009     -1.13259e-005   -1.094e-008    
  -3.55           -2.2536e-009    -1.1479e-005    -1.3143e-008   
  -3.6            -1.9999e-009    -1.1644e-005    8.431e-009     
  -3.65           -2.3442e-009    -1.181e-005     4.961e-009     
  -3.7            1.6659e-009     -1.1969e-005    -1.4925e-008   
  -3.75           3.553e-009      -1.2123e-005    -2.5152e-008   
  -3.8            2.2712e-009     -1.2275e-005    -7.054e-009    
  -3.85           1.7376e-009     -1.2423e-005    -1.0959e-008   
  -3.9            1.7072e-009     -1.2568e-005    -1.2779e-008   
  -3.95           3.7951e-009     -1.2707e-005    -2.4285e-008   
  -4              2.5877e-009     -1.2848e-005    -5.223e-009    
  -4.05           1.7817e-009     -1.2981e-005    -1.0629e-008   
  -4.1            1.7327e-009     -1.3118e-005    -1.108e-008    
  -4.15           1.5567e-009     -1.3245e-005    -2.1324e-008   
