! VERSION = 6.00
BEGIN_HEADER
 ICCAP_INPUTS
  VG         V  B GROUND SMU4 0.001 LIN        2    0          -5         6    -1        
  VS         V  E GROUND SMU2 0.1 CON        0
  VD         V  S GROUND SMU1 0.1 LIN        1    0          -5         101  -0.05     
  VB         V  C GROUND SMU3 0.1 LIN        3    0          2.5        2    2.5       
 ICCAP_OUTPUTS
  ID         I  S GROUND SMU1 B
  IB         I  C GROUND SMU3 B
  IG         I  B GROUND SMU4 B
END_HEADER

BEGIN_DB
 ICCAP_VAR VG         0              
 ICCAP_VAR VS         0              
 ICCAP_VAR VB         0              

 #VD              ID              IB              IG             
  0               -1.1956e-009    -1.0312e-008    -1.6134e-009   
  -0.05           2.4406e-009     -8.42e-009      6.691e-010     
  -0.1            2.4544e-009     -9.218e-009     1.1514e-009    
  -0.15           2.3884e-009     -7.004e-009     5.236e-010     
  -0.2            2.4789e-009     -8.916e-009     1.0347e-009    
  -0.25           -3.96e-011      -1.123e-008     1.3665e-009    
  -0.3            2.4819e-009     -1.774e-009     1.0212e-009    
  -0.35           -3.25e-011      -1.1133e-008    1.3707e-009    
  -0.4            2.482e-009      -1.588e-009     1.0089e-009    
  -0.45           -2.26e-011      -1.1045e-008    1.3717e-009    
  -0.5            2.4838e-009     -1.685e-009     9.867e-010     
  -0.55           -1.02e-011      -1.0831e-008    1.3755e-009    
  -0.6            2.4797e-009     -1.567e-009     9.715e-010     
  -0.65           0               -1.089e-008     1.3783e-009    
  -0.7            2.4817e-009     -1.644e-009     9.551e-010     
  -0.75           9.4e-012        -1.0767e-008    1.3816e-009    
  -0.8            2.4796e-009     -1.475e-009     9.378e-010     
  -0.85           1.81e-011       -1.0505e-008    1.3855e-009    
  -0.9            2.4835e-009     -1.279e-009     9.197e-010     
  -0.95           2.97e-011       -1.0592e-008    1.3874e-009    
  -1              -8.09e-011      -1.2548e-008    1.3536e-009    
  -1.05           2.4713e-009     -1.883e-009     1.0812e-009    
  -1.1            2.2015e-009     -5.918e-009     1.543e-009     
  -1.15           2.4846e-009     -8.838e-009     9.608e-010     
  -1.2            3e-012          -1.0676e-008    1.3804e-009    
  -1.25           2.4817e-009     -1.519e-009     9.465e-010     
  -1.3            1.87e-011       -1.04e-008      1.3849e-009    
  -1.35           2.48e-009       -1.197e-009     9.25e-010      
  -1.4            2.91e-011       -1.048e-008     1.3875e-009    
  -1.45           -8.23e-011      -1.2847e-008    1.3544e-009    
  -1.5            2.469e-009      -2.056e-009     1.0863e-009    
  -1.55           2.1916e-009     -5.911e-009     1.5524e-009    
  -1.6            2.4833e-009     -8.987e-009     9.655e-010     
  -1.65           2.1e-012        -1.0716e-008    1.3807e-009    
  -1.7            2.482e-009      -1.527e-009     9.463e-010     
  -1.75           1.24e-011       -1.0554e-008    1.382e-009     
  -1.8            2.4801e-009     -1.423e-009     9.314e-010     
  -1.85           2.64e-011       -1.0479e-008    1.3877e-009    
  -1.9            2.475e-009      -1.375e-009     9.204e-010     
  -1.95           3.67e-011       -1.0477e-008    1.39e-009      
  -2              -7.84e-011      -1.2522e-008    1.356e-009     
  -2.05           2.4712e-009     -1.863e-009     1.0807e-009    
  -2.1            2.1997e-009     -6.018e-009     1.5431e-009    
  -2.15           2.4797e-009     -8.917e-009     9.606e-010     
  -2.2            5.3e-012        -1.0624e-008    1.3838e-009    
  -2.25           2.4783e-009     -1.494e-009     9.425e-010     
  -2.3            2.02e-011       -1.0502e-008    1.3867e-009    
  -2.35           2.4825e-009     -1.439e-009     9.252e-010     
  -2.4            3.09e-011       -1.034e-008     1.3903e-009    
  -2.45           -7.97e-011      -1.2591e-008    1.3556e-009    
  -2.5            2.4713e-009     -2.105e-009     1.0825e-009    
  -2.55           2.201e-009      -6.011e-009     1.5459e-009    
  -2.6            2.4791e-009     -9.009e-009     9.563e-010     
  -2.65           6.1e-012        -1.0525e-008    1.3824e-009    
  -2.7            2.4791e-009     -1.53e-009      9.474e-010     
  -2.75           1.83e-011       -1.049e-008     1.3864e-009    
  -2.8            2.479e-009      -1.452e-009     9.261e-010     
  -2.85           2.59e-011       -1.0372e-008    1.3882e-009    
  -2.9            2.4771e-009     -1.34e-009      9.102e-010     
  -2.95           4.26e-011       -1.0185e-008    1.3925e-009    
  -3              -7.64e-011      -1.2335e-008    1.3579e-009    
  -3.05           2.4755e-009     -1.999e-009     1.0748e-009    
  -3.1            -6.33e-011      -1.1846e-008    1.361e-009     
  -3.15           2.4758e-009     -2.003e-009     1.0535e-009    
  -3.2            -5.39e-011      -1.1633e-008    1.3651e-009    
  -3.25           2.4788e-009     -1.843e-009     1.0382e-009    
  -3.3            -4.29e-011      -1.1608e-008    1.3669e-009    
  -3.35           2.4801e-009     -1.774e-009     1.0179e-009    
  -3.4            -3.79e-011      -1.1185e-008    1.369e-009     
  -3.45           2.476e-009      -1.62e-009      1.0018e-009    
  -3.5            -2.67e-011      -1.1168e-008    1.3722e-009    
  -3.55           2.4808e-009     -1.518e-009     9.868e-010     
  -3.6            -1.48e-011      -1.0904e-008    1.3763e-009    
  -3.65           2.4772e-009     -1.569e-009     9.722e-010     
  -3.7            -1.6e-012       -1.0535e-008    1.3791e-009    
  -3.75           2.4778e-009     -1.554e-009     9.48e-010      
  -3.8            8.2e-012        -1.0422e-008    1.383e-009     
  -3.85           2.481e-009      -1.522e-009     9.298e-010     
  -3.9            2.03e-011       -1.0477e-008    1.3858e-009    
  -3.95           2.4774e-009     -1.403e-009     9.201e-010     
  -4              3.47e-011       -1.0382e-008    1.391e-009     
  -4.05           -7.98e-011      -1.2545e-008    1.3557e-009    
  -4.1            2.4704e-009     -1.947e-009     1.0816e-009    
  -4.15           2.191e-009      -5.904e-009     1.542e-009     
  -4.2            2.48e-009       -9.097e-009     9.586e-010     
  -4.25           3e-012          -1.0817e-008    1.38e-009      
  -4.3            2.4792e-009     -1.383e-009     9.446e-010     
  -4.35           1.64e-011       -1.0416e-008    1.3831e-009    
  -4.4            2.4792e-009     -1.423e-009     9.319e-010     
  -4.45           2.56e-011       -1.018e-008     1.3887e-009    
  -4.5            -8.85e-011      -1.2756e-008    1.3537e-009    
  -4.55           2.4687e-009     -2.122e-009     1.0912e-009    
  -4.6            2.1851e-009     -6.032e-009     1.5581e-009    
  -4.65           2.4762e-009     -8.867e-009     9.703e-010     
  -4.7            -5.8e-012       -1.0688e-008    1.3795e-009    
  -4.75           2.4769e-009     -1.545e-009     9.554e-010     
  -4.8            2.6e-012        -1.0497e-008    1.3804e-009    
  -4.85           2.4785e-009     -1.374e-009     9.427e-010     
  -4.9            1.12e-011       -1.047e-008     1.3841e-009    
  -4.95           2.4814e-009     -1.424e-009     9.241e-010     
  -5              2.46e-011       -1.0458e-008    1.3861e-009    
END_DB

BEGIN_DB
 ICCAP_VAR VG         -1             
 ICCAP_VAR VS         0              
 ICCAP_VAR VB         0              

 #VD              ID              IB              IG             
  0               -2.7903e-009    -7.355e-009     -6.551e-010    
  -0.05           -5.4334e-008    -8.95e-009      -1.7244e-009   
  -0.1            -6.4267e-008    -9.024e-009     1.3974e-009    
  -0.15           -6.7187e-008    -7.413e-009     1.7005e-009    
  -0.2            -6.9742e-008    -9.078e-009     1.3875e-009    
  -0.25           -7.0439e-008    -7.893e-009     1.653e-009     
  -0.3            -7.238e-008     -9.453e-009     1.3792e-009    
  -0.35           -7.2707e-008    -8.437e-009     1.6013e-009    
  -0.4            -7.455e-008     -9.624e-009     1.3714e-009    
  -0.45           -7.4591e-008    -8.81e-009      1.5612e-009    
  -0.5            -7.6581e-008    -9.826e-009     1.3637e-009    
  -0.55           -7.633e-008     -9.15e-009      1.5289e-009    
  -0.6            -7.8081e-008    -9.92e-009      1.3554e-009    
  -0.65           -7.8044e-008    -9.06e-009      1.496e-009     
  -0.7            -7.9623e-008    -1.0421e-008    1.3474e-009    
  -0.75           -7.9493e-008    -8.994e-009     1.4698e-009    
  -0.8            -8.1262e-008    -1.085e-008     1.338e-009     
  -0.85           -8.118e-008     -8.958e-009     1.4489e-009    
  -0.9            -8.2682e-008    -1.139e-008     1.3294e-009    
  -0.95           -8.2503e-008    -8.942e-009     1.4317e-009    
  -1              -8.3839e-008    -1.1992e-008    3.3685e-009    
  -1.05           -8.4087e-008    -9.135e-009     1.3887e-009    
  -1.1            -8.4063e-008    -7.958e-009     1.6536e-009    
  -1.15           -8.5233e-008    -9.371e-009     1.3774e-009    
  -1.2            -8.495e-008     -8.538e-009     1.6049e-009    
  -1.25           -8.6473e-008    -9.711e-009     1.3697e-009    
  -1.3            -8.6233e-008    -8.934e-009     1.5577e-009    
  -1.35           -8.757e-008     -9.789e-009     1.3598e-009    
  -1.4            -8.7287e-008    -9.232e-009     1.5241e-009    
  -1.45           -8.8224e-008    -1.0173e-008    1.3538e-009    
  -1.5            -8.818e-008     -9.013e-009     1.4955e-009    
  -1.55           -8.9163e-008    -1.049e-008     1.3449e-009    
  -1.6            -8.9192e-008    -8.897e-009     1.4706e-009    
  -1.65           -8.9982e-008    -1.0782e-008    1.337e-009     
  -1.7            -9.0093e-008    -8.939e-009     1.4492e-009    
  -1.75           -9.0915e-008    -1.1512e-008    1.3284e-009    
  -1.8            -9.0841e-008    -8.985e-009     1.4317e-009    
  -1.85           -9.2196e-008    -1.2116e-008    3.377e-009     
  -1.9            -9.1787e-008    -9.11e-009      1.388e-009     
  -1.95           -9.1898e-008    -8.17e-009      1.6407e-009    
  -2              -9.3127e-008    -9.339e-009     1.3779e-009    
  -2.05           -9.2583e-008    -8.499e-009     1.5937e-009    
  -2.1            -9.4097e-008    -9.671e-009     1.3695e-009    
  -2.15           -9.3298e-008    -9.012e-009     1.5548e-009    
  -2.2            -9.5921e-008    -9.744e-009     1.3622e-009    
  -2.25           -9.4196e-008    -9.069e-009     1.5195e-009    
  -2.3            -9.6348e-008    -1.024e-008     1.3534e-009    
  -2.35           -9.4956e-008    -9.177e-009     1.495e-009     
  -2.4            -9.7166e-008    -1.0639e-008    1.3451e-009    
  -2.45           -9.6149e-008    -9.011e-009     1.4682e-009    
  -2.5            -9.8302e-008    -1.0966e-008    1.3363e-009    
  -2.55           -9.7174e-008    -9.001e-009     1.4485e-009    
  -2.6            -9.8899e-008    -1.1457e-008    3.3956e-009    
  -2.65           -9.8399e-008    -9.07e-009      1.3969e-009    
  -2.7            -9.7561e-008    -7.703e-009     1.6909e-009    
  -2.75           -9.9484e-008    -9.159e-009     1.3882e-009    
  -2.8            -9.8779e-008    -8.149e-009     1.6401e-009    
  -2.85           -1.00202e-007   -9.219e-009     1.3789e-009    
  -2.9            -9.9631e-008    -8.628e-009     1.5914e-009    
  -2.95           -1.01043e-007   -9.744e-009     1.3698e-009    
  -3              -1.00198e-007   -8.907e-009     1.5515e-009    
  -3.05           -1.01839e-007   -9.822e-009     1.3616e-009    
  -3.1            -1.01025e-007   -9.123e-009     1.521e-009     
  -3.15           -1.02411e-007   -9.979e-009     1.3532e-009    
  -3.2            -1.01729e-007   -9.14e-009      1.4947e-009    
  -3.25           -1.0312e-007    -1.0448e-008    1.3449e-009    
  -3.3            -1.0245e-007    -9.143e-009     1.4693e-009    
  -3.35           -1.03855e-007   -1.0894e-008    1.3352e-009    
  -3.4            -1.03245e-007   -9.101e-009     1.4476e-009    
  -3.45           -1.04514e-007   -1.1635e-008    1.3287e-009    
  -3.5            -1.03978e-007   -8.837e-009     1.4317e-009    
  -3.55           -1.03539e-007   -6.017e-009     1.8674e-009    
  -3.6            -1.04648e-007   -8.973e-009     1.4165e-009    
  -3.65           -1.04343e-007   -6.333e-009     1.8004e-009    
  -3.7            -1.05368e-007   -8.774e-009     1.4052e-009    
  -3.75           -1.04987e-007   -7.13e-009      1.737e-009     
  -3.8            -1.06195e-007   -9.078e-009     1.3953e-009    
  -3.85           -1.05721e-007   -7.861e-009     1.672e-009     
  -3.9            -1.06888e-007   -9.208e-009     1.3855e-009    
  -3.95           -1.06405e-007   -8.159e-009     1.6281e-009    
  -4              -1.07953e-007   -9.448e-009     1.3777e-009    
  -4.05           -1.071e-007     -8.678e-009     1.5857e-009    
  -4.1            -1.08931e-007   -9.633e-009     1.3691e-009    
  -4.15           -1.07764e-007   -9.053e-009     1.5463e-009    
  -4.2            -1.09357e-007   -9.824e-009     1.3594e-009    
  -4.25           -1.0841e-007    -9.015e-009     1.5144e-009    
  -4.3            -1.09854e-007   -1.0231e-008    1.351e-009     
  -4.35           -1.09139e-007   -9.113e-009     1.4869e-009    
  -4.4            -1.10623e-007   -1.0639e-008    1.3422e-009    
  -4.45           -1.09926e-007   -9.03e-009      1.4625e-009    
  -4.5            -1.11018e-007   -1.1107e-008    1.3336e-009    
  -4.55           -1.10648e-007   -8.974e-009     1.444e-009     
  -4.6            -1.12046e-007   -1.1627e-008    3.3922e-009    
  -4.65           -1.11429e-007   -9.018e-009     1.394e-009     
  -4.7            -1.11211e-007   -7.686e-009     1.6775e-009    
  -4.75           -1.12113e-007   -9.171e-009     1.3848e-009    
  -4.8            -1.0993e-007    -9.013e-009     1.3413e-009    
  -4.85           -1.117e-007     -5.035e-009     2.0197e-009    
  -4.9            -1.1194e-007    -6.746e-009     1.771e-009     
  -4.95           -1.1236e-007    -8.46e-009      1.5976e-009    
  -5              -1.1259e-007    -9.053e-009     1.4882e-009    
END_DB

BEGIN_DB
 ICCAP_VAR VG         -2             
 ICCAP_VAR VS         0              
 ICCAP_VAR VB         0              

 #VD              ID              IB              IG             
  0               -6.8109e-008    -9.281e-009     3.548e-010     
  -0.05           -4.4226e-006    -6.465e-009     -1.1482e-009   
  -0.1            -8.5655e-006    -9.126e-009     1.5101e-009    
  -0.15           -1.2471e-005    -9.272e-009     -3.907e-010    
  -0.2            -1.6178e-005    -1.992e-009     2.7767e-009    
  -0.25           -1.9643e-005    -1.1508e-008    3.4142e-009    
  -0.3            -2.2855e-005    -8.932e-009     1.4382e-009    
  -0.35           -2.5818e-005    -1.0647e-008    1.3413e-009    
  -0.4            -2.8495e-005    -7.968e-009     1.6862e-009    
  -0.45           -3.09e-005      -8.985e-009     1.4193e-009    
  -0.5            -3.3021e-005    -1.1519e-008    3.4207e-009    
  -0.55           -3.4814e-005    -9.04e-009      1.4475e-009    
  -0.6            -3.6305e-005    -1.0456e-008    1.347e-009     
  -0.65           -3.7495e-005    -7.765e-009     1.7121e-009    
  -0.7            -3.8404e-005    -9.037e-009     1.4356e-009    
  -0.75           -3.9082e-005    -1.108e-008     1.3424e-009    
  -0.8            -3.9546e-005    -8.498e-009     1.6327e-009    
  -0.85           -3.9882e-005    -9.074e-009     1.4064e-009    
  -0.9            -4.0172e-005    -1.2095e-008    3.387e-009     
  -0.95           -4.0345e-005    -9.014e-009     1.429e-009     
  -1              -4.0514e-005    -1.1123e-008    1.3372e-009    
  -1.05           -4.0611e-005    -7.987e-009     1.6371e-009    
  -1.1            -4.072e-005     -8.558e-009     1.4099e-009    
  -1.15           -4.0834e-005    -1.1954e-008    3.3936e-009    
  -1.2            -4.089e-005     -8.889e-009     1.4307e-009    
  -1.25           -4.0984e-005    -1.0667e-008    1.3404e-009    
  -1.3            -4.1019e-005    -8.315e-009     1.6503e-009    
  -1.35           -4.1092e-005    -9.349e-009     1.4114e-009    
  -1.4            -4.1168e-005    -1.2264e-008    3.3957e-009    
  -1.45           -4.1199e-005    -8.89e-009      1.4366e-009    
  -1.5            -4.1269e-005    -1.1044e-008    1.3415e-009    
  -1.55           -4.1286e-005    -8.311e-009     1.6581e-009    
  -1.6            -4.1343e-005    -9.152e-009     1.414e-009     
  -1.65           -4.1403e-005    -1.1851e-008    1.3303e-009    
  -1.7            -4.1425e-005    -9.022e-009     1.5849e-009    
  -1.75           -4.1464e-005    -9.325e-009     1.3959e-009    
  -1.8            -4.1491e-005    -4.93e-009      2.0459e-009    
  -1.85           -4.1543e-005    -9.083e-009     1.5326e-009    
  -1.9            -4.1576e-005    -9.536e-009     1.3798e-009    
  -1.95           -4.1608e-005    -5.913e-009     1.9211e-009    
  -2              -4.1646e-005    -9.201e-009     1.4893e-009    
  -2.05           -4.1701e-005    -9.96e-009      1.3662e-009    
  -2.1            -4.171e-005     -6.87e-009      1.8158e-009    
  -2.15           -4.1745e-005    -8.973e-009     1.4553e-009    
  -2.2            -4.18e-005      -1.0563e-008    1.3519e-009    
  -2.25           -4.1797e-005    -7.658e-009     1.7186e-009    
  -2.3            -4.1835e-005    -8.997e-009     1.4291e-009    
  -2.35           -4.1886e-005    -1.1206e-008    1.3385e-009    
  -2.4            -4.1888e-005    -8.409e-009     1.6413e-009    
  -2.45           -4.1924e-005    -8.975e-009     1.4081e-009    
  -2.5            -4.197e-005     -1.2115e-008    3.3876e-009    
  -2.55           -4.1973e-005    -9.056e-009     1.4316e-009    
  -2.6            -4.2017e-005    -1.0894e-008    1.3385e-009    
  -2.65           -4.2018e-005    -8.353e-009     1.649e-009     
  -2.7            -4.2053e-005    -9.113e-009     1.4107e-009    
  -2.75           -4.2095e-005    -1.2023e-008    3.3899e-009    
  -2.8            -4.2097e-005    -8.936e-009     1.4337e-009    
  -2.85           -4.2141e-005    -1.1147e-008    1.3406e-009    
  -2.9            -4.2137e-005    -8.123e-009     1.6546e-009    
  -2.95           -4.2167e-005    -9.168e-009     1.4125e-009    
  -3              -4.2205e-005    -1.1669e-008    1.3297e-009    
  -3.05           -4.2202e-005    -8.992e-009     1.5921e-009    
  -3.1            -4.2226e-005    -9.277e-009     1.3957e-009    
  -3.15           -4.2238e-005    -4.928e-009     2.0517e-009    
  -3.2            -4.2268e-005    -9.228e-009     1.5344e-009    
  -3.25           -4.2285e-005    -9.735e-009     1.3806e-009    
  -3.3            -4.2298e-005    -5.961e-009     1.9252e-009    
  -3.35           -4.2321e-005    -9.247e-009     1.4893e-009    
  -3.4            -4.235e-005     -1.0102e-008    1.3641e-009    
  -3.45           -4.2352e-005    -6.851e-009     1.8192e-009    
  -3.5            -4.2373e-005    -8.796e-009     1.4546e-009    
  -3.55           -4.2425e-005    -1.0522e-008    1.3507e-009    
  -3.6            -4.2411e-005    -7.493e-009     1.7199e-009    
  -3.65           -4.2438e-005    -9.097e-009     1.4295e-009    
  -3.7            -4.2475e-005    -1.1237e-008    1.3406e-009    
  -3.75           -4.2465e-005    -8.418e-009     1.6453e-009    
  -3.8            -4.2484e-005    -9.125e-009     1.4078e-009    
  -3.85           -4.2525e-005    -1.2193e-008    3.3888e-009    
  -3.9            -4.2523e-005    -8.846e-009     1.4315e-009    
  -3.95           -4.2559e-005    -1.1196e-008    1.3409e-009    
  -4              -4.2547e-005    -8.112e-009     1.6524e-009    
  -4.05           -4.2571e-005    -9.08e-009      1.4131e-009    
  -4.1            -4.2603e-005    -1.1855e-008    3.4021e-009    
  -4.15           -4.2601e-005    -8.976e-009     1.4369e-009    
