! VERSION = 6.00
BEGIN_HEADER
 ICCAP_INPUTS
  VG         V  B GROUND SMU4 0.001 LIN        2    0          -5         6    -1        
  VS         V  E GROUND SMU3 0.1 CON        0
  VD         V  S GROUND SMU2 0.1 LIN        1    0          -10        201  -0.05     
  VB         V  C GROUND SMU1 0.1 LIN        3    0          2.5        2    2.5       
 ICCAP_OUTPUTS
  ID         I  S GROUND SMU2 B
  IB         I  C GROUND SMU1 B
  IG         I  B GROUND SMU4 B
END_HEADER

BEGIN_DB
 ICCAP_VAR VG         0              
 ICCAP_VAR VS         0              
 ICCAP_VAR VB         0              

 #VD              ID              IB              IG             
  0               1.7252e-009     3.434e-009      -1.531e-010    
  -0.05           2.4395e-009     -1.9143e-009    6.192e-010     
  -0.1            -2.292e-009     2.3801e-009     -7.59e-010     
  -0.15           2.1892e-009     -3.7666e-009    1.0123e-009    
  -0.2            -1.9529e-009    2.1835e-009     -1.1943e-009   
  -0.25           2.2546e-009     -3.8151e-009    9.166e-010     
  -0.3            -2.0759e-009    2.9523e-009     -1.0569e-009   
  -0.35           2.3032e-009     -3.8393e-009    8.073e-010     
  -0.4            -2.1784e-009    2.7067e-009     -9.46e-010     
  -0.45           1.9733e-009     -3.7355e-009    1.2037e-009    
  -0.5            -2.2444e-009    2.5048e-009     -8.432e-010    
  -0.55           2.0923e-009     -3.7285e-009    1.0844e-009    
  -0.6            -2.2921e-009    2.3196e-009     -7.387e-010    
  -0.65           2.1898e-009     -3.7501e-009    9.841e-010     
  -0.7            -1.9704e-009    2.1217e-009     -1.1578e-009   
  -0.75           2.2495e-009     -3.8049e-009    8.942e-010     
  -0.8            -2.0852e-009    2.8768e-009     -1.0317e-009   
  -0.85           1.8556e-009     -3.7676e-009    1.3183e-009    
  -0.9            -2.1838e-009    2.6505e-009     -9.226e-010    
  -0.95           1.99e-009       -3.6114e-009    1.1748e-009    
  -1              -2.2447e-009    2.4546e-009     -8.186e-010    
  -1.05           2.1084e-009     -3.6332e-009    1.0634e-009    
  -1.1            -1.8539e-009    2.2831e-009     -1.2874e-009   
  -1.15           2.2017e-009     -3.6823e-009    9.661e-010     
  -1.2            -1.988e-009     2.0719e-009     -1.1339e-009   
  -1.25           2.2574e-009     -3.7771e-009    8.719e-010     
  -1.3            -2.1066e-009    2.8275e-009     -1.0078e-009   
  -1.35           1.8758e-009     -3.7482e-009    1.29e-009      
  -1.4            -2.1939e-009    2.6074e-009     -9.012e-010    
  -1.45           2.006e-009      -3.5854e-009    1.1506e-009    
  -1.5            -2.2453e-009    2.4262e-009     -8.016e-010    
  -1.55           2.1267e-009     -3.6614e-009    1.0433e-009    
  -1.6            -1.8775e-009    2.2404e-009     -1.2503e-009   
  -1.65           2.2132e-009     -3.7025e-009    9.478e-010     
  -1.7            -2.0046e-009    2.0351e-009     -1.1043e-009   
  -1.75           2.2625e-009     -3.7763e-009    8.515e-010     
  -1.8            -2.1256e-009    2.7775e-009     -9.887e-010    
  -1.85           1.9015e-009     -3.7305e-009    1.2613e-009    
  -1.9            -2.207e-009     2.5632e-009     -8.844e-010    
  -1.95           2.0311e-009     -3.5445e-009    1.1262e-009    
  -2              -2.2599e-009    2.3903e-009     -7.81e-010     
  -2.05           2.1481e-009     -3.6466e-009    1.0236e-009    
  -2.1            -1.9042e-009    2.2002e-009     -1.2235e-009   
  -2.15           2.2231e-009     -3.7097e-009    9.289e-010     
  -2.2            -2.0309e-009    1.9846e-009     -1.0862e-009   
  -2.25           2.273e-009      -3.7702e-009    8.361e-010     
  -2.3            -2.1463e-009    2.7242e-009     -9.667e-010    
  -2.35           1.9219e-009     -3.7117e-009    1.2346e-009    
  -2.4            -2.2197e-009    2.5331e-009     -8.692e-010    
  -2.45           2.049e-009      -3.606e-009     1.1128e-009    
  -2.5            -2.2707e-009    2.351e-009      -7.668e-010    
  -2.55           2.1647e-009     -3.6622e-009    1.0104e-009    
  -2.6            -1.9299e-009    2.1687e-009     -1.1995e-009   
  -2.65           2.2357e-009     -3.7737e-009    9.181e-010     
  -2.7            -2.0536e-009    1.9554e-009     -1.0686e-009   
  -2.75           2.2861e-009     -3.7946e-009    8.168e-010     
  -2.8            -2.165e-009     2.7031e-009     -9.561e-010    
  -2.85           1.9421e-009     -3.7554e-009    1.2106e-009    
  -2.9            -2.231e-009     2.5167e-009     -8.559e-010    
  -2.95           2.0659e-009     -3.7238e-009    1.0967e-009    
  -3              -2.285e-009     2.3539e-009     -7.496e-010    
  -3.05           2.1865e-009     -3.7094e-009    1.0034e-009    
  -3.1            -1.948e-009     2.1826e-009     -1.1801e-009   
  -3.15           2.259e-009      -3.797e-009     9.133e-010     
  -3.2            -2.0818e-009    2.9674e-009     -1.0487e-009   
  -3.25           2.3178e-009     -3.8146e-009    8.118e-010     
  -3.3            -2.1903e-009    2.733e-009      -9.418e-010    
  -3.35           1.9856e-009     -3.6892e-009    1.2093e-009    
  -3.4            -2.2549e-009    2.548e-009      -8.414e-010    
  -3.45           2.1176e-009     -3.6838e-009    1.0927e-009    
  -3.5            -1.8415e-009    2.3755e-009     -1.3245e-009   
  -3.55           2.2207e-009     -3.748e-009     1.0003e-009    
  -3.6            -1.9909e-009    2.1586e-009     -1.1695e-009   
  -3.65           2.2705e-009     -4.0839e-009    9.027e-010     
  -3.7            -2.1094e-009    2.9231e-009     -1.0418e-009   
  -3.75           1.8614e-009     -3.8714e-009    1.3356e-009    
  -3.8            -2.2102e-009    2.6985e-009     -9.367e-010    
  -3.85           1.9998e-009     -3.7191e-009    1.1935e-009    
  -3.9            -2.2711e-009    2.5221e-009     -8.353e-010    
  -3.95           2.1313e-009     -3.7913e-009    1.084e-009     
  -4              -1.8657e-009    2.3524e-009     -1.3028e-009   
  -4.05           2.2283e-009     -3.8818e-009    9.879e-010     
  -4.1            -1.9994e-009    2.1571e-009     -1.1511e-009   
  -4.15           2.2836e-009     -3.9682e-009    8.922e-010     
  -4.2            -2.123e-009     2.9289e-009     -1.0254e-009   
  -4.25           1.8802e-009     -3.9833e-009    1.3188e-009    
  -4.3            -2.2218e-009    2.72e-009       -9.188e-010    
  -4.35           2.013e-009      -3.8188e-009    1.1783e-009    
  -4.4            -2.2814e-009    2.5482e-009     -8.169e-010    
  -4.45           2.1387e-009     -4.0624e-009    1.0643e-009    
  -4.5            -1.8852e-009    2.3889e-009     -1.2764e-009   
  -4.55           2.2357e-009     -4.119e-009     9.744e-010     
  -4.6            -2.017e-009     2.2025e-009     -1.1218e-009   
  -4.65           2.2869e-009     -4.1913e-009    8.783e-010     
  -4.7            -2.1396e-009    2.982e-009      -9.998e-010    
  -4.75           1.8963e-009     -4.1863e-009    1.2975e-009    
  -4.8            -2.2313e-009    2.7767e-009     -9.01e-010     
  -4.85           2.0318e-009     -3.9377e-009    1.1643e-009    
  -4.9            -2.2837e-009    2.5925e-009     -8.042e-010    
  -4.95           2.1535e-009     -4.2753e-009    1.052e-009     
  -5              -1.9083e-009    2.4202e-009     -1.2443e-009   
  -5.05           2.2387e-009     -4.3004e-009    9.628e-010     
  -5.1            -2.0332e-009    2.2108e-009     -1.0992e-009   
  -5.15           2.293e-009      -4.2463e-009    8.662e-010     
  -5.2            -2.1586e-009    2.9574e-009     -9.879e-010    
  -5.25           1.9172e-009     -4.1591e-009    1.2799e-009    
  -5.3            -2.2455e-009    2.7576e-009     -8.902e-010    
  -5.35           2.0552e-009     -3.871e-009     1.1493e-009    
  -5.4            -2.2913e-009    2.5845e-009     -7.876e-010    
  -5.45           2.1818e-009     -4.2611e-009    1.0486e-009    
  -5.5            -1.9279e-009    2.385e-009      -1.2219e-009   
  -5.55           2.261e-009      -4.3258e-009    9.489e-010     
  -5.6            -2.0698e-009    2.159e-009      -1.0854e-009   
  -5.65           2.2863e-009     -4.2713e-009    8.46e-010      
  -5.7            -2.1925e-009    2.9292e-009     -9.759e-010    
  -5.75           1.9514e-009     -4.1e-009       1.2512e-009    
  -5.8            -2.248e-009     2.7413e-009     -8.678e-010    
  -5.85           2.0868e-009     -4.3425e-009    1.1352e-009    
  -5.9            -2.283e-009     2.546e-009      -7.652e-010    
  -5.95           2.2012e-009     -4.3488e-009    1.0348e-009    
  -6              -1.9556e-009    2.3475e-009     -1.1992e-009   
  -6.05           2.2556e-009     -4.3099e-009    9.367e-010     
  -6.1            -2.0929e-009    2.127e-009      -1.0679e-009   
  -6.15           2.2931e-009     -4.2575e-009    8.257e-010     
  -6.2            -2.1982e-009    2.8955e-009     -9.577e-010    
  -6.25           1.9705e-009     -4.0673e-009    1.2337e-009    
  -6.3            -2.2517e-009    2.7104e-009     -8.534e-010    
  -6.35           2.1099e-009     -4.361e-009     1.113e-009     
  -6.4            -2.2941e-009    2.5193e-009     -7.48e-010     
  -6.45           2.2028e-009     -4.3167e-009    1.0191e-009    
  -6.5            -1.9777e-009    2.3102e-009     -1.1764e-009   
  -6.55           2.2584e-009     -4.3005e-009    9.171e-010     
  -6.6            -2.1071e-009    3.1057e-009     -1.0495e-009   
  -6.65           2.3117e-009     -4.2208e-009    8.1e-010       
  -6.7            -2.2071e-009    2.8648e-009     -9.396e-010    
  -6.75           1.9954e-009     -4.0214e-009    1.2189e-009    
  -6.8            -2.2616e-009    2.6779e-009     -8.355e-010    
  -6.85           2.1222e-009     -4.3282e-009    1.0978e-009    
  -6.9            -1.8571e-009    2.4874e-009     -1.3134e-009   
  -6.95           2.2199e-009     -4.3266e-009    1.0025e-009    
  -7              -1.9995e-009    2.2832e-009     -1.1539e-009   
  -7.05           2.2733e-009     -4.3042e-009    9.065e-010     
  -7.1            -2.1253e-009    3.0647e-009     -1.0316e-009   
  -7.15           1.8675e-009     -4.2195e-009    1.34e-009      
  -7.2            -2.22e-009      2.8446e-009     -9.268e-010    
  -7.25           2.0078e-009     -3.9891e-009    1.204e-009     
  -7.3            -2.268e-009     2.6508e-009     -8.247e-010    
  -7.35           2.1383e-009     -4.339e-009     1.0867e-009    
  -7.4            -1.8709e-009    2.4625e-009     -1.2886e-009   
  -7.45           2.2273e-009     -4.3157e-009    9.912e-010     
  -7.5            -2.0127e-009    2.2476e-009     -1.1422e-009   
  -7.55           2.28e-009       -4.3128e-009    8.883e-010     
  -7.6            -2.1427e-009    3.0356e-009     -1.0138e-009   
  -7.65           1.8835e-009     -4.1938e-009    1.323e-009     
  -7.7            -2.2267e-009    2.8183e-009     -9.144e-010    
  -7.75           2.0279e-009     -3.938e-009     1.1858e-009    
  -7.8            -2.2721e-009    2.6255e-009     -8.101e-010    
  -7.85           2.1509e-009     -4.3229e-009    1.0737e-009    
  -7.9            -1.8897e-009    2.4415e-009     -1.2697e-009   
  -7.95           2.2357e-009     -4.2912e-009    9.789e-010     
  -8              -2.0293e-009    2.2282e-009     -1.1233e-009   
  -8.05           2.2807e-009     -4.2763e-009    8.818e-010     
  -8.1            -2.1538e-009    2.9989e-009     -1.0041e-009   
  -8.15           1.9021e-009     -4.1667e-009    1.306e-009     
  -8.2            -2.2328e-009    2.7957e-009     -9.031e-010    
  -8.25           2.0425e-009     -3.9142e-009    1.1714e-009    
  -8.3            -2.2781e-009    2.6078e-009     -7.988e-010    
  -8.35           2.1629e-009     -4.3401e-009    1.0651e-009    
  -8.4            -1.9042e-009    2.4162e-009     -1.2478e-009   
  -8.45           2.2401e-009     -4.3455e-009    9.666e-010     
  -8.5            -2.0448e-009    2.2018e-009     -1.1124e-009   
  -8.55           2.2863e-009     -4.2803e-009    8.654e-010     
  -8.6            -2.1649e-009    2.9763e-009     -9.943e-010    
  -8.65           1.9184e-009     -4.153e-009     1.283e-009     
  -8.7            -2.2427e-009    2.7651e-009     -8.845e-010    
  -8.75           2.0587e-009     -3.8856e-009    1.1561e-009    
  -8.8            -2.2919e-009    2.5845e-009     -7.852e-010    
  -8.85           2.1794e-009     -4.3354e-009    1.0484e-009    
  -8.9            -1.9261e-009    2.3872e-009     -1.2289e-009   
  -8.95           2.2517e-009     -4.3306e-009    9.551e-010     
  -9              -2.0623e-009    2.1678e-009     -1.092e-009    
  -9.05           2.2906e-009     -4.2685e-009    8.527e-010     
  -9.1            -2.177e-009     2.9516e-009     -9.794e-010    
  -9.15           1.9356e-009     -4.1236e-009    1.2678e-009    
  -9.2            -2.2472e-009    2.7408e-009     -8.766e-010    
  -9.25           2.0765e-009     -4.3626e-009    1.143e-009     
  -9.3            -2.291e-009     2.5611e-009     -7.72e-010     
  -9.35           2.1905e-009     -4.3156e-009    1.0364e-009    
  -9.4            -1.9401e-009    2.3711e-009     -1.21e-009     
  -9.45           2.2545e-009     -4.3261e-009    9.43e-010      
  -9.5            -2.0741e-009    2.1542e-009     -1.0779e-009   
  -9.55           2.2986e-009     -4.2708e-009    8.396e-010     
  -9.6            -2.1832e-009    2.9228e-009     -9.683e-010    
  -9.65           1.9529e-009     -4.0811e-009    1.2537e-009    
  -9.7            -2.2509e-009    2.7311e-009     -8.657e-010    
  -9.75           2.089e-009      -4.351e-009     1.1284e-009    
  -9.8            -2.2967e-009    2.5428e-009     -7.598e-010    
  -9.85           2.1945e-009     -4.3404e-009    1.0302e-009    
  -9.9            -1.9556e-009    2.3419e-009     -1.1968e-009   
  -9.95           2.2557e-009     -4.3273e-009    9.32e-010      
  -10             -2.086e-009     2.1273e-009     -1.0643e-009   
END_DB

BEGIN_DB
 ICCAP_VAR VG         -1             
 ICCAP_VAR VS         0              
 ICCAP_VAR VB         0              

 #VD              ID              IB              IG             
  0               1.6749e-008     -4.084e-009     -3.134e-010    
  -0.05           -4.1297e-007    4.1164e-009     -6.457e-010    
  -0.1            -4.9548e-007    2.1946e-009     -1.6366e-009   
  -0.15           -5.1713e-007    3.7921e-009     -1.6167e-009   
  -0.2            -5.3028e-007    3.715e-009      -1.5851e-009   
  -0.25           -5.4073e-007    3.6141e-009     -1.7543e-009   
  -0.3            -5.5364e-007    3.9154e-009     -1.7079e-009   
  -0.35           -5.6192e-007    3.8702e-009     -1.6736e-009   
  -0.4            -5.694e-007     3.8337e-009     -1.6455e-009   
  -0.45           -5.763e-007     3.8057e-009     -1.6277e-009   
  -0.5            -5.8262e-007    3.758e-009      -1.6045e-009   
  -0.55           -5.8891e-007    3.6671e-009     -1.7788e-009   
  -0.6            -5.9876e-007    3.9453e-009     -1.7278e-009   
  -0.65           -6.0523e-007    3.886e-009      -1.6888e-009   
  -0.7            -6.106e-007     3.8489e-009     -1.658e-009    
  -0.75           -6.1575e-007    3.8225e-009     -1.6355e-009   
  -0.8            -6.2051e-007    3.7862e-009     -1.6164e-009   
  -0.85           -6.251e-007     3.7131e-009     -1.5859e-009   
  -0.9            -6.3023e-007    3.6077e-009     -1.753e-009    
  -0.95           -6.3919e-007    3.912e-009      -1.7042e-009   
  -1              -6.4398e-007    3.8553e-009     -1.6695e-009   
  -1.05           -6.4813e-007    3.8322e-009     -1.6453e-009   
  -1.1            -6.5211e-007    3.8051e-009     -1.6254e-009   
  -1.15           -6.56e-007      3.7564e-009     -1.6019e-009   
  -1.2            -6.5997e-007    3.6639e-009     -1.7758e-009   
  -1.25           -6.6797e-007    3.9644e-009     -1.74e-009     
  -1.3            -6.7218e-007    3.8991e-009     -1.6964e-009   
  -1.35           -6.7614e-007    3.8551e-009     -1.6663e-009   
  -1.4            -6.7967e-007    3.8305e-009     -1.6432e-009   
  -1.45           -6.8268e-007    3.8031e-009     -1.626e-009    
  -1.5            -6.8593e-007    3.7389e-009     -1.5961e-009   
  -1.55           -6.8973e-007    3.6059e-009     -1.7491e-009   
  -1.6            -6.9726e-007    3.9279e-009     -1.715e-009    
  -1.65           -7.0067e-007    3.8716e-009     -1.6779e-009   
  -1.7            -7.0397e-007    3.8402e-009     -1.6525e-009   
  -1.75           -7.0653e-007    3.8188e-009     -1.6348e-009   
  -1.8            -7.0914e-007    3.7743e-009     -1.6127e-009   
  -1.85           -7.1218e-007    3.6819e-009     -1.7891e-009   
  -1.9            -7.1905e-007    3.9607e-009     -1.7405e-009   
  -1.95           -7.2224e-007    3.8978e-009     -1.6937e-009   
  -2              -7.2518e-007    3.8514e-009     -1.6639e-009   
  -2.05           -7.2766e-007    3.833e-009      -1.6455e-009   
  -2.1            -7.2973e-007    3.8022e-009     -1.6255e-009   
  -2.15           -7.3199e-007    3.7333e-009     -1.5988e-009   
  -2.2            -7.3488e-007    3.6278e-009     -1.7664e-009   
  -2.25           -7.4172e-007    3.9328e-009     -1.7208e-009   
  -2.3            -7.4414e-007    3.8814e-009     -1.6817e-009   
  -2.35           -7.4624e-007    3.8443e-009     -1.6562e-009   
  -2.4            -7.4822e-007    3.8268e-009     -1.6358e-009   
  -2.45           -7.5015e-007    3.7762e-009     -1.613e-009    
  -2.5            -7.5245e-007    3.6857e-009     -1.7922e-009   
  -2.55           -7.5895e-007    3.9662e-009     -1.7425e-009   
  -2.6            -7.6169e-007    3.9027e-009     -1.6992e-009   
  -2.65           -7.6361e-007    3.8579e-009     -1.665e-009    
  -2.7            -7.6564e-007    3.8376e-009     -1.6448e-009   
  -2.75           -7.6719e-007    3.806e-009      -1.6267e-009   
  -2.8            -7.6911e-007    3.7394e-009     -1.598e-009    
  -2.85           -7.7155e-007    3.6368e-009     -1.7672e-009   
  -2.9            -7.779e-007     3.9283e-009     -1.717e-009    
  -2.95           -7.8009e-007    3.8809e-009     -1.6817e-009   
  -3              -7.8212e-007    3.8438e-009     -1.6553e-009   
  -3.05           -7.8373e-007    3.8229e-009     -1.6388e-009   
  -3.1            -7.8511e-007    3.7789e-009     -1.6164e-009   
  -3.15           -7.8744e-007    3.6891e-009     -1.7934e-009   
  -3.2            -7.936e-007     3.9677e-009     -1.7413e-009   
  -3.25           -7.9606e-007    3.9064e-009     -1.701e-009    
  -3.3            -7.9825e-007    3.8612e-009     -1.6674e-009   
  -3.35           -7.9998e-007    3.8388e-009     -1.6471e-009   
  -3.4            -8.0167e-007    3.8108e-009     -1.6297e-009   
  -3.45           -8.0312e-007    3.7363e-009     -1.6007e-009   
  -3.5            -8.0564e-007    3.6329e-009     -1.768e-009    
  -3.55           -8.1185e-007    3.9398e-009     -1.7208e-009   
  -3.6            -8.1413e-007    3.8859e-009     -1.6871e-009   
  -3.65           -8.1598e-007    3.8547e-009     -1.657e-009    
  -3.7            -8.1754e-007    3.8319e-009     -1.64e-009     
  -3.75           -8.1909e-007    3.7823e-009     -1.6202e-009   
  -3.8            -8.2105e-007    3.6896e-009     -1.7927e-009   
  -3.85           -8.2708e-007    3.9781e-009     -1.7435e-009   
  -3.9            -8.2975e-007    3.9091e-009     -1.7009e-009   
  -3.95           -8.3161e-007    3.8648e-009     -1.6616e-009   
  -4              -8.3321e-007    3.8222e-009     -1.6363e-009   
  -4.05           -8.3476e-007    3.7898e-009     -1.619e-009    
  -4.1            -8.3653e-007    3.7228e-009     -1.5888e-009   
  -4.15           -8.3871e-007    3.62e-009       -1.7619e-009   
  -4.2            -8.4494e-007    3.9236e-009     -1.7222e-009   
  -4.25           -8.4687e-007    3.8907e-009     -1.6863e-009   
  -4.3            -8.4882e-007    3.86e-009       -1.6615e-009   
  -4.35           -8.5035e-007    3.8342e-009     -1.6426e-009   
