! VERSION = 6.00
BEGIN_HEADER
 ICCAP_INPUTS
  VG         V  B GROUND SMU4 0.001 LIN        1    0          -5         101  -0.05     
  VS         V  E GROUND SMU2 0.1 CON        0
  VB         V  C GROUND SMU3 0.1 LIN        3    0          5          3    2.5       
  VD         V  S GROUND SMU1 0.1 LIN        2    -0.1       -5         2    -4.9      
 ICCAP_OUTPUTS
  IG         I  B GROUND SMU4 B
  ID         I  S GROUND SMU1 B
  IB         I  C GROUND SMU3 B
END_HEADER

BEGIN_DB
 ICCAP_VAR VS         0              
 ICCAP_VAR VB         0              
 ICCAP_VAR VD         -0.1           

 #VG              IG              ID              IB             
  0               -1.5775e-009    -1.1802e-009    -1.0746e-008   
  -0.05           7.488e-010      2.4441e-009     -8.902e-009    
  -0.1            1.2184e-009     2.4201e-009     -9.437e-009    
  -0.15           6.133e-010      2.4054e-009     -7.84e-009     
  -0.2            1.1106e-009     2.4553e-009     -9.262e-009    
  -0.25           4.74e-010       2.3492e-009     -6.285e-009    
  -0.3            9.94e-010       2.4706e-009     -8.885e-009    
  -0.35           1.4484e-009     2.2617e-009     -4.987e-009    
  -0.4            8.735e-010      2.4665e-009     -9.016e-009    
  -0.45           1.3333e-009     2.3592e-009     -9.966e-009    
  -0.5            7.469e-010      2.4458e-009     -8.997e-009    
  -0.55           1.2226e-009     2.4209e-009     -9.486e-009    
  -0.6            6.112e-010      2.3953e-009     -7.733e-009    
  -0.65           1.1067e-009     2.4243e-009     -8.968e-009    
  -0.7            4.71e-010       2.232e-009      -6.281e-009    
  -0.75           1.5622e-009     -1.766e-010     -8.968e-009    
  -0.8            1.4459e-009     -1.6282e-009    -9.505e-009    
  -0.85           1.3868e-009     -6.8929e-009    -1.0219e-008   
  -0.9            -1.6374e-009    -2.8063e-008    -8.04e-009     
  -0.95           1.3433e-009     -9.6558e-008    -9.824e-009    
  -1              -1.5957e-009    -3.1917e-007    -4.578e-009    
  -1.05           1.375e-009      -9.8954e-007    -9.077e-009    
  -1.1            -1.8525e-009    -2.462e-006     -1.026e-008    
  -1.15           1.7776e-009     -5.4866e-006    -6.44e-009     
  -1.2            1.4168e-009     -1.00698e-005   -8.989e-009    
  -1.25           -1.6165e-009    -1.5805e-005    -8.21e-009     
  -1.3            1.4056e-009     -2.2712e-005    -8.867e-009    
  -1.35           3.3835e-009     -2.9589e-005    -1.1407e-008   
  -1.4            1.3769e-009     -3.6137e-005    -9.052e-009    
  -1.45           2.9938e-009     -4.2201e-005    -1.417e-009    
  -1.5            2.1525e-009     -4.7783e-005    -4.251e-009    
  -1.55           1.5406e-009     -5.287e-005     -9.15e-009     
  -1.6            1.364e-009      -5.7519e-005    -9.679e-009    
  -1.65           2.8973e-009     -6.1717e-005    -1.563e-009    
  -1.7            2.0455e-009     -6.5617e-005    -4.839e-009    
  -1.75           1.5005e-009     -6.9213e-005    -9.117e-009    
  -1.8            1.3541e-009     -7.2587e-005    -1.0005e-008   
  -1.85           2.7808e-009     -7.5628e-005    -2.075e-009    
  -1.9            1.9259e-009     -7.8513e-005    -5.523e-009    
  -1.95           1.4649e-009     -8.1212e-005    -9.014e-009    
  -2              1.3434e-009     -8.3756e-005    -1.0114e-008   
  -2.05           2.6579e-009     -8.6096e-005    -2.335e-009    
  -2.1            1.8274e-009     -8.8355e-005    -6.432e-009    
  -2.15           1.4367e-009     -9.0483e-005    -8.78e-009     
  -2.2            1.335e-009      -9.2497e-005    -1.0609e-008   
  -2.25           2.5353e-009     -9.4395e-005    -2.678e-009    
  -2.3            1.7384e-009     -9.6226e-005    -7.157e-009    
  -2.35           1.4136e-009     -9.7972e-005    -8.898e-009    
  -2.4            1.3252e-009     -9.9626e-005    -1.1264e-008   
  -2.45           2.4098e-009     -0.000101197    -3.096e-009    
  -2.5            1.666e-009      -0.000102734    -7.886e-009    
  -2.55           1.3998e-009     -0.000104204    -9.184e-009    
  -2.6            3.101e-009      -0.000105572    -1.257e-009    
  -2.65           2.286e-009      -0.000106934    -3.702e-009    
  -2.7            1.6016e-009     -0.00010824     -8.678e-009    
  -2.75           1.3866e-009     -0.000109486    -9.441e-009    
  -2.8            3.003e-009      -0.000110676    -1.545e-009    
  -2.85           2.1575e-009     -0.000111836    -4.387e-009    
  -2.9            1.5515e-009     -0.000112968    -8.979e-009    
  -2.95           -2.2304e-009    -0.00011409     -9.665e-009    
  -3              1.4222e-009     -0.00011513     -9.057e-009    
  -3.05           1.338e-009      -0.00011618     -1.1386e-008   
  -3.1            2.4217e-009     -0.00011712     -3.197e-009    
  -3.15           1.6785e-009     -0.00011808     -8.071e-009    
  -3.2            1.4094e-009     -0.00011904     -8.999e-009    
  -3.25           3.114e-009      -0.00011991     -1.509e-009    
  -3.3            2.3147e-009     -0.00012078     -3.762e-009    
  -3.35           1.6245e-009     -0.00012165     -8.743e-009    
  -3.4            1.4e-009        -0.00012248     -9.478e-009    
  -3.45           3.0224e-009     -0.00012325     -1.47e-009     
  -3.5            2.1864e-009     -0.00012407     -4.237e-009    
  -3.55           1.5703e-009     -0.00012483     -9.318e-009    
  -3.6            1.3881e-009     -0.00012559     -9.767e-009    
  -3.65           2.92e-009       -0.00012628     -1.547e-009    
  -3.7            2.0796e-009     -0.00012699     -4.776e-009    
  -3.75           1.5323e-009     -0.00012773     -9.348e-009    
  -3.8            1.3774e-009     -0.00012838     -9.856e-009    
  -3.85           2.8214e-009     -0.00012902     -1.941e-009    
  -3.9            1.9735e-009     -0.00012966     -5.53e-009     
  -3.95           1.4969e-009     -0.00013032     -9.178e-009    
  -4              1.3689e-009     -0.00013091     -1.0091e-008   
  -4.05           2.7214e-009     -0.00013151     -2.179e-009    
  -4.1            1.8883e-009     -0.00013209     -6.172e-009    
  -4.15           1.4699e-009     -0.00013264     -9.13e-009     
  -4.2            1.3577e-009     -0.00013325     -1.0693e-008   
  -4.25           2.6006e-009     -0.00013378     -2.481e-009    
  -4.3            1.7969e-009     -0.00013434     -6.893e-009    
  -4.35           1.4444e-009     -0.00013484     -9.17e-009     
  -4.4            1.3511e-009     -0.00013538     -1.1245e-008   
  -4.45           2.4746e-009     -0.00013587     -2.924e-009    
  -4.5            1.721e-009      -0.00013635     -7.786e-009    
  -4.55           1.426e-009      -0.00013683     -8.856e-009    
  -4.6            3.1463e-009     -0.00013728     -1.271e-009    
  -4.65           2.375e-009      -0.00013776     -3.593e-009    
  -4.7            1.6577e-009     -0.00013821     -8.559e-009    
  -4.75           1.4096e-009     -0.0001387      -9.331e-009    
  -4.8            3.0677e-009     -0.00013909     -1.422e-009    
  -4.85           2.2475e-009     -0.00013955     -4.021e-009    
  -4.9            1.5948e-009     -0.00013997     -9.016e-009    
  -4.95           1.3955e-009     -0.00014036     -9.531e-009    
  -5              2.9785e-009     -0.00014075     -1.645e-009    
END_DB

BEGIN_DB
 ICCAP_VAR VS         0              
 ICCAP_VAR VB         0              
 ICCAP_VAR VD         -5             

 #VG              IG              ID              IB             
  0               -1.8706e-009    -1.7629e-009    -4.921e-009    
  -0.05           1.0517e-009     2.4339e-009     -8.668e-009    
  -0.1            4.113e-010      2.3135e-009     -5.621e-009    
  -0.15           9.336e-010      2.4415e-009     -9.061e-009    
  -0.2            1.3664e-009     1.38e-011       -1.0428e-008   
  -0.25           9.201e-010      2.4401e-009     -1.344e-009    
  -0.3            1.3704e-009     2.51e-011       -1.0236e-008   
  -0.35           9.064e-010      2.4436e-009     -1.356e-009    
  -0.4            1.3475e-009     2.306e-009      -1.0355e-008   
  -0.45           7.762e-010      2.4285e-009     -9.283e-009    
  -0.5            1.2376e-009     2.3751e-009     -9.467e-009    
  -0.55           6.443e-010      2.396e-009      -7.966e-009    
  -0.6            1.1191e-009     2.3989e-009     -9.157e-009    
  -0.65           5.021e-010      2.2652e-009     -6.515e-009    
  -0.7            1.5526e-009     -4.67e-011      -9.123e-009    
  -0.75           1.4374e-009     -1.0801e-009    -9.217e-009    
  -0.8            1.3755e-009     -4.8369e-009    -1.0166e-008   
  -0.85           -1.748e-009     -2.0886e-008    -9.171e-009    
  -0.9            1.3135e-009     -7.1699e-008    -1.0824e-008   
  -0.95           1.741e-010      -2.4323e-007    -9.799e-009    
  -1              1.5665e-009     -8.2418e-007    -8.956e-009    
  -1.05           -1.2843e-009    -2.2461e-006    -8.489e-009    
  -1.1            1.4415e-009     -5.6207e-006    -9.183e-009    
  -1.15           -1.5928e-009    -1.1415e-005    -8.856e-009    
  -1.2            1.3751e-009     -2.1143e-005    -9.372e-009    
  -1.25           3.0349e-009     -3.4411e-005    -1.348e-009    
  -1.3            2.269e-009      -5.1838e-005    -3.847e-009    
  -1.35           1.5862e-009     -7.3151e-005    -8.775e-009    
  -1.4            1.3671e-009     -9.8358e-005    -9.473e-009    
  -1.45           2.1326e-009     -0.00012696     -9.174e-009    
  -1.5            1.5213e-009     -0.00015929     -9.257e-009    
  -1.55           1.3512e-009     -0.00019451     -9.563e-009    
  -1.6            2.8445e-009     -0.00023275     -1.753e-009    
  -1.65           2.0132e-009     -0.000274       -5.117e-009    
  -1.7            1.481e-009      -0.00031778     -9.119e-009    
  -1.75           1.3442e-009     -0.00036419     -9.684e-009    
  -1.8            2.7599e-009     -0.00041296     -1.952e-009    
  -1.85           1.9249e-009     -0.00046383     -5.955e-009    
  -1.9            1.4545e-009     -0.00051663     -9.019e-009    
  -1.95           1.3367e-009     -0.00057146     -1.019e-008    
  -2              2.66e-009       -0.00062733     -2.276e-009    
  -2.05           1.8372e-009     -0.00068547     -6.263e-009    
  -2.1            1.4285e-009     -0.0007449      -9.178e-009    
  -2.15           1.3314e-009     -0.00080646     -1.0465e-008   
  -2.2            2.554e-009      -0.00086807     -2.631e-009    
  -2.25           1.7593e-009     -0.00093204     -7.202e-009    
  -2.3            1.4123e-009     -0.00099692     -8.856e-009    
  -2.35           3.1682e-009     -0.00106226     -9.86e-010     
  -2.4            2.1447e-009     -0.00112988     -4.205e-009    
  -2.45           -1.6994e-009    -0.0011953      -8.296e-009    
  -2.5            1.7148e-009     -0.0012668      -7.618e-009    
  -2.55           1.4078e-009     -0.0013368      -9.021e-009    
  -2.6            3.1379e-009     -0.0014069      -1.199e-009    
  -2.65           2.3836e-009     -0.001479       -3.266e-009    
  -2.7            1.658e-009      -0.0015516      -8.217e-009    
  -2.75           1.3953e-009     -0.0016252      -9.224e-009    
  -2.8            3.0639e-009     -0.0016979      -1.326e-009    
  -2.85           2.2822e-009     -0.0017727      -3.692e-009    
  -2.9            1.6106e-009     -0.001848       -8.564e-009    
  -2.95           1.39e-009       -0.0019234      -9.519e-009    
  -3              2.9947e-009     -0.0019986      -1.546e-009    
  -3.05           2.1838e-009     -0.0020752      -4.245e-009    
  -3.1            1.5685e-009     -0.0021521      -9.005e-009    
  -3.15           1.3854e-009     -0.0022295      -9.588e-009    
  -3.2            2.9326e-009     -0.0023062      -1.624e-009    
  -3.25           2.0778e-009     -0.002384       -4.672e-009    
  -3.3            1.5318e-009     -0.0024619      -8.971e-009    
  -3.35           1.3778e-009     -0.0025401      -9.782e-009    
  -3.4            2.8554e-009     -0.0026179      -1.833e-009    
  -3.45           1.9941e-009     -0.0026955      -5.171e-009    
  -3.5            1.5024e-009     -0.0027737      -9.192e-009    
  -3.55           1.3728e-009     -0.0028513      -9.918e-009    
  -3.6            2.7535e-009     -0.0029275      -2.033e-009    
  -3.65           1.9037e-009     -0.0030047      -5.84e-009     
  -3.7            1.4766e-009     -0.0030813      -9.153e-009    
  -3.75           1.3625e-009     -0.0031566      -1.0457e-008   
  -3.8            2.6512e-009     -0.0032291      -2.408e-009    
  -3.85           1.8278e-009     -0.0033015      -6.535e-009    
  -3.9            1.459e-009      -0.0033718      -8.88e-009     
  -3.95           1.3553e-009     -0.003441       -1.0715e-008   
  -4              2.5347e-009     -0.0035069      -2.858e-009    
  -4.05           1.7513e-009     -0.0035718      -7.062e-009    
  -4.1            1.4391e-009     -0.0036342      -9.023e-009    
  -4.15           3.2033e-009     -0.0036942      -1.212e-009    
  -4.2            2.4297e-009     -0.0037522      -3.198e-009    
  -4.25           1.6886e-009     -0.0038076      -7.822e-009    
  -4.3            1.4251e-009     -0.0038612      -9.061e-009    
  -4.35           3.1357e-009     -0.0039116      -1.37e-009     
  -4.4            2.3211e-009     -0.0039606      -3.773e-009    
  -4.45           1.6306e-009     -0.0040075      -8.47e-009     
  -4.5            1.4087e-009     -0.0040525      -9.116e-009    
  -4.55           3.0645e-009     -0.004095       -1.409e-009    
  -4.6            2.2077e-009     -0.0041366      -4.17e-009     
  -4.65           1.5843e-009     -0.0041759      -8.858e-009    
  -4.7            1.3988e-009     -0.0042138      -9.461e-009    
  -4.75           2.9772e-009     -0.0042502      -1.536e-009    
  -4.8            2.1076e-009     -0.0042853      -4.678e-009    
  -4.85           1.5405e-009     -0.0043189      -9.119e-009    
  -4.9            1.3868e-009     -0.0043512      -9.846e-009    
  -4.95           2.8877e-009     -0.0043826      -1.939e-009    
  -5              2.0046e-009     -0.0044128      -5.223e-009    
END_DB

BEGIN_DB
 ICCAP_VAR VS         0              
 ICCAP_VAR VB         2.5            
 ICCAP_VAR VD         -0.1           

 #VG              IG              ID              IB             
  0               -5.527e-010     -5.517e-010     -5.419e-009    
  -0.05           8.235e-010      2.4546e-009     -9.205e-009    
  -0.1            1.2911e-009     2.3803e-009     -9.705e-009    
  -0.15           6.739e-010      2.4243e-009     -8.56e-009     
  -0.2            1.1727e-009     2.4364e-009     -9.188e-009    
  -0.25           5.272e-010      2.3729e-009     -6.842e-009    
  -0.3            1.0529e-009     2.4589e-009     -9.083e-009    
  -0.35           3.775e-010      2.3119e-009     -5.499e-009    
  -0.4            9.256e-010      2.4626e-009     -9.13e-009     
  -0.45           1.3928e-009     3.15e-011       -1.0356e-008   
  -0.5            9.089e-010      2.4585e-009     -1.487e-009    
  -0.55           1.3623e-009     2.333e-009      -1.0247e-008   
  -0.6            7.67e-010       2.445e-009      -9.089e-009    
  -0.65           1.2457e-009     2.4037e-009     -9.493e-009    
  -0.7            6.266e-010      2.4026e-009     -8.079e-009    
  -0.75           1.1293e-009     2.452e-009      -8.861e-009    
  -0.8            4.817e-010      2.3485e-009     -6.347e-009    
  -0.85           1.004e-009      2.4602e-009     -8.984e-009    
  -0.9            1.4713e-009     2.2585e-009     -5.09e-009     
  -0.95           8.729e-010      2.4563e-009     -9.097e-009    
  -1              1.3376e-009     2.3545e-009     -1.0094e-008   
  -1.05           7.275e-010      2.4366e-009     -8.853e-009    
  -1.1            1.2153e-009     2.4199e-009     -9.533e-009    
  -1.15           5.833e-010      2.3875e-009     -7.635e-009    
  -1.2            1.0928e-009     2.4525e-009     -8.978e-009    
  -1.25           4.3e-010        2.3145e-009     -5.997e-009    
  -1.3            9.645e-010      2.3918e-009     -8.896e-009    
  -1.35           1.4028e-009     -3.496e-010     -1.0854e-008   
  -1.4            3.3489e-009     -9.202e-010     -1.454e-009    
  -1.45           1.4387e-009     -7.9547e-009    -9.632e-009    
  -1.5            -1.5585e-009    -3.6774e-008    -7.197e-009    
  -1.55           -1.574e-009     -1.3874e-007    -7.468e-009    
  -1.6            1.3626e-009     -5.2199e-007    -1.0568e-008   
  -1.65           -1.2762e-009    -1.5141e-006    -8.347e-009    
  -1.7            1.4843e-009     -3.8975e-006    -9.096e-009    
  -1.75           1.3684e-009     -7.9678e-006    -1.0274e-008   
  -1.8            -1.648e-009     -1.3421e-005    -7.645e-009    
  -1.85           1.4531e-009     -2.0145e-005    -8.781e-009    
  -1.9            1.3546e-009     -2.6863e-005    -1.0716e-008   
  -1.95           2.5546e-009     -3.3147e-005    -2.793e-009    
  -2              1.7573e-009     -3.8927e-005    -7.319e-009    
  -2.05           1.4418e-009     -4.4121e-005    -8.841e-009    
  -2.1            1.3498e-009     -4.8791e-005    -1.133e-008    
  -2.15           2.4599e-009     -5.2942e-005    -3.265e-009    
  -2.2            1.7019e-009     -5.6748e-005    -7.867e-009    
  -2.25           1.4272e-009     -6.0214e-005    -8.849e-009    
  -2.3            3.1749e-009     -6.3352e-005    -1.307e-009    
  -2.35           2.3635e-009     -6.6299e-005    -3.532e-009    
  -2.4            1.6529e-009     -6.9021e-005    -8.415e-009    
  -2.45           1.4142e-009     -7.1557e-005    -9.037e-009    
  -2.5            3.1158e-009     -7.3899e-005    -1.459e-009    
  -2.55           2.2761e-009     -7.6126e-005    -3.852e-009    
  -2.6            1.6039e-009     -7.8236e-005    -8.78e-009     
  -2.65           1.4031e-009     -8.0213e-005    -9.338e-009    
  -2.7            3.0366e-009     -8.2058e-005    -1.544e-009    
  -2.75           2.1663e-009     -8.3852e-005    -4.338e-009    
  -2.8            1.5626e-009     -8.5552e-005    -9.106e-009    
  -2.85           1.3908e-009     -8.7155e-005    -9.638e-009    
  -2.9            2.9497e-009     -8.8675e-005    -1.605e-009    
  -2.95           2.0865e-009     -9.0151e-005    -5.033e-009    
  -3              1.5331e-009     -9.1569e-005    -9.038e-009    
  -3.05           1.3827e-009     -9.2928e-005    -9.852e-009    
  -3.1            2.8692e-009     -9.4201e-005    -1.924e-009    
  -3.15           1.9881e-009     -9.5452e-005    -5.343e-009    
  -3.2            1.5016e-009     -9.6665e-005    -9.209e-009    
  -3.25           1.374e-009      -9.782e-005     -9.914e-009    
  -3.3            2.7691e-009     -9.892e-005     -2.018e-009    
  -3.35           1.9031e-009     -0.000100006    -6.186e-009    
  -3.4            1.4794e-009     -0.000101044    -8.899e-009    
  -3.45           1.3603e-009     -0.000102056    -1.0454e-008   
  -3.5            2.6688e-009     -0.000103019    -2.522e-009    
  -3.55           1.8332e-009     -0.00010396     -6.727e-009    
  -3.6            1.4568e-009     -0.000104889    -8.808e-009    
  -3.65           1.3536e-009     -0.00010577     -1.1065e-008   
  -3.7            2.548e-009      -0.000106638    -2.682e-009    
  -3.75           1.7637e-009     -0.000107484    -7.416e-009    
  -3.8            1.4415e-009     -0.000108306    -9.214e-009    
  -3.85           3.2234e-009     -0.000109069    -1.216e-009    
  -3.9            2.4593e-009     -0.000109843    -3.254e-009    
  -3.95           1.7073e-009     -0.000110605    -7.901e-009    
  -4              1.4215e-009     -0.00011134     -8.932e-009    
  -4.05           3.1525e-009     -0.000112034    -1.31e-009     
  -4.1            2.3478e-009     -0.000112734    -3.579e-009    
  -4.15           1.6455e-009     -0.000113413    -8.457e-009    
