! VERSION = 6.00
BEGIN_HEADER
 ICCAP_INPUTS
  VG         V  B GROUND SMU4 0.001 LIN        1    0          -5         101  -0.05     
  VS         V  E GROUND SMU2 0.1 CON        0
  VB         V  C GROUND SMU3 0.1 LIN        3    0          5          3    2.5       
  VD         V  S GROUND SMU1 0.1 LIN        2    -0.1       -5         2    -4.9      
 ICCAP_OUTPUTS
  IG         I  B GROUND SMU4 B
  ID         I  S GROUND SMU1 B
  IB         I  C GROUND SMU3 B
END_HEADER

BEGIN_DB
 ICCAP_VAR VS         0              
 ICCAP_VAR VB         0              
 ICCAP_VAR VD         -0.1           

 #VG              IG              ID              IB             
  0               -1.6108e-009    -1.213e-009     -1.0227e-008   
  -0.05           6.119e-010      2.4201e-009     -7.912e-009    
  -0.1            1.1005e-009     2.466e-009      -9.083e-009    
  -0.15           1.5579e-009     2.1532e-009     -6.22e-009     
  -0.2            9.826e-010      2.4807e-009     -8.902e-009    
  -0.25           1.3756e-009     -8.8e-012       -1.0969e-008   
  -0.3            9.636e-010      2.4839e-009     -1.463e-009    
  -0.35           1.3794e-009     -1.8e-012       -1.065e-008    
  -0.4            9.453e-010      2.4819e-009     -1.537e-009    
  -0.45           1.3801e-009     6.8e-012        -1.0863e-008   
  -0.5            1.3484e-009     -1.041e-010     -1.3227e-008   
  -0.55           1.1052e-009     2.4652e-009     -2.106e-009    
  -0.6            1.5725e-009     2.1349e-009     -6.5e-009      
  -0.65           9.683e-010      2.4663e-009     -9.073e-009    
  -0.7            1.3722e-009     -7.16e-011      -1.1161e-008   
  -0.75           -1.963e-010     1.8557e-009     -1.608e-009    
  -0.8            1.3768e-009     -8.455e-010     -1.11e-008     
  -0.85           1.3445e-009     -3.1994e-009    -1.386e-008    
  -0.9            -1.909e-009     -1.3383e-008    -8.997e-009    
  -0.95           3.2045e-009     -4.4183e-008    -1.4835e-008   
  -1              -2.569e-010     -1.5237e-007    -9.174e-009    
  -1.05           1.3383e-009     -5.0276e-007    -1.0526e-008   
  -1.1            -1.2882e-009    -1.3049e-006    -8.493e-009    
  -1.15           1.4557e-009     -3.0238e-006    -9.175e-009    
  -1.2            1.3473e-009     -5.7289e-006    -1.0279e-008   
  -1.25           3.0961e-009     -9.2633e-006    -1.5989e-008   
  -1.3            -2.012e-010     -1.315e-005     -1.0256e-008   
  -1.35           1.332e-009      -1.7361e-005    -1.1022e-008   
  -1.4            2.431e-009      -2.1255e-005    -3.008e-009    
  -1.45           1.6731e-009     -2.4906e-005    -7.825e-009    
  -1.5            1.4083e-009     -2.8249e-005    -8.867e-009    
  -1.55           3.39e-009       -3.1287e-005    -1.2016e-008   
  -1.6            1.3821e-009     -3.4045e-005    -9.517e-009    
  -1.65           2.9469e-009     -3.6563e-005    -1.595e-009    
  -1.7            2.0911e-009     -3.8898e-005    -4.563e-009    
  -1.75           1.5258e-009     -4.1054e-005    -9.191e-009    
  -1.8            1.376e-009      -4.3079e-005    -9.811e-009    
  -1.85           2.8619e-009     -4.4916e-005    -1.904e-009    
  -1.9            1.9983e-009     -4.6646e-005    -4.953e-009    
  -1.95           1.4927e-009     -4.8281e-005    -9.173e-009    
  -2              1.365e-009      -4.981e-005     -9.906e-009    
  -2.05           2.76e-009       -5.1225e-005    -2.024e-009    
  -2.1            1.9082e-009     -5.2584e-005    -5.731e-009    
  -2.15           1.4686e-009     -5.3874e-005    -9.042e-009    
  -2.2            1.3577e-009     -5.5099e-005    -1.0212e-008   
  -2.25           2.6612e-009     -5.6233e-005    -2.293e-009    
  -2.3            1.8234e-009     -5.7346e-005    -6.359e-009    
  -2.35           1.4495e-009     -5.8393e-005    -9.285e-009    
  -2.4            1.3498e-009     -5.9399e-005    -1.0807e-008   
  -2.45           2.553e-009      -6.0355e-005    -2.682e-009    
  -2.5            1.7478e-009     -6.1284e-005    -6.991e-009    
  -2.55           1.4323e-009     -6.2173e-005    -9.031e-009    
  -2.6            1.3451e-009     -6.302e-005     -1.1291e-008   
  -2.65           2.4428e-009     -6.3818e-005    -3.018e-009    
  -2.7            1.6861e-009     -6.4615e-005    -7.63e-009     
  -2.75           1.4195e-009     -6.5381e-005    -8.975e-009    
  -2.8            1.3388e-009     -6.611e-005     -1.1917e-008   
  -2.85           2.3302e-009     -6.6805e-005    -3.528e-009    
  -2.9            1.6266e-009     -6.7494e-005    -8.38e-009     
  -2.95           1.4122e-009     -6.8158e-005    -9.278e-009    
  -3              3.0715e-009     -6.8781e-005    -1.5e-009      
  -3.05           2.2249e-009     -6.9406e-005    -4.139e-009    
  -3.1            1.5842e-009     -7.0011e-005    -8.916e-009    
  -3.15           1.4034e-009     -7.0595e-005    -9.495e-009    
  -3.2            2.9801e-009     -7.1147e-005    -1.514e-009    
  -3.25           2.1182e-009     -7.1704e-005    -4.592e-009    
  -3.3            1.5439e-009     -7.2246e-005    -9.119e-009    
  -3.35           1.3951e-009     -7.2764e-005    -9.63e-009     
  -3.4            2.872e-009      -7.3258e-005    -1.83e-009     
  -3.45           2.0114e-009     -7.3744e-005    -5.169e-009    
  -3.5            1.5123e-009     -7.4237e-005    -9.134e-009    
  -3.55           1.3854e-009     -7.4708e-005    -9.995e-009    
  -3.6            2.7742e-009     -7.5143e-005    -2.168e-009    
  -3.65           1.9154e-009     -7.5591e-005    -5.913e-009    
  -3.7            1.4856e-009     -7.6035e-005    -9.1e-009      
  -3.75           1.3761e-009     -7.6462e-005    -1.0449e-008   
  -3.8            2.6682e-009     -7.6854e-005    -2.459e-009    
  -3.85           1.8304e-009     -7.7258e-005    -6.618e-009    
  -3.9            1.4658e-009     -7.7657e-005    -8.958e-009    
  -3.95           1.3695e-009     -7.8045e-005    -1.0863e-008   
  -4              2.547e-009      -7.8406e-005    -2.828e-009    
  -4.05           1.7491e-009     -7.8774e-005    -7.304e-009    
  -4.1            1.4455e-009     -7.9132e-005    -8.857e-009    
  -4.15           1.3584e-009     -7.9486e-005    -1.1435e-008   
  -4.2            2.4358e-009     -7.9823e-005    -3.08e-009     
  -4.25           1.6879e-009     -8.0168e-005    -7.969e-009    
  -4.3            1.432e-009      -8.05e-005      -8.974e-009    
  -4.35           3.4371e-009     -8.0813e-005    -1.2377e-008   
  -4.4            1.4066e-009     -8.1131e-005    -9.622e-009    
  -4.45           2.9573e-009     -8.1429e-005    -1.739e-009    
  -4.5            2.0758e-009     -8.1735e-005    -4.861e-009    
  -4.55           1.5321e-009     -8.2037e-005    -9.137e-009    
  -4.6            1.3956e-009     -8.233e-005     -9.764e-009    
  -4.65           2.8646e-009     -8.2603e-005    -1.913e-009    
  -4.7            1.9707e-009     -8.2878e-005    -5.638e-009    
  -4.75           1.5056e-009     -8.3156e-005    -9.175e-009    
  -4.8            1.3857e-009     -8.3438e-005    -1.0189e-008   
  -4.85           2.7468e-009     -8.3676e-005    -2.286e-009    
  -4.9            1.879e-009      -8.3939e-005    -6.253e-009    
  -4.95           1.4769e-009     -8.42e-005      -9.021e-009    
  -5              1.3725e-009     -8.4453e-005    -1.0591e-008   
END_DB

BEGIN_DB
 ICCAP_VAR VS         0              
 ICCAP_VAR VB         0              
 ICCAP_VAR VD         -5             

 #VG              IG              ID              IB             
  0               -2.1313e-009    -2.0492e-009    -3.038e-009    
  -0.05           7.293e-010      2.4757e-009     -9.454e-009    
  -0.1            1.2811e-009     2.3949e-009     -9.898e-009    
  -0.15           6.961e-010      2.45e-009       -8.865e-009    
  -0.2            1.0899e-009     2.4436e-009     -9.392e-009    
  -0.25           5.44e-010       2.4082e-009     -7.579e-009    
  -0.3            1.0241e-009     2.4771e-009     -9.003e-009    
  -0.35           1.3479e-009     -6.77e-011      -1.224e-008    
  -0.4            1.0611e-009     2.48e-009       -2.027e-009    
  -0.45           1.3495e-009     -6.36e-011      -1.2195e-008   
  -0.5            1.0516e-009     2.4789e-009     -1.902e-009    
  -0.55           1.3484e-009     -6.56e-011      -1.2081e-008   
  -0.6            1.0386e-009     2.472e-009      -1.982e-009    
  -0.65           1.3534e-009     -8.54e-011      -1.1862e-008   
  -0.7            -1.393e-010     1.9618e-009     -2.041e-009    
  -0.75           1.3526e-009     -5.265e-010     -1.1851e-008   
  -0.8            1.325e-009      -2.0461e-009    -1.4658e-008   
  -0.85           2.965e-009      -6.6045e-009    -2.975e-009    
  -0.9            -1.7449e-009    -3.0312e-008    -9.243e-009    
  -0.95           1.3234e-009     -1.09187e-007   -1.093e-008    
  -1              -1.5532e-009    -3.6851e-007    -8.941e-009    
  -1.05           -1.2477e-009    -1.1031e-006    -7.868e-009    
  -1.1            1.4684e-009     -2.8995e-006    -9.289e-009    
  -1.15           1.3472e-009     -6.2669e-006    -1.005e-008    
  -1.2            -1.5629e-009    -1.1495e-005    -9.034e-009    
  -1.25           1.3374e-009     -1.9436e-005    -1.0304e-008   
  -1.3            2.5874e-009     -2.9453e-005    -2.652e-009    
  -1.35           1.7592e-009     -4.1961e-005    -6.907e-009    
  -1.4            1.4155e-009     -5.6777e-005    -9.015e-009    
  -1.45           1.3289e-009     -7.3866e-005    -1.1184e-008   
  -1.5            2.4455e-009     -9.2651e-005    -2.967e-009    
  -1.55           1.6717e-009     -0.000113574    -8.039e-009    
  -1.6            2.201e-010      -0.00013635     -1.1705e-008   
  -1.65           1.3288e-009     -0.00016073     -1.1024e-008   
  -1.7            2.4303e-009     -0.0001864      -3.255e-009    
  -1.75           1.6638e-009     -0.00021389     -7.893e-009    
  -1.8            1.3984e-009     -0.00024303     -9.086e-009    
  -1.85           3.388e-009      -0.00027331     -1.2078e-008   
  -1.9            1.3711e-009     -0.00030429     -9.75e-009     
  -1.95           3.2924e-009     -0.00033697     -1.4063e-008   
  -2              1.3523e-009     -0.00037036     -9.961e-009    
  -2.05           3.1592e-009     -0.00040479     -1.5669e-008   
  -2.1            2.3217e-009     -0.0004398      -3.612e-009    
  -2.15           1.6082e-009     -0.00047617     -8.632e-009    
  -2.2            1.3898e-009     -0.00051333     -9.496e-009    
  -2.25           3.3615e-009     -0.0005513      -1.3075e-008   
  -2.3            1.3678e-009     -0.00058966     -9.675e-009    
  -2.35           2.8343e-009     -0.00062873     -1.917e-009    
  -2.4            1.9529e-009     -0.00066886     -5.634e-009    
  -2.45           1.4734e-009     -0.00070955     -9.167e-009    
  -2.5            1.3603e-009     -0.00075079     -9.965e-009    
  -2.55           2.6945e-009     -0.00079213     -2.15e-009     
  -2.6            1.8371e-009     -0.00083458     -6.43e-009     
  -2.65           1.4477e-009     -0.00087717     -9.107e-009    
  -2.7            1.3544e-009     -0.0009207      -1.055e-008    
  -2.75           3.0695e-009     -0.00096422     -1.6183e-008   
  -2.8            2.1783e-009     -0.00100798     -4.253e-009    
  -2.85           1.558e-009      -0.00105225     -9.212e-009    
  -2.9            1.3889e-009     -0.00109701     -9.585e-009    
  -2.95           -1.5607e-009    -0.0011403      -1.4317e-008   
  -3              -1.9481e-009    -0.0011854      7.244e-009     
  -3.05           1.3861e-009     -0.0012321      -9.707e-009    
  -3.1            3.273e-009      -0.0012783      -1.4633e-008   
  -3.15           1.3678e-009     -0.0013243      -1.028e-008    
  -3.2            3.1096e-009     -0.0013703      -1.61e-008     
  -3.25           2.2446e-009     -0.0014167      -3.968e-009    
  -3.3            1.5879e-009     -0.0014633      -8.897e-009    
  -3.35           1.3998e-009     -0.0015099      -9.463e-009    
  -3.4            3.3292e-009     -0.0015567      -1.3867e-008   
  -3.45           -1.6405e-009    -0.0016014      1.1991e-008    
  -3.5            -2.3949e-009    -0.0016483      4.791e-009     
  -3.55           -1.9039e-009    -0.0016947      6.02e-009      
  -3.6            -1.7127e-009    -0.0017407      1.0863e-008    
  -3.65           1.614e-009      -0.0017878      -8.83e-009     
  -3.7            1.4082e-009     -0.0018341      -9.456e-009    
  -3.75           3.3366e-009     -0.0018789      -1.3278e-008   
  -3.8            1.3875e-009     -0.0019228      -9.863e-009    
  -3.85           3.2505e-009     -0.0019664      -1.5228e-008   
  -3.9            2.4497e-009     -0.0020086      -3.456e-009    
  -3.95           1.6924e-009     -0.0020501      -7.966e-009    
  -4              1.4259e-009     -0.0020905      -9.155e-009    
  -4.05           3.434e-009      -0.0021294      -1.2228e-008   
  -4.1            1.3992e-009     -0.0021671      -9.459e-009    
  -4.15           2.9631e-009     -0.0022034      -1.652e-009    
  -4.2            2.0747e-009     -0.0022388      -5.117e-009    
  -4.25           1.5246e-009     -0.0022725      -9.281e-009    
  -4.3            1.3882e-009     -0.0023051      -9.855e-009    
  -4.35           2.8306e-009     -0.002336       -2.016e-009    
  -4.4            1.9461e-009     -0.002366       -5.967e-009    
  -4.45           1.4915e-009     -0.0023948      -9.194e-009    
  -4.5            1.3759e-009     -0.0024223      -1.0249e-008   
  -4.55           2.6938e-009     -0.0024486      -2.463e-009    
  -4.6            1.8407e-009     -0.0024737      -6.659e-009    
  -4.65           1.4614e-009     -0.002498       -8.957e-009    
  -4.7            1.3634e-009     -0.0025216      -1.0891e-008   
  -4.75           2.544e-009      -0.0025439      -3.044e-009    
  -4.8            1.7378e-009     -0.0025653      -7.7e-009      
  -4.85           1.4362e-009     -0.0025863      -8.882e-009    
  -4.9            1.352e-009      -0.0026065      -1.1891e-008   
  -4.95           2.4061e-009     -0.0026254      -3.463e-009    
  -5              1.6596e-009     -0.0026441      -8.391e-009    
END_DB

BEGIN_DB
 ICCAP_VAR VS         0              
 ICCAP_VAR VB         2.5            
 ICCAP_VAR VD         -0.1           

 #VG              IG              ID              IB             
  0               2.408e-010      -1.4678e-009    -8.97e-009     
  -0.05           1.1896e-009     2.4445e-009     -2.616e-009    
  -0.1            5.625e-010      2.4027e-009     -7.246e-009    
  -0.15           9.393e-010      2.4726e-009     -8.997e-009    
  -0.2            1.3773e-009     -6.63e-011      -1.2503e-008   
  -0.25           1.349e-009      -2.241e-010     -1.5344e-008   
  -0.3            3.2996e-009     -3.857e-010     -1.6486e-008   
  -0.35           -1.3047e-009    -2.0959e-009    5.995e-009     
  -0.4            8.827e-010      2.4716e-009     -8.88e-009     
  -0.45           1.3957e-009     -1.76e-011      -1.1058e-008   
  -0.5            1.3664e-009     -1.37e-010      -1.3968e-008   
  -0.55           3.3788e-009     -3.068e-010     -1.6149e-008   
  -0.6            1.1147e-009     2.4207e-009     -9.65e-009     
  -0.65           1.3568e-009     -2.063e-010     -1.4792e-008   
  -0.7            3.3239e-009     -3.723e-010     -1.6528e-008   
  -0.75           1.1462e-009     2.38e-009       -1.009e-008    
  -0.8            3.4016e-009     -2.699e-010     -1.595e-008    
  -0.85           1.0195e-009     2.4337e-009     -9.493e-009    
  -0.9            1.3662e-009     -1.678e-010     -1.4473e-008   
  -0.95           3.3563e-009     -3.343e-010     -1.6457e-008   
  -1              1.0984e-009     2.3981e-009     -9.904e-009    
  -1.05           1.3566e-009     -2.302e-010     -1.5487e-008   
  -1.1            3.3014e-009     -3.987e-010     -1.6545e-008   
  -1.15           1.0927e-009     2.3528e-009     -1.0003e-008   
  -1.2            -1.6809e-009    -1.5851e-009    8.906e-009     
  -1.25           1.4053e-009     -2.61e-011      -1.126e-008    
  -1.3            1.3746e-009     -1.679e-010     -1.422e-008    
  -1.35           3.3494e-009     -4.339e-010     -1.6471e-008   
  -1.4            -2.0355e-009    -1.7832e-009    5.081e-009     
  -1.45           3.1013e-009     -3.3787e-009    -1.6967e-008   
  -1.5            -2.4774e-009    -1.3977e-008    -1.6027e-008   
  -1.55           1.371e-009      -5.7605e-008    -1.0693e-008   
  -1.6            -7.52e-010      -2.2507e-007    1.0709e-008    
  -1.65           1.3847e-009     -7.5938e-007    -1.0052e-008   
  -1.7            -1.8409e-009    -1.9679e-006    -1.2854e-008   
  -1.75           3.1302e-009     -4.3017e-006    -1.6039e-008   
  -1.8            2.2743e-009     -7.598e-006     -4.049e-009    
  -1.85           -1.9893e-009    -1.1428e-005    4.802e-009     
  -1.9            1.4005e-009     -1.5464e-005    -9.711e-009    
  -1.95           3.2999e-009     -1.9282e-005    -1.4709e-008   
  -2              -1.6562e-009    -2.2623e-005    7.662e-009     
  -2.05           -2.302e-009     -2.575e-005     1.3701e-008    
  -2.1            -1.8501e-009    -2.8579e-005    7.643e-009     
  -2.15           -1.7262e-009    -3.1105e-005    9.614e-009     
  -2.2            -1.6784e-009    -3.3386e-005    1.1398e-008    
  -2.25           -1.5995e-009    -3.5463e-005    1.2228e-008    
  -2.3            -1.7919e-009    -3.7407e-005    8.12e-009      
  -2.35           -1.7406e-009    -3.9167e-005    1.0392e-008    
  -2.4            -1.6696e-009    -4.0806e-005    1.169e-008     
  -2.45           -1.585e-009     -4.2325e-005    1.2825e-008    
  -2.5            -1.8883e-009    -4.3779e-005    8.107e-009     
  -2.55           -1.7421e-009    -4.5112e-005    9.69e-009      
  -2.6            -1.6611e-009    -4.6374e-005    9.343e-009     
  -2.65           -2.1555e-009    -4.7592e-005    6.703e-009     
  -2.7            -1.8984e-009    -4.8715e-005    5.638e-009     
  -2.75           1.3819e-009     -4.9825e-005    -1.0149e-008   
  -2.8            3.1719e-009     -5.0832e-005    -1.5912e-008   
  -2.85           2.3432e-009     -5.1802e-005    -3.741e-009    
  -2.9            1.6303e-009     -5.2741e-005    -8.812e-009    
  -2.95           1.4193e-009     -5.3637e-005    -9.445e-009    
  -3              3.3441e-009     -5.4486e-005    -1.3248e-008   
  -3.05           -1.6681e-009    -5.5285e-005    1.1235e-008    
  -3.1            -2.2273e-009    -5.6087e-005    5.863e-009     
  -3.15           -1.8955e-009    -5.6846e-005    7.978e-009     
  -3.2            -1.7458e-009    -5.7567e-005    7.516e-009     
  -3.25           3.2698e-009     -5.8275e-005    -1.5246e-008   
  -3.3            2.4514e-009     -5.8949e-005    -3.472e-009    
  -3.35           1.6852e-009     -5.961e-005     -8.219e-009    
  -3.4            1.4299e-009     -6.0248e-005    -9.094e-009    
  -3.45           3.4354e-009     -6.0855e-005    -1.2651e-008   
  -3.5            1.4067e-009     -6.1449e-005    -9.537e-009    
  -3.55           3.3614e-009     -6.2018e-005    -1.4335e-008   
  -3.6            1.3837e-009     -6.2584e-005    -1.0182e-008   
  -3.65           3.2116e-009     -6.3114e-005    -1.5898e-008   
  -3.7            2.3403e-009     -6.3641e-005    -3.761e-009    
  -3.75           1.6295e-009     -6.416e-005     -8.649e-009    
  -3.8            1.4187e-009     -6.4658e-005    -9.396e-009    
  -3.85           3.4257e-009     -6.513e-005     -1.3224e-008   
  -3.9            1.3917e-009     -6.5616e-005    -1.0032e-008   
  -3.95           3.2933e-009     -6.6055e-005    -1.538e-008    
  -4              1.3707e-009     -6.6514e-005    -1.0484e-008   
  -4.05           3.1282e-009     -6.6933e-005    -1.6436e-008   
  -4.1            2.2274e-009     -6.736e-005     -4.269e-009    
  -4.15           1.5815e-009     -6.7784e-005    -9.114e-009    
