! VERSION = 6.00
BEGIN_HEADER
 ICCAP_INPUTS
  VG         V  B GROUND SMU4 0.001 LIN        2    0          -5         6    -1        
  VS         V  E GROUND SMU2 0.1 CON        0
  VD         V  S GROUND SMU1 0.1 LIN        1    0          -5         101  -0.05     
  VB         V  C GROUND SMU3 0.1 LIN        3    0          2.5        2    2.5       
 ICCAP_OUTPUTS
  ID         I  S GROUND SMU1 B
  IB         I  C GROUND SMU3 B
  IG         I  B GROUND SMU4 B
END_HEADER

BEGIN_DB
 ICCAP_VAR VG         0              
 ICCAP_VAR VS         0              
 ICCAP_VAR VB         0              

 #VD              ID              IB              IG             
  0               8.476e-010      1.324e-008      9.225e-010     
  -0.05           1.4537e-009     1.781e-008      -1.7891e-009   
  -0.1            -2.0679e-009    4.423e-009      -6.384e-010    
  -0.15           -1.4452e-009    -1.798e-008     2.1412e-009    
  -0.2            2.0681e-009     -5.51e-009      4.462e-010     
  -0.25           5.25e-010       1.4973e-008     -2.1373e-009   
  -0.3            -2.0154e-009    3.448e-009      -3.743e-010    
  -0.35           -2.0634e-009    -9.699e-009     -5.799e-010    
  -0.4            -6.631e-010     -1.6776e-008    2.2201e-009    
  -0.45           2.0477e-009     -4.988e-009     3.912e-010     
  -0.5            4.842e-010      1.4277e-008     -2.2016e-009   
  -0.55           -1.9288e-009    3.062e-009      -1.2394e-009   
  -0.6            -1.1611e-009    -2.4783e-008    2.6248e-009    
  -0.65           2.0045e-009     9.709e-009      2.864e-010     
  -0.7            2.0811e-009     9.461e-009      4.671e-010     
  -0.75           5.44e-010       1.5461e-008     -2.1043e-009   
  -0.8            -2.0241e-009    3.438e-009      -3.974e-010    
  -0.85           -2.0669e-009    -9.535e-009     -6.057e-010    
  -0.9            -1.4317e-009    -1.8772e-008    2.1904e-009    
  -0.95           2.0565e-009     -5.442e-009     4.166e-010     
  -1              5.023e-010      1.4763e-008     -2.1737e-009   
  -1.05           -1.0476e-009    -2.3839e-008    2.694e-009     
  -1.1            1.3716e-009     2.1144e-008     -1.9699e-009   
  -1.15           -2.0451e-009    3.748e-009      -5.074e-010    
  -1.2            -1.3772e-009    -2.0816e-008    2.3148e-009    
  -1.25           2.0205e-009     -4.323e-009     3.378e-010     
  -1.3            2.1031e-009     9.221e-009      5.082e-010     
  -1.35           5.824e-010      1.6055e-008     -2.0364e-009   
  -1.4            -2.0361e-009    3.574e-009      -4.571e-010    
  -1.45           -5.48e-010      -1.5559e-008    2.3866e-009    
  -1.5            1.9961e-009     -3.999e-009     2.83e-010      
  -1.55           3.887e-010      1.3233e-008     -2.3334e-009   
  -1.6            -2.0038e-009    2.404e-009      -1.1418e-009   
  -1.65           -1.0814e-009    -2.4126e-008    2.6844e-009    
  -1.7            1.4056e-009     2.0028e-008     -1.91e-009     
  -1.75           -2.0566e-009    4.318e-009      -5.541e-010    
  -1.8            -6.479e-010     -1.6737e-008    2.2552e-009    
  -1.85           2.0386e-009     -4.862e-009     3.733e-010     
  -1.9            4.674e-010      1.419e-008      -2.2304e-009   
  -1.95           -1.9451e-009    3.022e-009      -1.2205e-009   
  -2              -1.1473e-009    -2.442e-008     2.6304e-009    
  -2.05           8.019e-010      2.0696e-008     -1.6039e-009   
  -2.1            -2.0911e-009    5.727e-009      -7.913e-010    
  -2.15           -1.5264e-009    -1.4629e-008    1.9137e-009    
  -2.2            2.1243e-009     -7.899e-009     5.886e-010     
  -2.25           1.3912e-009     2.0677e-008     -1.9358e-009   
  -2.3            -2.0561e-009    3.9e-009        -5.382e-010    
  -2.35           -6.254e-010     -1.647e-008     2.2817e-009    
  -2.4            2.031e-009      -4.57e-009      3.525e-010     
  -2.45           4.541e-010      1.4003e-008     -2.2553e-009   
  -2.5            -2.0597e-009    -9.888e-009     -5.524e-010    
  -2.55           -1.3963e-009    -2.0051e-008    2.2693e-009    
  -2.6            2.0356e-009     -4.716e-009     3.625e-010     
  -2.65           4.595e-010      1.3895e-008     -2.2435e-009   
  -2.7            -1.9502e-009    2.878e-009      -1.2131e-009   
  -2.75           -1.1411e-009    -2.4549e-008    2.6379e-009    
  -2.8            7.946e-010      2.0547e-008     -1.6113e-009   
  -2.85           -2.09e-009      5.758e-009      -7.762e-010    
  -2.9            -1.5247e-009    -1.4986e-008    1.928e-009     
  -2.95           2.1251e-009     -7.555e-009     5.778e-010     
  -3              2.1747e-009     8.325e-009      7.439e-010     
  -3.05           1.5165e-009     1.6102e-008     -1.6885e-009   
  -3.1            -2.0849e-009    5.185e-009      -7.241e-010    
  -3.15           -1.4972e-009    -1.6252e-008    2.0227e-009    
  -3.2            2.1043e-009     -6.887e-009     5.168e-010     
  -3.25           5.894e-010      1.6341e-008     -2.0335e-009   
  -3.3            -2.0394e-009    3.538e-009      -4.566e-010    
  -3.35           -1.346e-009     -2.1702e-008    2.3755e-009    
  -3.4            2.0006e-009     -3.787e-009     2.907e-010     
  -3.45           2.0882e-009     9.487e-009      4.664e-010     
  -3.5            5.441e-010      1.5387e-008     -2.1058e-009   
  -3.55           -2.0253e-009    3.174e-009      -3.999e-010    
  -3.6            -1.3053e-009    -2.2649e-008    2.4474e-009    
  -3.65           2.1678e-009     6.5e-009        7.185e-010     
  -3.7            7.407e-010      1.9116e-008     -1.7382e-009   
  -3.75           -2.0801e-009    4.813e-009      -6.89e-010     
  -3.8            -1.4811e-009    -1.6819e-008    2.0632e-009    
  -3.85           2.0909e-009     -6.381e-009     4.945e-010     
  -3.9            5.654e-010      1.5713e-008     -2.0747e-009   
  -3.95           -2.0288e-009    3.366e-009      -4.314e-010    
  -4              -2.0713e-009    -9.441e-009     -6.286e-010    
  -4.05           -1.4475e-009    -1.836e-008     2.1555e-009    
  -4.1            2.0678e-009     -5.523e-009     4.361e-010     
  -4.15           5.186e-010      1.4934e-008     -2.1508e-009   
  -4.2            -2.0152e-009    3.315e-009      -3.648e-010    
  -4.25           -1.2859e-009    -2.3111e-008    2.4803e-009    
  -4.3            1.6086e-009     1.3345e-008     -1.5264e-009   
  -4.35           -2.0904e-009    6.228e-009      -8.421e-010    
  -4.4            -8.318e-010     -1.9371e-008    1.8139e-009    
  -4.45           2.1511e-009     -8.374e-009     6.493e-010     
  -4.5            1.4363e-009     1.9027e-008     -1.8437e-009   
  -4.55           -2.0673e-009    4.546e-009      -6.023e-010    
  -4.6            -2.0928e-009    -8.975e-009     -7.981e-010    
  -4.65           -1.531e-009     -1.4528e-008    1.9044e-009    
  -4.7            2.1346e-009     -7.713e-009     5.934e-010     
  -4.75           1.3974e-009     2.0388e-008     -1.932e-009    
  -4.8            -2.0553e-009    3.963e-009      -5.441e-010    
  -4.85           -1.3944e-009    -2.0083e-008    2.28e-009      
  -4.9            2.0349e-009     -4.7e-009       3.609e-010     
  -4.95           4.525e-010      1.3947e-008     -2.2526e-009   
  -5              -1.9601e-009    2.755e-009      -1.2057e-009   
END_DB

BEGIN_DB
 ICCAP_VAR VG         -1             
 ICCAP_VAR VS         0              
 ICCAP_VAR VB         0              

 #VD              ID              IB              IG             
  0               8.218e-010      -6.776e-009     2.581e-010     
  -0.05           -2.2148e-007    -1.7599e-008    1.093e-009     
  -0.1            -2.8481e-007    -2.4569e-008    2.3798e-009    
  -0.15           -3.0301e-007    -1.5878e-008    1.9545e-009    
  -0.2            -3.1519e-007    -1.7626e-008    2.7129e-009    
  -0.25           -3.2507e-007    -1.2075e-008    2.6477e-009    
  -0.3            -3.3032e-007    -1.0505e-008    1.8e-011       
  -0.35           -3.284e-007     1.1681e-008     -2.3399e-009   
  -0.4            -3.3597e-007    2.6376e-008     -2.1596e-009   
  -0.45           -3.4341e-007    1.5375e-008     -1.7624e-009   
  -0.5            -3.4269e-007    9.031e-009      1.9568e-009    
  -0.55           -3.6791e-007    -1.8061e-008    1.636e-009     
  -0.6            -3.7501e-007    -1.3316e-008    2.686e-009     
  -0.65           -3.7958e-007    -2.3545e-008    2.6037e-009    
  -0.7            -3.8165e-007    -1.0423e-008    -4.11e-011     
  -0.75           -3.7713e-007    1.198e-008      -2.2573e-009   
  -0.8            -3.8353e-007    1.4374e-008     -1.8717e-009   
  -0.85           -3.8293e-007    9.021e-009      1.8924e-009    
  -0.9            -4.1015e-007    -1.7199e-008    1.7562e-009    
  -0.95           -4.1248e-007    -1.4796e-008    2.7043e-009    
  -1              -4.1713e-007    -1.1052e-008    1.487e-010     
  -1.05           -4.0619e-007    1.1524e-008     -2.4774e-009   
  -1.1            -4.1083e-007    1.0428e-008     -1.57e-011     
  -1.15           -4.3188e-007    -1.2668e-008    2.5143e-009    
  -1.2            -4.3552e-007    -1.4958e-008    2.1422e-009    
  -1.25           -4.4317e-007    -1.7603e-008    1.6962e-009    
  -1.3            -4.2608e-007    -1.0084e-008    -7.632e-010    
  -1.35           -4.3486e-007    1.9979e-008     -1.4147e-009   
  -1.4            -4.3869e-007    2.4165e-008     -2.4472e-009   
  -1.45           -4.3967e-007    1.0245e-008     2.48e-011      
  -1.5            -4.6291e-007    -1.3206e-008    2.4672e-009    
  -1.55           -4.6542e-007    -1.5254e-008    2.0757e-009    
  -1.6            -4.7333e-007    -1.9386e-008    1.8211e-009    
  -1.65           -4.7509e-007    -1.5764e-008    2.7087e-009    
  -1.7            -4.8053e-007    -1.1369e-008    1.758e-010     
  -1.75           -4.6427e-007    1.1441e-008     -2.4953e-009   
  -1.8            -4.7126e-007    2.5021e-008     -2.3801e-009   
  -1.85           -4.7452e-007    2.6368e-008     -2.2103e-009   
  -1.9            -4.8001e-007    1.4707e-008     -1.8214e-009   
  -1.95           -4.7964e-007    9.078e-009      1.9181e-009    
  -2              -5.0242e-007    -1.7703e-008    1.7094e-009    
  -2.05           -5.0867e-007    -1.4062e-008    2.7009e-009    
  -2.1            -5.1021e-007    -2.3195e-008    2.6361e-009    
  -2.15           -5.1271e-007    -1.0449e-008    -2.4e-012      
  -2.2            -5.0265e-007    1.181e-008      -2.3125e-009   
  -2.25           -5.0535e-007    1.3947e-008     -1.9422e-009   
  -2.3            -5.1469e-007    2.284e-008      -1.7237e-009   
  -2.35           -5.1343e-007    1.9164e-008     -1.53e-009     
  -2.4            -5.1189e-007    1.133e-008      -2.4373e-009   
  -2.45           -5.1848e-007    2.5947e-008     -2.2909e-009   
  -2.5            -5.2123e-007    1.3903e-008     -1.9185e-009   
  -2.55           -5.219e-007     9.012e-009      1.86e-009      
  -2.6            -5.4296e-007    -1.708e-008     1.8024e-009    
  -2.65           -5.2696e-007    -1.0215e-008    -6.88e-010     
  -2.7            -5.3377e-007    1.8635e-008     -1.4799e-009   
  -2.75           -5.2774e-007    9.235e-009      7.617e-010     
  -2.8            -5.5789e-007    -2.0819e-008    2.7011e-009    
  -2.85           -5.6057e-007    -2.2953e-008    2.639e-009     
  -2.9            -5.6554e-007    -2.4253e-008    2.5077e-009    
  -2.95           -5.6646e-007    -2.4487e-008    2.33e-009      
  -3              -5.7006e-007    -1.648e-008     1.8942e-009    
  -3.05           -5.7589e-007    -1.6756e-008    2.7144e-009    
  -3.1            -5.7624e-007    -1.1737e-008    2.058e-010     
  -3.15           -5.5583e-007    1.1414e-008     -2.5221e-009   
  -3.2            -5.6407e-007    2.4574e-008     -2.4254e-009   
  -3.25           -5.6736e-007    2.604e-008      -2.2694e-009   
  -3.3            -5.7507e-007    1.4242e-008     -1.8878e-009   
  -3.35           -5.6732e-007    8.913e-009      1.8829e-009    
  -3.4            -5.9236e-007    -1.7317e-008    1.7758e-009    
  -3.45           -5.9818e-007    -1.5107e-008    2.7074e-009    
  -3.5            -6.013e-007     -1.1131e-008    1.523e-010     
  -3.55           -5.797e-007     1.1559e-008     -2.4798e-009   
  -3.6            -5.8518e-007    1.0535e-008     -2.1e-011      
  -3.65           -6.1214e-007    -1.2565e-008    2.5165e-009    
  -3.7            -6.1774e-007    -2.4527e-008    2.3353e-009    
  -3.75           -6.1423e-007    -1.6227e-008    1.9068e-009    
  -3.8            -6.1863e-007    -1.6829e-008    2.7154e-009    
  -3.85           -6.2476e-007    -1.1769e-008    2.145e-010     
  -3.9            -5.9986e-007    1.1392e-008     -2.5272e-009   
  -3.95           -6.0895e-007    2.4606e-008     -2.4267e-009   
  -4              -6.1129e-007    2.5982e-008     -2.2784e-009   
  -4.05           -6.1552e-007    1.4243e-008     -1.9049e-009   
  -4.1            -6.1286e-007    9.072e-009      1.8736e-009    
  -4.15           -6.3967e-007    -1.7195e-008    1.7891e-009    
  -4.2            -6.4259e-007    -1.5123e-008    2.7073e-009    
  -4.25           -6.4739e-007    -1.1209e-008    1.564e-010     
  -4.3            -6.2501e-007    1.1531e-008     -2.4868e-009   
  -4.35           -6.3274e-007    2.512e-008      -2.3641e-009   
  -4.4            -6.379e-007     2.6328e-008     -2.1886e-009   
  -4.45           -6.4116e-007    1.4992e-008     -1.795e-009    
  -4.5            -6.3447e-007    9.02e-009       1.9364e-009    
  -4.55           -6.6423e-007    -1.7712e-008    1.6677e-009    
  -4.6            -6.4112e-007    -1.0132e-008    -7.801e-010    
  -4.65           -6.5223e-007    2.0014e-008     -1.403e-009    
  -4.7            -6.5379e-007    2.4531e-008     -2.4352e-009   
  -4.75           -6.6174e-007    2.5816e-008     -2.2786e-009   
  -4.8            -6.6019e-007    1.4171e-008     -1.8975e-009   
  -4.85           -6.5698e-007    9.227e-009      1.8741e-009    
  -4.9            -6.8604e-007    -1.7299e-008    1.7962e-009    
  -4.95           -6.9263e-007    -1.517e-008     2.7086e-009    
  -5              -6.9377e-007    -1.1219e-008    1.611e-010     
END_DB

BEGIN_DB
 ICCAP_VAR VG         -2             
 ICCAP_VAR VS         0              
 ICCAP_VAR VB         0              

 #VD              ID              IB              IG             
  0               4.3315e-007     2.555e-008      -1.3175e-009   
  -0.05           -4.155e-005     -9.625e-009     2.6604e-009    
  -0.1            -8.2566e-005    -1.1406e-008    2.061e-010     
  -0.15           -0.00012225     3.341e-009      -2.3979e-009   
  -0.2            -0.00016072     2.2164e-008     -1.6849e-009   
  -0.25           -0.00019779     2.5838e-008     -2.333e-009    
  -0.3            -0.00023355     8.478e-009      1.902e-009     
  -0.35           -0.00026759     -2.2478e-008    2.6758e-009    
  -0.4            -0.00029985     -2.2332e-008    2.0606e-009    
  -0.45           -0.00033041     -2.3364e-008    2.6433e-009    
  -0.5            -0.00035901     -2.1064e-008    1.9673e-009    
  -0.55           -0.00038569     -2.3895e-008    2.6026e-009    
  -0.6            -0.00041001     -1.9933e-008    1.8742e-009    
  -0.65           -0.00043235     -2.4454e-008    2.5594e-009    
  -0.7            -0.00045211     -1.8562e-008    1.7847e-009    
  -0.75           -0.00046921     -8.966e-009     -1.0028e-009   
  -0.8            -0.00048419     1.1788e-008     -2.5186e-009   
  -0.85           -0.00049727     1.5009e-008     -1.74e-009     
  -0.9            -0.00050828     2.5534e-008     -2.3722e-009   
  -0.95           -0.00051867     9.023e-009      1.8663e-009    
  -1              -0.0005266      -9.293e-009     2.6915e-009    
  -1.05           -0.00053285     -1.5638e-008    1.9224e-009    
  -1.1            -0.00053835     -2.4256e-008    2.5797e-009    
  -1.15           -0.00054282     -1.9193e-008    1.832e-009     
  -1.2            -0.00054692     -2.4475e-008    2.5237e-009    
  -1.25           -0.0005502      -1.7978e-008    1.7453e-009    
  -1.3            -0.00055365     -2.4753e-008    2.4558e-009    
  -1.35           -0.00055586     -1.6562e-008    2.7194e-009    
  -1.4            -0.00055847     -2.4768e-008    2.3839e-009    
  -1.45           -0.00056027     -1.018e-008     -6.738e-010    
  -1.5            -0.0005615      8.637e-009      -2.5789e-009   
  -1.55           -0.0005634      2.5197e-008     -2.4074e-009   
  -1.6            -0.00056494     2.2401e-008     -1.7129e-009   
  -1.65           -0.00056639     2.5806e-008     -2.3575e-009   
  -1.7            -0.00056945     8.653e-009      1.8783e-009    
  -1.75           -0.00057096     -2.2406e-008    2.6876e-009    
  -1.8            -0.00057216     -2.2587e-008    2.085e-009     
  -1.85           -0.00057286     -9.496e-009     -8.629e-010    
  -1.9            -0.00057354     2.6383e-008     -2.226e-009    
  -1.95           -0.00057504     2.004e-008      -1.3921e-009   
  -2              -0.00057603     1.4664e-008     -1.7898e-009   
  -2.05           -0.00057713     2.5212e-008     -2.4085e-009   
  -2.1            -0.00057837     1.7292e-008     -1.5533e-009   
  -2.15           -0.00058048     7.976e-009      9.895e-010     
  -2.2            -0.00058211     -1.054e-008     2.6275e-009    
  -2.25           -0.00058255     -2.062e-008     1.9353e-009    
  -2.3            -0.00058394     -2.4065e-008    2.5869e-009    
  -2.35           -0.00058451     -1.9383e-008    1.8451e-009    
  -2.4            -0.00058559     -2.4439e-008    2.5358e-009    
  -2.45           -0.00058635     -1.8084e-008    1.7643e-009    
  -2.5            -0.00058633     -8.847e-009     -1.0194e-009   
  -2.55           -0.00058676     1.1818e-008     -2.5e-009      
  -2.6            -0.00058778     1.534e-008      -1.713e-009    
  -2.65           -0.00058837     2.5595e-008     -2.3525e-009   
  -2.7            -0.00059079     8.857e-009      1.8877e-009    
  -2.75           -0.00059161     -2.2325e-008    2.6853e-009    
  -2.8            -0.00059248     -2.2525e-008    2.0909e-009    
  -2.85           -0.0005924      -9.44e-009      -8.587e-010    
  -2.9            -0.0005925      2.6479e-008     -2.2221e-009   
  -2.95           -0.0005936      9.754e-009      5.819e-010     
  -3              -0.00059534     -2.3949e-008    2.6215e-009    
  -3.05           -0.00059588     -2.0339e-008    1.9121e-009    
  -3.1            -0.00059701     -2.4232e-008    2.5739e-009    
  -3.15           -0.00059725     -1.9113e-008    1.822e-009     
  -3.2            -0.00059826     -2.447e-008     2.5131e-009    
  -3.25           -0.00059848     -1.7854e-008    1.7352e-009    
  -3.3            -0.00059953     -2.4815e-008    2.4547e-009    
  -3.35           -0.00059984     -1.6487e-008    2.7191e-009    
  -3.4            -0.00060075     -2.4896e-008    2.3884e-009    
  -3.45           -0.00060052     -1.0261e-008    -6.783e-010    
  -3.5            -0.0006004      2.5215e-008     -2.4382e-009   
  -3.55           -0.00060107     1.6805e-008     -1.5864e-009   
  -3.6            -0.00060123     2.6375e-008     -2.2387e-009   
  -3.65           -0.00060215     1.9905e-008     -1.4114e-009   
  -3.7            -0.00060255     1.4226e-008     -1.8129e-009   
  -3.75           -0.00060302     2.4948e-008     -2.4226e-009   
  -3.8            -0.00060356     2.2598e-008     -1.7276e-009   
  -3.85           -0.00060436     2.5501e-008     -2.3671e-009   
  -3.9            -0.00060614     8.705e-009      1.8721e-009    
  -3.95           -0.00060666     -2.2145e-008    2.6894e-009    
  -4              -0.00060697     -2.2834e-008    2.114e-009     
  -4.05           -0.0006068      -9.532e-009     -8.502e-010    
  -4.1            -0.00060658     2.6596e-008     -2.2409e-009   
  -4.15           -0.00060719     1.9797e-008     -1.4062e-009   
