! VERSION = 6.00
BEGIN_HEADER
 ICCAP_INPUTS
  VG         V  B GROUND SMU4 0.001 LIN        2    0          -5         6    -1        
  VS         V  E GROUND SMU3 0.1 CON        0
  VD         V  S GROUND SMU2 0.1 LIN        1    0          -10        201  -0.05     
  VB         V  C GROUND SMU1 0.1 LIN        3    0          2.5        2    2.5       
 ICCAP_OUTPUTS
  ID         I  S GROUND SMU2 B
  IB         I  C GROUND SMU1 B
  IG         I  B GROUND SMU4 B
END_HEADER

BEGIN_DB
 ICCAP_VAR VG         0              
 ICCAP_VAR VS         0              
 ICCAP_VAR VB         0              

 #VD              ID              IB              IG             
  0               7.378e-010      1.1939e-009     1.3571e-009    
  -0.05           2.259e-009      2.9852e-009     -1.7419e-009   
  -0.1            -2.38e-009      -3.061e-010     -7.957e-010    
  -0.15           2.2744e-009     -3.7819e-009    1.052e-009     
  -0.2            -2.0388e-009    2.304e-009      -1.2645e-009   
  -0.25           2.3401e-009     -3.8136e-009    9.659e-010     
  -0.3            -2.1677e-009    2.1119e-009     -1.1281e-009   
  -0.35           2.3608e-009     -3.8316e-009    8.737e-010     
  -0.4            -2.2814e-009    2.8824e-009     -1.0148e-009   
  -0.45           2.0093e-009     -3.7729e-009    1.3058e-009    
  -0.5            -2.3572e-009    2.6811e-009     -9.125e-010    
  -0.55           2.1398e-009     -3.7515e-009    1.1779e-009    
  -0.6            -2.3815e-009    2.5039e-009     -8.177e-010    
  -0.65           2.2513e-009     -3.7565e-009    1.0711e-009    
  -0.7            -2.0041e-009    2.3383e-009     -1.3032e-009   
  -0.75           2.3305e-009     -3.8128e-009    9.833e-010     
  -0.8            -2.141e-009     2.1536e-009     -1.1564e-009   
  -0.85           2.3594e-009     -3.8438e-009    8.97e-010      
  -0.9            -2.2561e-009    2.9317e-009     -1.0401e-009   
  -0.95           1.9731e-009     -3.7905e-009    1.3397e-009    
  -1              -2.3467e-009    2.7215e-009     -9.378e-010    
  -1.05           2.1096e-009     -3.6484e-009    1.2057e-009    
  -1.1            -2.3792e-009    2.5485e-009     -8.376e-010    
  -1.15           2.2256e-009     -3.7637e-009    1.0949e-009    
  -1.2            -1.9664e-009    2.3801e-009     -1.339e-009    
  -1.25           2.3147e-009     -3.7883e-009    1.0025e-009    
  -1.3            -2.107e-009     2.2074e-009     -1.1929e-009   
  -1.35           2.3534e-009     -3.8346e-009    9.215e-010     
  -1.4            -2.2317e-009    2.9911e-009     -1.066e-009    
  -1.45           1.9347e-009     -3.829e-009     1.3745e-009    
  -1.5            -2.33e-009      2.7663e-009     -9.635e-010    
  -1.55           2.0769e-009     -3.6988e-009    1.2406e-009    
  -1.6            -2.3749e-009    2.5867e-009     -8.661e-010    
  -1.65           2.2013e-009     -3.7769e-009    1.1218e-009    
  -1.7            -1.9308e-009    2.4203e-009     -1.3749e-009   
  -1.75           -7.351e-010     -3.7962e-009    1.7051e-009    
  -1.8            2.372e-009      1.2728e-009     7.84e-010      
  -1.85           -2.3532e-009    2.697e-009      -9.256e-010    
  -1.9            2.1218e-009     -3.6341e-009    1.1929e-009    
  -1.95           -2.3809e-009    2.5256e-009     -8.33e-010     
  -2              2.2389e-009     -3.771e-009     1.0861e-009    
  -2.05           -1.9851e-009    2.3675e-009     -1.3224e-009   
  -2.1            2.3282e-009     -3.7987e-009    9.937e-010     
  -2.15           -2.1218e-009    2.1821e-009     -1.1783e-009   
  -2.2            2.3556e-009     -3.8254e-009    9.082e-010     
  -2.25           -2.2437e-009    2.9592e-009     -1.0547e-009   
  -2.3            1.9518e-009     -3.8043e-009    1.3574e-009    
  -2.35           -2.3406e-009    2.7456e-009     -9.504e-010    
  -2.4            2.0881e-009     -3.6913e-009    1.2258e-009    
  -2.45           -2.3786e-009    2.569e-009      -8.561e-010    
  -2.5            2.2098e-009     -3.7493e-009    1.1121e-009    
  -2.55           -1.9443e-009    2.4021e-009     -1.3618e-009   
  -2.6            2.3064e-009     -3.8003e-009    1.0236e-009    
  -2.65           -2.0882e-009    2.2368e-009     -1.2131e-009   
  -2.7            2.3536e-009     -3.8141e-009    9.326e-010     
  -2.75           -2.215e-009     3.0313e-009     -1.0833e-009   
  -2.8            1.9105e-009     -3.8215e-009    1.3994e-009    
  -2.85           -2.317e-009     2.7977e-009     -9.769e-010    
  -2.9            2.0531e-009     -3.7228e-009    1.2544e-009    
  -2.95           -2.3758e-009    2.6152e-009     -8.804e-010    
  -3              2.1799e-009     -3.7523e-009    1.1408e-009    
  -3.05           -2.3877e-009    2.4481e-009     -7.878e-010    
  -3.1            2.2816e-009     -3.7647e-009    1.0446e-009    
  -3.15           -2.0468e-009    2.2879e-009     -1.2493e-009   
  -3.2            2.3477e-009     -3.8274e-009    9.569e-010     
  -3.25           -2.1818e-009    2.1046e-009     -1.1176e-009   
  -3.3            2.3623e-009     -3.8332e-009    8.662e-010     
  -3.35           -2.291e-009     2.8645e-009     -1.0079e-009   
  -3.4            2.0169e-009     -3.7581e-009    1.2936e-009    
  -3.45           -2.3629e-009    2.665e-009      -9.078e-010    
  -3.5            2.1488e-009     -3.7594e-009    1.1692e-009    
  -3.55           -2.3873e-009    2.4933e-009     -8.119e-010    
  -3.6            2.2588e-009     -3.7789e-009    1.0722e-009    
  -3.65           -2.0121e-009    2.324e-009      -1.2919e-009   
  -3.7            2.3326e-009     -3.7964e-009    9.808e-010     
  -3.75           -2.1461e-009    2.152e-009      -1.153e-009    
  -3.8            2.3613e-009     -3.8307e-009    8.937e-010     
  -3.85           -2.2625e-009    2.9231e-009     -1.0366e-009   
  -3.9            1.9742e-009     -3.8167e-009    1.3362e-009    
  -3.95           -2.3481e-009    2.7134e-009     -9.362e-010    
  -4              2.1099e-009     -3.6789e-009    1.2016e-009    
  -4.05           -2.3818e-009    2.5473e-009     -8.428e-010    
  -4.1            2.2317e-009     -3.7654e-009    1.0944e-009    
  -4.15           -1.9682e-009    2.3831e-009     -1.3369e-009   
  -4.2            2.3161e-009     -3.7919e-009    1.0086e-009    
  -4.25           -2.1042e-009    2.2071e-009     -1.191e-009    
  -4.3            2.3525e-009     -3.8292e-009    9.191e-010     
  -4.35           -2.2286e-009    2.988e-009      -1.0703e-009   
  -4.4            1.9376e-009     -3.834e-009     1.3755e-009    
  -4.45           -2.3271e-009    2.7775e-009     -9.662e-010    
  -4.5            2.073e-009      -3.7372e-009    1.2411e-009    
  -4.55           -2.3791e-009    2.5904e-009     -8.687e-010    
  -4.6            2.1944e-009     -3.7673e-009    1.1299e-009    
  -4.65           -1.9297e-009    2.425e-009      -1.3797e-009   
  -4.7            -7.355e-010     -3.7926e-009    1.7068e-009    
  -4.75           2.3755e-009     1.259e-009      7.9e-010       
  -4.8            -2.3481e-009    2.7068e-009     -9.268e-010    
  -4.85           2.1215e-009     -3.633e-009     1.1962e-009    
  -4.9            -2.3763e-009    2.5309e-009     -8.384e-010    
  -4.95           2.2284e-009     -3.7728e-009    1.0911e-009    
  -5              -1.9791e-009    2.3689e-009     -1.3312e-009   
  -5.05           2.3174e-009     -3.8028e-009    9.994e-010     
  -5.1            -2.1153e-009    2.201e-009      -1.1849e-009   
  -5.15           2.353e-009      -3.8317e-009    9.16e-010      
  -5.2            -2.2298e-009    2.9874e-009     -1.063e-009    
  -5.25           1.9474e-009     -3.8151e-009    1.3718e-009    
  -5.3            -2.3257e-009    2.7656e-009     -9.591e-010    
  -5.35           2.0842e-009     -3.7127e-009    1.2327e-009    
  -5.4            -2.3729e-009    2.5845e-009     -8.669e-010    
  -5.45           2.1984e-009     -3.7579e-009    1.1238e-009    
  -5.5            -1.9286e-009    2.4194e-009     -1.3812e-009   
  -5.55           -7.282e-010     -3.796e-009     1.7075e-009    
  -5.6            2.3709e-009     1.2631e-009     7.898e-010     
  -5.65           -2.3504e-009    2.701e-009      -9.319e-010    
  -5.7            2.1176e-009     -3.6674e-009    1.1973e-009    
  -5.75           -2.3832e-009    2.5354e-009     -8.369e-010    
  -5.8            2.232e-009      -3.7625e-009    1.0966e-009    
  -5.85           -1.9708e-009    2.3758e-009     -1.3389e-009   
  -5.9            2.3167e-009     -3.7795e-009    1.0054e-009    
  -5.95           -2.1042e-009    2.2077e-009     -1.1881e-009   
  -6              2.3567e-009     -3.8209e-009    9.197e-010     
  -6.05           -2.2284e-009    2.9954e-009     -1.0715e-009   
  -6.1            1.9353e-009     -3.8279e-009    1.3777e-009    
  -6.15           -2.3299e-009    2.7743e-009     -9.692e-010    
  -6.2            2.0696e-009     -3.7408e-009    1.2429e-009    
  -6.25           -2.3759e-009    2.6007e-009     -8.724e-010    
  -6.3            2.1899e-009     -3.7602e-009    1.1266e-009    
  -6.35           -1.9127e-009    2.4352e-009     -1.3907e-009   
  -6.4            -7.392e-010     -3.7887e-009    1.703e-009     
  -6.45           2.3693e-009     1.2188e-009     7.994e-010     
  -6.5            -2.3488e-009    2.7196e-009     -9.36e-010     
  -6.55           2.106e-009      -3.67e-009      1.2098e-009    
  -6.6            -2.3827e-009    2.553e-009      -8.425e-010    
  -6.65           2.2207e-009     -3.7529e-009    1.1002e-009    
  -6.7            -1.9578e-009    2.3927e-009     -1.3503e-009   
  -6.75           2.312e-009      -3.7779e-009    1.0101e-009    
  -6.8            -2.0943e-009    2.2214e-009     -1.2026e-009   
  -6.85           2.3526e-009     -3.8189e-009    9.292e-010     
  -6.9            -2.2165e-009    3.0217e-009     -1.0827e-009   
  -6.95           1.9173e-009     -3.8352e-009    1.3939e-009    
  -7              -2.3189e-009    2.7945e-009     -9.723e-010    
  -7.05           2.0531e-009     -3.7431e-009    1.2537e-009    
  -7.1            -2.3737e-009    2.6104e-009     -8.819e-010    
  -7.15           2.1755e-009     -3.7484e-009    1.1371e-009    
  -7.2            -2.3866e-009    2.4499e-009     -7.88e-010     
  -7.25           2.2816e-009     -3.7769e-009    1.0487e-009    
  -7.3            -2.0417e-009    2.2886e-009     -1.2593e-009   
  -7.35           2.3454e-009     -3.7978e-009    9.584e-010     
  -7.4            -2.1678e-009    2.1153e-009     -1.1222e-009   
  -7.45           2.3639e-009     -3.8215e-009    8.717e-010     
  -7.5            -2.279e-009     2.8767e-009     -1.0168e-009   
  -7.55           1.9984e-009     -3.7962e-009    1.3073e-009    
  -7.6            -2.3637e-009    2.6874e-009     -9.206e-010    
  -7.65           2.1244e-009     -3.7471e-009    1.1834e-009    
  -7.7            -2.3898e-009    2.5183e-009     -8.256e-010    
  -7.75           2.2387e-009     -3.7518e-009    1.0868e-009    
  -7.8            -1.9867e-009    2.3568e-009     -1.3142e-009   
  -7.85           2.331e-009      -3.7955e-009    9.974e-010     
  -7.9            -2.1192e-009    2.1807e-009     -1.1712e-009   
  -7.95           2.3608e-009     -3.831e-009     9.129e-010     
  -8              -2.2373e-009    2.9591e-009     -1.0557e-009   
  -8.05           1.9418e-009     -3.8337e-009    1.3634e-009    
  -8.1            -2.3346e-009    2.7536e-009     -9.564e-010    
  -8.15           2.079e-009      -3.7145e-009    1.2286e-009    
  -8.2            -2.3843e-009    2.5862e-009     -8.643e-010    
  -8.25           2.1991e-009     -3.7424e-009    1.1183e-009    
  -8.3            -1.9271e-009    2.4193e-009     -1.3784e-009   
  -8.35           -7.291e-010     -3.8009e-009    1.7086e-009    
  -8.4            2.3706e-009     1.2591e-009     7.894e-010     
  -8.45           -2.3553e-009    2.7118e-009     -9.317e-010    
  -8.5            2.1145e-009     -3.6627e-009    1.1955e-009    
  -8.55           -2.3906e-009    2.5322e-009     -8.348e-010    
  -8.6            2.2298e-009     -3.7552e-009    1.0899e-009    
  -8.65           -1.9694e-009    2.3711e-009     -1.3288e-009   
  -8.7            2.3215e-009     -3.7867e-009    1.0055e-009    
  -8.75           -2.1048e-009    2.2006e-009     -1.1862e-009   
  -8.8            2.3594e-009     -3.8237e-009    9.165e-010     
  -8.85           -2.2272e-009    2.9884e-009     -1.0681e-009   
  -8.9            1.9361e-009     -3.8182e-009    1.3755e-009    
  -8.95           -2.3303e-009    2.7744e-009     -9.679e-010    
  -9              2.0713e-009     -3.7206e-009    1.2404e-009    
  -9.05           -2.3792e-009    2.5958e-009     -8.687e-010    
  -9.1            2.1927e-009     -3.744e-009     1.1297e-009    
  -9.15           -1.9195e-009    2.4326e-009     -1.3882e-009   
  -9.2            -7.325e-010     -3.792e-009     1.706e-009     
  -9.25           2.3686e-009     1.2318e-009     7.956e-010     
  -9.3            -2.3497e-009    2.7156e-009     -9.371e-010    
  -9.35           2.112e-009      -3.6922e-009    1.2047e-009    
  -9.4            -2.3803e-009    2.5374e-009     -8.387e-010    
  -9.45           2.2261e-009     -3.7697e-009    1.0966e-009    
  -9.5            -1.9642e-009    2.3873e-009     -1.339e-009    
  -9.55           2.3148e-009     -3.8073e-009    1.0098e-009    
  -9.6            -2.0966e-009    2.2109e-009     -1.1989e-009   
  -9.65           2.3534e-009     -3.8232e-009    9.256e-010     
  -9.7            -2.2221e-009    3.01e-009       -1.0747e-009   
  -9.75           1.9193e-009     -3.8265e-009    1.3909e-009    
  -9.8            -2.3229e-009    2.7956e-009     -9.719e-010    
  -9.85           2.063e-009      -3.7561e-009    1.2485e-009    
  -9.9            -2.3804e-009    2.6161e-009     -8.825e-010    
  -9.95           2.183e-009      -3.743e-009     1.1356e-009    
  -10             -2.3902e-009    2.4441e-009     -7.874e-010    
END_DB

BEGIN_DB
 ICCAP_VAR VG         -1             
 ICCAP_VAR VS         0              
 ICCAP_VAR VB         0              

 #VD              ID              IB              IG             
  0               1.0589e-008     9.682e-010      3.963e-010     
  -0.05           -1.512e-007     -2.2508e-009    -1.7174e-009   
  -0.1            -1.8361e-007    3.8173e-009     -1.7116e-009   
  -0.15           -1.9433e-007    3.7705e-009     -1.6918e-009   
  -0.2            -2.0069e-007    3.6844e-009     -1.6504e-009   
  -0.25           -2.0579e-007    3.577e-009      -1.7416e-009   
  -0.3            -2.1243e-007    3.8146e-009     -1.7245e-009   
  -0.35           -2.1661e-007    3.8146e-009     -1.7165e-009   
  -0.4            -2.2036e-007    3.8178e-009     -1.7151e-009   
  -0.45           -2.2393e-007    3.7922e-009     -1.7025e-009   
  -0.5            -2.2728e-007    3.72e-009       -1.6678e-009   
  -0.55           -2.306e-007     3.6131e-009     -1.6151e-009   
  -0.6            -2.3409e-007    3.4876e-009     -1.7305e-009   
  -0.65           -2.3908e-007    3.8127e-009     -1.7219e-009   
  -0.7            -2.4198e-007    3.8229e-009     -1.7146e-009   
  -0.75           -2.4461e-007    3.815e-009      -1.7116e-009   
  -0.8            -2.4722e-007    3.7427e-009     -1.6832e-009   
  -0.85           -2.4996e-007    3.6506e-009     -1.6327e-009   
  -0.9            -2.5294e-007    3.5281e-009     -1.7338e-009   
  -0.95           -2.5763e-007    3.8079e-009     -1.7218e-009   
  -1              -2.6022e-007    3.8169e-009     -1.7145e-009   
  -1.05           -2.6253e-007    3.8182e-009     -1.7136e-009   
  -1.1            -2.6458e-007    3.7735e-009     -1.6987e-009   
  -1.15           -2.6694e-007    3.6894e-009     -1.65e-009     
  -1.2            -2.6934e-007    3.5691e-009     -1.7407e-009   
  -1.25           -2.7392e-007    3.8144e-009     -1.726e-009    
  -1.3            -2.7621e-007    3.8188e-009     -1.7178e-009   
  -1.35           -2.7817e-007    3.8323e-009     -1.7172e-009   
  -1.4            -2.8013e-007    3.7962e-009     -1.7053e-009   
  -1.45           -2.8211e-007    3.7211e-009     -1.6681e-009   
  -1.5            -2.8419e-007    3.6106e-009     -1.6149e-009   
  -1.55           -2.8679e-007    3.4904e-009     -1.7307e-009   
  -1.6            -2.9077e-007    3.8124e-009     -1.7153e-009   
  -1.65           -2.9251e-007    3.8274e-009     -1.7176e-009   
  -1.7            -2.9438e-007    3.8054e-009     -1.7136e-009   
  -1.75           -2.9597e-007    3.7489e-009     -1.6844e-009   
  -1.8            -2.9769e-007    3.6532e-009     -1.6376e-009   
  -1.85           -2.9986e-007    3.5383e-009     -1.7383e-009   
  -1.9            -3.0394e-007    3.8149e-009     -1.7196e-009   
  -1.95           -3.0571e-007    3.8231e-009     -1.7188e-009   
  -2              -3.072e-007     3.8187e-009     -1.7174e-009   
  -2.05           -3.0851e-007    3.7809e-009     -1.6955e-009   
  -2.1            -3.1e-007       3.6912e-009     -1.654e-009    
  -2.15           -3.1189e-007    3.5824e-009     -1.5949e-009   
  -2.2            -3.1385e-007    3.4528e-009     -1.723e-009    
  -2.25           -3.1757e-007    3.8219e-009     -1.7172e-009   
  -2.3            -3.1889e-007    3.8155e-009     -1.7173e-009   
  -2.35           -3.2015e-007    3.8009e-009     -1.7032e-009   
  -2.4            -3.2143e-007    3.7265e-009     -1.6728e-009   
  -2.45           -3.2286e-007    3.6274e-009     -1.6211e-009   
  -2.5            -3.2475e-007    3.5013e-009     -1.7255e-009   
  -2.55           -3.286e-007     3.8167e-009     -1.72e-009     
  -2.6            -3.298e-007     3.8182e-009     -1.72e-009     
  -2.65           -3.3101e-007    3.8141e-009     -1.7083e-009   
  -2.7            -3.3212e-007    3.7614e-009     -1.6875e-009   
  -2.75           -3.3335e-007    3.6632e-009     -1.64e-009     
  -2.8            -3.3521e-007    3.5486e-009     -1.7356e-009   
  -2.85           -3.39e-007      3.8164e-009     -1.7215e-009   
  -2.9            -3.4028e-007    3.8139e-009     -1.7195e-009   
  -2.95           -3.4165e-007    3.8184e-009     -1.709e-009    
  -3              -3.4258e-007    3.7837e-009     -1.6986e-009   
  -3.05           -3.4375e-007    3.6933e-009     -1.6616e-009   
  -3.1            -3.4521e-007    3.5947e-009     -1.6033e-009   
  -3.15           -3.4712e-007    3.4637e-009     -1.7251e-009   
  -3.2            -3.5077e-007    3.804e-009      -1.7209e-009   
  -3.25           -3.5188e-007    3.8206e-009     -1.7128e-009   
  -3.3            -3.533e-007     3.8044e-009     -1.7064e-009   
  -3.35           -3.5407e-007    3.7306e-009     -1.6786e-009   
  -3.4            -3.5554e-007    3.6384e-009     -1.6251e-009   
  -3.45           -3.5732e-007    3.5104e-009     -1.7344e-009   
  -3.5            -3.6105e-007    3.8089e-009     -1.7208e-009   
  -3.55           -3.6239e-007    3.8179e-009     -1.7145e-009   
  -3.6            -3.6351e-007    3.8171e-009     -1.7094e-009   
  -3.65           -3.6461e-007    3.7542e-009     -1.6887e-009   
  -3.7            -3.6577e-007    3.6755e-009     -1.6439e-009   
  -3.75           -3.6742e-007    3.5624e-009     -1.7392e-009   
  -3.8            -3.7141e-007    3.8112e-009     -1.7219e-009   
  -3.85           -3.7276e-007    3.8116e-009     -1.7132e-009   
  -3.9            -3.7396e-007    3.8194e-009     -1.7122e-009   
  -3.95           -3.7506e-007    3.7824e-009     -1.6994e-009   
  -4              -3.7607e-007    3.7112e-009     -1.6632e-009   
  -4.05           -3.7751e-007    3.6023e-009     -1.6092e-009   
  -4.1            -3.7958e-007    3.4736e-009     -1.7305e-009   
  -4.15           -3.8307e-007    3.8181e-009     -1.7154e-009   
  -4.2            -3.8441e-007    3.8228e-009     -1.7166e-009   
  -4.25           -3.8556e-007    3.7999e-009     -1.7079e-009   
  -4.3            -3.8665e-007    3.7378e-009     -1.6746e-009   
  -4.35           -3.8797e-007    3.6411e-009     -1.6309e-009   
