! VERSION = 6.00
BEGIN_HEADER
 ICCAP_INPUTS
  VG         V  B GROUND SMU4 0.001 LIN        1    0          -5         101  -0.05     
  VS         V  E GROUND SMU3 0.1 CON        0
  VB         V  C GROUND SMU1 0.1 LIN        3    0          5          3    2.5       
  VD         V  S GROUND SMU2 0.1 LIN        2    -0.1       -10        2    -9.9      
 ICCAP_OUTPUTS
  IG         I  B GROUND SMU4 B
  ID         I  S GROUND SMU2 B
  IB         I  C GROUND SMU1 B
END_HEADER

BEGIN_DB
 ICCAP_VAR VS         0              
 ICCAP_VAR VB         0              
 ICCAP_VAR VD         -0.1           

 #VG              IG              ID              IB             
  0               1.5624e-009     5.331e-010      5.384e-010     
  -0.05           -9.207e-010     -2.4735e-009    2.6839e-009    
  -0.1            1.1832e-009     2.22e-009       -3.6717e-009   
  -0.15           -8.246e-010     -2.5176e-009    2.5131e-009    
  -0.2            1.0734e-009     2.3439e-009     -3.774e-009    
  -0.25           -1.2945e-009    -2.1178e-009    2.3405e-009    
  -0.3            9.805e-010      2.4362e-009     -3.7905e-009   
  -0.35           -1.1485e-009    -2.2573e-009    2.153e-009     
  -0.4            8.864e-010      2.4776e-009     -3.8172e-009   
  -0.45           -1.0251e-009    -2.3867e-009    2.9006e-009    
  -0.5            1.3145e-009     2.0842e-009     -3.7779e-009   
  -0.55           -9.157e-010     -2.4847e-009    2.6842e-009    
  -0.6            1.7882e-009     -3.296e-010     -3.7232e-009   
  -0.65           -1.5787e-009    1.1487e-009     3.88e-009      
  -0.7            -1.0728e-009    -2.5487e-009    4.219e-010     
  -0.75           1.6677e-009     -2.4396e-009    -2.6642e-009   
  -0.8            -1.7287e-009    -2.6618e-009    3.3731e-009    
  -0.85           -1.6583e-009    -1.5273e-008    -3.6756e-009   
  -0.9            -1.7798e-009    -5.0451e-008    3.3337e-009    
  -0.95           1.0836e-009     -1.9517e-007    -2.9635e-009   
  -1              -1.5878e-009    -6.7908e-007    3.5735e-009    
  -1.05           1.6278e-009     -2.1978e-006    -3.3336e-009   
  -1.1            1.2139e-009     -6.2423e-006    -1.714e-010    
  -1.15           1.6255e-009     -1.4495e-005    8.25e-011      
  -1.2            1.2309e-009     -2.7809e-005    -2.272e-010    
  -1.25           -1.7321e-009    -4.5216e-005    3.3646e-009    
  -1.3            -9.396e-010     -6.5798e-005    -1.853e-010    
  -1.35           1.6227e-009     -8.724e-005     -2.6958e-009   
  -1.4            1.2387e-009     -0.000107796    -2.761e-010    
  -1.45           8.681e-010      -0.00012557     3.8386e-009    
  -1.5            -1.7198e-009    -0.00014153     3.8426e-009    
  -1.55           -1.033e-009     -0.00015578     1.16e-011      
  -1.6            1.7304e-009     -0.00016889     -2.5185e-009   
  -1.65           8.721e-010      -0.00018061     1.3698e-009    
  -1.7            -1.7161e-009    -0.00019078     3.8375e-009    
  -1.75           -1.0372e-009    -0.0002001      2.34e-011      
  -1.8            1.7263e-009     -0.00020881     -2.4993e-009   
  -1.85           8.73e-010       -0.00021686     1.3354e-009    
  -1.9            -1.7161e-009    -0.00022392     3.8354e-009    
  -1.95           -1.0448e-009    -0.00023048     4.16e-011      
  -2              1.7205e-009     -0.00023678     -2.4787e-009   
  -2.05           8.849e-010      -0.00024262     1.309e-009     
  -2.1            -1.7133e-009    -0.0002479      3.833e-009     
  -2.15           -1.0558e-009    -0.00025283     6.46e-011      
  -2.2            1.7175e-009     -0.0002576      -2.4578e-009   
  -2.25           8.9e-010        -0.00026216     1.2706e-009    
  -2.3            -1.7112e-009    -0.00026626     3.8305e-009    
  -2.35           -1.0625e-009    -0.00027019     8.15e-011      
  -2.4            1.7157e-009     -0.000274       -2.4382e-009   
  -2.45           8.986e-010      -0.00027766     1.2417e-009    
  -2.5            -1.7085e-009    -0.00028102     3.8242e-009    
  -2.55           -1.0712e-009    -0.00028418     9.53e-011      
  -2.6            1.7125e-009     -0.00028733     -2.4215e-009   
  -2.65           9.069e-010      -0.00029037     1.1961e-009    
  -2.7            -1.7083e-009    -0.00029314     3.8228e-009    
  -2.75           -1.0773e-009    -0.00029578     1.225e-010     
  -2.8            1.7085e-009     -0.0002984      -2.4092e-009   
  -2.85           9.135e-010      -0.00030099     1.1649e-009    
  -2.9            -1.7076e-009    -0.00030334     3.8173e-009    
  -2.95           -1.0887e-009    -0.0003056      1.319e-010     
  -3              1.7064e-009     -0.00030784     -2.3948e-009   
  -3.05           9.191e-010      -0.00031007     1.1279e-009    
  -3.1            -1.7044e-009    -0.0003121      3.8112e-009    
  -3.15           -1.1017e-009    -0.00031403     1.576e-010     
  -3.2            1.7054e-009     -0.00031599     -2.3717e-009   
  -3.25           9.278e-010      -0.00031794     1.1018e-009    
  -3.3            -1.7015e-009    -0.00031973     3.8046e-009    
  -3.35           -1.1136e-009    -0.00032141     1.829e-010     
  -3.4            1.6982e-009     -0.0003231      -2.3532e-009   
  -3.45           9.362e-010      -0.00032481     1.0533e-009    
  -3.5            -1.7008e-009    -0.00032641     3.7983e-009    
  -3.55           -1.1236e-009    -0.00032787     2.114e-010     
  -3.6            1.697e-009      -0.00032937     -2.3329e-009   
  -3.65           9.423e-010      -0.00033096     1.023e-009     
  -3.7            -1.6963e-009    -0.00033232     3.7894e-009    
  -3.75           -1.1362e-009    -0.00033362     2.353e-010     
  -3.8            1.6931e-009     -0.00033501     -2.311e-009    
  -3.85           9.512e-010      -0.00033639     9.766e-010     
  -3.9            -1.6928e-009    -0.00033767     3.7808e-009    
  -3.95           -1.1452e-009    -0.00033887     2.555e-010     
  -4              1.6938e-009     -0.00034002     -2.2954e-009   
  -4.05           9.574e-010      -0.00034126     9.408e-010     
  -4.1            -1.6887e-009    -0.00034242     3.7692e-009    
  -4.15           -1.1528e-009    -0.00034345     2.717e-010     
  -4.2            1.6778e-009     -0.00034455     -3.6919e-009   
  -4.25           1.0691e-009     -0.00034555     4.704e-010     
  -4.3            -1.6042e-009    -0.00034642     3.6062e-009    
  -4.35           -1.3305e-009    -0.00034735     6.544e-010     
  -4.4            1.639e-009      -0.00034834     -3.5611e-009   
  -4.45           1.1995e-009     -0.00034925     -1.274e-010    
  -4.5            -1.7306e-009    -0.00035014     3.3944e-009    
  -4.55           -9.18e-010      -0.00035104     -2.32e-010     
  -4.6            1.6327e-009     -0.00035196     -2.7349e-009   
  -4.65           1.2112e-009     -0.0003529      -1.634e-010    
  -4.7            -1.7294e-009    -0.00035375     3.3757e-009    
  -4.75           -9.294e-010     -0.00035455     -2.065e-010    
  -4.8            1.6286e-009     -0.00035536     -2.7223e-009   
  -4.85           1.2229e-009     -0.00035625     -2.022e-010    
  -4.9            -1.7296e-009    -0.00035701     3.3644e-009    
  -4.95           -9.349e-010     -0.00035778     -1.864e-010    
  -5              1.6245e-009     -0.00035852     -2.7027e-009   
END_DB

BEGIN_DB
 ICCAP_VAR VS         0              
 ICCAP_VAR VB         0              
 ICCAP_VAR VD         -10            

 #VG              IG              ID              IB             
  0               2.577e-010      -2.4268e-009    2.8383e-009    
  -0.05           -5.891e-010     -2.6202e-009    1.3171e-009    
  -0.1            1.3755e-009     2.0169e-009     -3.8317e-009   
  -0.15           -9.633e-010     -2.4483e-009    2.7695e-009    
  -0.2            1.2354e-009     2.1596e-009     -3.715e-009    
  -0.25           -8.619e-010     -2.512e-009     2.5828e-009    
  -0.3            1.1133e-009     2.2998e-009     -3.7502e-009   
  -0.35           -1.3659e-009    -2.0534e-009    2.4136e-009    
  -0.4            1.704e-009      -7.484e-010     -3.7184e-009   
  -0.45           7.779e-010      2.5021e-009     1.3308e-009    
  -0.5            -9.082e-010     -2.491e-009     2.6666e-009    
  -0.55           1.7881e-009     -3.146e-010     -3.7359e-009   
  -0.6            -1.5871e-009    1.146e-009      3.8838e-009    
  -0.65           -1.0631e-009    -2.514e-009     3.783e-010     
  -0.7            1.675e-009      -2.2504e-009    -2.6806e-009   
  -0.75           -1.728e-009     -2.057e-009     3.3764e-009    
  -0.8            -1.7331e-009    -1.0781e-008    7.977e-010     
  -0.85           -9.045e-010     -4.5304e-008    -2.22e-010     
  -0.9            1.6981e-009     -1.6964e-007    2.0741e-009    
  -0.95           9.604e-010      -6.6642e-007    1.3772e-009    
  -1              -1.5053e-009    -2.1538e-006    -2.2726e-009   
  -1.05           1.6385e-009     -6.5986e-006    2.1524e-009    
  -1.1            -3.799e-010     -1.6913e-005    1.4226e-008    
  -1.15           -1.761e-009     -3.7039e-005    2.105e-008     
  -1.2            -6.484e-010     -7.0713e-005    3.145e-008     
  -1.25           -1.4588e-009    -0.00012051     5.1943e-008    
  -1.3            1.5831e-009     -0.00018548     7.6156e-008    
  -1.35           1.4757e-009     -0.00026932     1.05857e-007   
  -1.4            1.3442e-009     -0.00037202     1.3649e-007    
  -1.45           -1.6788e-009    -0.0004738      1.6295e-007    
  -1.5            -1.3319e-009    -0.00058268     1.7931e-007    
  -1.55           1.6404e-009     -0.00071602     2.003e-007     
  -1.6            1.3576e-009     -0.00084771     2.2179e-007    
  -1.65           -1.6764e-009    -0.00098285     2.3847e-007    
  -1.7            -1.3355e-009    -0.00111455     2.4382e-007    
  -1.75           -1.8025e-009    -0.0012544      2.4604e-007    
  -1.8            -7.922e-010     -0.0013928      2.5325e-007    
  -1.85           1.6475e-009     -0.0015441      2.5179e-007    
  -1.9            1.3342e-009     -0.0017073      2.6035e-007    
  -1.95           -1.6879e-009    -0.0018451      2.5979e-007    
  -2              -1.3258e-009    -0.0020021      2.5037e-007    
  -2.05           1.6397e-009     -0.0021526      2.4307e-007    
  -2.1            1.3484e-009     -0.0023111      2.417e-007     
  -2.15           -1.6779e-009    -0.0024665      2.3463e-007    
  -2.2            -1.3381e-009    -0.002626       2.2234e-007    
  -2.25           1.6359e-009     -0.0027725      2.1064e-007    
  -2.3            1.3655e-009     -0.0029489      2.0633e-007    
  -2.35           -1.681e-009     -0.0031207      1.9834e-007    
  -2.4            -1.3532e-009    -0.0032737      1.8302e-007    
  -2.45           1.6292e-009     -0.0034451      1.7062e-007    
  -2.5            1.3713e-009     -0.0036185      1.6563e-007    
  -2.55           -1.6722e-009    -0.0037862      1.5649e-007    
  -2.6            -1.369e-009     -0.0039497      1.4102e-007    
  -2.65           1.6259e-009     -0.0041338      1.2927e-007    
  -2.7            1.3897e-009     -0.0043065      1.2132e-007    
  -2.75           -1.3354e-009    -0.0044617      9.4558e-008    
  -2.8            1.6367e-009     -0.0046502      8.6506e-008    
  -2.85           1.3597e-009     -0.0048503      9.9308e-008    
  -2.9            -1.6814e-009    -0.0050264      9.2552e-008    
  -2.95           -1.3459e-009    -0.0052047      8.0011e-008    
  -3              1.6342e-009     -0.0053887      6.9957e-008    
  -3.05           1.3695e-009     -0.0055785      6.7055e-008    
  -3.1            -1.6746e-009    -0.0057644      6.2431e-008    
  -3.15           -1.359e-009     -0.0059568      5.3474e-008    
  -3.2            1.6307e-009     -0.0061541      5.1646e-008    
  -3.25           1.3806e-009     -0.0063503      5.1647e-008    
  -3.3            -1.6729e-009    -0.0065362      4.7911e-008    
  -3.35           -1.3707e-009    -0.0067281      3.9889e-008    
  -3.4            1.6281e-009     -0.0069264      3.4607e-008    
  -3.45           1.3864e-009     -0.0071294      3.6678e-008    
  -3.5            -1.6657e-009    -0.0073219      3.56e-008      
  -3.55           -1.3837e-009    -0.007511       2.7314e-008    
  -3.6            1.6185e-009     -0.0077123      2.4018e-008    
  -3.65           1.3998e-009     -0.0079189      2.6916e-008    
  -3.7            -1.6606e-009    -0.0081137      2.6558e-008    
  -3.75           -1.3928e-009    -0.0083082      1.9644e-008    
  -3.8            1.6132e-009     -0.008512       1.5776e-008    
  -3.85           1.413e-009      -0.0087199      1.9706e-008    
  -3.9            -1.6561e-009    -0.0089161      2.0119e-008    
  -3.95           -1.4042e-009    -0.0091119      1.4039e-008    
  -4              1.609e-009      -0.0093142      1.119e-008     
  -4.05           1.4204e-009     -0.0095215      1.5033e-008    
  -4.1            -1.6515e-009    -0.0097199      1.6009e-008    
  -4.15           -1.4164e-009    -0.0099162      1.0351e-008    
  -4.2            5.93e-010       -0.0101232      1.4269e-008    
  -4.25           -1.7557e-009    -0.010322       1.3847e-008    
  -4.3            6.924e-010      -0.010526       1.3404e-008    
  -4.35           -1.7281e-009    -0.0107232      1.2289e-008    
  -4.4            8.044e-010      -0.0109266      1.1822e-008    
  -4.45           -1.706e-009     -0.0111249      1.1616e-008    
  -4.5            -1.6632e-009    -0.0113244      1.1327e-008    
  -4.55           -1.7581e-009    -0.011523       1.0446e-008    
  -4.6            -1.7247e-009    -0.011719       1.0549e-008    
  -4.65           -1.6844e-009    -0.011919       9.638e-009     
  -4.7            1.7146e-009     -0.012118       2.1857e-009    
  -4.75           9.169e-010      -0.01232        6.1035e-009    
  -4.8            -1.7054e-009    -0.012519       8.5836e-009    
  -4.85           -1.0951e-009    -0.012715       4.8022e-009    
  -4.9            1.7151e-009     -0.012914       2.0901e-009    
  -4.95           9.236e-010      -0.013112       5.4173e-009    
  -5              -1.7043e-009    -0.013302       8.0226e-009    
END_DB

BEGIN_DB
 ICCAP_VAR VS         0              
 ICCAP_VAR VB         2.5            
 ICCAP_VAR VD         -0.1           

 #VG              IG              ID              IB             
  0               -3.25e-011      2.109e-009      3.0463e-009    
  -0.05           1.3904e-009     1.9913e-009     -1.6448e-009   
  -0.1            -9.728e-010     -2.4365e-009    2.7865e-009    
  -0.15           1.2361e-009     2.1591e-009     -3.6862e-009   
  -0.2            -8.634e-010     -2.5036e-009    2.5861e-009    
  -0.25           1.1166e-009     2.2918e-009     -3.7597e-009   
  -0.3            -1.3673e-009    -2.0591e-009    2.4084e-009    
  -0.35           1.71e-009       -7.439e-010     -3.7057e-009   
  -0.4            7.795e-010      2.5137e-009     1.3396e-009    
  -0.45           -9.088e-010     -2.4796e-009    2.6611e-009    
  -0.5            1.1634e-009     2.2366e-009     -3.7627e-009   
  -0.55           -8.073e-010     -2.5141e-009    2.4814e-009    
  -0.6            1.0533e-009     2.3611e-009     -3.7743e-009   
  -0.65           -1.2737e-009    -2.1483e-009    2.3075e-009    
  -0.7            9.617e-010      2.4472e-009     -3.7877e-009   
  -0.75           -1.1294e-009    -2.2894e-009    2.1239e-009    
  -0.8            8.664e-010      2.4849e-009     -3.791e-009    
  -0.85           -1.007e-009     -2.4065e-009    2.8488e-009    
  -0.9            1.2823e-009     2.1157e-009     -3.7189e-009   
  -0.95           -8.996e-010     -2.4827e-009    2.6383e-009    
  -1              1.153e-009      2.2559e-009     -3.7604e-009   
  -1.05           -1.4241e-009    -2.0036e-009    2.467e-009     
  -1.1            1.701e-009      -7.796e-010     -3.6852e-009   
  -1.15           8.096e-010      2.4984e-009     1.1992e-009    
  -1.2            -9.388e-010     -2.4657e-009    2.7206e-009    
  -1.25           1.1963e-009     2.1824e-009     -3.627e-009    
  -1.3            -1.4718e-009    -2.0268e-009    2.5171e-009    
  -1.35           1.6793e-009     -1.2701e-009    -3.6031e-009   
  -1.4            -1.6354e-009    -2.4839e-009    3.4907e-009    
  -1.45           -1.7903e-009    -1.1555e-008    1.837e-009     
  -1.5            1.6797e-009     -5.0886e-008    -2.9493e-009   
  -1.55           -1.5148e-009    -2.1946e-007    3.5143e-009    
  -1.6            1.5602e-009     -8.7933e-007    -3.3273e-009   
  -1.65           -1.5537e-009    -2.9127e-006    -3.5973e-009   
  -1.7            1.7433e-009     -8.2417e-006    -3.2557e-009   
  -1.75           1.6367e-009     -1.8506e-005    1.8218e-009    
  -1.8            1.2017e-009     -3.4407e-005    -1.265e-010    
  -1.85           -1.7292e-009    -5.3545e-005    3.3958e-009    
  -1.9            -9.16e-010      -7.3883e-005    -2.312e-010    
  -1.95           1.6315e-009     -9.3489e-005    -2.7324e-009   
  -2              1.2032e-009     -0.000111058    -1.326e-010    
  -2.05           1.6741e-009     -0.00012607     3.957e-010     
  -2.1            1.0687e-009     -0.00013922     4.727e-010     
  -2.15           -1.5998e-009    -0.00015058     3.6041e-009    
  -2.2            -1.3354e-009    -0.00016083     6.419e-010     
  -2.25           1.6341e-009     -0.00017021     -3.5601e-009   
  -2.3            1.1935e-009     -0.00017857     -8.83e-011     
  -2.35           -1.7288e-009    -0.00018587     3.4105e-009    
  -2.4            -9.121e-010     -0.00019261     -2.401e-010    
  -2.45           1.6343e-009     -0.00019894     -2.7404e-009   
  -2.5            1.199e-009      -0.00020486     -1.149e-010    
  -2.55           -1.7326e-009    -0.00021004     3.4077e-009    
  -2.6            -9.133e-010     -0.00021501     -2.395e-010    
  -2.65           1.6325e-009     -0.00021972     -2.7372e-009   
  -2.7            1.2023e-009     -0.00022421     -1.203e-010    
  -2.75           -1.7349e-009    -0.00022819     3.4019e-009    
  -2.8            -9.168e-010     -0.00023206     -2.334e-010    
  -2.85           1.6323e-009     -0.00023574     -2.7305e-009   
  -2.9            1.2067e-009     -0.00023926     -1.32e-010     
  -2.95           -1.7369e-009    -0.00024247     3.3961e-009    
  -3              -9.171e-010     -0.00024551     -2.241e-010    
  -3.05           1.631e-009      -0.00024847     -2.7274e-009   
  -3.1            1.2062e-009     -0.0002513      -1.446e-010    
  -3.15           -1.7343e-009    -0.00025397     3.39e-009      
  -3.2            -9.249e-010     -0.00025653     -2.169e-010    
  -3.25           1.6309e-009     -0.00025896     -2.7231e-009   
  -3.3            1.2117e-009     -0.00026141     -1.787e-010    
  -3.35           -1.7335e-009    -0.00026361     3.3841e-009    
  -3.4            -9.268e-010     -0.00026575     -2.145e-010    
  -3.45           1.6312e-009     -0.00026767     -2.7159e-009   
  -3.5            1.2157e-009     -0.00026978     -1.868e-010    
  -3.55           -1.7321e-009    -0.00027164     3.3722e-009    
  -3.6            -9.309e-010     -0.00027352     -2.011e-010    
  -3.65           1.627e-009      -0.00027533     -2.708e-009    
  -3.7            1.2209e-009     -0.00027711     -2.064e-010    
  -3.75           -1.7329e-009    -0.00027874     3.3612e-009    
  -3.8            -9.337e-010     -0.00028009     -1.915e-010    
  -3.85           1.6255e-009     -0.00028169     -2.7055e-009   
  -3.9            1.2281e-009     -0.00028329     -2.345e-010    
  -3.95           -1.7314e-009    -0.00028474     3.3595e-009    
  -4              -9.358e-010     -0.00028582     -1.897e-010    
  -4.05           1.6236e-009     -0.00028722     -2.7015e-009   
  -4.1            1.2304e-009     -0.0002882      -2.332e-010    
  -4.15           -1.7313e-009    -0.00028949     3.3513e-009    
