! VERSION = 6.00
BEGIN_HEADER
 ICCAP_INPUTS
  VG         V  B GROUND SMU4 0.001 LIN        2    0          -5         6    -1        
  VS         V  E GROUND SMU3 0.1 CON        0
  VD         V  S GROUND SMU2 0.1 LIN        1    0          -10        201  -0.05     
  VB         V  C GROUND SMU1 0.1 LIN        3    0          2.5        2    2.5       
 ICCAP_OUTPUTS
  ID         I  S GROUND SMU2 B
  IB         I  C GROUND SMU1 B
  IG         I  B GROUND SMU4 B
END_HEADER

BEGIN_DB
 ICCAP_VAR VG         0              
 ICCAP_VAR VS         0              
 ICCAP_VAR VB         0              

 #VD              ID              IB              IG             
  0               4.667e-010      -4.642e-010     1.6058e-009    
  -0.05           -2.3779e-009    2.6662e-009     -9.069e-010    
  -0.1            2.1356e-009     -3.7421e-009    1.1702e-009    
  -0.15           -2.3975e-009    2.5036e-009     -8.187e-010    
  -0.2            2.2553e-009     -3.7694e-009    1.072e-009     
  -0.25           -2.0128e-009    2.3487e-009     -1.2971e-009   
  -0.3            2.3326e-009     -3.8e-009       9.882e-010     
  -0.35           -2.1382e-009    2.174e-009      -1.1616e-009   
  -0.4            2.3593e-009     -3.8308e-009    9.018e-010     
  -0.45           -2.2522e-009    2.9484e-009     -1.0477e-009   
  -0.5            1.97e-009       -3.8209e-009    1.3534e-009    
  -0.55           -2.3395e-009    2.7492e-009     -9.5e-010      
  -0.6            2.0946e-009     -3.6944e-009    1.2232e-009    
  -0.65           -2.3825e-009    2.5752e-009     -8.563e-010    
  -0.7            2.2005e-009     -3.7916e-009    1.1146e-009    
  -0.75           -1.9513e-009    2.4187e-009     -1.3764e-009   
  -0.8            -7.301e-010     -3.7856e-009    1.7179e-009    
  -0.85           2.3852e-009     1.2961e-009     7.926e-010     
  -0.9            -2.354e-009     2.7031e-009     -9.285e-010    
  -0.95           2.1197e-009     -3.6899e-009    1.2003e-009    
  -1              -2.3903e-009    2.5447e-009     -8.399e-010    
  -1.05           2.2208e-009     -3.7845e-009    1.0987e-009    
  -1.1            -1.98e-009      2.3903e-009     -1.3431e-009   
  -1.15           2.31e-009       -3.7974e-009    1.0091e-009    
  -1.2            -2.1105e-009    2.2185e-009     -1.203e-009    
  -1.25           2.358e-009      -3.8186e-009    9.269e-010     
  -1.3            -2.221e-009     3.0276e-009     -1.0778e-009   
  -1.35           1.929e-009      -3.8404e-009    1.3984e-009    
  -1.4            -2.3188e-009    2.807e-009      -9.764e-010    
  -1.45           2.0596e-009     -3.7675e-009    1.261e-009     
  -1.5            -2.3742e-009    2.6207e-009     -8.839e-010    
  -1.55           2.174e-009      -3.7725e-009    1.1439e-009    
  -1.6            -2.3982e-009    2.4594e-009     -7.95e-010     
  -1.65           2.2683e-009     -3.7883e-009    1.0533e-009    
  -1.7            -2.0432e-009    2.3039e-009     -1.2662e-009   
  -1.75           2.3375e-009     -3.8185e-009    9.666e-010     
  -1.8            -2.1676e-009    2.1268e-009     -1.1356e-009   
  -1.85           2.364e-009      -3.8248e-009    8.807e-010     
  -1.9            -2.2705e-009    2.9066e-009     -1.0254e-009   
  -1.95           1.9996e-009     -3.8056e-009    1.3249e-009    
  -2              -2.3519e-009    2.7081e-009     -9.267e-010    
  -2.05           2.1208e-009     -3.6797e-009    1.1991e-009    
  -2.1            -2.3924e-009    2.5371e-009     -8.37e-010     
  -2.15           2.2256e-009     -3.7737e-009    1.0942e-009    
  -2.2            -1.9866e-009    2.3803e-009     -1.3372e-009   
  -2.25           2.3088e-009     -3.8057e-009    1.009e-009     
  -2.3            -2.112e-009     2.2184e-009     -1.192e-009    
  -2.35           2.3527e-009     -3.8294e-009    9.226e-010     
  -2.4            -2.2258e-009    3.0208e-009     -1.0738e-009   
  -2.45           1.9337e-009     -3.817e-009     1.3889e-009    
  -2.5            -2.3213e-009    2.7948e-009     -9.712e-010    
  -2.55           2.0636e-009     -3.7615e-009    1.2544e-009    
  -2.6            -2.3727e-009    2.614e-009      -8.804e-010    
  -2.65           2.18e-009       -3.7678e-009    1.1387e-009    
  -2.7            -1.9149e-009    2.4566e-009     -1.4072e-009   
  -2.75           -7.497e-010     -3.7768e-009    1.7115e-009    
  -2.8            2.3799e-009     1.2124e-009     8.145e-010     
  -2.85           -2.3377e-009    2.7457e-009     -9.47e-010     
  -2.9            2.0942e-009     -3.6973e-009    1.2247e-009    
  -2.95           -2.3818e-009    2.573e-009      -8.545e-010    
  -3              2.2047e-009     -3.7735e-009    1.1167e-009    
  -3.05           -1.9506e-009    2.4173e-009     -1.3681e-009   
  -3.1            -7.31e-010      -3.793e-009     1.7169e-009    
  -3.15           2.389e-009      1.313e-009      7.878e-010     
  -3.2            -2.3545e-009    2.6991e-009     -9.241e-010    
  -3.25           2.1212e-009     -3.7602e-009    1.1935e-009    
  -3.3            -2.3854e-009    2.5334e-009     -8.343e-010    
  -3.35           2.2284e-009     -3.7767e-009    1.0937e-009    
  -3.4            -1.9839e-009    2.3775e-009     -1.3308e-009   
  -3.45           2.3149e-009     -3.7996e-009    1.0036e-009    
  -3.5            -2.1139e-009    2.2067e-009     -1.189e-009    
  -3.55           2.3534e-009     -3.8242e-009    9.184e-010     
  -3.6            -2.226e-009     2.9989e-009     -1.072e-009    
  -3.65           1.9347e-009     -3.8314e-009    1.3815e-009    
  -3.7            -2.3247e-009    2.7909e-009     -9.678e-010    
  -3.75           2.0653e-009     -3.7282e-009    1.2479e-009    
  -3.8            -2.3764e-009    2.598e-009      -8.734e-010    
  -3.85           2.1805e-009     -3.7677e-009    1.1371e-009    
  -3.9            -1.9116e-009    2.4432e-009     -1.4034e-009   
  -3.95           -7.523e-010     -3.7833e-009    1.7111e-009    
  -4              2.3738e-009     1.2145e-009     8.075e-010     
  -4.05           -2.3487e-009    2.7428e-009     -9.455e-010    
  -4.1            2.0892e-009     -3.6863e-009    1.2196e-009    
  -4.15           -2.3917e-009    2.5761e-009     -8.555e-010    
  -4.2            2.2092e-009     -3.7482e-009    1.1132e-009    
  -4.25           -1.9371e-009    2.4145e-009     -1.3669e-009   
  -4.3            -7.281e-010     -3.7909e-009    1.7184e-009    
  -4.35           2.3794e-009     1.3104e-009     7.854e-010     
  -4.4            -2.3669e-009    2.6936e-009     -9.222e-010    
  -4.45           2.1168e-009     -3.6485e-009    1.1892e-009    
  -4.5            -2.4016e-009    2.5364e-009     -8.325e-010    
  -4.55           2.2299e-009     -3.742e-009     1.0836e-009    
  -4.6            -1.9759e-009    2.3793e-009     -1.3266e-009   
  -4.65           2.323e-009      -3.7797e-009    1.0011e-009    
  -4.7            -2.1081e-009    2.2029e-009     -1.1832e-009   
  -4.75           2.3681e-009     -3.8437e-009    9.173e-010     
  -4.8            -2.2357e-009    2.9873e-009     -1.0609e-009   
  -4.85           1.9309e-009     -3.8372e-009    1.3709e-009    
  -4.9            -2.3364e-009    2.77e-009       -9.615e-010    
  -4.95           2.0617e-009     -3.7367e-009    1.2361e-009    
  -5              -2.3907e-009    2.5934e-009     -8.705e-010    
  -5.05           2.1871e-009     -3.7566e-009    1.1283e-009    
  -5.1            -1.9235e-009    2.4364e-009     -1.3866e-009   
  -5.15           -7.414e-010     -3.7868e-009    1.714e-009     
  -5.2            2.3815e-009     1.2548e-009     7.99e-010      
  -5.25           -2.3561e-009    2.7259e-009     -9.378e-010    
  -5.3            2.0943e-009     -3.6751e-009    1.2077e-009    
  -5.35           -2.3973e-009    2.5539e-009     -8.458e-010    
  -5.4            2.2164e-009     -3.7362e-009    1.0999e-009    
  -5.45           -1.9559e-009    2.3971e-009     -1.3415e-009   
  -5.5            2.315e-009      -3.7811e-009    1.011e-009     
  -5.55           -2.0889e-009    2.2265e-009     -1.2007e-009   
  -5.6            2.3609e-009     -3.8384e-009    9.269e-010     
  -5.65           -2.2146e-009    3.017e-009      -1.0784e-009   
  -5.7            1.9121e-009     -3.8468e-009    1.3904e-009    
  -5.75           -2.3262e-009    2.7942e-009     -9.771e-010    
  -5.8            2.0434e-009     -3.7561e-009    1.2572e-009    
  -5.85           -2.387e-009     2.6169e-009     -8.817e-010    
  -5.9            2.1697e-009     -3.7541e-009    1.1416e-009    
  -5.95           -2.4017e-009    2.462e-009      -7.886e-010    
  -6              2.279e-009      -3.7731e-009    1.0461e-009    
  -6.05           -2.041e-009     2.3001e-009     -1.258e-009    
  -6.1            2.3492e-009     -3.7905e-009    9.642e-010     
  -6.15           -2.1669e-009    2.1212e-009     -1.1237e-009   
  -6.2            2.3709e-009     -3.8462e-009    8.789e-010     
  -6.25           -2.2826e-009    2.8839e-009     -1.0165e-009   
  -6.3            1.9907e-009     -3.8187e-009    1.306e-009     
  -6.35           -2.3683e-009    2.6936e-009     -9.211e-010    
  -6.4            2.122e-009      -3.7429e-009    1.1841e-009    
  -6.45           -2.3984e-009    2.526e-009      -8.267e-010    
  -6.5            2.2375e-009     -3.7544e-009    1.0822e-009    
  -6.55           -1.9825e-009    2.3695e-009     -1.3135e-009   
  -6.6            2.3288e-009     -3.7869e-009    9.958e-010     
  -6.65           -2.116e-009     2.1859e-009     -1.1736e-009   
  -6.7            2.3678e-009     -3.823e-009     9.109e-010     
  -6.75           -2.2382e-009    2.9667e-009     -1.0581e-009   
  -6.8            1.9434e-009     -3.8345e-009    1.3624e-009    
  -6.85           -2.342e-009     2.7571e-009     -9.55e-010     
  -6.9            2.077e-009      -3.7478e-009    1.2256e-009    
  -6.95           -2.3929e-009    2.5861e-009     -8.649e-010    
  -7              2.1965e-009     -3.7504e-009    1.1167e-009    
  -7.05           -1.9325e-009    2.4219e-009     -1.3727e-009   
  -7.1            -7.312e-010     -3.7947e-009    1.7155e-009    
  -7.15           2.3805e-009     1.2803e-009     7.911e-010     
  -7.2            -2.3637e-009    2.7034e-009     -9.27e-010     
  -7.25           2.1098e-009     -3.6725e-009    1.19e-009      
  -7.3            -2.398e-009     2.539e-009      -8.357e-010    
  -7.35           2.228e-009      -3.7536e-009    1.0922e-009    
  -7.4            -1.9727e-009    2.3816e-009     -1.33e-009     
  -7.45           2.3237e-009     -3.7789e-009    1.0045e-009    
  -7.5            -2.1087e-009    2.2115e-009     -1.1881e-009   
  -7.55           2.3655e-009     -3.8138e-009    9.184e-010     
  -7.6            -2.2297e-009    2.9886e-009     -1.0645e-009   
  -7.65           1.9291e-009     -3.8417e-009    1.3739e-009    
  -7.7            -2.3354e-009    2.7687e-009     -9.667e-010    
  -7.75           2.0642e-009     -3.7304e-009    1.2391e-009    
  -7.8            -2.3916e-009    2.5987e-009     -8.716e-010    
  -7.85           2.179e-009      -3.746e-009     1.1295e-009    
  -7.9            -1.923e-009     2.4395e-009     -1.39e-009     
  -7.95           -7.451e-010     -3.7885e-009    1.7139e-009    
  -8              2.3811e-009     1.2473e-009     7.994e-010     
  -8.05           -2.3574e-009    2.7204e-009     -9.379e-010    
  -8.1            2.0965e-009     -3.7059e-009    1.2045e-009    
  -8.15           -2.3978e-009    2.5528e-009     -8.484e-010    
  -8.2            2.218e-009      -3.7572e-009    1.101e-009     
  -8.25           -1.9618e-009    2.3951e-009     -1.3468e-009   
  -8.3            2.3178e-009     -3.7845e-009    1.0126e-009    
  -8.35           -2.0932e-009    2.23e-009       -1.1995e-009   
  -8.4            2.3658e-009     -3.8261e-009    9.273e-010     
  -8.45           -2.2161e-009    3.0152e-009     -1.0766e-009   
  -8.5            1.9164e-009     -3.844e-009     1.3901e-009    
  -8.55           -2.3271e-009    2.7924e-009     -9.735e-010    
  -8.6            2.0495e-009     -3.7429e-009    1.2481e-009    
  -8.65           -2.391e-009     2.6187e-009     -8.821e-010    
  -8.7            2.168e-009      -3.7554e-009    1.1386e-009    
  -8.75           -2.4003e-009    2.4567e-009     -7.909e-010    
  -8.8            2.282e-009      -3.766e-009     1.0471e-009    
  -8.85           -2.046e-009     2.2973e-009     -1.2508e-009   
  -8.9            2.3556e-009     -3.8006e-009    9.596e-010     
  -8.95           -2.1734e-009    3.1155e-009     -1.1218e-009   
  -9              2.3765e-009     -3.8445e-009    8.763e-010     
  -9.05           -2.2901e-009    2.8698e-009     -1.0125e-009   
  -9.1            1.9974e-009     -3.8067e-009    1.3022e-009    
  -9.15           -2.3741e-009    2.6799e-009     -9.183e-010    
  -9.2            2.1297e-009     -3.7525e-009    1.1798e-009    
  -9.25           -2.4019e-009    2.5174e-009     -8.235e-010    
  -9.3            2.2436e-009     -3.7586e-009    1.0792e-009    
  -9.35           -1.9932e-009    2.3594e-009     -1.3058e-009   
  -9.4            2.3356e-009     -3.7995e-009    9.948e-010     
  -9.45           -2.1218e-009    2.1904e-009     -1.1689e-009   
  -9.5            2.3718e-009     -3.8283e-009    9.064e-010     
  -9.55           -2.2472e-009    2.9551e-009     -1.0527e-009   
  -9.6            1.9493e-009     -3.8265e-009    1.3583e-009    
  -9.65           -2.3471e-009    2.7502e-009     -9.535e-010    
  -9.7            2.0797e-009     -3.7094e-009    1.2219e-009    
  -9.75           -2.3939e-009    2.5783e-009     -8.619e-010    
  -9.8            2.2019e-009     -3.7608e-009    1.117e-009     
  -9.85           -1.936e-009     2.4178e-009     -1.3733e-009   
  -9.9            -7.277e-010     -3.8012e-009    1.7174e-009    
  -9.95           2.3812e-009     1.3031e-009     7.897e-010     
  -10             -2.365e-009     2.7001e-009     -9.266e-010    
END_DB

BEGIN_DB
 ICCAP_VAR VG         -1             
 ICCAP_VAR VS         0              
 ICCAP_VAR VB         0              

 #VD              ID              IB              IG             
  0               1.9912e-008     3.9526e-009     -4.136e-010    
  -0.05           -5.1025e-007    -1.396e-010     1.6425e-009    
  -0.1            -6.1314e-007    -2.6201e-009    1.5952e-009    
  -0.15           -6.4868e-007    -2.4585e-009    1.7079e-009    
  -0.2            -6.6867e-007    -3.0398e-009    1.6958e-009    
  -0.25           -6.8598e-007    -2.9811e-009    1.6869e-009    
  -0.3            -7.0205e-007    -2.9219e-009    1.6807e-009    
  -0.35           -7.1693e-007    -2.8237e-009    1.6587e-009    
  -0.4            -7.3079e-007    -2.6749e-009    1.6153e-009    
  -0.45           -7.4324e-007    -2.5171e-009    1.7149e-009    
  -0.5            -7.5394e-007    -3.0609e-009    1.6987e-009    
  -0.55           -7.6533e-007    -3.0033e-009    1.6901e-009    
  -0.6            -7.7678e-007    -2.9462e-009    1.6824e-009    
  -0.65           -7.8807e-007    -2.8655e-009    1.6705e-009    
  -0.7            -7.9913e-007    -2.7297e-009    1.6321e-009    
  -0.75           -8.0926e-007    -2.5657e-009    1.7288e-009    
  -0.8            -8.1804e-007    -3.0893e-009    1.7023e-009    
  -0.85           -8.272e-007     -3.0151e-009    1.6921e-009    
  -0.9            -8.3658e-007    -2.9636e-009    1.6849e-009    
  -0.95           -8.4661e-007    -2.8938e-009    1.6761e-009    
  -1              -8.5598e-007    -2.7756e-009    1.648e-009     
  -1.05           -8.6555e-007    -2.6234e-009    1.5966e-009    
  -1.1            -8.731e-007     -2.453e-009     1.7063e-009    
  -1.15           -8.8098e-007    -3.0277e-009    1.6928e-009    
  -1.2            -8.8902e-007    -2.9758e-009    1.6895e-009    
  -1.25           -8.9775e-007    -2.9237e-009    1.6822e-009    
  -1.3            -9.0624e-007    -2.8232e-009    1.6597e-009    
  -1.35           -9.1474e-007    -2.673e-009     1.6131e-009    
  -1.4            -9.2197e-007    -2.5076e-009    1.7141e-009    
  -1.45           -9.2866e-007    -3.0641e-009    1.6959e-009    
  -1.5            -9.36e-007      -3.0002e-009    1.6882e-009    
  -1.55           -9.4355e-007    -2.9468e-009    1.6854e-009    
  -1.6            -9.5114e-007    -2.8581e-009    1.6676e-009    
  -1.65           -9.5953e-007    -2.7222e-009    1.6283e-009    
  -1.7            -9.6606e-007    -2.5595e-009    1.721e-009     
  -1.75           -9.7216e-007    -3.0756e-009    1.6988e-009    
  -1.8            -9.7826e-007    -3.0098e-009    1.689e-009     
  -1.85           -9.8521e-007    -2.9612e-009    1.6869e-009    
  -1.9            -9.924e-007     -2.8962e-009    1.6763e-009    
  -1.95           -9.9976e-007    -2.7668e-009    1.6443e-009    
  -2              -1.00549e-006   -2.608e-009     1.5925e-009    
  -2.05           -1.01077e-006   -2.4433e-009    1.705e-009     
  -2.1            -1.01663e-006   -3.0387e-009    1.695e-009     
  -2.15           -1.02191e-006   -2.978e-009     1.6889e-009    
  -2.2            -1.02874e-006   -2.9164e-009    1.6807e-009    
  -2.25           -1.03545e-006   -2.8109e-009    1.6556e-009    
  -2.3            -1.04123e-006   -2.6626e-009    1.6082e-009    
  -2.35           -1.04614e-006   -2.4903e-009    1.7106e-009    
  -2.4            -1.05132e-006   -3.057e-009     1.6956e-009    
  -2.45           -1.05635e-006   -2.9968e-009    1.6885e-009    
  -2.5            -1.06221e-006   -2.9418e-009    1.6857e-009    
  -2.55           -1.06842e-006   -2.8514e-009    1.6689e-009    
  -2.6            -1.07453e-006   -2.7096e-009    1.6278e-009    
  -2.65           -1.07943e-006   -2.5506e-009    1.7198e-009    
  -2.7            -1.08459e-006   -3.0791e-009    1.6988e-009    
  -2.75           -1.08894e-006   -3.0165e-009    1.6926e-009    
  -2.8            -1.09441e-006   -2.9649e-009    1.6869e-009    
  -2.85           -1.10044e-006   -2.8907e-009    1.6757e-009    
  -2.9            -1.10621e-006   -2.7595e-009    1.6414e-009    
  -2.95           -1.11142e-006   -2.5961e-009    1.5852e-009    
  -3              -1.11494e-006   -2.4291e-009    1.7038e-009    
  -3.05           -1.12061e-006   -3.0351e-009    1.693e-009     
  -3.1            -1.12599e-006   -2.9766e-009    1.689e-009     
  -3.15           -1.13166e-006   -2.9124e-009    1.6803e-009    
  -3.2            -1.13754e-006   -2.8044e-009    -1.7228e-009   
  -3.25           -1.1046e-006    3.6903e-009     -1.6534e-009   
  -3.3            -1.1109e-006    3.7488e-009     -1.6819e-009   
  -3.35           -1.1177e-006    3.8006e-009     -1.7018e-009   
  -3.4            -1.1241e-006    3.8301e-009     -1.7161e-009   
  -3.45           -1.1306e-006    3.8419e-009     -1.7215e-009   
  -3.5            -1.1363e-006    3.8433e-009     -1.7232e-009   
  -3.55           -1.1414e-006    3.8378e-009     -1.7208e-009   
  -3.6            -1.1462e-006    3.8325e-009     -1.7252e-009   
  -3.65           -1.1498e-006    3.8368e-009     -1.7304e-009   
  -3.7            -1.1545e-006    3.84e-009       -1.7378e-009   
  -3.75           -1.1598e-006    3.8566e-009     -1.5707e-009   
  -3.8            -1.1574e-006    3.6032e-009     -1.6101e-009   
  -3.85           -1.1642e-006    3.6691e-009     -1.6429e-009   
  -3.9            -1.1708e-006    3.7338e-009     -1.6738e-009   
  -3.95           -1.1779e-006    3.7912e-009     -1.6989e-009   
  -4              -1.185e-006     3.8234e-009     -1.7128e-009   
  -4.05           -1.1914e-006    3.8391e-009     -1.7199e-009   
  -4.1            -1.1968e-006    3.846e-009      -1.7226e-009   
  -4.15           -1.2017e-006    3.8371e-009     -1.7223e-009   
  -4.2            -1.2071e-006    3.8331e-009     -1.7223e-009   
  -4.25           -1.212e-006     3.8274e-009     -1.7258e-009   
  -4.3            -1.2151e-006    3.8412e-009     -1.7354e-009   
  -4.35           -1.221e-006     3.8526e-009     -1.5623e-009   
