! VERSION = 6.00
BEGIN_HEADER
 ICCAP_INPUTS
  VG         V  B GROUND SMU4 0.001 LIN        1    0          -5         101  -0.05     
  VS         V  E GROUND SMU3 0.1 CON        0
  VB         V  C GROUND SMU1 0.1 LIN        3    0          5          3    2.5       
  VD         V  S GROUND SMU2 0.1 LIN        2    -0.1       -10        2    -9.9      
 ICCAP_OUTPUTS
  IG         I  B GROUND SMU4 B
  ID         I  S GROUND SMU2 B
  IB         I  C GROUND SMU1 B
END_HEADER

BEGIN_DB
 ICCAP_VAR VS         0              
 ICCAP_VAR VB         0              
 ICCAP_VAR VD         -0.1           

 #VG              IG              ID              IB             
  0               1.29e-011       -2.0682e-009    -3.7702e-009   
  -0.05           -1.3513e-009    -1.9566e-009    1.002e-009     
  -0.1            1.0061e-009     2.3025e-009     -3.7709e-009   
  -0.15           -1.1919e-009    -2.1051e-009    2.2066e-009    
  -0.2            9.141e-010      2.3518e-009     -3.7708e-009   
  -0.25           -1.0594e-009    -2.2232e-009    2.9837e-009    
  -0.3            1.3595e-009     1.9495e-009     -3.7416e-009   
  -0.35           -9.492e-010     -2.3163e-009    2.75e-009      
  -0.4            1.2171e-009     2.0911e-009     -3.6364e-009   
  -0.45           -8.506e-010     -2.3674e-009    2.5569e-009    
  -0.5            1.1002e-009     2.2071e-009     -3.7066e-009   
  -0.55           -1.341e-009     -1.9702e-009    2.3758e-009    
  -0.6            1.7572e-009     -1.8414e-009    -2.3652e-009   
  -0.65           -1.7187e-009    1.4108e-009     3.8071e-009    
  -0.7            -7.79e-010      -2.4445e-009    -3.019e-010    
  -0.75           1.6705e-009     -2.338e-010     -3.68e-009     
  -0.8            -1.8025e-009    -2.2677e-009    3.2877e-009    
  -0.85           1.7138e-009     -4.7791e-009    -2.9826e-009   
  -0.9            1.7235e-009     -1.2078e-008    3.936e-009     
  -0.95           -1.7257e-009    -5.1427e-008    3.8389e-009    
  -1              1.5744e-009     -1.9442e-007    -2.17e-010     
  -1.05           1.298e-009      -6.1598e-007    -5.773e-010    
  -1.1            -1.698e-009     -1.6477e-006    -2.3297e-009   
  -1.15           -1.0835e-009    -3.7665e-006    1.243e-010     
  -1.2            1.7118e-009     -7.2575e-006    -2.4013e-009   
  -1.25           1.7152e-009     -1.1799e-005    1.3907e-009    
  -1.3            8.986e-010      -1.6908e-005    1.2118e-009    
  -1.35           -1.7019e-009    -2.2074e-005    3.8014e-009    
  -1.4            -1.0788e-009    -2.7087e-005    9.69e-011      
  -1.45           1.7158e-009     -3.1767e-005    -2.4152e-009   
  -1.5            9.056e-010      -3.5864e-005    1.1701e-009    
  -1.55           -1.7007e-009    -3.9539e-005    3.7905e-009    
  -1.6            -1.0867e-009    -4.2911e-005    1.229e-010     
  -1.65           1.709e-009      -4.602e-005     -2.4035e-009   
  -1.7            9.141e-010      -4.8769e-005    1.1247e-009    
  -1.75           -1.6969e-009    -5.1257e-005    3.7854e-009    
  -1.8            -1.0994e-009    -5.3589e-005    1.418e-010     
  -1.85           1.7067e-009     -5.5816e-005    -2.3836e-009   
  -1.9            9.212e-010      -5.7787e-005    1.0865e-009    
  -1.95           -1.6942e-009    -5.9601e-005    3.7769e-009    
  -2              -1.1103e-009    -6.1332e-005    1.654e-010     
  -2.05           1.7045e-009     -6.2977e-005    -2.3572e-009   
  -2.1            9.324e-010      -6.4482e-005    1.0413e-009    
  -2.15           -1.6886e-009    -6.5886e-005    3.7672e-009    
  -2.2            -1.121e-009     -6.7232e-005    1.915e-010     
  -2.25           1.7007e-009     -6.8533e-005    -2.337e-009    
  -2.3            9.416e-010      -6.9727e-005    1.0116e-009    
  -2.35           -1.6829e-009    -7.0856e-005    3.7539e-009    
  -2.4            -1.136e-009     -7.1943e-005    2.2e-010       
  -2.45           1.7005e-009     -7.3013e-005    -2.3162e-009   
  -2.5            9.488e-010      -7.4001e-005    9.638e-010     
  -2.55           -1.683e-009     -7.4929e-005    3.745e-009     
  -2.6            -1.1508e-009    -7.5841e-005    2.562e-010     
  -2.65           1.6988e-009     -7.6734e-005    -2.2984e-009   
  -2.7            9.532e-010      -7.757e-005     9.411e-010     
  -2.75           -1.6786e-009    -7.8351e-005    3.7385e-009    
  -2.8            -1.1588e-009    -7.9123e-005    2.729e-010     
  -2.85           1.6723e-009     -7.99e-005      -3.6536e-009   
  -2.9            1.0681e-009     -8.0607e-005    4.493e-010     
  -2.95           -1.5954e-009    -8.1276e-005    3.5768e-009    
  -3              -1.339e-009     -8.1954e-005    6.511e-010     
  -3.05           1.6292e-009     -8.262e-005     -3.5442e-009   
  -3.1            1.2014e-009     -8.3245e-005    -1.336e-010    
  -3.15           -1.7302e-009    -8.3834e-005    3.3732e-009    
  -3.2            -9.228e-010     -8.4424e-005    -2.278e-010    
  -3.25           1.6236e-009     -8.5005e-005    -2.7161e-009   
  -3.3            1.2123e-009     -8.5559e-005    -1.893e-010    
  -3.35           -1.7279e-009    -8.6071e-005    3.3561e-009    
  -3.4            -9.284e-010     -8.6597e-005    -2.085e-010    
  -3.45           1.6187e-009     -8.7113e-005    -2.6996e-009   
  -3.5            1.2257e-009     -8.7606e-005    -2.358e-010    
  -3.55           -1.7258e-009    -8.8069e-005    3.3399e-009    
  -3.6            -9.401e-010     -8.8536e-005    -1.823e-010    
  -3.65           1.6133e-009     -8.8997e-005    -2.6851e-009   
  -3.7            1.2392e-009     -8.944e-005     -3.008e-010    
  -3.75           -1.7251e-009    -8.9856e-005    3.3179e-009    
  -3.8            -9.459e-010     -9.0282e-005    -1.719e-010    
  -3.85           1.605e-009      -9.0702e-005    -2.6676e-009   
  -3.9            1.2486e-009     -9.1107e-005    -3.374e-010    
  -3.95           -1.7236e-009    -9.1482e-005    3.3019e-009    
  -4              -9.543e-010     -9.186e-005     -1.483e-010    
  -4.05           1.6023e-009     -9.2242e-005    -2.6476e-009   
  -4.1            1.263e-009      -9.261e-005     -3.992e-010    
  -4.15           -1.7207e-009    -9.2944e-005    3.2814e-009    
  -4.2            -9.634e-010     -9.3288e-005    -1.266e-010    
  -4.25           1.5934e-009     -9.364e-005     -2.6302e-009   
  -4.3            1.2744e-009     -9.3971e-005    -4.708e-010    
  -4.35           -1.7166e-009    -9.4291e-005    3.2629e-009    
  -4.4            -9.757e-010     -9.4604e-005    -1.049e-010    
  -4.45           1.588e-009      -9.4917e-005    -2.609e-009    
  -4.5            1.2824e-009     -9.5226e-005    -5.232e-010    
  -4.55           -1.7181e-009    -9.5504e-005    3.2449e-009    
  -4.6            -9.846e-010     -9.58e-005      -8.77e-011     
  -4.65           1.5824e-009     -9.6099e-005    -2.5937e-009   
  -4.7            1.3004e-009     -9.6384e-005    -5.757e-010    
  -4.75           -1.7138e-009    -9.6644e-005    3.2233e-009    
  -4.8            -9.954e-010     -9.6915e-005    -6.5e-011      
  -4.85           1.5746e-009     -9.7189e-005    -2.5742e-009   
  -4.9            1.3123e-009     -9.7445e-005    -6.273e-010    
  -4.95           -1.7149e-009    -9.7693e-005    3.2069e-009    
  -5              -1.0032e-009    -9.7942e-005    -5.14e-011     
END_DB

BEGIN_DB
 ICCAP_VAR VS         0              
 ICCAP_VAR VB         0              
 ICCAP_VAR VD         -10            

 #VG              IG              ID              IB             
  0               -1.7017e-009    -3.364e-010     2.8e-012       
  -0.05           8.921e-010      2.3595e-009     -3.8137e-009   
  -0.1            -1.0338e-009    -2.2552e-009    2.9129e-009    
  -0.15           1.3184e-009     1.9797e-009     -3.7567e-009   
  -0.2            -9.226e-010     -2.3516e-009    2.6981e-009    
  -0.25           1.1841e-009     2.115e-009      -3.5874e-009   
  -0.3            -8.249e-010     -2.3868e-009    2.5097e-009    
  -0.35           1.0769e-009     2.2384e-009     -3.705e-009    
  -0.4            -1.2985e-009    -2.0008e-009    2.3369e-009    
  -0.45           9.795e-010      2.3306e-009     -3.7276e-009   
  -0.5            -1.1498e-009    -2.1389e-009    2.1502e-009    
  -0.55           8.839e-010      2.3558e-009     -3.763e-009    
  -0.6            -1.0138e-009    -2.2754e-009    2.8832e-009    
  -0.65           1.302e-009      1.9352e-009     -3.7101e-009   
  -0.7            -9.074e-010     -2.5527e-009    2.621e-009     
  -0.75           1.6852e-009     -2.0787e-009    -2.9254e-009   
  -0.8            -1.7585e-009    -2.5525e-009    3.6273e-009    
  -0.85           -1.7293e-009    -1.4206e-008    -2.9944e-009   
  -0.9            -8.648e-010     -5.1145e-008    -3.201e-010    
  -0.95           1.6926e-009     -1.8567e-007    1.9918e-009    
  -1              9.207e-010      -6.2479e-007    1.514e-009     
  -1.05           -1.432e-009     -1.7978e-006    -2.5658e-009   
  -1.1            1.662e-009      -4.519e-006     7.226e-010     
  -1.15           1.1357e-009     -9.3993e-006    5.2141e-009    
  -1.2            -1.7122e-009    -1.693e-005     9.999e-009     
  -1.25           -1.1652e-009    -2.7368e-005    1.1392e-008    
  -1.3            1.6707e-009     -4.1151e-005    1.4582e-008    
  -1.35           1.1942e-009     -5.76e-005      2.6679e-008    
  -1.4            -1.7123e-009    -7.6607e-005    3.3507e-008    
  -1.45           -1.1738e-009    -9.8489e-005    3.3252e-008    
  -1.5            -1.7165e-009    -0.00012265     3.8719e-008    
  -1.55           -1.1062e-009    -0.00014924     4.3732e-008    
  -1.6            1.6788e-009     -0.0001784      4.6372e-008    
  -1.65           1.1484e-009     -0.00020891     5.7172e-008    
  -1.7            -1.7157e-009    -0.00024078     6.2041e-008    
  -1.75           -1.1201e-009    -0.00027501     5.9069e-008    
  -1.8            1.6747e-009     -0.00031136     5.9454e-008    
  -1.85           1.1555e-009     -0.0003489      6.7879e-008    
  -1.9            -1.7174e-009    -0.00038678     7.0416e-008    
  -1.95           -1.1296e-009    -0.00042681     6.5243e-008    
  -2              1.677e-009      -0.00046856     6.3502e-008    
  -2.05           1.1636e-009     -0.00051057     6.9853e-008    
  -2.1            -1.7168e-009    -0.00055304     7.0463e-008    
  -2.15           -1.1422e-009    -0.00059739     6.3681e-008    
  -2.2            1.6751e-009     -0.00064328     6.045e-008     
  -2.25           1.176e-009      -0.00068921     6.5391e-008    
  -2.3            -1.7155e-009    -0.00073526     6.4869e-008    
  -2.35           -1.1505e-009    -0.00078298     5.7087e-008    
  -2.4            1.6748e-009     -0.00083228     5.3033e-008    
  -2.45           1.1863e-009     -0.00088123     5.7283e-008    
  -2.5            -1.7155e-009    -0.00093018     5.6192e-008    
  -2.55           -1.1622e-009    -0.00098073     4.804e-008     
  -2.6            1.6717e-009     -0.00103258     4.3754e-008    
  -2.65           1.1975e-009     -0.00108396     4.7783e-008    
  -2.7            -1.7143e-009    -0.00113524     4.6604e-008    
  -2.75           1.0522e-009     -0.0011884      3.8318e-008    
  -2.8            -1.7256e-009    -0.0012407      4.2044e-008    
  -2.85           -1.0144e-009    -0.0012944      3.3986e-008    
  -2.9            1.688e-009      -0.0013493      2.9569e-008    
  -2.95           1.0624e-009     -0.0014031      3.3983e-008    
  -3              -1.7239e-009    -0.0014569      3.3508e-008    
  -3.05           -1.0268e-009    -0.001512       2.5747e-008    
  -3.1            1.6876e-009     -0.0015688      2.1701e-008    
  -3.15           1.0664e-009     -0.0016238      2.6433e-008    
  -3.2            -1.7237e-009    -0.0016788      2.6326e-008    
  -3.25           -1.0311e-009    -0.0017355      1.8944e-008    
  -3.3            1.6861e-009     -0.001793       1.5268e-008    
  -3.35           1.0804e-009     -0.0018491      2.043e-008     
  -3.4            -1.7221e-009    -0.0019044      2.0641e-008    
  -3.45           -1.0425e-009    -0.0019615      1.3589e-008    
  -3.5            1.6846e-009     -0.00202        1.029e-008     
  -3.55           1.087e-009      -0.0020774      1.5812e-008    
  -3.6            -1.7252e-009    -0.0021338      1.6351e-008    
  -3.65           -1.0539e-009    -0.002192       9.561e-009     
  -3.7            7.55e-010       -0.0022497      1.4311e-008    
  -3.75           -1.7164e-009    -0.002307       1.342e-008     
  -3.8            8.775e-010      -0.0023666      1.2342e-008    
  -3.85           -1.6713e-009    -0.0024243      1.2503e-008    
  -3.9            5.847e-010      -0.0024836      1.1305e-008    
  -3.95           -1.7371e-009    -0.0025415      1.0782e-008    
  -4              -1.7195e-009    -0.0026         1.086e-008     
  -4.05           -1.6849e-009    -0.0026573      1e-008         
  -4.1            1.6964e-009     -0.0027354      2.4102e-009    
  -4.15           9.177e-010      -0.0027824      6.2126e-009    
  -4.2            -1.7098e-009    -0.0028387      8.5653e-009    
  -4.25           -1.0953e-009    -0.0028985      4.6006e-009    
  -4.3            1.7004e-009     -0.0029577      1.7908e-009    
  -4.35           9.269e-010      -0.0030165      4.9952e-009    
  -4.4            -1.7074e-009    -0.0030744      7.4903e-009    
  -4.45           -1.1068e-009    -0.0031346      3.6437e-009    
  -4.5            1.6958e-009     -0.0031984      9.398e-010     
  -4.55           9.352e-010      -0.0032626      4.1964e-009    
  -4.6            -1.7067e-009    -0.0033222      6.7933e-009    
  -4.65           -1.119e-009     -0.0033821      3.055e-009     
  -4.7            1.6976e-009     -0.0034701      4.64e-010      
  -4.75           -1.7363e-009    -0.003514       6.1703e-009    
  -4.8            -8.592e-010     -0.0035951      2.2125e-009    
  -4.85           1.6728e-009     -0.0036578      -2.779e-010    
  -4.9            -1.7141e-009    -0.0036973      5.5738e-009    
  -4.95           -1.0655e-009    -0.0037693      2.5765e-009    
  -5              1.7073e-009     -0.0038356      1.22e-011      
END_DB

BEGIN_DB
 ICCAP_VAR VS         0              
 ICCAP_VAR VB         2.5            
 ICCAP_VAR VD         -0.1           

 #VG              IG              ID              IB             
  0               1.7023e-009     1.89e-010       -8.678e-010    
  -0.05           -1.3622e-009    -1.9632e-009    2.4017e-009    
  -0.1            1.0132e-009     2.3159e-009     -3.7307e-009   
  -0.15           -1.2048e-009    -2.1023e-009    2.2083e-009    
  -0.2            9.221e-010      2.3655e-009     -3.7601e-009   
  -0.25           -1.0728e-009    -2.2298e-009    2.9787e-009    
  -0.3            1.3704e-009     1.9474e-009     -3.755e-009    
  -0.35           -9.601e-010     -2.3357e-009    2.7532e-009    
  -0.4            1.2248e-009     2.0875e-009     -3.627e-009    
  -0.45           -8.56e-010      -2.3835e-009    2.5615e-009    
  -0.5            1.1045e-009     2.2126e-009     -3.6975e-009   
  -0.55           -1.3603e-009    -1.9701e-009    2.3927e-009    
  -0.6            1.0101e-009     2.3193e-009     -3.733e-009    
  -0.65           -1.1944e-009    -2.1099e-009    2.2041e-009    
  -0.7            9.197e-010      2.3714e-009     -3.7745e-009   
  -0.75           -1.0676e-009    -2.2346e-009    2.9637e-009    
  -0.8            1.3629e-009     1.9541e-009     -3.7564e-009   
  -0.85           -9.572e-010     -2.3382e-009    2.7356e-009    
  -0.9            1.2176e-009     2.0975e-009     -3.6244e-009   
  -0.95           -8.492e-010     -2.3817e-009    2.5484e-009    
  -1              1.0956e-009     2.2264e-009     -3.6984e-009   
  -1.05           -1.3498e-009    -1.982e-009     2.3781e-009    
  -1.1            1.0036e-009     2.3213e-009     -3.7384e-009   
  -1.15           -1.1885e-009    -2.1234e-009    2.1865e-009    
  -1.2            9.098e-010      2.37e-009       -3.7623e-009   
  -1.25           -1.0446e-009    -2.2517e-009    2.9272e-009    
  -1.3            1.3339e-009     1.9361e-009     -3.7155e-009   
  -1.35           -9.321e-010     -2.4695e-009    2.6799e-009    
  -1.4            1.6892e-009     -1.9592e-009    -2.9049e-009   
  -1.45           -1.7457e-009    -2.4323e-009    3.589e-009     
  -1.5            1.7669e-009     -1.2294e-008    3.873e-009     
  -1.55           -1.7024e-009    -6.1409e-008    3.8009e-009    
  -1.6            1.737e-009      -2.5703e-007    7.51e-011      
  -1.65           -1.7209e-009    -8.4709e-007    3.8381e-009    
  -1.7            1.7125e-009     -2.357e-006     -2.4585e-009   
  -1.75           8.81e-010       -5.113e-006     1.3039e-009    
  -1.8            -1.7158e-009    -9.1499e-006    3.8352e-009    
  -1.85           -1.6535e-009    -1.4113e-005    -3.6609e-009   
  -1.9            -1.248e-009     -1.9235e-005    4.62e-010      
  -1.95           1.6734e-009     -2.4187e-005    -3.6305e-009   
  -2              1.1309e-009     -2.8587e-005    1.889e-010     
  -2.05           -1.728e-009     -3.242e-005     3.4814e-009    
  -2.1            -8.619e-010     -3.5938e-005    -3.744e-010    
  -2.15           1.6724e-009     -3.9079e-005    -2.8521e-009   
  -2.2            1.1369e-009     -4.1861e-005    1.487e-010     
  -2.25           -1.7277e-009    -4.4326e-005    3.4708e-009    
  -2.3            -8.641e-010     -4.6641e-005    -3.634e-010    
  -2.35           1.6685e-009     -4.8768e-005    -2.844e-009    
  -2.4            1.1455e-009     -5.0698e-005    1.25e-010      
  -2.45           -1.7266e-009    -5.2452e-005    3.4591e-009    
  -2.5            -8.721e-010     -5.4144e-005    -3.463e-010    
  -2.55           1.6668e-009     -5.5717e-005    -2.8329e-009   
  -2.6            1.1487e-009     -5.7179e-005    9.21e-011      
  -2.65           -1.7289e-009    -5.8521e-005    3.4436e-009    
  -2.7            -8.797e-010     -5.9828e-005    -3.236e-010    
  -2.75           1.664e-009      -6.1075e-005    -2.8274e-009   
  -2.8            1.1526e-009     -6.2232e-005    6.69e-011      
  -2.85           -1.726e-009     -6.3307e-005    3.4333e-009    
  -2.9            -8.838e-010     -6.4365e-005    -3.11e-010     
  -2.95           1.659e-009      -6.5376e-005    -2.8132e-009   
  -3              1.164e-009      -6.6331e-005    1.96e-011      
  -3.05           -1.7231e-009    -6.7225e-005    3.4194e-009    
  -3.1            -8.889e-010     -6.8107e-005    -2.964e-010    
  -3.15           1.6599e-009     -6.896e-005     -2.8022e-009   
  -3.2            1.1714e-009     -6.9769e-005    1.6e-012       
  -3.25           -1.7219e-009    -7.0518e-005    3.4126e-009    
  -3.3            -8.926e-010     -7.1274e-005    -2.901e-010    
  -3.35           1.6547e-009     -7.2013e-005    -2.792e-009    
  -3.4            1.1778e-009     -7.27e-005      -2.76e-011     
  -3.45           -1.7243e-009    -7.3352e-005    3.4048e-009    
  -3.5            -9.01e-010      -7.4006e-005    -2.72e-010     
  -3.55           1.6526e-009     -7.465e-005     -2.7846e-009   
  -3.6            1.1828e-009     -7.5259e-005    -5.27e-011     
  -3.65           -1.7222e-009    -7.5828e-005    3.3911e-009    
  -3.7            -9.03e-010      -7.6401e-005    -2.611e-010    
  -3.75           1.6485e-009     -7.6971e-005    -2.7685e-009   
  -3.8            1.1863e-009     -7.7504e-005    -9.63e-011     
  -3.85           -1.7224e-009    -7.8011e-005    3.3846e-009    
  -3.9            -9.097e-010     -7.853e-005     -2.505e-010    
  -3.95           1.6441e-009     -7.9025e-005    -2.7602e-009   
  -4              1.1941e-009     -7.9509e-005    -1.23e-010     
  -4.05           -1.7217e-009    -7.9966e-005    3.3711e-009    
  -4.1            -9.155e-010     -8.0423e-005    -2.366e-010    
  -4.15           1.644e-009      -8.0868e-005    -2.7471e-009   
