! VERSION = 6.00
BEGIN_HEADER
 ICCAP_INPUTS
  VG         V  B GROUND SMU4 0.001 LIN        2    0          -5         6    -1        
  VS         V  E GROUND SMU2 0.1 CON        0
  VD         V  S GROUND SMU1 0.1 LIN        1    0          -5         101  -0.05     
  VB         V  C GROUND SMU3 0.1 LIN        3    0          2.5        2    2.5       
 ICCAP_OUTPUTS
  ID         I  S GROUND SMU1 B
  IB         I  C GROUND SMU3 B
  IG         I  B GROUND SMU4 B
END_HEADER

BEGIN_DB
 ICCAP_VAR VG         0              
 ICCAP_VAR VS         0              
 ICCAP_VAR VB         0              

 #VD              ID              IB              IG             
  0               -1.2982e-009    -8.913e-009     -1.6597e-009   
  -0.05           2.2741e-009     -4.836e-009     1.4383e-009    
  -0.1            2.481e-009      -9.236e-009     8.788e-010     
  -0.15           2.3572e-009     -1.0104e-008    1.3402e-009    
  -0.2            2.4655e-009     -8.873e-009     7.659e-010     
  -0.25           2.4213e-009     -9.761e-009     1.2421e-009    
  -0.3            2.4298e-009     -8.019e-009     6.603e-010     
  -0.35           2.46e-009       -9.227e-009     1.1567e-009    
  -0.4            2.3868e-009     -7.079e-009     5.371e-010     
  -0.45           2.4802e-009     -9.008e-009     1.0608e-009    
  -0.5            2.1831e-009     -5.734e-009     1.5267e-009    
  -0.55           2.4864e-009     -8.902e-009     9.669e-010     
  -0.6            -8.3e-012       -1.1018e-008    1.3717e-009    
  -0.65           2.4869e-009     -1.633e-009     9.737e-010     
  -0.7            -1.38e-011      -1.1194e-008    1.3709e-009    
  -0.75           2.489e-009      -1.717e-009     9.832e-010     
  -0.8            -1.78e-011      -1.1139e-008    1.3672e-009    
  -0.85           2.4852e-009     -1.765e-009     9.952e-010     
  -0.9            -2.35e-011      -1.1276e-008    1.3662e-009    
  -0.95           2.4851e-009     -1.751e-009     1.0033e-009    
  -1              -3.13e-011      -1.1339e-008    1.3647e-009    
  -1.05           2.4835e-009     -1.771e-009     1.0067e-009    
  -1.1            -3.42e-011      -1.151e-008     1.3626e-009    
  -1.15           2.4828e-009     -1.829e-009     1.0165e-009    
  -1.2            -3.43e-011      -1.1625e-008    1.362e-009     
  -1.25           2.4857e-009     -1.854e-009     1.024e-009     
  -1.3            -4.3e-011       -1.1688e-008    1.359e-009     
  -1.35           2.4846e-009     -1.822e-009     1.0249e-009    
  -1.4            -4.26e-011      -1.1734e-008    1.36e-009      
  -1.45           2.4813e-009     -1.835e-009     1.0379e-009    
  -1.5            -4.77e-011      -1.1899e-008    1.3566e-009    
  -1.55           2.4822e-009     -1.833e-009     1.0415e-009    
  -1.6            2.2055e-009     -5.501e-009     1.5101e-009    
  -1.65           2.4829e-009     -9.16e-009      9.453e-010     
  -1.7            5e-012          -1.0874e-008    1.3769e-009    
  -1.75           2.4841e-009     -1.668e-009     9.574e-010     
  -1.8            -1.8e-012       -1.0959e-008    1.3738e-009    
  -1.85           2.4852e-009     -1.733e-009     9.62e-010      
  -1.9            -5.5e-012       -1.1074e-008    1.3718e-009    
  -1.95           2.4836e-009     -1.664e-009     9.728e-010     
  -2              -1.42e-011      -1.1219e-008    1.3706e-009    
  -2.05           2.4836e-009     -1.778e-009     9.792e-010     
  -2.1            -1.31e-011      -1.1055e-008    1.3704e-009    
  -2.15           2.4868e-009     -1.609e-009     9.854e-010     
  -2.2            -2.1e-011       -1.1294e-008    1.3676e-009    
  -2.25           2.4841e-009     -1.728e-009     9.961e-010     
  -2.3            -2.4e-011       -1.1341e-008    1.3662e-009    
  -2.35           2.4867e-009     -1.803e-009     1.0003e-009    
  -2.4            -3.1e-011       -1.1285e-008    1.3641e-009    
  -2.45           2.4872e-009     -1.666e-009     1.0072e-009    
  -2.5            -3.11e-011      -1.1461e-008    1.3644e-009    
  -2.55           2.4844e-009     -1.871e-009     1.0051e-009    
  -2.6            -3.43e-011      -1.1434e-008    1.3612e-009    
  -2.65           2.4836e-009     -1.719e-009     1.0224e-009    
  -2.7            -4.29e-011      -1.1582e-008    1.3603e-009    
  -2.75           2.4835e-009     -1.657e-009     1.0259e-009    
  -2.8            -4.26e-011      -1.1853e-008    1.3604e-009    
  -2.85           2.4864e-009     -1.924e-009     1.0326e-009    
  -2.9            2.2275e-009     -5.526e-009     1.5014e-009    
  -2.95           2.4829e-009     -8.903e-009     9.359e-010     
  -3              1.78e-011       -1.0741e-008    1.3777e-009    
  -3.05           2.4869e-009     -1.465e-009     9.421e-010     
  -3.1            1.47e-011       -1.0595e-008    1.3754e-009    
  -3.15           2.4833e-009     -1.554e-009     9.427e-010     
  -3.2            1e-011          -1.0571e-008    1.3739e-009    
  -3.25           2.4847e-009     -1.562e-009     9.532e-010     
  -3.3            4e-012          -1.0678e-008    1.3705e-009    
  -3.35           2.4841e-009     -1.563e-009     9.584e-010     
  -3.4            -4.7e-012       -1.0721e-008    1.3718e-009    
  -3.45           2.484e-009      -1.659e-009     9.71e-010      
  -3.5            -6.8e-012       -1.079e-008     1.3704e-009    
  -3.55           2.4857e-009     -1.532e-009     9.748e-010     
  -3.6            -1.54e-011      -1.094e-008     1.3697e-009    
  -3.65           2.4839e-009     -1.927e-009     9.833e-010     
  -3.7            -2.18e-011      -1.0969e-008    1.3689e-009    
  -3.75           2.4846e-009     -1.559e-009     9.946e-010     
  -3.8            -2.24e-011      -1.1034e-008    1.3659e-009    
  -3.85           2.4851e-009     -1.751e-009     1.0017e-009    
  -3.9            -2.95e-011      -1.1124e-008    1.364e-009     
  -3.95           2.4879e-009     -1.708e-009     1.0062e-009    
  -4              -3.58e-011      -1.1386e-008    1.3625e-009    
  -4.05           2.4813e-009     -1.739e-009     1.0181e-009    
  -4.1            -3.87e-011      -1.1415e-008    1.3601e-009    
  -4.15           2.4822e-009     -1.741e-009     1.0259e-009    
  -4.2            -4.22e-011      -1.154e-008     1.3599e-009    
  -4.25           2.4837e-009     -1.87e-009      1.033e-009     
  -4.3            -4.55e-011      -1.1681e-008    1.3584e-009    
  -4.35           2.4823e-009     -1.803e-009     1.0323e-009    
  -4.4            -4.93e-011      -1.1629e-008    1.3539e-009    
  -4.45           2.4814e-009     -1.836e-009     1.0405e-009    
  -4.5            -5.36e-011      -1.1764e-008    1.352e-009     
  -4.55           2.4808e-009     -1.809e-009     1.0499e-009    
  -4.6            2.2151e-009     -5.769e-009     1.5148e-009    
  -4.65           2.4864e-009     -9.051e-009     9.511e-010     
  -4.7            1.8e-012        -1.0507e-008    1.3679e-009    
  -4.75           2.4825e-009     -1.501e-009     9.617e-010     
  -4.8            -2.6e-012       -1.0869e-008    1.3671e-009    
  -4.85           2.4859e-009     -1.639e-009     9.667e-010     
  -4.9            -8.8e-012       -1.098e-008     1.3657e-009    
  -4.95           2.4841e-009     -1.472e-009     9.752e-010     
  -5              -1.48e-011      -1.08e-008      1.3656e-009    
END_DB

BEGIN_DB
 ICCAP_VAR VG         -1             
 ICCAP_VAR VS         0              
 ICCAP_VAR VB         0              

 #VD              ID              IB              IG             
  0               -3.9181e-009    -6.997e-009     3.753e-010     
  -0.05           -1.2332e-007    -1.0231e-008    2.655e-010     
  -0.1            -1.5363e-007    -4.472e-009     2.0505e-009    
  -0.15           -1.6363e-007    -6.353e-009     1.8017e-009    
  -0.2            -1.704e-007     -8.292e-009     1.6155e-009    
  -0.25           -1.7554e-007    -9.264e-009     1.4916e-009    
  -0.3            -1.8128e-007    -8.919e-009     1.4219e-009    
  -0.35           -1.8566e-007    -9.44e-009      1.3804e-009    
  -0.4            -1.907e-007     -1.0179e-008    1.3471e-009    
  -0.45           -1.9491e-007    -1.1487e-008    3.3908e-009    
  -0.5            -1.9656e-007    -8.659e-009     1.584e-009     
  -0.55           -1.9888e-007    -9.177e-009     1.4769e-009    
  -0.6            -2.0312e-007    -8.997e-009     1.413e-009     
  -0.65           -2.069e-007     -9.607e-009     1.374e-009     
  -0.7            -2.1137e-007    -1.0179e-008    1.3437e-009    
  -0.75           -2.1462e-007    -1.1647e-008    3.3785e-009    
  -0.8            -2.1432e-007    -8.936e-009     1.5611e-009    
  -0.85           -2.1814e-007    -9.192e-009     1.4605e-009    
  -0.9            -2.2063e-007    -8.989e-009     1.4021e-009    
  -0.95           -2.2503e-007    -9.5e-009       1.3664e-009    
  -1              -2.2812e-007    -1.0555e-008    1.3378e-009    
  -1.05           -2.3174e-007    -1.2221e-008    3.3608e-009    
  -1.1            -2.3038e-007    -8.966e-009     1.5368e-009    
  -1.15           -2.332e-007     -9.121e-009     1.4466e-009    
  -1.2            -2.3628e-007    -8.98e-009      1.3942e-009    
  -1.25           -2.401e-007     -9.515e-009     1.3625e-009    
  -1.3            -2.437e-007     -1.0627e-008    1.3339e-009    
  -1.35           -2.4624e-007    -1.2615e-008    3.344e-009     
  -1.4            -2.4511e-007    -9.086e-009     1.5178e-009    
  -1.45           -2.4793e-007    -8.978e-009     1.4343e-009    
  -1.5            -2.5084e-007    -9.024e-009     1.3881e-009    
  -1.55           -2.5476e-007    -9.963e-009     1.3553e-009    
  -1.6            -2.572e-007     -1.0934e-008    1.3291e-009    
  -1.65           -2.6026e-007    -1.3123e-008    3.3205e-009    
  -1.7            -2.5945e-007    -9.216e-009     1.4986e-009    
  -1.75           -2.6184e-007    -9.009e-009     1.4248e-009    
  -1.8            -2.6417e-007    -9.24e-009      1.3804e-009    
  -1.85           -2.6946e-007    -9.876e-009     1.3508e-009    
  -1.9            -2.7071e-007    -1.1531e-008    1.3201e-009    
  -1.95           -2.672e-007     -5.295e-009     1.9395e-009    
  -2              -2.6983e-007    -7.275e-009     1.7078e-009    
  -2.05           -2.7296e-007    -9.03e-009      1.5474e-009    
  -2.1            -2.7525e-007    -9.039e-009     1.4518e-009    
  -2.15           -2.7898e-007    -9.038e-009     1.4005e-009    
  -2.2            -2.8186e-007    -9.561e-009     1.3642e-009    
  -2.25           -2.8511e-007    -1.0562e-008    1.336e-009     
  -2.3            -2.8799e-007    -1.2367e-008    3.3514e-009    
  -2.35           -2.8425e-007    -9.013e-009     1.5278e-009    
  -2.4            -2.8709e-007    -8.947e-009     1.4386e-009    
  -2.45           -2.9058e-007    -9.069e-009     1.3913e-009    
  -2.5            -2.9329e-007    -9.867e-009     1.3581e-009    
  -2.55           -2.9781e-007    -1.0932e-008    1.3285e-009    
  -2.6            -2.9885e-007    -1.2784e-008    3.3339e-009    
  -2.65           -2.9517e-007    -9.186e-009     1.5049e-009    
  -2.7            -2.9791e-007    -9.053e-009     1.4282e-009    
  -2.75           -3.0007e-007    -9.235e-009     1.3823e-009    
  -2.8            -3.0379e-007    -9.917e-009     1.3527e-009    
  -2.85           -3.0603e-007    -1.1111e-008    1.3242e-009    
  -2.9            -3.1112e-007    -1.3406e-008    3.309e-009     
  -2.95           -3.049e-007     -9.18e-009      1.4876e-009    
  -3              -3.1015e-007    -9.014e-009     1.418e-009     
  -3.05           -3.1099e-007    -9.308e-009     1.3783e-009    
  -3.1            -3.1452e-007    -1.0009e-008    1.347e-009     
  -3.15           -3.169e-007     -1.1591e-008    1.3187e-009    
  -3.2            -3.1394e-007    -5.424e-009     1.9131e-009    
  -3.25           -3.1453e-007    -7.504e-009     1.6859e-009    
  -3.3            -3.1679e-007    -8.941e-009     1.5337e-009    
  -3.35           -3.2042e-007    -8.937e-009     1.4432e-009    
  -3.4            -3.2139e-007    -8.882e-009     1.391e-009     
  -3.45           -3.2529e-007    -9.723e-009     1.3597e-009    
  -3.5            -3.2872e-007    -1.0626e-008    1.3325e-009    
  -3.55           -3.3107e-007    -1.2683e-008    3.3412e-009    
  -3.6            -3.2663e-007    -9.149e-009     1.5093e-009    
  -3.65           -3.2966e-007    -8.825e-009     1.4283e-009    
  -3.7            -3.3296e-007    -9.067e-009     1.3838e-009    
  -3.75           -3.3495e-007    -9.831e-009     1.3539e-009    
  -3.8            -3.3993e-007    -1.0941e-008    1.3277e-009    
  -3.85           -3.3358e-007    -4.956e-009     1.992e-009     
  -3.9            -3.3551e-007    -6.914e-009     1.7444e-009    
  -3.95           -3.3841e-007    -8.77e-009      1.5684e-009    
  -4              -3.4066e-007    -9.135e-009     1.4628e-009    
  -4.05           -3.4271e-007    -8.961e-009     1.4032e-009    
  -4.1            -3.4735e-007    -9.568e-009     1.3676e-009    
  -4.15           -3.4982e-007    -1.0185e-008    1.3388e-009    
  -4.2            -3.5139e-007    -1.2127e-008    3.3633e-009    
  -4.25           -3.4782e-007    -8.951e-009     1.5432e-009    
  -4.3            -3.5136e-007    -9.106e-009     1.4488e-009    
  -4.35           -3.6e-007       2.4769e-009     1.3593e-009    
  -4.4            -3.6324e-007    -1.03044e-008   1.4717e-009    
  -4.45           -3.4687e-007    1.5816e-009     -2.3172e-009   
  -4.5            -3.4491e-007    3.3752e-009     -2.8e-012      
  -4.55           -3.7802e-007    -1.05816e-008   3.3281e-009    
  -4.6            -3.3909e-007    2.21e-010       -1.3592e-009   
  -4.65           -3.5048e-007    5.6855e-009     -1.699e-009    
  -4.7            -3.5771e-007    -6.362e-010     2.8064e-009    
  -4.75           -3.7856e-007    -1.0641e-008    1.3824e-009    
  -4.8            -3.5907e-007    1.8602e-009     -2.6275e-009   
  -4.85           -3.5551e-007    3.2418e-009     2.948e-010     
  -4.9            -3.8907e-007    -9.4349e-009    3.016e-009     
  -4.95           -3.518e-007     4.051e-010      -1.5963e-009   
  -5              -3.617e-007     4.979e-009      -1.6436e-009   
END_DB

BEGIN_DB
 ICCAP_VAR VG         -2             
 ICCAP_VAR VS         0              
 ICCAP_VAR VB         0              

 #VD              ID              IB              IG             
  0               -3.2186e-007    -7.446e-009     2.869e-009     
  -0.05           -2.5558e-005    -6.903e-009     -1.658e-009    
  -0.1            -5.0095e-005    -4.606e-009     2.0338e-009    
  -0.15           -7.3862e-005    -9.224e-009     1.522e-009     
  -0.2            -9.6868e-005    -9.581e-009     1.382e-009     
  -0.25           -0.00011896     -9.79e-009      1.839e-009     
  -0.3            -0.00014023     -9.053e-009     1.4121e-009    
  -0.35           -0.00016049     -5.202e-009     1.9525e-009    
  -0.4            -0.00017975     -8.954e-009     1.4371e-009    
  -0.45           -0.00019801     -1.2227e-008    3.3707e-009    
  -0.5            -0.00021503     -9.431e-009     1.3927e-009    
  -0.55           -0.0002308      -6.537e-009     1.7893e-009    
  -0.6            -0.00024544     -8.989e-009     1.4102e-009    
  -0.65           -0.0002586      -5.346e-009     1.9136e-009    
  -0.7            -0.00027048     -9.222e-009     1.4317e-009    
  -0.75           -0.00028088     -4.531e-009     2.0612e-009    
  -0.8            -0.00028994     -9.213e-009     1.4617e-009    
  -0.85           -0.00029789     -1.1338e-008    1.3359e-009    
  -0.9            -0.00030433     -9.151e-009     1.4997e-009    
  -0.95           -0.00031002     -1.0521e-008    1.3505e-009    
  -1              -0.00031448     -8.869e-009     1.555e-009     
  -1.05           -0.00031849     -1.0242e-008    1.3658e-009    
  -1.1            -0.00032171     -8.242e-009     1.6231e-009    
  -1.15           -0.00032451     -9.636e-009     1.3804e-009    
  -1.2            -0.0003269      -7.457e-009     1.7094e-009    
  -1.25           -0.00032893     -9.232e-009     1.395e-009     
  -1.3            -0.00033076     -6.105e-009     1.8152e-009    
  -1.35           -0.00033245     -9.051e-009     1.4144e-009    
  -1.4            -0.00033382     -5.193e-009     1.9367e-009    
  -1.45           -0.00033522     -8.907e-009     1.4377e-009    
  -1.5            -0.00033638     -4.385e-009     2.0804e-009    
  -1.55           -0.00033758     -9.182e-009     1.469e-009     
  -1.6            -0.0003388      -1.1221e-008    3.412e-009     
  -1.65           -0.00033972     -8.972e-009     1.4094e-009    
  -1.7            -0.00034059     -5.322e-009     1.9148e-009    
  -1.75           -0.00034159     -9.063e-009     1.4296e-009    
  -1.8            -0.00034233     -4.619e-009     2.0497e-009    
  -1.85           -0.00034315     -9.09e-009      1.4608e-009    
  -1.9            -0.00034419     -1.1515e-008    1.3326e-009    
  -1.95           -0.00034474     -9.204e-009     1.502e-009     
  -2              -0.00034568     -1.0816e-008    1.3498e-009    
  -2.05           -0.00034615     -8.923e-009     1.551e-009     
  -2.1            -0.00034692     -1.0072e-008    1.3624e-009    
  -2.15           -0.00034741     -8.035e-009     1.618e-009     
  -2.2            -0.00034817     -9.69e-009      1.3793e-009    
  -2.25           -0.00034872     -7.272e-009     1.7045e-009    
  -2.3            -0.00034934     -9.308e-009     1.396e-009     
  -2.35           -0.00034987     -6.334e-009     1.8154e-009    
  -2.4            -0.00035055     -8.988e-009     1.4153e-009    
  -2.45           -0.00035104     -5.269e-009     1.9369e-009    
  -2.5            -0.00035166     -9.195e-009     1.4387e-009    
  -2.55           -0.0003521      -4.468e-009     2.084e-009     
  -2.6            -0.00035267     -8.997e-009     1.4695e-009    
  -2.65           -0.0003535      -1.1163e-008    1.3387e-009    
  -2.7            -0.00035383     -9.137e-009     1.5125e-009    
  -2.75           -0.00035445     -1.0578e-008    1.3511e-009    
  -2.8            -0.00035471     -8.741e-009     1.5679e-009    
  -2.85           -0.00035527     -1.0003e-008    1.367e-009     
  -2.9            -0.00035564     -8.097e-009     1.6385e-009    
  -2.95           -0.00035605     -9.596e-009     1.3844e-009    
  -3              -0.00035641     -6.864e-009     1.7271e-009    
  -3.05           -0.00035691     -9.209e-009     1.3985e-009    
  -3.1            -0.00035732     -6.013e-009     1.8346e-009    
  -3.15           -0.00035774     -9.054e-009     1.4214e-009    
  -3.2            -0.00035807     -5.023e-009     1.9592e-009    
  -3.25           -0.00035864     -9.143e-009     1.4478e-009    
  -3.3            -0.00035914     -1.2284e-008    3.3792e-009    
  -3.35           -0.00035938     -9.258e-009     1.3957e-009    
  -3.4            -0.00035962     -6.225e-009     1.8059e-009    
  -3.45           -0.00036007     -8.99e-009      1.4146e-009    
  -3.5            -0.00036036     -5.266e-009     1.9353e-009    
  -3.55           -0.00036072     -8.919e-009     1.4389e-009    
  -3.6            -0.00036134     -1.2365e-008    3.3652e-009    
  -3.65           -0.00036141     -9.539e-009     1.3922e-009    
  -3.7            -0.00036163     -6.461e-009     1.7882e-009    
  -3.75           -0.00036223     -9.203e-009     1.4111e-009    
  -3.8            -0.00036233     -5.434e-009     1.9025e-009    
  -3.85           -0.00036278     -9.235e-009     1.435e-009     
  -3.9            -0.00036305     -4.665e-009     2.0501e-009    
  -3.95           -0.00036343     -9.023e-009     1.4653e-009    
  -4              -0.00036395     -1.174e-008     3.3985e-009    
  -4.05           -0.00036416     -9.117e-009     1.4061e-009    
  -4.1            -0.00036435     -5.613e-009     1.8858e-009    
  -4.15           -0.00036468     -8.893e-009     1.4294e-009    
