! VERSION = 6.00
BEGIN_HEADER
 ICCAP_INPUTS
  VG         V  B GROUND SMU4 0.001 LIN        2    0          -5         6    -1        
  VS         V  E GROUND SMU3 0.1 CON        0
  VD         V  S GROUND SMU2 0.1 LIN        1    0          -10        201  -0.05     
  VB         V  C GROUND SMU1 0.1 LIN        3    0          2.5        2    2.5       
 ICCAP_OUTPUTS
  ID         I  S GROUND SMU2 B
  IB         I  C GROUND SMU1 B
  IG         I  B GROUND SMU4 B
END_HEADER

BEGIN_DB
 ICCAP_VAR VG         0              
 ICCAP_VAR VS         0              
 ICCAP_VAR VB         0              

 #VD              ID              IB              IG             
  0               2.1313e-009     -1.4439e-009    1.3878e-009    
  -0.05           2.1948e-009     3.0734e-009     -1.7426e-009   
  -0.1            -2.3912e-009    -4.174e-010     -7.502e-010    
  -0.15           2.3001e-009     -3.8042e-009    1.0006e-009    
  -0.2            -2.1142e-009    2.1855e-009     -1.1717e-009   
  -0.25           2.3455e-009     -3.8241e-009    8.912e-010     
  -0.3            -2.2513e-009    2.9216e-009     -1.0283e-009   
  -0.35           2.0011e-009     -3.7827e-009    1.3136e-009    
  -0.4            -2.3433e-009    2.6739e-009     -9.083e-010    
  -0.45           2.1439e-009     -3.7666e-009    1.1618e-009    
  -0.5            -2.3792e-009    2.4627e-009     -7.923e-010    
  -0.55           2.2661e-009     -3.7938e-009    1.0417e-009    
  -0.6            -2.0615e-009    2.2615e-009     -1.2366e-009   
  -0.65           2.3347e-009     -3.8184e-009    9.321e-010     
  -0.7            -2.205e-009     3.0336e-009     -1.0753e-009   
  -0.75           1.9439e-009     -3.8085e-009    1.3809e-009    
  -0.8            -2.3179e-009    2.7557e-009     -9.501e-010    
  -0.85           2.0959e-009     -3.6737e-009    1.2132e-009    
  -0.9            -2.3684e-009    2.5398e-009     -8.354e-010    
  -0.95           2.2243e-009     -3.7715e-009    1.0808e-009    
  -1              -2.0058e-009    2.3391e-009     -1.3006e-009   
  -1.05           2.3155e-009     -3.8106e-009    9.729e-010     
  -1.1            -2.1525e-009    2.1246e-009     -1.1327e-009   
  -1.15           2.3523e-009     -3.8312e-009    8.643e-010     
  -1.2            -2.2795e-009    2.8581e-009     -9.967e-010    
  -1.25           2.039e-009      -3.7435e-009    1.2758e-009    
  -1.3            -2.3591e-009    2.6188e-009     -8.79e-010     
  -1.35           2.1772e-009     -3.7601e-009    1.1268e-009    
  -1.4            -1.9402e-009    2.4155e-009     -1.3738e-009   
  -1.45           -7.187e-010     -3.7967e-009    1.7088e-009    
  -1.5            2.3786e-009     1.3706e-009     7.671e-010     
  -1.55           -2.3533e-009    2.6477e-009     -8.947e-010    
  -1.6            2.1611e-009     -3.768e-009     1.145e-009     
  -1.65           -2.3802e-009    2.4476e-009     -7.831e-010    
  -1.7            2.2769e-009     -3.7977e-009    1.0293e-009    
  -1.75           -2.0762e-009    2.2435e-009     -1.2181e-009   
  -1.8            2.3397e-009     -3.8126e-009    9.232e-010     
  -1.85           -2.2175e-009    3.001e-009      -1.0629e-009   
  -1.9            1.9561e-009     -3.7926e-009    1.3606e-009    
  -1.95           -2.3265e-009    2.7396e-009     -9.423e-010    
  -2              2.1038e-009     -3.6585e-009    1.1986e-009    
  -2.05           -2.3699e-009    2.5229e-009     -8.248e-010    
  -2.1            2.233e-009      -3.7742e-009    1.0723e-009    
  -2.15           -2.0157e-009    2.3228e-009     -1.2877e-009   
  -2.2            2.3188e-009     -3.8197e-009    9.662e-010     
  -2.25           -2.1599e-009    2.1184e-009     -1.1224e-009   
  -2.3            2.3549e-009     -3.8221e-009    8.588e-010     
  -2.35           -2.2862e-009    2.8355e-009     -9.894e-010    
  -2.4            2.0453e-009     -3.7227e-009    1.2681e-009    
  -2.45           -2.3591e-009    2.6119e-009     -8.742e-010    
  -2.5            2.1808e-009     -3.7846e-009    1.1242e-009    
  -2.55           -1.9442e-009    2.4155e-009     -1.3681e-009   
  -2.6            2.2904e-009     -3.777e-009     1.01e-009      
  -2.65           -2.1023e-009    2.2059e-009     -1.1925e-009   
  -2.7            2.3429e-009     -3.8165e-009    9.079e-010     
  -2.75           -2.2398e-009    2.9596e-009     -1.0443e-009   
  -2.8            1.979e-009      -3.8129e-009    1.3368e-009    
  -2.85           -2.3377e-009    2.7034e-009     -9.223e-010    
  -2.9            2.1277e-009     -3.7616e-009    1.1825e-009    
  -2.95           -2.3756e-009    2.4948e-009     -8.103e-010    
  -3              2.2527e-009     -3.7632e-009    1.0585e-009    
  -3.05           -2.0352e-009    2.2937e-009     -1.2634e-009   
  -3.1            2.3263e-009     -3.8206e-009    9.521e-010     
  -3.15           -2.1783e-009    3.0868e-009     -1.1057e-009   
  -3.2            1.9071e-009     -3.8248e-009    1.4114e-009    
  -3.25           -2.2987e-009    2.81e-009       -9.743e-010    
  -3.3            2.0607e-009     -3.7507e-009    1.2504e-009    
  -3.35           -2.3641e-009    2.5899e-009     -8.635e-010    
  -3.4            2.1971e-009     -3.7584e-009    1.1114e-009    
  -3.45           -1.9635e-009    2.3908e-009     -1.3434e-009   
  -3.5            2.2999e-009     -3.7981e-009    1.0004e-009    
  -3.55           -2.1142e-009    2.1902e-009     -1.1738e-009   
  -3.6            2.3482e-009     -3.8258e-009    8.939e-010     
  -3.65           -2.2452e-009    2.9275e-009     -1.0338e-009   
  -3.7            1.9923e-009     -3.775e-009     1.3242e-009    
  -3.75           -2.3416e-009    2.6936e-009     -9.146e-010    
  -3.8            2.1367e-009     -3.7708e-009    1.1728e-009    
  -3.85           -2.3785e-009    2.4816e-009     -8.022e-010    
  -3.9            2.2568e-009     -3.7777e-009    1.0494e-009    
  -3.95           -2.0412e-009    2.2906e-009     -1.2543e-009   
  -4              2.3305e-009     -3.8185e-009    9.488e-010     
  -4.05           -2.1864e-009    3.0735e-009     -1.0985e-009   
  -4.1            1.9213e-009     -3.8234e-009    1.4018e-009    
  -4.15           -2.3043e-009    2.8014e-009     -9.7e-010      
  -4.2            2.0678e-009     -3.7241e-009    1.2398e-009    
  -4.25           -2.3656e-009    2.5813e-009     -8.587e-010    
  -4.3            2.2002e-009     -3.7651e-009    1.1068e-009    
  -4.35           -1.9715e-009    2.3851e-009     -1.3404e-009   
  -4.4            2.3024e-009     -3.7916e-009    9.951e-010     
  -4.45           -2.1178e-009    2.1801e-009     -1.1693e-009   
  -4.5            2.3448e-009     -3.8223e-009    8.941e-010     
  -4.55           -2.2523e-009    2.9227e-009     -1.0284e-009   
  -4.6            2.0002e-009     -3.7863e-009    1.3158e-009    
  -4.65           -2.3445e-009    2.6803e-009     -9.126e-010    
  -4.7            2.1392e-009     -3.7727e-009    1.1703e-009    
  -4.75           -2.3777e-009    2.4776e-009     -8.022e-010    
  -4.8            2.2619e-009     -3.7731e-009    1.047e-009     
  -4.85           -2.0488e-009    2.2759e-009     -1.2463e-009   
  -4.9            2.3321e-009     -3.8029e-009    9.432e-010     
  -4.95           -2.193e-009     3.0628e-009     -1.0924e-009   
  -5              1.9162e-009     -3.8199e-009    1.398e-009     
  -5.05           -2.3065e-009    2.7962e-009     -9.679e-010    
  -5.1            2.0762e-009     -3.725e-009     1.2328e-009    
  -5.15           -2.3684e-009    2.5758e-009     -8.55e-010     
  -5.2            2.2084e-009     -3.7658e-009    1.0994e-009    
  -5.25           -1.9723e-009    2.3771e-009     -1.3332e-009   
  -5.3            2.3065e-009     -3.7873e-009    9.936e-010     
  -5.35           -2.1224e-009    2.1785e-009     -1.1631e-009   
  -5.4            2.3491e-009     -3.8237e-009    8.909e-010     
  -5.45           -2.2579e-009    2.911e-009      -1.0264e-009   
  -5.5            2.0007e-009     -3.7825e-009    1.3135e-009    
  -5.55           -2.3487e-009    2.6734e-009     -9.081e-010    
  -5.6            2.143e-009      -3.759e-009     1.1618e-009    
  -5.65           -2.376e-009     2.4752e-009     -7.982e-010    
  -5.7            2.2648e-009     -3.7738e-009    1.0425e-009    
  -5.75           -2.0516e-009    2.2788e-009     -1.243e-009    
  -5.8            2.3319e-009     -3.8235e-009    9.4e-010       
  -5.85           -2.1943e-009    3.0558e-009     -1.0913e-009   
  -5.9            1.9206e-009     -3.8167e-009    1.3955e-009    
  -5.95           -2.311e-009     2.7912e-009     -9.639e-010    
  -6              2.0771e-009     -3.7089e-009    1.2332e-009    
  -6.05           -2.3704e-009    2.5725e-009     -8.529e-010    
  -6.1            2.208e-009      -3.7721e-009    1.104e-009     
  -6.15           -1.9753e-009    2.3753e-009     -1.3388e-009   
  -6.2            2.3065e-009     -3.7949e-009    9.956e-010     
  -6.25           -2.124e-009     2.1781e-009     -1.1662e-009   
  -6.3            2.3454e-009     -3.82e-009      8.938e-010     
  -6.35           -2.2575e-009    2.9275e-009     -1.0247e-009   
  -6.4            1.9997e-009     -3.7938e-009    1.3174e-009    
  -6.45           -2.3488e-009    2.6738e-009     -9.124e-010    
  -6.5            2.1426e-009     -3.7654e-009    1.1686e-009    
  -6.55           -2.3781e-009    2.4761e-009     -7.977e-010    
  -6.6            2.2644e-009     -3.7814e-009    1.0449e-009    
  -6.65           -2.051e-009     2.2841e-009     -1.2491e-009   
  -6.7            2.3306e-009     -3.8155e-009    9.422e-010     
  -6.75           -2.1931e-009    3.0662e-009     -1.0948e-009   
  -6.8            1.9211e-009     -3.8323e-009    1.3993e-009    
  -6.85           -2.3064e-009    2.8017e-009     -9.711e-010    
  -6.9            2.0746e-009     -3.727e-009     1.2406e-009    
  -6.95           -2.3715e-009    2.5851e-009     -8.566e-010    
  -7              2.2023e-009     -3.77e-009      1.1128e-009    
  -7.05           -1.9688e-009    2.387e-009      -1.3443e-009   
  -7.1            2.3062e-009     -3.7981e-009    9.973e-010     
  -7.15           -2.1198e-009    2.1801e-009     -1.1728e-009   
  -7.2            2.3475e-009     -3.8223e-009    8.976e-010     
  -7.25           -2.2494e-009    2.9316e-009     -1.0315e-009   
  -7.3            1.9922e-009     -3.7811e-009    1.3253e-009    
  -7.35           -2.3473e-009    2.6934e-009     -9.172e-010    
  -7.4            2.1316e-009     -3.7592e-009    1.1762e-009    
  -7.45           -2.3731e-009    2.4803e-009     -8.063e-010    
  -7.5            2.2555e-009     -3.7763e-009    1.0521e-009    
  -7.55           -2.0387e-009    2.2903e-009     -1.2538e-009   
  -7.6            2.329e-009      -3.8267e-009    9.524e-010     
  -7.65           -2.1828e-009    3.0838e-009     -1.1011e-009   
  -7.7            2.3585e-009     -3.8296e-009    8.428e-010     
  -7.75           -2.2988e-009    2.8044e-009     -9.763e-010    
  -7.8            2.0639e-009     -3.7136e-009    1.2467e-009    
  -7.85           -2.3679e-009    2.5936e-009     -8.619e-010    
  -7.9            2.1961e-009     -3.7704e-009    1.1159e-009    
  -7.95           -1.9621e-009    2.3948e-009     -1.3515e-009   
  -8              2.3011e-009     -3.8015e-009    1.0057e-009    
  -8.05           -2.1102e-009    2.1878e-009     -1.1811e-009   
  -8.1            2.343e-009      -3.8233e-009    9.02e-010      
  -8.15           -2.2457e-009    2.9442e-009     -1.038e-009    
  -8.2            1.9882e-009     -3.8158e-009    1.3326e-009    
  -8.25           -2.3433e-009    2.6942e-009     -9.231e-010    
  -8.3            2.1296e-009     -3.7644e-009    1.1832e-009    
  -8.35           -2.3722e-009    2.4967e-009     -8.121e-010    
  -8.4            2.2503e-009     -3.7803e-009    1.0591e-009    
  -8.45           -2.0331e-009    2.2993e-009     -1.2672e-009   
  -8.5            2.3252e-009     -3.8204e-009    9.581e-010     
  -8.55           -2.1756e-009    3.0937e-009     -1.1082e-009   
  -8.6            2.3609e-009     -3.822e-009     8.506e-010     
  -8.65           -2.2937e-009    2.8291e-009     -9.828e-010    
  -8.7            2.0517e-009     -3.7298e-009    1.2556e-009    
  -8.75           -2.3657e-009    2.5997e-009     -8.672e-010    
  -8.8            2.1912e-009     -3.7716e-009    1.1209e-009    
  -8.85           -1.9498e-009    2.406e-009      -1.3637e-009   
  -8.9            -7.184e-010     -3.7962e-009    1.7096e-009    
  -8.95           2.3819e-009     1.3681e-009     7.654e-010     
  -9              -2.3587e-009    2.6492e-009     -8.929e-010    
  -9.05           2.1615e-009     -3.7689e-009    1.1499e-009    
  -9.1            -2.3811e-009    2.4545e-009     -7.858e-010    
  -9.15           2.2769e-009     -3.7846e-009    1.035e-009     
  -9.2            -2.0693e-009    2.2569e-009     -1.2315e-009   
  -9.25           2.3393e-009     -3.823e-009     9.33e-010      
  -9.3            -2.2041e-009    3.0361e-009     -1.0759e-009   
  -9.35           1.9385e-009     -3.827e-009     1.3883e-009    
  -9.4            -2.3175e-009    2.7692e-009     -9.575e-010    
  -9.45           2.0851e-009     -3.7094e-009    1.2206e-009    
  -9.5            -2.369e-009     2.5619e-009     -8.481e-010    
  -9.55           2.2164e-009     -3.7588e-009    1.0974e-009    
  -9.6            -1.9832e-009    2.3613e-009     -1.3213e-009   
  -9.65           2.307e-009      -3.8158e-009    9.886e-010     
  -9.7            -2.1326e-009    2.1612e-009     -1.1591e-009   
  -9.75           2.3472e-009     -3.8289e-009    8.85e-010      
  -9.8            -2.2602e-009    2.907e-009      -1.0219e-009   
  -9.85           2.0078e-009     -3.7728e-009    1.3085e-009    
  -9.9            -2.3542e-009    2.6756e-009     -9.053e-010    
  -9.95           2.1478e-009     -3.7651e-009    1.1648e-009    
  -10             -2.3843e-009    2.4698e-009     -7.999e-010    
END_DB

BEGIN_DB
 ICCAP_VAR VG         -1             
 ICCAP_VAR VS         0              
 ICCAP_VAR VB         0              

 #VD              ID              IB              IG             
  0               1.1305e-008     3.3222e-009     -3.446e-010    
  -0.05           -1.5333e-007    -3.4879e-009    -1.7207e-009   
  -0.1            -1.8837e-007    3.8021e-009     -1.7098e-009   
  -0.15           -1.9897e-007    3.7738e-009     -1.6947e-009   
  -0.2            -2.0472e-007    3.7168e-009     -1.6665e-009   
  -0.25           -2.0931e-007    3.6319e-009     -1.6204e-009   
  -0.3            -2.1348e-007    3.5269e-009     -1.7476e-009   
  -0.35           -2.1879e-007    3.82e-009       -1.7296e-009   
  -0.4            -2.2201e-007    3.8091e-009     -1.719e-009    
  -0.45           -2.2502e-007    3.8017e-009     -1.7051e-009   
  -0.5            -2.2778e-007    3.7636e-009     -1.6901e-009   
  -0.55           -2.3045e-007    3.6923e-009     -1.6537e-009   
  -0.6            -2.3314e-007    3.6008e-009     -1.6042e-009   
  -0.65           -2.3589e-007    3.4932e-009     -1.7428e-009   
  -0.7            -2.3989e-007    3.8116e-009     -1.7255e-009   
  -0.75           -2.4214e-007    3.8047e-009     -1.7153e-009   
  -0.8            -2.4416e-007    3.7893e-009     -1.7018e-009   
  -0.85           -2.4615e-007    3.7427e-009     -1.6806e-009   
  -0.9            -2.482e-007     3.6683e-009     -1.6418e-009   
  -0.95           -2.5029e-007    3.5756e-009     -1.7596e-009   
  -1              -2.5413e-007    3.8259e-009     -1.7358e-009   
  -1.05           -2.5604e-007    3.8117e-009     -1.7237e-009   
  -1.1            -2.577e-007     3.8073e-009     -1.711e-009    
  -1.15           -2.5933e-007    3.7839e-009     -1.6973e-009   
  -1.2            -2.6088e-007    3.7291e-009     -1.6724e-009   
  -1.25           -2.6262e-007    3.6422e-009     -1.6259e-009   
  -1.3            -2.6436e-007    3.5439e-009     -1.7517e-009   
  -1.35           -2.6792e-007    3.822e-009      -1.7295e-009   
  -1.4            -2.694e-007     3.8076e-009     -1.7181e-009   
  -1.45           -2.7082e-007    3.8029e-009     -1.708e-009    
  -1.5            -2.7208e-007    3.7702e-009     -1.694e-009    
  -1.55           -2.7335e-007    3.7071e-009     -1.6603e-009   
  -1.6            -2.7477e-007    3.6176e-009     -1.6123e-009   
  -1.65           -2.764e-007     3.5123e-009     -1.7412e-009   
  -1.7            -2.7957e-007    3.8114e-009     -1.7239e-009   
  -1.75           -2.8082e-007    3.8084e-009     -1.7169e-009   
  -1.8            -2.8187e-007    3.7992e-009     -1.706e-009    
  -1.85           -2.8284e-007    3.7593e-009     -1.686e-009    
  -1.9            -2.8401e-007    3.6813e-009     -1.6489e-009   
  -1.95           -2.8528e-007    3.5857e-009     -1.5952e-009   
  -2              -2.8694e-007    3.4774e-009     -1.7366e-009   
  -2.05           -2.8965e-007    3.8079e-009     -1.7203e-009   
  -2.1            -2.9068e-007    3.8089e-009     -1.7118e-009   
  -2.15           -2.9149e-007    3.7891e-009     -1.6995e-009   
  -2.2            -2.9234e-007    3.7358e-009     -1.6756e-009   
  -2.25           -2.9324e-007    3.6545e-009     -1.6327e-009   
  -2.3            -2.9445e-007    3.5576e-009     -1.7498e-009   
  -2.35           -2.975e-007     3.8223e-009     -1.7295e-009   
  -2.4            -2.9847e-007    3.8039e-009     -1.7186e-009   
  -2.45           -2.9921e-007    3.8073e-009     -1.7093e-009   
  -2.5            -2.9986e-007    3.7781e-009     -1.6953e-009   
  -2.55           -3.0064e-007    3.7139e-009     -1.665e-009    
  -2.6            -3.0141e-007    3.6298e-009     -1.6159e-009   
  -2.65           -3.0265e-007    3.5264e-009     -1.7447e-009   
  -2.7            -3.0549e-007    3.8163e-009     -1.7259e-009   
  -2.75           -3.062e-007     3.8087e-009     -1.7164e-009   
  -2.8            -3.0688e-007    3.7988e-009     -1.7045e-009   
  -2.85           -3.0747e-007    3.7603e-009     -1.6866e-009   
  -2.9            -3.0818e-007    3.6878e-009     -1.6505e-009   
  -2.95           -3.09e-007      3.6011e-009     -1.6008e-009   
  -3              -3.1024e-007    3.4872e-009     -1.7384e-009   
  -3.05           -3.1282e-007    3.8117e-009     -1.7219e-009   
  -3.1            -3.135e-007     3.8114e-009     -1.715e-009    
  -3.15           -3.1412e-007    3.7903e-009     -1.7018e-009   
  -3.2            -3.1471e-007    3.7433e-009     -1.6786e-009   
  -3.25           -3.1539e-007    3.6675e-009     -1.6376e-009   
  -3.3            -3.1637e-007    3.568e-009      -1.7554e-009   
  -3.35           -3.1939e-007    3.827e-009      -1.7324e-009   
  -3.4            -3.2006e-007    3.8082e-009     -1.719e-009    
  -3.45           -3.2066e-007    3.8058e-009     -1.7101e-009   
  -3.5            -3.2122e-007    3.7811e-009     -1.6972e-009   
  -3.55           -3.2174e-007    3.7247e-009     -1.6667e-009   
  -3.6            -3.2262e-007    3.635e-009      -1.6215e-009   
  -3.65           -3.2373e-007    3.5358e-009     -1.7474e-009   
  -3.7            -3.2645e-007    3.8166e-009     -1.7261e-009   
  -3.75           -3.2714e-007    3.8067e-009     -1.717e-009    
  -3.8            -3.2765e-007    3.8037e-009     -1.7066e-009   
  -3.85           -3.2827e-007    3.7667e-009     -1.6911e-009   
  -3.9            -3.2886e-007    3.695e-009      -1.658e-009    
  -3.95           -3.2959e-007    3.6064e-009     -1.6081e-009   
  -4              -3.307e-007     3.5028e-009     -1.7413e-009   
  -4.05           -3.3338e-007    3.8147e-009     -1.7228e-009   
  -4.1            -3.3401e-007    3.8042e-009     -1.7123e-009   
  -4.15           -3.3459e-007    3.7966e-009     -1.7023e-009   
  -4.2            -3.3504e-007    3.7486e-009     -1.6835e-009   
  -4.25           -3.3571e-007    3.674e-009      -1.6438e-009   
  -4.3            -3.3651e-007    3.5792e-009     -1.591e-009    
  -4.35           -3.377e-007     3.4696e-009     -1.7329e-009   
