! VERSION = 6.00
BEGIN_HEADER
 ICCAP_INPUTS
  VG         V  B GROUND SMU4 0.001 LIN        1    0          -5         101  -0.05     
  VS         V  E GROUND SMU2 0.1 CON        0
  VB         V  C GROUND SMU3 0.1 LIN        3    0          5          3    2.5       
  VD         V  S GROUND SMU1 0.1 LIN        2    -0.1       -5         2    -4.9      
 ICCAP_OUTPUTS
  IG         I  B GROUND SMU4 B
  ID         I  S GROUND SMU1 B
  IB         I  C GROUND SMU3 B
END_HEADER

BEGIN_DB
 ICCAP_VAR VS         0              
 ICCAP_VAR VB         0              
 ICCAP_VAR VD         -0.1           

 #VG              IG              ID              IB             
  0               8.78e-011       -1.5853e-009    -1.0281e-008   
  -0.05           1.6427e-009     2.7244e-009     -5.587e-009    
  -0.1            -1.9262e-009    4.992e-010      8.438e-009     
  -0.15           -1.8325e-009    6.948e-010      8.661e-009     
  -0.2            -2.8888e-009    -1.4933e-009    4.946e-009     
  -0.25           1.6569e-009     7.28e-011       -1.3963e-008   
  -0.3            1.626e-009      -8.67e-011      -1.8561e-008   
  -0.35           1.5686e-009     -2.892e-010     -2.2682e-008   
  -0.4            1.4873e-009     -4.995e-010     -2.4353e-008   
  -0.45           1.7194e-009     2.6571e-009     -6.564e-009    
  -0.5            -1.8953e-009    5.644e-010      8.403e-009     
  -0.55           -1.808e-009     7.553e-010      8.745e-009     
  -0.6            -2.9636e-009    -1.4847e-009    4.862e-009     
  -0.65           1.6531e-009     1.8e-012        -1.5209e-008   
  -0.7            1.6119e-009     -1.995e-010     -2.0109e-008   
  -0.75           1.5457e-009     -5.864e-010     -2.3668e-008   
  -0.8            3.6395e-009     -1.4524e-009    -2.38e-008     
  -0.85           3.2695e-009     -2.5751e-009    -3.952e-009    
  -0.9            -3.0287e-009    -1.4293e-008    -2.4177e-008   
  -0.95           1.5636e-009     -4.8256e-008    -1.6471e-008   
  -1              4.496e-010      -1.6907e-007    4.909e-009     
  -1.05           1.6264e-009     -4.8965e-007    -1.2774e-008   
  -1.1            3.0902e-009     -1.1751e-006    7.735e-009     
  -1.15           -1.7907e-009    -2.3898e-006    8.296e-009     
  -1.2            -2.1649e-009    -4.2049e-006    4.97e-009      
  -1.25           1.5691e-009     -6.542e-006     -1.6401e-008   
  -1.3            3.2544e-009     -9.0091e-006    -2.4158e-008   
  -1.35           1.3824e-009     -1.1455e-005    -2.3289e-008   
  -1.4            -1.9206e-009    -1.3829e-005    7.512e-009     
  -1.45           -2.7184e-009    -1.6154e-005    8.606e-009     
  -1.5            1.67e-009       -1.843e-005     -1.0649e-008   
  -1.55           1.6024e-009     -2.0506e-005    -1.4921e-008   
  -1.6            3.4295e-009     -2.2458e-005    -2.4158e-008   
  -1.65           2.3467e-009     -2.4316e-005    -5.769e-009    
  -1.7            1.7216e-009     -2.6103e-005    -1.0707e-008   
  -1.75           1.6556e-009     -2.781e-005     -1.177e-008    
  -1.8            1.4901e-009     -2.9439e-005    -2.1114e-008   
  -1.85           2.1685e-009     -3.1015e-005    -6.704e-009    
  -1.9            1.6862e-009     -3.2522e-005    -1.0978e-008   
  -1.95           1.6339e-009     -3.3979e-005    -1.281e-008    
  -2              3.602e-009      -3.5365e-005    -2.2846e-008   
  -2.05           2.6004e-009     -3.67e-005      -4.262e-009    
  -2.1            1.7968e-009     -3.8006e-005    -1.015e-008    
  -2.15           1.6673e-009     -3.927e-005     -1.0198e-008   
  -2.2            1.5506e-009     -4.0484e-005    -1.8813e-008   
  -2.25           2.3763e-009     -4.165e-005     -5.512e-009    
  -2.3            1.7145e-009     -4.2801e-005    -1.0888e-008   
  -2.35           1.6403e-009     -4.3914e-005    -1.116e-008    
  -2.4            1.4966e-009     -4.4975e-005    -2.078e-008    
  -2.45           2.1981e-009     -4.6017e-005    -6.441e-009    
  -2.5            1.6775e-009     -4.704e-005     -1.105e-008    
  -2.55           1.6358e-009     -4.8037e-005    -1.2392e-008   
  -2.6            3.6472e-009     -4.8987e-005    -2.2628e-008   
  -2.65           2.6815e-009     -4.9919e-005    -4.088e-009    
  -2.7            1.8189e-009     -5.0836e-005    -9.759e-009    
  -2.75           1.6741e-009     -5.1728e-005    -1.0112e-008   
  -2.8            1.5697e-009     -5.2593e-005    -1.7987e-008   
  -2.85           3.1999e-009     -5.3425e-005    -2.4128e-008   
  -2.9            2.0908e-009     -5.4259e-005    -7.447e-009    
  -2.95           1.6835e-009     -5.5067e-005    -1.0922e-008   
  -3              1.6413e-009     -5.5864e-005    -1.3365e-008   
  -3.05           3.5779e-009     -5.6616e-005    -2.3702e-008   
  -3.1            2.5097e-009     -5.7371e-005    -5.002e-009    
  -3.15           1.7602e-009     -5.8109e-005    -1.0491e-008   
  -3.2            1.6796e-009     -5.8826e-005    -1.076e-008    
  -3.25           1.5426e-009     -5.9527e-005    -2.006e-008    
  -3.3            2.3197e-009     -6.0214e-005    -5.929e-009    
  -3.35           1.7188e-009     -6.0891e-005    -1.1076e-008   
  -3.4            1.6729e-009     -6.1555e-005    -1.164e-008    
  -3.45           1.5107e-009     -6.2186e-005    -2.1848e-008   
  -3.5            2.1483e-009     -6.2829e-005    -7.072e-009    
  -3.55           1.6991e-009     -6.3448e-005    -1.1047e-008   
  -3.6            1.6605e-009     -6.4061e-005    -1.2967e-008   
  -3.65           3.6363e-009     -6.4638e-005    -2.3455e-008   
  -3.7            2.5963e-009     -6.5221e-005    -4.612e-009    
  -3.75           1.7923e-009     -6.5808e-005    -1.0412e-008   
  -3.8            1.6845e-009     -6.6372e-005    -1.0407e-008   
  -3.85           1.557e-009      -6.6916e-005    -1.932e-008    
  -3.9            2.3943e-009     -6.7454e-005    -5.674e-009    
  -3.95           1.7354e-009     -6.7989e-005    -1.0972e-008   
  -4              1.6846e-009     -6.8506e-005    -1.1399e-008   
  -4.05           1.5225e-009     -6.9013e-005    -2.124e-008    
  -4.1            2.2176e-009     -6.9513e-005    -6.592e-009    
  -4.15           1.7112e-009     -7.0006e-005    -1.1154e-008   
  -4.2            1.6703e-009     -7.0492e-005    -1.2438e-008   
  -4.25           1.4831e-009     -7.0949e-005    -2.2922e-008   
  -4.3            2.0623e-009     -7.1426e-005    -8.043e-009    
  -4.35           1.7001e-009     -7.1882e-005    -1.0759e-008   
  -4.4            1.6481e-009     -7.2328e-005    -1.3986e-008   
  -4.45           3.5673e-009     -7.2759e-005    -2.3954e-008   
  -4.5            2.4697e-009     -7.3202e-005    -5.451e-009    
  -4.55           1.7571e-009     -7.363e-005     -1.0654e-008   
  -4.6            1.693e-009      -7.4043e-005    -1.0952e-008   
  -4.65           1.5339e-009     -7.4447e-005    -2.0931e-008   
  -4.7            2.2689e-009     -7.4854e-005    -6.408e-009    
  -4.75           1.725e-009      -7.5252e-005    -1.1139e-008   
  -4.8            1.6781e-009     -7.5648e-005    -1.2241e-008   
  -4.85           3.7402e-009     -7.6012e-005    -2.2471e-008   
  -4.9            2.7395e-009     -7.6393e-005    -4.128e-009    
  -4.95           1.845e-009      -7.6772e-005    -9.834e-009    
  -5              1.6996e-009     -7.7144e-005    -1.0173e-008   
END_DB

BEGIN_DB
 ICCAP_VAR VS         0              
 ICCAP_VAR VB         0              
 ICCAP_VAR VD         -5             

 #VG              IG              ID              IB             
  0               -1.9782e-009    -1.4962e-009    -1.7071e-008   
  -0.05           3.5196e-009     -6.469e-010     -2.3311e-008   
  -0.1            1.5479e-009     2.7888e-009     -4.87e-009     
  -0.15           -1.9528e-009    4.242e-010      8.277e-009     
  -0.2            -1.8581e-009    6.135e-010      8.568e-009     
  -0.25           -1.7578e-009    8.044e-010      8.882e-009     
  -0.3            -1.9061e-009    -2.0856e-009    4.931e-009     
  -0.35           1.6543e-009     9.44e-011       -1.3082e-008   
  -0.4            1.6319e-009     -6.44e-011      -1.7767e-008   
  -0.45           1.5769e-009     -2.591e-010     -2.224e-008    
  -0.5            1.4983e-009     -4.713e-010     -2.4285e-008   
  -0.55           1.6794e-009     2.694e-009      -6.407e-009    
  -0.6            -1.9078e-009    5.226e-010      8.384e-009     
  -0.65           -1.8118e-009    6.89e-010       8.609e-009     
  -0.7            -2.9185e-009    -1.5924e-009    4.956e-009     
  -0.75           1.6526e-009     -3.935e-010     -1.4063e-008   
  -0.8            1.6244e-009     -1.8345e-009    -1.915e-008    
  -0.85           1.5626e-009     -7.1649e-009    -2.3226e-008   
  -0.9            -2.4056e-009    -2.7332e-008    -1.3106e-008   
  -0.95           3.1155e-009     -9.6219e-008    -2.4023e-008   
  -1              2.362e-010      -2.9863e-007    -1.256e-008    
  -1.05           -1.8089e-009    -8.2125e-007    8.209e-009     
  -1.1            -1.9281e-009    -1.8747e-006    -1.0149e-008   
  -1.15           1.6112e-009     -3.8147e-006    -1.3618e-008   
  -1.2            3.4898e-009     -6.5706e-006    -2.3863e-008   
  -1.25           2.4211e-009     -1.02284e-005   -5.052e-009    
  -1.3            -6.171e-010     -1.4897e-005    8.138e-009     
  -1.35           1.6594e-009     -2.0677e-005    -1.0231e-008   
  -1.4            1.5293e-009     -2.7428e-005    -1.9414e-008   
  -1.45           2.3579e-009     -3.502e-005     -5.414e-009    
  -1.5            1.7199e-009     -4.3671e-005    -1.0948e-008   
  -1.55           1.6527e-009     -5.3269e-005    -1.1376e-008   
  -1.6            1.4945e-009     -6.3823e-005    -2.1206e-008   
  -1.65           2.197e-009      -7.5093e-005    -6.571e-009    
  -1.7            1.6897e-009     -8.7395e-005    -1.1094e-008   
  -1.75           1.6355e-009     -0.000100582    -1.2379e-008   
  -1.8            -2.1521e-009    -0.0001139      -2.2731e-008   
  -1.85           1.545e-009      -0.00012942     -1.8123e-008   
  -1.9            3.1138e-009     -0.00014485     -2.3545e-008   
  -1.95           2.035e-009      -0.00016113     -7.693e-009    
  -2              1.6703e-009     -0.00017822     -1.0578e-008   
  -2.05           1.6163e-009     -0.00019616     -1.4049e-008   
  -2.1            3.491e-009      -0.00021456     -2.373e-008    
  -2.15           2.4198e-009     -0.00023357     -5.314e-009    
  -2.2            1.7383e-009     -0.00025341     -1.0764e-008   
  -2.25           1.6623e-009     -0.000274       -1.1077e-008   
  -2.3            1.5121e-009     -0.0002952      -2.0477e-008   
  -2.35           2.2353e-009     -0.00031672     -6.399e-009    
  -2.4            1.7058e-009     -0.00033915     -1.1086e-008   
  -2.45           1.6496e-009     -0.00036214     -1.2204e-008   
  -2.5            3.6724e-009     -0.00038574     -2.2183e-008   
  -2.55           2.6869e-009     -0.00040953     -4.079e-009    
  -2.6            1.8297e-009     -0.00043419     -9.632e-009    
  -2.65           1.6768e-009     -0.00045949     -1.0299e-008   
  -2.7            1.5586e-009     -0.00048528     -1.7903e-008   
  -2.75           3.1766e-009     -0.00051128     -2.3715e-008   
  -2.8            2.088e-009      -0.00053784     -7.527e-009    
  -2.85           1.6876e-009     -0.00056507     -1.0872e-008   
  -2.9            1.6346e-009     -0.00059286     -1.3412e-008   
  -2.95           3.5768e-009     -0.00062087     -2.3598e-008   
  -3              2.5059e-009     -0.00064912     -4.861e-009    
  -3.05           1.7693e-009     -0.00067806     -1.0497e-008   
  -3.1            1.6761e-009     -0.00070756     -1.0551e-008   
  -3.15           1.5442e-009     -0.00073744     -1.9965e-008   
  -3.2            2.3294e-009     -0.00076734     -5.617e-009    
  -3.25           1.7332e-009     -0.0007979      -1.0813e-008   
  -3.3            1.6744e-009     -0.00082895     -1.1614e-008   
  -3.35           1.5155e-009     -0.00086041     -2.1637e-008   
  -3.4            2.1757e-009     -0.00089181     -6.831e-009    
  -3.45           1.7016e-009     -0.00092381     -1.1037e-008   
  -3.5            1.6639e-009     -0.00095642     -1.2452e-008   
  -3.55           3.6548e-009     -0.00098911     -2.3224e-008   
  -3.6            2.6277e-009     -0.00102177     -4.29e-009     
  -3.65           1.7998e-009     -0.00105511     -1.0172e-008   
  -3.7            1.6863e-009     -0.00108896     -1.0217e-008   
  -3.75           1.5776e-009     -0.00112356     -1.8477e-008   
  -3.8            2.6772e-009     -0.0011566      8.014e-009     
  -3.85           1.8011e-009     -0.0011911      -1.0095e-008   
  -3.9            1.6888e-009     -0.001226       -1.0137e-008   
  -3.95           1.5772e-009     -0.0012612      -1.8348e-008   
  -4              3.144e-009      -0.0012961      -2.4049e-008   
  -4.05           2.0506e-009     -0.0013314      -7.761e-009    
  -4.1            1.6956e-009     -0.0013672      -1.0521e-008   
  -4.15           1.6515e-009     -0.0014036      -1.3572e-008   
  -4.2            3.5443e-009     -0.0014396      -2.4069e-008   
  -4.25           2.4426e-009     -0.0014757      -5.323e-009    
  -4.3            1.7585e-009     -0.0015121      -1.0483e-008   
  -4.35           1.6859e-009     -0.0015492      -1.0916e-008   
  -4.4            1.5435e-009     -0.0015861      -2.0911e-008   
  -4.45           2.2689e-009     -0.0016228      -5.92e-009     
  -4.5            1.7245e-009     -0.0016601      -1.1011e-008   
  -4.55           1.6782e-009     -0.0016972      -1.193e-008    
  -4.6            1.5022e-009     -0.0017348      -2.2482e-008   
  -4.65           2.1075e-009     -0.0017718      -7.17e-009     
  -4.7            1.7079e-009     -0.0018095      -1.0856e-008   
  -4.75           1.6588e-009     -0.0018474      -1.3013e-008   
  -4.8            3.6131e-009     -0.0018847      -2.3689e-008   
  -4.85           2.5271e-009     -0.0019215      -4.836e-009    
  -4.9            1.7836e-009     -0.0019589      -1.0402e-008   
  -4.95           1.6927e-009     -0.001996       -1.0794e-008   
  -5              1.5574e-009     -0.0020332      -2.0233e-008   
END_DB

BEGIN_DB
 ICCAP_VAR VS         0              
 ICCAP_VAR VB         2.5            
 ICCAP_VAR VD         -0.1           

 #VG              IG              ID              IB             
  0               -1.21e-011      -1.5432e-009    -1.0526e-008   
  -0.05           1.7929e-009     2.5856e-009     -7.23e-009     
  -0.1            -1.9054e-009    6.166e-010      8.251e-009     
  -0.15           -1.8175e-009    8.061e-010      8.716e-009     
  -0.2            -3.0281e-009    -1.4609e-009    4.775e-009     
  -0.25           1.6594e-009     -3.92e-011      -1.6382e-008   
  -0.3            1.6078e-009     -2.111e-010     -2.1067e-008   
  -0.35           1.5329e-009     -4.247e-010     -2.339e-008    
  -0.4            1.6616e-009     2.7129e-009     -5.749e-009    
  -0.45           -1.9599e-009    4.995e-010      8.014e-009     
  -0.5            -1.8635e-009    6.959e-010      8.405e-009     
  -0.55           -2.903e-009     -1.4826e-009    4.694e-009     
  -0.6            1.6769e-009     5.32e-011       -1.4324e-008   
  -0.65           1.6452e-009     -1.013e-010     -1.8773e-008   
  -0.7            1.589e-009      -2.941e-010     -2.2445e-008   
  -0.75           1.5086e-009     -5.036e-010     -2.358e-008    
  -0.8            1.747e-009      2.6445e-009     -6.584e-009    
  -0.85           -1.9335e-009    5.718e-010      8.133e-009     
  -0.9            -1.8435e-009    7.661e-010      8.602e-009     
  -0.95           -2.9855e-009    -1.4731e-009    4.756e-009     
  -1              1.679e-009      -7.7e-012       -1.5519e-008   
  -1.05           1.6381e-009     -1.588e-010     -2.0281e-008   
  -1.1            1.5663e-009     -3.742e-010     -2.3601e-008   
  -1.15           1.4803e-009     -5.898e-010     -2.353e-008    
  -1.2            1.8468e-009     2.5563e-009     -7.671e-009    
  -1.25           -1.893e-009     6.495e-010      8.268e-009     
  -1.3            -2.8576e-009    -1.5094e-009    4.72e-009      
  -1.35           1.6959e-009     3.63e-011       -1.3013e-008   
  -1.4            1.6799e-009     -4.136e-010     -1.7398e-008   
  -1.45           1.6207e-009     -1.9965e-009    -2.2215e-008   
  -1.5            1.5442e-009     -8.8116e-009    -2.4271e-008   
  -1.55           -2.3131e-009    -3.7396e-008    -1.1124e-008   
  -1.6            -2.77e-011      -1.4135e-007    -1.036e-008    
  -1.65           -1.9456e-009    -4.6387e-007    7.502e-009     
  -1.7            -1.9124e-009    -1.2022e-006    -1.0075e-008   
  -1.75           1.6605e-009     -2.5976e-006    -1.3224e-008   
  -1.8            3.623e-009      -4.4632e-006    -2.3894e-008   
  -1.85           2.5373e-009     -6.6754e-006    -4.971e-009    
  -1.9            1.7712e-009     -8.9658e-006    -1.0526e-008   
  -1.95           1.6923e-009     -1.12022e-005   -1.0589e-008   
  -2              -7.764e-010     -1.3222e-005    -1.0214e-008   
  -2.05           1.6964e-009     -1.5263e-005    -1.0145e-008   
  -2.1            1.5888e-009     -1.7124e-005    -1.8273e-008   
  -2.15           3.2238e-009     -1.8853e-005    -2.4454e-008   
  -2.2            2.083e-009      -2.0514e-005    -8.006e-009    
  -2.25           1.6944e-009     -2.2092e-005    -1.0841e-008   
  -2.3            1.651e-009      -2.3613e-005    -1.3745e-008   
  -2.35           3.5727e-009     -2.5051e-005    -2.4014e-008   
  -2.4            2.4823e-009     -2.6434e-005    -5.411e-009    
  -2.45           1.7535e-009     -2.7772e-005    -1.1161e-008   
  -2.5            1.6856e-009     -2.9059e-005    -1.1312e-008   
  -2.55           1.5421e-009     -3.0304e-005    -2.0733e-008   
  -2.6            2.266e-009      -3.1495e-005    -6.635e-009    
  -2.65           1.7139e-009     -3.2662e-005    -1.1273e-008   
  -2.7            1.6681e-009     -3.3799e-005    -1.232e-008    
  -2.75           3.6921e-009     -3.4882e-005    -2.2655e-008   
  -2.8            2.703e-009      -3.5935e-005    -4.177e-009    
  -2.85           1.8261e-009     -3.6966e-005    -1.0475e-008   
  -2.9            1.6902e-009     -3.7972e-005    -1.0569e-008   
  -2.95           1.5742e-009     -3.8944e-005    -1.875e-008    
  -3              2.463e-009      -3.9876e-005    -5.373e-009    
  -3.05           1.7542e-009     -4.0801e-005    -1.0918e-008   
  -3.1            1.681e-009      -4.1702e-005    -1.1309e-008   
  -3.15           1.5302e-009     -4.257e-005     -2.0984e-008   
  -3.2            2.2603e-009     -4.3417e-005    -6.788e-009    
  -3.25           1.7108e-009     -4.4257e-005    -1.1171e-008   
  -3.3            1.6635e-009     -4.5075e-005    -1.2606e-008   
  -3.35           1.4886e-009     -4.5854e-005    -2.2796e-008   
  -3.4            2.0687e-009     -4.6628e-005    -7.936e-009    
  -3.45           1.6937e-009     -4.7385e-005    -1.0557e-008   
  -3.5            1.64e-009       -4.8127e-005    -1.3838e-008   
  -3.55           3.5423e-009     -4.8841e-005    -2.4137e-008   
  -3.6            2.4496e-009     -4.9547e-005    -5.674e-009    
  -3.65           1.7457e-009     -5.0243e-005    -1.1061e-008   
  -3.7            1.6781e-009     -5.0921e-005    -1.163e-008    
  -3.75           1.5315e-009     -5.1586e-005    -2.1405e-008   
  -3.8            2.2317e-009     -5.2229e-005    -6.992e-009    
  -3.85           1.7076e-009     -5.2867e-005    -1.1077e-008   
  -3.9            1.6615e-009     -5.3492e-005    -1.2831e-008   
  -3.95           3.6853e-009     -5.4086e-005    -2.3219e-008   
  -4              2.6386e-009     -5.4684e-005    -4.502e-009    
  -4.05           1.7991e-009     -5.5272e-005    -1.0614e-008   
  -4.1            1.6894e-009     -5.5843e-005    -1.0788e-008   
  -4.15           1.5682e-009     -5.6401e-005    -1.9329e-008   
