! VERSION = 6.00
BEGIN_HEADER
 ICCAP_INPUTS
  VG         V  B GROUND SMU4 0.001 LIN        2    0          -5         6    -1        
  VS         V  E GROUND SMU2 0.1 CON        0
  VD         V  S GROUND SMU1 0.1 LIN        1    0          -5         101  -0.05     
  VB         V  C GROUND SMU3 0.1 LIN        3    0          2.5        2    2.5       
 ICCAP_OUTPUTS
  ID         I  S GROUND SMU1 B
  IB         I  C GROUND SMU3 B
  IG         I  B GROUND SMU4 B
END_HEADER

BEGIN_DB
 ICCAP_VAR VG         0              
 ICCAP_VAR VS         0              
 ICCAP_VAR VB         0              

 #VD              ID              IB              IG             
  0               -1.6007e-009    -1.0874e-008    1.113e-010     
  -0.05           -6.238e-010     -2.3979e-008    3.5515e-009    
  -0.1            2.7908e-009     -4.806e-009     1.5579e-009    
  -0.15           4.379e-010      8.573e-009      -1.9998e-009   
  -0.2            6.477e-010      8.937e-009      -1.8899e-009   
  -0.25           8.496e-010      9.32e-009       -1.7747e-009   
  -0.3            -2.0449e-009    5.221e-009      -1.965e-009    
  -0.35           5.74e-011       -1.3946e-008    1.655e-009     
  -0.4            -8.76e-011      -1.8893e-008    1.6265e-009    
  -0.45           -3.065e-010     -2.3272e-008    1.5689e-009    
  -0.5            -5.337e-010     -2.454e-008     1.4855e-009    
  -0.55           2.6106e-009     -7.226e-009     1.794e-009     
  -0.6            6.335e-010      8.925e-009      -1.8991e-009   
  -0.65           8.303e-010      9.282e-009      -1.782e-009    
  -0.7            -1.4635e-009    5.204e-009      -3.0632e-009   
  -0.75           -3.53e-011      -1.6498e-008    1.6412e-009    
  -0.8            -2.231e-010     -2.1638e-008    1.5946e-009    
  -0.85           -4.473e-010     -2.4462e-008    1.5222e-009    
  -0.9            -6.657e-010     -2.3817e-008    3.5032e-009    
  -0.95           2.7603e-009     -5.353e-009     1.6123e-009    
  -1              4.718e-010      8.705e-009      -1.9824e-009   
  -1.05           6.807e-010      9.038e-009      -1.8693e-009   
  -1.1            8.76e-010       9.391e-009      -2.9223e-009   
  -1.15           -4.404e-010     -2.434e-008     1.5194e-009    
  -1.2            -6.622e-010     -2.3868e-008    3.523e-009     
  -1.25           2.7645e-009     -5.241e-009     1.6016e-009    
  -1.3            4.632e-010      8.669e-009      -1.9805e-009   
  -1.35           6.778e-010      9.048e-009      -1.8721e-009   
  -1.4            8.701e-010      9.393e-009      -2.9239e-009   
  -1.45           -4.335e-010     -2.4363e-008    1.5211e-009    
  -1.5            -6.483e-010     -2.3838e-008    3.5237e-009    
  -1.55           2.7599e-009     -5.257e-009     1.5921e-009    
  -1.6            4.632e-010      8.656e-009      -1.9837e-009   
  -1.65           6.724e-010      9.032e-009      -1.8715e-009   
  -1.7            8.645e-010      9.39e-009       -1.7621e-009   
  -1.75           -2.0236e-009    5.258e-009      -1.9839e-009   
  -1.8            4.45e-011       -1.4178e-008    1.652e-009     
  -1.85           -1.07e-010      -1.947e-008     1.62e-009      
  -1.9            -3.315e-010     -2.3437e-008    1.5595e-009    
  -1.95           -5.546e-010     -2.4445e-008    3.659e-009     
  -2              2.8194e-009     -3.99e-009      1.488e-009     
  -2.05           3.681e-010      8.337e-009      -2.0293e-009   
  -2.1            5.802e-010      8.899e-009      -1.9316e-009   
  -2.15           7.805e-010      9.197e-009      -1.8218e-009   
  -2.2            -1.4728e-009    5.152e-009      -2.9999e-009   
  -2.25           6.2e-012        -1.521e-008     1.6478e-009    
  -2.3            -1.6e-010       -2.0644e-008    1.6105e-009    
  -2.35           -3.859e-010     -2.393e-008     1.5421e-009    
  -2.4            -6.018e-010     -2.4144e-008    3.5934e-009    
  -2.45           2.7966e-009     -4.511e-009     1.5414e-009    
  -2.5            4.096e-010      8.496e-009      -2.0069e-009   
  -2.55           6.222e-010      8.979e-009      -1.9001e-009   
  -2.6            8.308e-010      9.336e-009      -1.7849e-009   
  -2.65           -1.4646e-009    5.168e-009      -3.0502e-009   
  -2.7            -3.01e-011      -1.6335e-008    1.6415e-009    
  -2.75           -2.182e-010     -2.1516e-008    1.5981e-009    
  -2.8            -4.359e-010     -2.4383e-008    1.5274e-009    
  -2.85           -6.541e-010     -2.3838e-008    3.5182e-009    
  -2.9            2.7653e-009     -5.214e-009     1.5955e-009    
  -2.95           4.652e-010      8.691e-009      -1.9879e-009   
  -3              6.702e-010      8.972e-009      -1.881e-009    
  -3.05           8.679e-010      9.377e-009      -2.9154e-009   
  -3.1            -4.323e-010     -2.438e-008     1.5258e-009    
  -3.15           -6.414e-010     -2.3769e-008    3.5324e-009    
  -3.2            2.7652e-009     -5.206e-009     1.5847e-009    
  -3.25           4.569e-010      8.61e-009       -1.987e-009    
  -3.3            6.673e-010      8.996e-009      -1.8781e-009   
  -3.35           8.661e-010      9.408e-009      -2.9244e-009   
  -3.4            -4.206e-010     -2.4196e-008    1.5302e-009    
  -3.45           -6.408e-010     -2.3815e-008    3.5274e-009    
  -3.5            2.7709e-009     -4.907e-009     1.5804e-009    
  -3.55           4.527e-010      8.64e-009       -1.992e-009    
  -3.6            6.589e-010      9.016e-009      -1.8873e-009   
  -3.65           8.63e-010       9.381e-009      -2.9246e-009   
  -3.7            -4.242e-010     -2.4168e-008    1.5286e-009    
  -3.75           -6.373e-010     -2.3947e-008    3.5317e-009    
  -3.8            2.7739e-009     -5.171e-009     1.5791e-009    
  -3.85           4.506e-010      8.631e-009      -1.9949e-009   
  -3.9            6.649e-010      9.056e-009      -1.887e-009    
  -3.95           8.618e-010      9.338e-009      -2.9394e-009   
  -4              -4.315e-010     -2.4356e-008    1.5309e-009    
  -4.05           -6.428e-010     -2.4072e-008    3.5541e-009    
  -4.1            2.7842e-009     -5.18e-009      1.5805e-009    
  -4.15           4.665e-010      8.701e-009      -1.9874e-009   
  -4.2            6.686e-010      8.896e-009      -1.8766e-009   
  -4.25           -1.4994e-009    5.132e-009      -2.8723e-009   
  -4.3            9.67e-011       -1.3198e-008    1.6657e-009    
  -4.35           -5.73e-011      -1.8324e-008    1.6498e-009    
  -4.4            -2.762e-010     -2.3185e-008    1.5895e-009    
  -4.45           -4.959e-010     -2.4908e-008    1.4995e-009    
  -4.5            2.6809e-009     -6.815e-009     1.742e-009     
  -4.55           6.006e-010      8.827e-009      -1.9117e-009   
  -4.6            7.982e-010      9.043e-009      -1.7888e-009   
  -4.65           -1.4806e-009    5.101e-009      -3.0172e-009   
  -4.7            -3.1e-012       -1.5585e-008    1.6601e-009    
  -4.75           -1.765e-010     -2.1459e-008    1.6144e-009    
  -4.8            -4.101e-010     -2.4621e-008    1.536e-009     
  -4.85           -6.326e-010     -2.4162e-008    3.598e-009     
  -4.9            2.8076e-009     -5.025e-009     1.5549e-009    
  -4.95           4.401e-010      8.65e-009       -1.9993e-009   
  -5              6.44e-010       8.873e-009      -1.8895e-009   
END_DB

BEGIN_DB
 ICCAP_VAR VG         -1             
 ICCAP_VAR VS         0              
 ICCAP_VAR VB         0              

 #VD              ID              IB              IG             
  0               -4.0342e-009    -1.9481e-008    8.74e-010      
  -0.05           -5.4988e-008    -1.5684e-008    -2.5724e-009   
  -0.1            -6.5712e-008    8.606e-009      -1.8386e-009   
  -0.15           -6.9516e-008    7.045e-009      -2.093e-009    
  -0.2            -7.0993e-008    8.669e-009      -1.8087e-009   
  -0.25           -7.3142e-008    7.217e-009      -2.0682e-009   
  -0.3            -7.5027e-008    8.727e-009      -2.914e-009    
  -0.35           -7.6528e-008    7.677e-009      -1.9726e-009   
  -0.4            -7.737e-008     9.006e-009      -2.6126e-009   
  -0.45           -7.9056e-008    8.479e-009      -1.8651e-009   
  -0.5            -8.1997e-008    -1.245e-008     1.6408e-009    
  -0.55           -8.3666e-008    -2.4681e-008    3.4501e-009    
  -0.6            -8.4552e-008    -1.6203e-008    1.5843e-009    
  -0.65           -8.6079e-008    -2.4214e-008    3.029e-009     
  -0.7            -8.6932e-008    -2.1398e-008    3.7251e-009    
  -0.75           -8.7476e-008    -1.2618e-008    1.6376e-009    
  -0.8            -8.8708e-008    -2.4917e-008    3.4239e-009    
  -0.85           -8.9256e-008    -1.6865e-008    1.5742e-009    
  -0.9            -9.0859e-008    -2.4138e-008    2.9848e-009    
  -0.95           -9.1885e-008    -2.1943e-008    1.4818e-009    
  -1              -9.1857e-008    -1.1045e-008    1.6587e-009    
  -1.05           -9.3519e-008    -2.3278e-008    3.6299e-009    
  -1.1            -9.3877e-008    -1.394e-008     1.6166e-009    
  -1.15           -9.5176e-008    -2.4922e-008    3.2721e-009    
  -1.2            -9.5824e-008    -1.8968e-008    1.5411e-009    
  -1.25           -9.5114e-008    -1.0239e-008    1.6686e-009    
  -1.3            -9.7384e-008    -2.0577e-008    1.512e-009     
  -1.35           -9.7359e-008    -1.0469e-008    1.6633e-009    
  -1.4            -9.8843e-008    -2.1897e-008    3.7019e-009    
  -1.45           -9.93e-008      -1.2875e-008    1.6321e-009    
  -1.5            -1.00358e-007   -2.4699e-008    3.3808e-009    
  -1.55           -1.01899e-007   -1.7064e-008    1.5724e-009    
  -1.6            -1.02064e-007   -2.4097e-008    2.9508e-009    
  -1.65           -1.02254e-007   -2.2134e-008    3.6762e-009    
  -1.7            -1.03507e-007   -1.317e-008     1.6287e-009    
  -1.75           -1.04327e-007   -2.4646e-008    3.3516e-009    
  -1.8            -1.04123e-007   -1.7554e-008    1.5634e-009    
  -1.85           -1.04015e-007   -1.0329e-008    1.6628e-009    
  -1.9            -1.04808e-007   -1.913e-008     1.539e-009     
  -1.95           -1.04776e-007   -1.0234e-008    1.6623e-009    
  -2              -1.06674e-007   -2.0305e-008    1.5116e-009    
  -2.05           -1.06885e-007   -1.074e-008     1.6584e-009    
  -2.1            -1.08117e-007   -2.1994e-008    3.681e-009     
  -2.15           -1.08057e-007   -1.3046e-008    1.6273e-009    
  -2.2            -1.08944e-007   -2.4485e-008    3.3535e-009    
  -2.25           -1.09406e-007   -1.7357e-008    1.5625e-009    
  -2.3            -1.10351e-007   -2.3926e-008    2.933e-009     
  -2.35           -1.10848e-007   -2.2222e-008    3.66e-009      
  -2.4            -1.10562e-007   -1.3361e-008    1.6193e-009    
  -2.45           -1.11757e-007   -2.4481e-008    3.3299e-009    
  -2.5            -1.11454e-007   -1.7662e-008    1.5533e-009    
  -2.55           -1.1206e-007    -1.0353e-008    1.6603e-009    
  -2.6            -1.0974e-007    -1.934e-008     -2.16e-009     
  -2.65           -1.1312e-007    -1.1699e-008    1.6479e-009    
  -2.7            -1.137e-007     -1.3936e-008    1.614e-009     
  -2.75           -1.1453e-007    -1.7808e-008    1.5582e-009    
  -2.8            -1.1506e-007    -2.2064e-008    3.6774e-009    
  -2.85           -1.1546e-007    -2.4694e-008    3.1407e-009    
  -2.9            -1.1543e-007    -1.1764e-008    1.6465e-009    
  -2.95           -1.1607e-007    -1.4156e-008    1.6095e-009    
  -3              -1.1679e-007    -1.8304e-008    1.5511e-009    
  -3.05           -1.1757e-007    -2.2086e-008    3.6587e-009    
  -3.1            -1.1791e-007    -2.4509e-008    3.1022e-009    
  -3.15           -1.177e-007     -1.1856e-008    1.6433e-009    
  -3.2            -1.1805e-007    -1.4483e-008    1.6086e-009    
  -3.25           -1.1885e-007    -1.8687e-008    1.5471e-009    
  -3.3            -1.1974e-007    -2.2507e-008    3.6384e-009    
  -3.35           -1.2015e-007    -2.4502e-008    3.0627e-009    
  -3.4            -1.2003e-007    -1.2042e-008    1.6411e-009    
  -3.45           -1.2059e-007    -1.4785e-008    1.6012e-009    
  -3.5            -1.2052e-007    -1.9038e-008    1.5386e-009    
  -3.55           -1.2188e-007    -2.2749e-008    3.6203e-009    
  -3.6            -1.2219e-007    -2.4233e-008    3.0362e-009    
  -3.65           -1.2226e-007    -1.2391e-008    1.6379e-009    
  -3.7            -1.2292e-007    -1.4953e-008    1.5929e-009    
  -3.75           -1.2361e-007    -1.9411e-008    1.5305e-009    
  -3.8            -1.2398e-007    -2.2972e-008    3.6034e-009    
  -3.85           -1.2429e-007    -2.4272e-008    3.0148e-009    
  -3.9            -1.2455e-007    -1.2408e-008    1.6361e-009    
  -3.95           -1.2616e-007    -1.5363e-008    1.5944e-009    
  -4              -1.2573e-007    -1.9481e-008    1.5285e-009    
  -4.05           -1.2636e-007    -2.3173e-008    3.5806e-009    
  -4.1            -1.2529e-007    -1.0389e-008    1.662e-009     
  -4.15           -1.2632e-007    -1.1086e-008    1.655e-009     
  -4.2            -1.2723e-007    -1.297e-008     1.6267e-009    
  -4.25           -1.2809e-007    -1.6444e-008    1.5788e-009    
  -4.3            -1.2853e-007    -2.0493e-008    1.5108e-009    
  -4.35           -1.2904e-007    -2.3957e-008    3.5135e-009    
  -4.4            -1.281e-007     -1.0468e-008    1.6617e-009    
  -4.45           -1.2925e-007    -1.158e-008     1.6501e-009    
  -4.5            -1.2997e-007    -1.3877e-008    1.6178e-009    
  -4.55           -1.3076e-007    -1.764e-008     1.5615e-009    
  -4.6            -1.3123e-007    -2.1654e-008    3.6893e-009    
  -4.65           -1.315e-007     -2.4673e-008    3.1571e-009    
  -4.7            -1.3146e-007    -1.1793e-008    1.647e-009     
  -4.75           -1.3209e-007    -1.3957e-008    1.6128e-009    
  -4.8            -1.3285e-007    -1.7965e-008    1.5538e-009    
  -4.85           -1.3347e-007    -2.181e-008     3.6725e-009    
  -4.9            -1.3378e-007    -2.4473e-008    3.1282e-009    
  -4.95           -1.3375e-007    -1.1722e-008    1.646e-009     
  -5              -1.3428e-007    -1.4201e-008    1.6085e-009    
END_DB

BEGIN_DB
 ICCAP_VAR VG         -2             
 ICCAP_VAR VS         0              
 ICCAP_VAR VB         0              

 #VD              ID              IB              IG             
  0               -8.3758e-008    5.313e-009      -6.035e-010    
  -0.05           -4.3501e-006    -2.4842e-008    -2.5782e-009   
  -0.1            -8.4103e-006    -1.009e-008     1.6861e-009    
  -0.15           -1.2233e-005    -1.3713e-008    -2.86e-010     
  -0.2            -1.5876e-005    -2.488e-008     3.2305e-009    
  -0.25           -1.9278e-005    -1.5631e-008    1.6118e-009    
  -0.3            -2.2435e-005    -2.4583e-008    3.3956e-009    
  -0.35           -2.5356e-005    -1.3931e-008    1.6386e-009    
  -0.4            -2.7997e-005    -2.4147e-008    3.5515e-009    
  -0.45           -3.0371e-005    -1.2621e-008    1.6572e-009    
  -0.5            -3.2438e-005    -2.2818e-008    1.4851e-009    
  -0.55           -3.4218e-005    -1.0439e-008    1.6857e-009    
  -0.6            -3.5718e-005    -1.4279e-008    1.6332e-009    
  -0.65           -3.6872e-005    -2.4344e-008    3.5369e-009    
  -0.7            -3.7784e-005    -1.2792e-008    1.6551e-009    
  -0.75           -3.8429e-005    -2.322e-008     3.6622e-009    
  -0.8            -3.8903e-005    -1.1686e-008    1.6701e-009    
  -0.85           -3.925e-005     -2.1165e-008    1.5222e-009    
  -0.9            -3.9477e-005    -2.3993e-008    2.9247e-009    
  -0.95           -3.9693e-005    -1.9302e-008    1.5557e-009    
  -1              -3.9811e-005    -2.4595e-008    3.1124e-009    
  -1.05           -3.998e-005     -1.6897e-008    1.5919e-009    
  -1.1            -4.0044e-005    -2.4912e-008    3.2887e-009    
  -1.15           -4.0158e-005    -1.5007e-008    1.6196e-009    
  -1.2            -4.0241e-005    -2.4674e-008    3.4579e-009    
  -1.25           -4.033e-005     -1.3743e-008    1.6453e-009    
  -1.3            -4.0374e-005    -2.4023e-008    3.5972e-009    
  -1.35           -4.0446e-005    -1.2214e-008    1.6614e-009    
  -1.4            -4.0497e-005    -2.2383e-008    1.4967e-009    
  -1.45           -4.0517e-005    -1.0615e-008    1.6849e-009    
  -1.5            -4.0612e-005    -1.3807e-008    1.6438e-009    
  -1.55           -4.0649e-005    -2.4151e-008    3.581e-009     
  -1.6            -4.0705e-005    -1.2482e-008    1.66e-009      
  -1.65           -4.075e-005     -2.2409e-008    1.4942e-009    
  -1.7            -4.0763e-005    -1.0731e-008    1.6834e-009    
  -1.75           -4.0842e-005    -1.3902e-008    1.6389e-009    
  -1.8            -4.0875e-005    -2.3851e-008    3.5675e-009    
  -1.85           -4.0911e-005    -1.2517e-008    1.659e-009     
  -1.9            -4.0931e-005    -2.241e-008     1.4952e-009    
  -1.95           -4.0938e-005    -1.0634e-008    1.6814e-009    
  -2              -4.1012e-005    -1.3994e-008    1.6355e-009    
  -2.05           -4.1043e-005    -2.3771e-008    3.55e-009      
  -2.1            -4.1085e-005    -1.27e-008      1.6544e-009    
  -2.15           -4.1111e-005    -2.2541e-008    1.4886e-009    
  -2.2            -4.1114e-005    -1.0541e-008    1.6812e-009    
  -2.25           -4.116e-005     -1.3861e-008    1.6336e-009    
  -2.3            -4.1186e-005    -2.3817e-008    3.5281e-009    
  -2.35           -4.124e-005     -1.2855e-008    1.6501e-009    
  -2.4            -4.1265e-005    -2.2229e-008    1.4883e-009    
  -2.45           -4.1258e-005    -1.0723e-008    1.6803e-009    
  -2.5            -4.1316e-005    -1.4136e-008    1.6266e-009    
  -2.55           -4.135e-005     -2.3807e-008    3.5275e-009    
  -2.6            -4.1369e-005    -1.2872e-008    1.6477e-009    
  -2.65           -4.1396e-005    -2.2798e-008    1.4821e-009    
  -2.7            -4.1409e-005    -1.0667e-008    1.6829e-009    
  -2.75           -4.1475e-005    -1.4332e-008    1.6288e-009    
  -2.8            -4.1501e-005    -2.4179e-008    3.5039e-009    
  -2.85           -4.152e-005     -1.3013e-008    1.6493e-009    
  -2.9            -4.1531e-005    -2.2844e-008    3.6369e-009    
  -2.95           -4.1536e-005    -1.1976e-008    1.6627e-009    
  -3              -4.156e-005     -2.1341e-008    1.5203e-009    
  -3.05           -4.1552e-005    -2.3753e-008    2.9128e-009    
  -3.1            -4.1629e-005    -1.9424e-008    1.5518e-009    
  -3.15           -4.159e-005     -2.4377e-008    3.1024e-009    
  -3.2            -4.1661e-005    -1.7339e-008    1.5839e-009    
  -3.25           -4.1656e-005    -2.4529e-008    3.2664e-009    
  -3.3            -4.1693e-005    -1.5335e-008    1.6138e-009    
  -3.35           -4.1716e-005    -2.4272e-008    3.424e-009     
  -3.4            -4.1748e-005    -1.3683e-008    1.6352e-009    
  -3.45           -4.1753e-005    -2.3511e-008    3.5616e-009    
  -3.5            -4.1767e-005    -1.2657e-008    1.6531e-009    
  -3.55           -4.1773e-005    -2.2178e-008    1.4943e-009    
  -3.6            -4.1767e-005    -1.0655e-008    1.6817e-009    
  -3.65           -4.1831e-005    -1.3814e-008    1.6365e-009    
  -3.7            -4.1834e-005    -2.3688e-008    3.5508e-009    
  -3.75           -4.1869e-005    -1.2542e-008    1.6541e-009    
  -3.8            -4.1863e-005    -2.238e-008     1.4866e-009    
  -3.85           -4.1849e-005    -1.0766e-008    1.6806e-009    
  -3.9            -4.1931e-005    -1.4163e-008    1.6351e-009    
  -3.95           -4.1935e-005    -2.3936e-008    3.5458e-009    
  -4              -4.1963e-005    -1.264e-008     1.6541e-009    
  -4.05           -4.1963e-005    -2.289e-008     1.4824e-009    
  -4.1            -4.1947e-005    -1.0494e-008    1.6815e-009    
  -4.15           -4.1995e-005    -1.424e-008     1.6304e-009    
