! VERSION = 6.00
BEGIN_HEADER
 ICCAP_INPUTS
  VG         V  B GROUND SMU4 0.001 LIN        1    0          -5         101  -0.05     
  VS         V  E GROUND SMU2 0.1 CON        0
  VB         V  C GROUND SMU3 0.1 LIN        3    0          5          3    2.5       
  VD         V  S GROUND SMU1 0.1 LIN        2    -0.1       -5         2    -4.9      
 ICCAP_OUTPUTS
  IG         I  B GROUND SMU4 B
  ID         I  S GROUND SMU1 B
  IB         I  C GROUND SMU3 B
END_HEADER

BEGIN_DB
 ICCAP_VAR VS         0              
 ICCAP_VAR VB         0              
 ICCAP_VAR VD         -0.1           

 #VG              IG              ID              IB             
  0               2.3353e-009     2.1169e-009     -1.1885e-008   
  -0.05           7.41e-011       1.8397e-009     8.502e-009     
  -0.1            -2.5128e-009    9.582e-010      2.6008e-008    
  -0.15           -9.587e-010     -2.1211e-009    1.755e-009     
  -0.2            2.7028e-009     -1.6394e-009    -1.1067e-008   
  -0.25           7.845e-010      2.1161e-009     -1.293e-009    
  -0.3            -1.6193e-009    1.48e-009       1.4897e-008    
  -0.35           -7.661e-010     -2.1247e-009    5.517e-009     
  -0.4            1.9457e-009     -1.5526e-009    -1.4938e-008   
  -0.45           5.547e-010      2.0522e-009     -7.096e-009    
  -0.5            -1.9824e-009    5.565e-010      1.6693e-008    
  -0.55           -1.3784e-009    -1.8421e-009    3.721e-009     
  -0.6            2.3387e-009     -6.476e-010     -1.5586e-008   
  -0.65           3.098e-010      1.8879e-009     -4.118e-009    
  -0.7            4.88e-010       1.7909e-009     9.381e-009     
  -0.75           -2.4792e-009    -1.8459e-009    1.5397e-008    
  -0.8            2.7043e-009     -4.6891e-009    -2.3464e-008   
  -0.85           -2.5225e-009    -1.4378e-008    -1.6819e-008   
  -0.9            2.4904e-009     -5.5706e-008    -2.4671e-008   
  -0.95           -7.405e-010     -1.9639e-007    1.1705e-008    
  -1              2.7127e-009     -7.1881e-007    -1.5603e-008   
  -1.05           1.6621e-009     -2.194e-006     1.0408e-008    
  -1.1            6.657e-010      -5.7047e-006    9.697e-009     
  -1.15           -8.629e-010     -1.2784e-005    1.6745e-008    
  -1.2            2.6792e-009     -2.4271e-005    -1.2672e-008   
  -1.25           -1.5384e-009    -3.8703e-005    1.9702e-008    
  -1.3            -2.5016e-009    -5.5664e-005    5.952e-009     
  -1.35           2.5493e-009     -7.3318e-005    -2.4072e-008   
  -1.4            6.132e-010      -8.9774e-005    9.851e-009     
  -1.45           -1.5406e-009    -0.000104972    1.7266e-008    
  -1.5            -1.4247e-009    -0.00011919     1.673e-009     
  -1.55           -2.5356e-009    -0.00013194     7.001e-009     
  -1.6            2.4392e-009     -0.00014391     -2.4979e-008   
  -1.65           7.195e-010      -0.00015425     9.522e-009     
  -1.7            -1.4271e-009    -0.00016386     1.8954e-008    
  -1.75           -2.5343e-009    -0.00017281     7.222e-009     
  -1.8            2.4362e-009     -0.00018128     -2.4874e-008   
  -1.85           1.7489e-009     -0.00018882     -3.313e-009    
  -1.9            2.4868e-009     -0.0001961      -8.516e-009    
  -1.95           7.078e-010      -0.00020267     9.534e-009     
  -2              -1.4409e-009    -0.0002089      1.7003e-008    
  -2.05           -2.529e-009     -0.00021471     7.115e-009     
  -2.1            2.4499e-009     -0.00022035     -2.4613e-008   
  -2.15           7.098e-010      -0.00022553     9.558e-009     
  -2.2            -1.4347e-009    -0.00023049     1.697e-008     
  -2.25           -2.5293e-009    -0.00023517     7.021e-009     
  -2.3            2.4486e-009     -0.00023973     -2.4757e-008   
  -2.35           7.046e-010      -0.00024393     9.547e-009     
  -2.4            -1.4359e-009    -0.00024805     1.6883e-008    
  -2.45           -2.528e-009     -0.00025186     7.114e-009     
  -2.5            2.4502e-009     -0.00025567     -2.4769e-008   
  -2.55           7.034e-010      -0.00025921     9.563e-009     
  -2.6            -1.4357e-009    -0.00026259     1.8661e-008    
  -2.65           -2.5293e-009    -0.00026593     6.966e-009     
  -2.7            2.4518e-009     -0.00026914     -2.4551e-008   
  -2.75           1.7698e-009     -0.00027215     -3.319e-009    
  -2.8            2.4755e-009     -0.00027514     -8.262e-009    
  -2.85           6.937e-010      -0.00027789     9.576e-009     
  -2.9            -1.4577e-009    -0.00028071     1.7556e-008    
  -2.95           -2.5256e-009    -0.00028328     7.004e-009     
  -3              2.4707e-009     -0.00028592     -2.4642e-008   
  -3.05           6.895e-010      -0.00028838     9.562e-009     
  -3.1            -1.4523e-009    -0.00029074     1.8473e-008    
  -3.15           -2.525e-009     -0.00029304     6.843e-009     
  -3.2            2.4638e-009     -0.00029537     -2.4554e-008   
  -3.25           6.922e-010      -0.00029752     9.602e-009     
  -3.3            -1.4563e-009    -0.00029968     1.7483e-008    
  -3.35           -2.524e-009     -0.00030166     6.939e-009     
  -3.4            -9.286e-010     -0.00030374     -9.34e-009     
  -3.45           2.6369e-009     -0.0003058      -1.1581e-008   
  -3.5            -1.3535e-009    -0.00030757     2.0893e-008    
  -3.55           -2.5526e-009    -0.00030942     8.519e-009     
  -3.6            2.3074e-009     -0.00031124     -2.4767e-008   
  -3.65           2.2904e-009     -0.00031297     -4.169e-009    
  -3.7            -1.5895e-009    -0.00031468     2.0879e-008    
  -3.75           -2.4841e-009    -0.00031638     5.774e-009     
  -3.8            2.5921e-009     -0.00031801     -2.3836e-008   
  -3.85           5.798e-010      -0.00031956     9.829e-009     
  -3.9            -1.5923e-009    -0.00032114     1.6868e-008    
  -3.95           -2.4825e-009    -0.00032266     5.711e-009     
  -4              2.5846e-009     -0.00032412     -2.3715e-008   
  -4.05           -2.5194e-009    -0.00032561     2.208e-008     
  -4.1            2.7035e-009     -0.00032703     -1.7206e-008   
  -4.15           2.5136e-009     -0.00032834     -1.011e-009    
  -4.2            -2.4902e-009    -0.00032969     2.3253e-008    
  -4.25           -2.013e-009     -0.0003311      1.635e-009     
  -4.3            -1.4414e-009    -0.00033236     3.765e-009     
  -4.35           -2.5213e-009    -0.00033357     6.95e-009      
  -4.4            2.4684e-009     -0.00033484     -2.4627e-008   
  -4.45           6.915e-010      -0.00033605     9.611e-009     
  -4.5            -1.4534e-009    -0.0003372      1.8536e-008    
  -4.55           -2.5244e-009    -0.00033839     6.953e-009     
  -4.6            2.4749e-009     -0.00033954     -2.4495e-008   
  -4.65           -2.4515e-009    -0.0003406      1.1625e-008    
  -4.7            -1.9366e-009    -0.00034183     1.665e-009     
  -4.75           -1.3964e-009    -0.00034289     4.03e-009      
  -4.8            -2.5372e-009    -0.00034384     7.492e-009     
  -4.85           -9.667e-010     -0.00034495     -9.056e-009    
  -4.9            1.79e-010       -0.0003461      -1.1109e-008   
  -4.95           2.6927e-009     -0.00034692     -2.0895e-008   
  -5              -1.4706e-009    -0.00034787     1.8192e-008    
END_DB

BEGIN_DB
 ICCAP_VAR VS         0              
 ICCAP_VAR VB         0              
 ICCAP_VAR VD         -5             

 #VG              IG              ID              IB             
  0               8.613e-010      7.082e-010      1.6395e-008    
  -0.05           2.831e-010      1.9277e-009     -3.866e-009    
  -0.1            -2.338e-009     1.1044e-009     2.6262e-008    
  -0.15           -1.1297e-009    -2.0613e-009    2.462e-009     
  -0.2            2.042e-010      -1.7369e-009    -1.0401e-008   
  -0.25           1.6983e-009     -9.153e-010     -2.0222e-008   
  -0.3            6.895e-010      2.0976e-009     -8.814e-009    
  -0.35           -1.7556e-009    6.563e-010      1.8501e-008    
  -0.4            -6.525e-010     -2.1105e-009    4.551e-009     
  -0.45           2.1088e-009     -7.639e-010     -1.7083e-008   
  -0.5            4.472e-010      1.9979e-009     -5.736e-009    
  -0.55           -2.1298e-009    4.576e-010      1.4586e-008    
  -0.6            -1.2741e-009    -1.979e-009     3.478e-009     
  -0.65           2.5987e-009     -1.3849e-009    -2.4711e-008   
  -0.7            -1.5174e-009    1.909e-010      2.1996e-008    
  -0.75           -1.3549e-009    -2.6911e-009    5.951e-009     
  -0.8            -2.4768e-009    -9.3417e-009    8.305e-009     
  -0.85           2.6074e-009     -3.4292e-008    2.6604e-008    
  -0.9            1.5828e-009     -1.3919e-007    -2.4336e-008   
  -0.95           5.785e-010      -5.1425e-007    9.915e-009     
  -1              -2.5637e-009    -1.7452e-006    -9.948e-009    
  -1.05           2.2576e-009     -5.3417e-006    -2.4418e-008   
  -1.1            2.6449e-009     -1.2888e-005    -9.777e-009    
  -1.15           1.8879e-009     -2.7467e-005    9.026e-009     
  -1.2            -2.3766e-009    -5.017e-005     2.555e-008     
  -1.25           -1.7921e-009    -8.2752e-005    2.284e-009     
  -1.3            -5.381e-010     -0.00012619     -1.6355e-008   
  -1.35           1.8627e-009     -0.00017949     -1.99e-008     
  -1.4            2.4374e-009     -0.00024203     -7.579e-009    
  -1.45           6.43e-010       -0.00031237     9.781e-009     
  -1.5            -1.5107e-009    -0.00039167     1.8935e-008    
  -1.55           -2.5037e-009    -0.00047969     6.155e-009     
  -1.6            2.5292e-009     -0.00057758     -2.4286e-008   
  -1.65           6.335e-010      -0.00067811     9.857e-009     
  -1.7            -1.5207e-009    -0.00078598     1.9073e-008    
  -1.75           -2.4985e-009    -0.0009009      6.064e-009     
  -1.8            2.5454e-009     -0.00102472     -2.4278e-008   
  -1.85           -7.977e-010     -0.0011487      1.6841e-008    
  -1.9            -1.78e-009      -0.0012793      2.3768e-008    
  -1.95           -2.4124e-009    -0.0014158      4.603e-009     
  -2              -6.914e-010     -0.0015573      -1.0097e-008   
  -2.05           2.7059e-009     -0.0017015      -1.6534e-008   
  -2.1            2.4915e-009     -0.0018485      -1.178e-009    
  -2.15           6.557e-010      -0.0019982      9.756e-009     
  -2.2            -1.4956e-009    -0.0021516      1.7942e-008    
  -2.25           -2.5098e-009    -0.0023097      6.23e-009      
  -2.3            2.5187e-009     -0.0024738      -2.4335e-008   
  -2.35           -2.4891e-009    -0.0026325      1.3902e-008    
  -2.4            -1.9986e-009    -0.0027994      1.899e-009     
  -2.45           -1.4386e-009    -0.0029674      3.785e-009     
  -2.5            -2.5261e-009    -0.0031374      6.738e-009     
  -2.55           -9.247e-010     -0.0033118      -9.412e-009    
  -2.6            2.6417e-009     -0.0034891      -1.1468e-008   
  -2.65           -1.3565e-009    -0.003662       2.0825e-008    
  -2.7            -2.555e-009     -0.0038401      8.178e-009     
  -2.75           2.3072e-009     -0.0040245      -2.4665e-008   
  -2.8            2.2831e-009     -0.0042061      -3.968e-009    
  -2.85           -1.5926e-009    -0.0043842      2.0882e-008    
  -2.9            -2.4757e-009    -0.0045692      5.51e-009      
  -2.95           2.5994e-009     -0.0047595      -2.3857e-008   
  -3              5.626e-010      -0.004942       9.85e-009      
  -3.05           -1.6079e-009    -0.0051287      2.0957e-008    
  -3.1            -2.4724e-009    -0.005318       5.357e-009     
  -3.15           2.6044e-009     -0.0055122      -2.3785e-008   
  -3.2            5.614e-010      -0.0056987      9.867e-009     
  -3.25           -1.6084e-009    -0.0058875      2.1072e-008    
  -3.3            -2.4703e-009    -0.0060795      5.315e-009     
  -3.35           2.6106e-009     -0.0062759      -2.3708e-008   
  -3.4            5.525e-010      -0.0064624      9.857e-009     
  -3.45           -1.6278e-009    -0.0066526      2.1209e-008    
  -3.5            -2.4683e-009    -0.006844       5.407e-009     
  -3.55           2.6163e-009     -0.0070389      -2.3702e-008   
  -3.6            5.475e-010      -0.0072237      9.848e-009     
  -3.65           -1.629e-009     -0.0074108      1.6237e-008    
  -3.7            -2.4676e-009    -0.0075977      5.31e-009      
  -3.75           -8.027e-010     -0.0077832      -9.781e-009    
  -3.8            2.712e-009      -0.0079663      -1.8571e-008   
  -3.85           2.506e-009      -0.008141       -1.228e-009    
  -3.9            6.415e-010      -0.0083164      9.806e-009     
  -3.95           -1.506e-009     -0.0084839      1.7712e-008    
  -4              -2.5028e-009    -0.0086482      6.14e-009      
  -4.05           2.5273e-009     -0.008811       -2.4358e-008   
  -4.1            6.406e-010      -0.0089618      9.757e-009     
  -4.15           -1.5104e-009    -0.0091094      1.8716e-008    
  -4.2            -2.5029e-009    -0.0092512      5.969e-009     
  -4.25           2.5328e-009     -0.0093919      -2.4431e-008   
  -4.3            6.322e-010      -0.0095201      9.769e-009     
  -4.35           -1.5174e-009    -0.0096448      1.7759e-008    
  -4.4            -2.4975e-009    -0.0097648      5.897e-009     
  -4.45           2.5378e-009     -0.0098822      -2.4371e-008   
  -4.5            6.264e-010      -0.00999        9.792e-009     
  -4.55           -1.5216e-009    -0.0100948      1.8977e-008    
  -4.6            -2.4999e-009    -0.0101951      5.88e-009      
  -4.65           2.5461e-009     -0.0102946      -2.4382e-008   
  -4.7            6.228e-010      -0.0103849      9.764e-009     
  -4.75           -1.5308e-009    -0.0104732      1.7543e-008    
  -4.8            -2.5001e-009    -0.0105582      5.739e-009     
  -4.85           2.5477e-009     -0.0106426      -2.4245e-008   
  -4.9            6.202e-010      -0.0107199      9.785e-009     
  -4.95           -1.5393e-009    -0.0107955      1.932e-008     
  -5              -2.4945e-009    -0.0108691      5.769e-009     
END_DB

BEGIN_DB
 ICCAP_VAR VS         0              
 ICCAP_VAR VB         2.5            
 ICCAP_VAR VD         -0.1           

 #VG              IG              ID              IB             
  0               8.58e-010       1.927e-010      7.804e-009     
  -0.05           4.479e-010      2.0018e-009     -5.522e-009    
  -0.1            -2.1361e-009    4.65e-010       1.4915e-008    
  -0.15           -1.2658e-009    -1.9421e-009    3.165e-009     
  -0.2            2.6014e-009     -1.2331e-009    -2.4789e-008   
  -0.25           3.153e-010      1.9502e-009     9.862e-009     
  -0.3            4.961e-010      2.0268e-009     9.32e-009      
  -0.35           -2.0668e-009    5.029e-010      1.5424e-008    
  -0.4            -1.3096e-009    -1.897e-009     3.42e-009      
  -0.45           2.5633e-009     -1.2654e-009    -2.4327e-008   
  -0.5            3.614e-010      1.9695e-009     9.822e-009     
  -0.55           5.336e-010      2.0467e-009     9.039e-009     
  -0.6            -2.0038e-009    1.2813e-009     2.1687e-008    
  -0.65           -1.3505e-009    -1.8537e-009    3.68e-009      
  -0.7            2.3592e-009     -6.078e-010     -1.5145e-008   
  -0.75           2.825e-010      1.9295e-009     -3.587e-009    
  -0.8            4.578e-010      2.0113e-009     9.442e-009     
  -0.85           -2.1239e-009    4.756e-010      1.4886e-008    
  -0.9            -1.2756e-009    -1.9306e-009    3.193e-009     
  -0.95           2.5919e-009     -1.2408e-009    -2.4801e-008   
  -1              -1.5085e-009    7.792e-010      2.2176e-008    
  -1.05           -8.375e-010     -2.1316e-009    5.963e-009     
  -1.1            1.8078e-009     -1.5863e-009    -1.3258e-008   
  -1.15           6.292e-010      2.0793e-009     -8.087e-009    
  -1.2            -1.8562e-009    1.3487e-009     1.89e-008      
  -1.25           -1.4364e-009    -1.7731e-009    4.267e-009     
  -1.3            2.2151e-009     -8.156e-010     -1.6327e-008   
  -1.35           -1.5986e-009    9.469e-010      -4.632e-009    
  -1.4            -1.3983e-009    -3.0251e-009    5.491e-009     
  -1.45           -2.09e-009      -1.353e-008     -1.0037e-008   
  -1.5            2.0675e-009     -6.1073e-008    -2.2679e-008   
  -1.55           -9.684e-010     -2.5147e-007    1.3327e-008    
  -1.6            1.757e-010      -1.01879e-006   -1.1042e-008   
  -1.65           2.6798e-009     -3.2301e-006    2.6027e-008    
  -1.7            1.9639e-009     -8.5704e-006    8.479e-009     
  -1.75           -2.5524e-009    -1.8056e-005    9.092e-009     
  -1.8            2.3191e-009     -3.2053e-005    -2.4704e-008   
  -1.85           2.2806e-009     -4.837e-005     -4.075e-009    
  -1.9            -1.4654e-009    -6.5128e-005    1.8291e-008    
  -1.95           -2.516e-009     -8.1325e-005    6.544e-009     
  -2              2.486e-009      -9.6356e-005    -2.4546e-008   
  -2.05           -2.4709e-009    -0.000109293    1.3507e-008    
  -2.1            -1.0467e-009    -0.00012118     -2.4076e-008   
  -2.15           2.6129e-009     -0.000132       -2.3753e-008   
  -2.2            5.414e-010      -0.0001414      9.856e-009     
  -2.25           -1.6296e-009    -0.00015001     2.1484e-008    
  -2.3            -2.4629e-009    -0.00015805     5.253e-009     
  -2.35           -7.938e-010     -0.00016549     -9.878e-009    
  -2.4            2.7008e-009     -0.00017232     -1.4137e-008   
  -2.45           2.3622e-009     -0.00017854     -1.45e-009     
  -2.5            1.6901e-009     -0.00018446     -3.691e-009    
  -2.55           2.5024e-009     -0.00019002     -8.697e-009    
  -2.6            -2.4103e-009    -0.00019508     2.497e-008     
  -2.65           -1.8466e-009    -0.00020006     2.009e-009     
  -2.7            -1.3582e-009    -0.00020471     3.859e-009     
  -2.75           -2.5451e-009    -0.00020907     7.995e-009     
  -2.8            -9.984e-010     -0.00021329     -9.001e-009    
  -2.85           2.6569e-009     -0.00021729     -2.2771e-008   
  -2.9            -1.3756e-009    -0.00022099     2.0113e-008    
  -2.95           -2.5477e-009    -0.00022462     7.909e-009     
  -3              2.3529e-009     -0.00022816     -2.4774e-008   
  -3.05           1.6624e-009     -0.00023146     -3.72e-009     
  -3.1            2.5084e-009     -0.00023467     -8.754e-009    
  -3.15           -2.3989e-009    -0.00023766     2.5172e-008    
  -3.2            -1.8239e-009    -0.00024067     1.92e-009      
  -3.25           -1.3549e-009    -0.00024351     4.169e-009     
  -3.3            -2.5519e-009    -0.00024622     8.28e-009      
  -3.35           2.3212e-009     -0.0002489      -2.4835e-008   
  -3.4            2.2818e-009     -0.00025143     -4.161e-009    
  -3.45           -1.4669e-009    -0.00025385     1.8244e-008    
  -3.5            -2.5141e-009    -0.00025625     6.448e-009     
  -3.55           2.4939e-009     -0.00025863     -2.4571e-008   
  -3.6            6.611e-010      -0.00026081     9.623e-009     
  -3.65           -1.4815e-009    -0.00026301     1.8132e-008    
  -3.7            -2.5147e-009    -0.00026511     6.431e-009     
  -3.75           2.4973e-009     -0.00026718     -2.4747e-008   
  -3.8            6.558e-010      -0.00026912     9.696e-009     
  -3.85           -1.4859e-009    -0.00027106     1.8198e-008    
  -3.9            -2.5089e-009    -0.00027297     6.241e-009     
  -3.95           2.5068e-009     -0.00027481     -2.468e-008    
  -4              -2.4849e-009    -0.00027652     2.3864e-008    
  -4.05           -1.9817e-009    -0.00027833     1.759e-009     
  -4.1            -1.4316e-009    -0.00028001     3.704e-009     
  -4.15           -2.5255e-009    -0.00028164     6.802e-009     
