! VERSION = 6.00
BEGIN_HEADER
 ICCAP_INPUTS
  VG         V  B GROUND SMU4 0.001 LIN        2    0          -5         6    -1        
  VS         V  E GROUND SMU2 0.1 CON        0
  VD         V  S GROUND SMU1 0.1 LIN        1    0          -5         101  -0.05     
  VB         V  C GROUND SMU3 0.1 LIN        3    0          2.5        2    2.5       
 ICCAP_OUTPUTS
  ID         I  S GROUND SMU1 B
  IB         I  C GROUND SMU3 B
  IG         I  B GROUND SMU4 B
END_HEADER

BEGIN_DB
 ICCAP_VAR VG         0              
 ICCAP_VAR VS         0              
 ICCAP_VAR VB         0              

 #VD              ID              IB              IG             
  0               2.442e-010      2.4996e-009     8.44e-011      
  -0.05           -2.374e-010     -9.8358e-009    3.3623e-009    
  -0.1            2.441e-009      -6.3666e-009    7.434e-010     
  -0.15           1.2088e-009     5.4053e-009     -1.7352e-009   
  -0.2            -1.4899e-009    5.2365e-009     -1.8465e-009   
  -0.25           -1.5583e-009    9.103e-010      -1.7873e-009   
  -0.3            -1.6458e-009    8.249e-010      -1.7326e-009   
  -0.35           -1.7438e-009    7.39e-010       -1.6725e-009   
  -0.4            -1.8322e-009    6.576e-010      -1.6085e-009   
  -0.45           -1.9314e-009    5.761e-010      -1.5389e-009   
  -0.5            -2.0283e-009    5.039e-010      -1.4684e-009   
  -0.55           -2.1121e-009    4.252e-010      -1.4037e-009   
  -0.6            -2.1811e-009    3.611e-010      -1.3328e-009   
  -0.65           -2.2418e-009    3.022e-010      -1.2631e-009   
  -0.7            -2.2935e-009    2.562e-010      -1.2004e-009   
  -0.75           -2.3298e-009    2.119e-010      -1.1394e-009   
  -0.8            -2.352e-009     1.776e-010      -1.0801e-009   
  -0.85           -2.3692e-009    1.457e-010      -1.0193e-009   
  -0.9            -2.3741e-009    1.138e-010      -9.621e-010    
  -0.95           -2.3708e-009    7.7e-011        -9.016e-010    
  -1              -2.3676e-009    3.95e-011       -8.405e-010    
  -1.05           -2.3565e-009    3.4e-012        -7.654e-010    
  -1.1            -3.517e-010     -9.2403e-009    3.2885e-009    
  -1.15           2.4611e-009     -6.9078e-009    8.748e-010     
  -1.2            1.2974e-009     5.0819e-009     -1.693e-009    
  -1.25           -1.3829e-009    5.3623e-009     -1.9182e-009   
  -1.3            -1.4303e-009    1.0488e-009     -1.8717e-009   
  -1.35           -1.5056e-009    9.637e-010      -1.8248e-009   
  -1.4            -1.5833e-009    8.73e-010       -1.7684e-009   
  -1.45           -1.6745e-009    7.95e-010       -1.7097e-009   
  -1.5            -1.7662e-009    6.654e-010      -1.638e-009    
  -1.55           -1.8609e-009    5.866e-010      -1.5776e-009   
  -1.6            -1.9585e-009    5.22e-010       -1.5085e-009   
  -1.65           -2.0499e-009    4.592e-010      -1.4437e-009   
  -1.7            -2.1374e-009    3.967e-010      -1.3729e-009   
  -1.75           -2.2022e-009    3.465e-010      -1.3016e-009   
  -1.8            -2.265e-009     2.809e-010      -1.2411e-009   
  -1.85           -2.3123e-009    2.362e-010      -1.1762e-009   
  -1.9            -2.3433e-009    1.969e-010      -1.1128e-009   
  -1.95           -2.3632e-009    1.584e-010      -1.0495e-009   
  -2              -2.3711e-009    1.22e-010       -9.929e-010    
  -2.05           -2.3762e-009    8.87e-011       -9.311e-010    
  -2.1            -2.374e-009     5.46e-011       -8.725e-010    
  -2.15           -2.3661e-009    2.16e-011       -8.059e-010    
  -2.2            -3.854e-010     -9.0176e-009    3.2391e-009    
  -2.25           2.4692e-009     -7.06e-009      9.088e-010     
  -2.3            1.3198e-009     4.9449e-009     -1.6865e-009   
  -2.35           -1.3586e-009    5.397e-009      -1.9394e-009   
  -2.4            -1.4039e-009    1.0604e-009     -1.8926e-009   
  -2.45           -1.4746e-009    9.679e-010      -1.8486e-009   
  -2.5            -1.5502e-009    9.092e-010      -1.7927e-009   
  -2.55           -1.6314e-009    8.23e-010       -1.7342e-009   
  -2.6            -1.72e-009      7.439e-010      -1.6725e-009   
  -2.65           -1.8152e-009    6.568e-010      -1.6001e-009   
  -2.7            -1.9102e-009    5.716e-010      -1.5357e-009   
  -2.75           -2.0051e-009    4.987e-010      -1.4698e-009   
  -2.8            -2.0924e-009    4.285e-010      -1.4018e-009   
  -2.85           -2.1722e-009    3.601e-010      -1.3338e-009   
  -2.9            -2.2317e-009    3.019e-010      -1.2687e-009   
  -2.95           -2.289e-009     2.8e-010        -1.1963e-009   
  -3              -2.3236e-009    2.426e-010      -1.1364e-009   
  -3.05           -2.355e-009     2.062e-010      -1.0744e-009   
  -3.1            -2.3712e-009    1.65e-010       -1.0104e-009   
  -3.15           -2.3737e-009    1.305e-010      -9.583e-010    
  -3.2            -2.3753e-009    8.94e-011       -8.99e-010     
  -3.25           -2.3723e-009    3.43e-011       -8.381e-010    
  -3.3            -4.132e-010     -8.8361e-009    3.21e-009      
  -3.35           2.4685e-009     -7.1623e-009    9.441e-010     
  -3.4            1.3431e-009     4.8812e-009     -1.679e-009    
  -3.45           -2.341e-009     5.4204e-009     -1.1216e-009   
  -3.5            -2.3607e-009    1.675e-010      -1.0619e-009   
  -3.55           -2.3727e-009    1.325e-010      -9.98e-010     
  -3.6            -2.3755e-009    9.69e-011       -9.446e-010    
  -3.65           -2.373e-009     6.11e-011       -8.841e-010    
  -3.7            -2.3701e-009    4.31e-011       -8.24e-010     
  -3.75           -4.002e-010     -8.8837e-009    3.2288e-009    
  -3.8            2.4662e-009     -7.1059e-009    9.302e-010     
  -3.85           1.3296e-009     4.9336e-009     -1.6839e-009   
  -3.9            -1.3499e-009    5.4047e-009     -1.9443e-009   
  -3.95           -1.3939e-009    1.0951e-009     -1.9042e-009   
  -4              -1.4584e-009    1.0035e-009     -1.8548e-009   
  -4.05           -1.5322e-009    9.245e-010      -1.8039e-009   
  -4.1            -1.6127e-009    8.316e-010      -1.7421e-009   
  -4.15           -1.7113e-009    7.443e-010      -1.6781e-009   
  -4.2            -1.8073e-009    6.626e-010      -1.6171e-009   
  -4.25           -1.9044e-009    5.824e-010      -1.5489e-009   
  -4.3            -2.0001e-009    5.075e-010      -1.4762e-009   
  -4.35           -2.0874e-009    4.389e-010      -1.4118e-009   
  -4.4            -2.1591e-009    3.743e-010      -1.3394e-009   
  -4.45           -2.2284e-009    3.227e-010      -1.2676e-009   
  -4.5            -2.28e-009      2.822e-010      -1.2044e-009   
  -4.55           -2.3268e-009    2.425e-010      -1.144e-009    
  -4.6            -2.3527e-009    2.03e-010       -1.0839e-009   
  -4.65           -2.3685e-009    1.669e-010      -1.0198e-009   
  -4.7            -2.3731e-009    1.321e-010      -9.619e-010    
  -4.75           -2.372e-009     9.44e-011       -9.034e-010    
  -4.8            -2.3726e-009    5.27e-011       -8.455e-010    
  -4.85           -4.261e-010     -8.8013e-009    3.2068e-009    
  -4.9            2.4676e-009     -7.2454e-009    9.458e-010     
  -4.95           1.3531e-009     4.8548e-009     -1.6774e-009   
  -5              -2.3373e-009    5.4341e-009     -1.1291e-009   
END_DB

BEGIN_DB
 ICCAP_VAR VG         -1             
 ICCAP_VAR VS         0              
 ICCAP_VAR VB         0              

 #VD              ID              IB              IG             
  0               -5.4061e-009    -6.552e-009     4.058e-010     
  -0.05           -2.5455e-007    -1.0862e-008    3.676e-010     
  -0.1            -3.2063e-007    -5.378e-009     1.9192e-009    
  -0.15           -3.4582e-007    -7.21e-009      1.696e-009     
  -0.2            -3.6125e-007    -9e-009         1.5399e-009    
  -0.25           -3.7299e-007    -9.151e-009     1.4467e-009    
  -0.3            -3.8529e-007    -9.047e-009     1.3906e-009    
  -0.35           -3.97e-007      -9.825e-009     1.3548e-009    
  -0.4            -4.0717e-007    -1.0619e-008    1.3247e-009    
  -0.45           -4.0694e-007    -4.679e-009     2.0458e-009    
  -0.5            -4.17e-007      -6.478e-009     1.7878e-009    
  -0.55           -4.264e-007     -8.523e-009     1.6027e-009    
  -0.6            -4.372e-007     -9.129e-009     1.4826e-009    
  -0.65           -4.4267e-007    -8.871e-009     1.4123e-009    
  -0.7            -4.5064e-007    -9.506e-009     1.3718e-009    
  -0.75           -4.5987e-007    -9.994e-009     1.3391e-009    
  -0.8            -4.6815e-007    -1.1649e-008    3.3736e-009    
  -0.85           -4.6753e-007    -8.448e-009     1.5744e-009    
  -0.9            -4.7476e-007    -8.947e-009     1.4661e-009    
  -0.95           -4.8319e-007    -8.822e-009     1.4052e-009    
  -1              -4.8958e-007    -9.69e-009      1.3626e-009    
  -1.05           -4.9833e-007    -1.026e-008     1.3335e-009    
  -1.1            -4.9742e-007    -4.168e-009     2.1257e-009    
  -1.15           -5.0261e-007    -6.095e-009     1.8589e-009    
  -1.2            -5.0894e-007    -8.019e-009     1.6499e-009    
  -1.25           -5.1671e-007    -9.251e-009     1.511e-009     
  -1.3            -5.219e-007     -8.75e-009      1.4293e-009    
  -1.35           -5.2917e-007    -9.226e-009     1.3806e-009    
  -1.4            -5.3666e-007    -9.752e-009     1.3472e-009    
  -1.45           -5.4364e-007    -1.0955e-008    3.3948e-009    
  -1.5            -5.4187e-007    -8.128e-009     1.617e-009     
  -1.55           -5.4722e-007    -9.089e-009     1.4905e-009    
  -1.6            -5.532e-007     -9.07e-009      1.4183e-009    
  -1.65           -5.5911e-007    -9.419e-009     1.373e-009     
  -1.7            -5.6837e-007    -9.948e-009     1.3393e-009    
  -1.75           -5.7393e-007    -1.1289e-008    3.3804e-009    
  -1.8            -5.7178e-007    -8.418e-009     1.5874e-009    
  -1.85           -5.8051e-007    -9.149e-009     1.4772e-009    
  -1.9            -5.8245e-007    -9.199e-009     1.4071e-009    
  -1.95           -5.8952e-007    -9.254e-009     1.3665e-009    
  -2              -5.9726e-007    -1.0078e-008    1.335e-009     
  -2.05           -6.0245e-007    -1.1631e-008    3.3666e-009    
  -2.1            -5.9779e-007    -8.89e-009      1.5639e-009    
  -2.15           -6.0312e-007    -9.148e-009     1.4592e-009    
  -2.2            -6.0961e-007    -9.044e-009     1.3985e-009    
  -2.25           -6.1488e-007    -9.484e-009     1.3597e-009    
  -2.3            -6.2232e-007    -1.0529e-008    1.3286e-009    
  -2.35           -6.1637e-007    -4.452e-009     2.0963e-009    
  -2.4            -6.2271e-007    -6.11e-009      1.8289e-009    
  -2.45           -6.2817e-007    -7.844e-009     1.632e-009     
  -2.5            -6.3297e-007    -9.091e-009     1.5004e-009    
  -2.55           -6.394e-007     -8.945e-009     1.4233e-009    
  -2.6            -6.4213e-007    -9.149e-009     1.376e-009     
  -2.65           -6.485e-007     -9.791e-009     1.3422e-009    
  -2.7            -6.5136e-007    -1.1183e-008    3.3828e-009    
  -2.75           -6.5161e-007    -8.501e-009     1.6061e-009    
  -2.8            -6.5376e-007    -9.274e-009     1.4834e-009    
  -2.85           -6.5821e-007    -9.161e-009     1.4137e-009    
  -2.9            -6.6629e-007    -9.515e-009     1.3706e-009    
  -2.95           -6.7288e-007    -1.0275e-008    1.3371e-009    
  -3              -6.7554e-007    -1.1762e-008    3.3694e-009    
  -3.05           -6.7052e-007    -8.696e-009     1.5761e-009    
  -3.1            -6.7567e-007    -9.317e-009     1.4651e-009    
  -3.15           -6.7864e-007    -8.924e-009     1.4022e-009    
  -3.2            -6.8613e-007    -9.653e-009     1.363e-009     
  -3.25           -6.9456e-007    -1.0415e-008    1.332e-009     
  -3.3            -7.0045e-007    -1.1967e-008    3.3534e-009    
  -3.35           -6.914e-007     -8.918e-009     1.551e-009     
  -3.4            -6.957e-007     -9.046e-009     1.4501e-009    
  -3.45           -7.0339e-007    -8.969e-009     1.3937e-009    
  -3.5            -7.1177e-007    -9.583e-009     1.3569e-009    
  -3.55           -7.1707e-007    -1.0549e-008    1.3274e-009    
  -3.6            -7.0934e-007    -4.423e-009     2.0666e-009    
  -3.65           -7.1482e-007    -6.262e-009     1.8027e-009    
  -3.7            -7.1706e-007    -8.078e-009     1.6163e-009    
  -3.75           -7.2291e-007    -8.993e-009     1.4923e-009    
  -3.8            -7.3159e-007    -8.998e-009     1.4166e-009    
  -3.85           -7.3561e-007    -9.34e-009      1.3725e-009    
  -3.9            -7.4374e-007    -9.811e-009     1.3411e-009    
  -3.95           -7.4815e-007    -1.1472e-008    3.3789e-009    
  -4              -7.4268e-007    -8.51e-009      1.5839e-009    
  -4.05           -7.4617e-007    -8.991e-009     1.4733e-009    
  -4.1            -7.5163e-007    -8.786e-009     1.408e-009     
  -4.15           -7.566e-007     -9.333e-009     1.3676e-009    
  -4.2            -7.6461e-007    -1.0176e-008    1.3349e-009    
  -4.25           -7.7061e-007    -1.1683e-008    3.3642e-009    
  -4.3            -7.6331e-007    -8.73e-009      1.5557e-009    
  -4.35           -7.674e-007     -9.126e-009     1.4559e-009    
  -4.4            -7.7369e-007    -8.99e-009      1.3974e-009    
  -4.45           -7.7962e-007    -9.766e-009     1.3588e-009    
  -4.5            -7.8914e-007    -1.0402e-008    1.3295e-009    
  -4.55           -7.7805e-007    -4.424e-009     2.0854e-009    
  -4.6            -7.8214e-007    -6.244e-009     1.8194e-009    
  -4.65           -7.8863e-007    -8.096e-009     1.6254e-009    
  -4.7            -7.9248e-007    -8.62e-009      1.4958e-009    
  -4.75           -7.9796e-007    -8.764e-009     1.4209e-009    
  -4.8            -8.0595e-007    -9.022e-009     1.3747e-009    
  -4.85           -8.1529e-007    -1.0117e-008    1.3419e-009    
  -4.9            -8.1703e-007    -1.1265e-008    3.3817e-009    
  -4.95           -8.1058e-007    -8.342e-009     1.5925e-009    
  -5              -8.1532e-007    -9.289e-009     1.4804e-009    
END_DB

BEGIN_DB
 ICCAP_VAR VG         -2             
 ICCAP_VAR VS         0              
 ICCAP_VAR VB         0              

 #VD              ID              IB              IG             
  0               -4.4584e-007    -7.58e-009      2.8542e-009    
  -0.05           -4.3025e-005    -1.0538e-008    -1.571e-010    
  -0.1            -8.4259e-005    -3.47e-009      2.3013e-009    
  -0.15           -0.00012428     -5.333e-009     1.5004e-009    
  -0.2            -0.00016308     -1.0658e-008    1.3301e-009    
  -0.25           -0.00020037     -9.038e-009     1.5413e-009    
  -0.3            -0.00023627     -1.0162e-008    1.3442e-009    
  -0.35           -0.00027049     -8.283e-009     1.6099e-009    
  -0.4            -0.00030302     -9.952e-009     1.361e-009     
  -0.45           -0.00033378     -7.445e-009     1.6912e-009    
  -0.5            -0.00036272     -9.414e-009     1.3745e-009    
  -0.55           -0.00038953     -6.521e-009     1.7994e-009    
  -0.6            -0.00041426     -9.395e-009     1.3928e-009    
  -0.65           -0.00043661     -5.442e-009     1.9205e-009    
  -0.7            -0.00045687     -8.852e-009     1.4166e-009    
  -0.75           -0.00047454     -4.753e-009     2.051e-009     
  -0.8            -0.00049009     -9.117e-009     1.4478e-009    
  -0.85           -0.00050354     -1.141e-008     3.3914e-009    
  -0.9            -0.00051474     -8.973e-009     1.3875e-009    
  -0.95           -0.0005239      -5.887e-009     1.8666e-009    
  -1              -0.00053204     -8.892e-009     1.4083e-009    
  -1.05           -0.00053855     -4.945e-009     1.9969e-009    
  -1.1            -0.00054424     -9.037e-009     1.4397e-009    
  -1.15           -0.00054893     -4.421e-009     2.1454e-009    
  -1.2            -0.00055323     -9.208e-009     1.473e-009     
  -1.25           -0.00055712     -1.0892e-008    1.3268e-009    
  -1.3            -0.00055992     -9.128e-009     1.5228e-009    
  -1.35           -0.00056296     -1.0289e-008    1.3381e-009    
  -1.4            -0.00056517     -8.73e-009      1.5784e-009    
  -1.45           -0.00056763     -9.815e-009     1.3526e-009    
  -1.5            -0.00056962     -7.936e-009     1.659e-009     
  -1.55           -0.00057159     -9.51e-009      1.3694e-009    
  -1.6            -0.0005733      -6.865e-009     1.7509e-009    
  -1.65           -0.00057525     -9.163e-009     1.3878e-009    
  -1.7            -0.0005767      -5.971e-009     1.8671e-009    
  -1.75           -0.0005783      -8.966e-009     1.4071e-009    
  -1.8            -0.00057967     -4.949e-009     1.9956e-009    
  -1.85           -0.0005811      -9.166e-009     1.4404e-009    
  -1.9            -0.00058236     -4.006e-009     2.1393e-009    
  -1.95           -0.00058385     -9.096e-009     1.4708e-009    
  -2              -0.0005854      -1.0894e-008    1.3256e-009    
  -2.05           -0.0005862      -9.185e-009     1.5208e-009    
  -2.1            -0.00058778     -1.0334e-008    1.3391e-009    
  -2.15           -0.00058856     -8.58e-009      1.5854e-009    
  -2.2            -0.0005897      -9.744e-009     1.355e-009     
  -2.25           -0.00059086     -7.909e-009     1.6635e-009    
  -2.3            -0.00059186     -9.477e-009     1.371e-009     
  -2.35           -0.00059283     -6.897e-009     1.7543e-009    
  -2.4            -0.00059402     -9.286e-009     1.3874e-009    
  -2.45           -0.00059482     -5.71e-009      1.8695e-009    
  -2.5            -0.00059587     -8.958e-009     1.4099e-009    
  -2.55           -0.00059658     -4.743e-009     1.9977e-009    
  -2.6            -0.00059748     -8.782e-009     1.4377e-009    
  -2.65           -0.00059831     -4.213e-009     2.1405e-009    
  -2.7            -0.00059942     -9.22e-009      1.4766e-009    
  -2.75           -0.00060052     -1.1098e-008    1.3285e-009    
  -2.8            -0.00060107     -9.183e-009     1.5217e-009    
  -2.85           -0.00060209     -1.0381e-008    1.3401e-009    
  -2.9            -0.00060248     -8.824e-009     1.589e-009     
  -2.95           -0.00060341     -9.739e-009     1.3547e-009    
  -3              -0.00060412     -8.043e-009     1.6676e-009    
  -3.05           -0.00060483     -9.55e-009      1.3721e-009    
  -3.1            -0.00060555     -6.807e-009     1.7629e-009    
  -3.15           -0.00060631     -9.169e-009     1.3894e-009    
  -3.2            -0.00060682     -5.776e-009     1.8768e-009    
  -3.25           -0.00060767     -8.986e-009     1.4113e-009    
  -3.3            -0.00060813     -4.98e-009      2.0074e-009    
  -3.35           -0.00060899     -9.042e-009     1.4403e-009    
  -3.4            -0.00060954     -4.215e-009     2.1448e-009    
  -3.45           -0.0006103      -8.943e-009     1.4752e-009    
  -3.5            -0.00061117     -1.0968e-008    1.3284e-009    
  -3.55           -0.00061136     -8.979e-009     1.5241e-009    
  -3.6            -0.00061232     -1.0352e-008    1.3429e-009    
  -3.65           -0.00061243     -8.49e-009      1.5828e-009    
  -3.7            -0.00061328     -9.946e-009     1.3565e-009    
  -3.75           -0.00061368     -7.812e-009     1.6661e-009    
  -3.8            -0.00061439     -9.379e-009     1.372e-009     
  -3.85           -0.00061475     -6.768e-009     1.7623e-009    
  -3.9            -0.00061555     -9.137e-009     1.3896e-009    
  -3.95           -0.00061583     -5.734e-009     1.874e-009     
  -4              -0.00061656     -9.041e-009     1.4123e-009    
  -4.05           -0.00061696     -4.762e-009     2.0066e-009    
  -4.1            -0.00061757     -8.946e-009     1.4408e-009    
  -4.15           -0.00061804     -4.066e-009     2.1546e-009    
