! VERSION = 6.00
BEGIN_HEADER
 ICCAP_INPUTS
  VG         V  B GROUND SMU4 0.001 LIN        2    0          -5         6    -1        
  VS         V  E GROUND SMU2 0.1 CON        0
  VD         V  S GROUND SMU1 0.1 LIN        1    0          -5         101  -0.05     
  VB         V  C GROUND SMU3 0.1 LIN        3    0          2.5        2    2.5       
 ICCAP_OUTPUTS
  ID         I  S GROUND SMU1 B
  IB         I  C GROUND SMU3 B
  IG         I  B GROUND SMU4 B
END_HEADER

BEGIN_DB
 ICCAP_VAR VG         0              
 ICCAP_VAR VS         0              
 ICCAP_VAR VB         0              

 #VD              ID              IB              IG             
  0               -1.5187e-009    -1.2065e-008    -2.0913e-009   
  -0.05           -4.38e-010      -2.4239e-008    1.5311e-009    
  -0.1            2.7114e-009     -6.245e-009     1.7008e-009    
  -0.15           5.501e-010      8.751e-009      -1.9306e-009   
  -0.2            7.561e-010      9.006e-009      -1.8232e-009   
  -0.25           -1.499e-009     4.954e-009      -3.0062e-009   
  -0.3            2.3e-012        -1.4954e-008    1.6494e-009    
  -0.35           -1.642e-010     -2.0684e-008    1.6126e-009    
  -0.4            -3.938e-010     -2.3909e-008    1.5457e-009    
  -0.45           -6.181e-010     -2.4462e-008    3.5587e-009    
  -0.5            2.7889e-009     -4.79e-009      1.5654e-009    
  -0.55           4.37e-010       8.461e-009      -1.9836e-009   
  -0.6            6.496e-010      8.921e-009      -1.8794e-009   
  -0.65           8.561e-010      9.268e-009      -2.9574e-009   
  -0.7            -4.346e-010     -2.4013e-008    1.5298e-009    
  -0.75           2.7111e-009     -6.124e-009     1.6886e-009    
  -0.8            5.478e-010      8.71e-009       -1.934e-009    
  -0.85           7.48e-010       9.076e-009      -1.8281e-009   
  -0.9            -1.4975e-009    4.947e-009      -2.9906e-009   
  -0.95           6.5e-012        -1.5052e-008    1.6489e-009    
  -1              -1.601e-010     -2.0232e-008    1.6121e-009    
  -1.05           -3.944e-010     -2.3879e-008    1.5442e-009    
  -1.1            -6.152e-010     -2.4386e-008    3.5714e-009    
  -1.15           2.7983e-009     -4.682e-009     1.5563e-009    
  -1.2            4.333e-010      8.401e-009      -1.9846e-009   
  -1.25           6.453e-010      8.881e-009      -1.8779e-009   
  -1.3            8.484e-010      9.233e-009      -2.9458e-009   
  -1.35           -4.268e-010     -2.4152e-008    1.5328e-009    
  -1.4            2.7131e-009     -5.973e-009     1.6855e-009    
  -1.45           5.412e-010      8.67e-009       -1.9331e-009   
  -1.5            7.459e-010      9.058e-009      -1.8263e-009   
  -1.55           -1.497e-009     4.966e-009      -2.9875e-009   
  -1.6            5.5e-012        -1.5165e-008    1.6485e-009    
  -1.65           -1.593e-010     -2.0276e-008    1.6124e-009    
  -1.7            -3.824e-010     -2.379e-008     1.5461e-009    
  -1.75           -6.155e-010     -2.4354e-008    3.5573e-009    
  -1.8            2.7945e-009     -4.928e-009     1.5582e-009    
  -1.85           4.311e-010      8.412e-009      -1.9841e-009   
  -1.9            6.477e-010      8.86e-009       -1.8812e-009   
  -1.95           8.545e-010      9.243e-009      -2.9632e-009   
  -2              -4.322e-010     -2.3891e-008    1.5299e-009    
  -2.05           2.7102e-009     -5.961e-009     1.6913e-009    
  -2.1            5.424e-010      8.658e-009      -1.9334e-009   
  -2.15           7.527e-010      9.03e-009       -1.8288e-009   
  -2.2            -1.4967e-009    4.973e-009      -2.9905e-009   
  -2.25           5.9e-012        -1.4903e-008    1.648e-009     
  -2.3            -1.655e-010     -2.0224e-008    1.6127e-009    
  -2.35           -3.962e-010     -2.3803e-008    1.5427e-009    
  -2.4            -6.149e-010     -2.4174e-008    3.5647e-009    
  -2.45           2.7963e-009     -4.709e-009     1.5701e-009    
  -2.5            4.304e-010      8.412e-009      -1.9809e-009   
  -2.55           6.5e-010        8.915e-009      -1.8705e-009   
  -2.6            8.551e-010      9.314e-009      -1.7629e-009   
  -2.65           -2.0485e-009    5.119e-009      -1.9884e-009   
  -2.7            2.2e-011        -1.4454e-008    1.6511e-009    
  -2.75           -1.323e-010     -1.9584e-008    1.6182e-009    
  -2.8            -3.612e-010     -2.3721e-008    1.5542e-009    
  -2.85           -5.865e-010     -2.4392e-008    3.604e-009     
  -2.9            2.8139e-009     -4.357e-009     1.5286e-009    
  -2.95           4.011e-010      8.282e-009      -1.996e-009    
  -3              6.215e-010      8.86e-009       -1.8948e-009   
  -3.05           8.29e-010       9.193e-009      -1.7883e-009   
  -3.1            -1.4827e-009    5.085e-009      -3.084e-009    
  -3.15           -4.77e-011      -1.6932e-008    1.6374e-009    
  -3.2            -2.498e-010     -2.1962e-008    1.5891e-009    
  -3.25           -4.803e-010     -2.4368e-008    1.5108e-009    
  -3.3            2.6628e-009     -6.787e-009     1.7449e-009    
  -3.35           5.922e-010      8.764e-009      -1.9106e-009   
  -3.4            7.991e-010      9.145e-009      -1.8036e-009   
  -3.45           -1.4884e-009    5.055e-009      -3.0513e-009   
  -3.5            -3.88e-011      -1.6154e-008    1.6415e-009    
  -3.55           -2.231e-010     -2.1514e-008    1.5997e-009    
  -3.6            -4.548e-010     -2.4215e-008    1.5228e-009    
  -3.65           2.6948e-009     -6.514e-009     1.7019e-009    
  -3.7            5.629e-010      8.705e-009      -1.9276e-009   
  -3.75           7.682e-010      9.122e-009      -1.8173e-009   
  -3.8            -1.4945e-009    5.018e-009      -3.018e-009    
  -3.85           -1.55e-011      -1.5422e-008    1.6449e-009    
  -3.9            -1.873e-010     -2.0709e-008    1.6055e-009    
  -3.95           -4.204e-010     -2.4007e-008    1.5336e-009    
  -4              2.7186e-009     -5.927e-009     1.6759e-009    
  -4.05           5.333e-010      8.65e-009       -1.9358e-009   
  -4.1            7.403e-010      9.029e-009      -1.8271e-009   
  -4.15           -1.4986e-009    5.014e-009      -2.9848e-009   
  -4.2            5.3e-012        -1.4931e-008    1.6481e-009    
  -4.25           -1.552e-010     -2.0414e-008    1.6148e-009    
  -4.3            -3.838e-010     -2.3695e-008    1.5491e-009    
  -4.35           -6.111e-010     -2.4382e-008    3.5682e-009    
  -4.4            2.7971e-009     -4.616e-009     1.5593e-009    
  -4.45           4.324e-010      8.386e-009      -1.985e-009    
  -4.5            6.462e-010      8.846e-009      -1.8816e-009   
  -4.55           8.5e-010        9.227e-009      -2.9594e-009   
  -4.6            -4.301e-010     -2.394e-008     1.5289e-009    
  -4.65           2.7048e-009     -5.939e-009     1.6866e-009    
  -4.7            5.435e-010      8.708e-009      -1.9282e-009   
  -4.75           7.592e-010      9.073e-009      -1.8176e-009   
  -4.8            -1.4955e-009    4.955e-009      -3.0007e-009   
  -4.85           -4e-013         -1.5096e-008    1.6482e-009    
  -4.9            -1.656e-010     -2.04e-008      1.6106e-009    
  -4.95           -3.991e-010     -2.3759e-008    1.5431e-009    
  -5              -6.213e-010     -2.4118e-008    3.5415e-009    
END_DB

BEGIN_DB
 ICCAP_VAR VG         -1             
 ICCAP_VAR VS         0              
 ICCAP_VAR VB         0              

 #VD              ID              IB              IG             
  0               -3.2899e-009    -1.1675e-008    -3.452e-010    
  -0.05           -3.6078e-008    7.73e-009       3.627e-009     
  -0.1            -4.6182e-008    -1.0432e-008    1.6565e-009    
  -0.15           -5.004e-008     -2.0823e-008    1.5021e-009    
  -0.2            -5.0974e-008    -1.0851e-008    1.6536e-009    
  -0.25           -5.3315e-008    -2.2289e-008    3.6358e-009    
  -0.3            -5.4207e-008    -1.3622e-008    1.617e-009     
  -0.35           -5.6062e-008    -2.459e-008     3.2893e-009    
  -0.4            -5.7139e-008    -1.8491e-008    1.548e-009     
  -0.45           -5.8065e-008    -1.0564e-008    1.6585e-009    
  -0.5            -5.8503e-008    -2.0043e-008    1.519e-009     
  -0.55           -6.0529e-008    -1.077e-008     1.6539e-009    
  -0.6            -6.1348e-008    -2.1526e-008    1.488e-009     
  -0.65           -6.136e-008     -1.1286e-008    1.6491e-009    
  -0.7            -6.3711e-008    -2.2776e-008    3.5878e-009    
  -0.75           -6.4269e-008    -1.4056e-008    1.6081e-009    
  -0.8            -6.5402e-008    -2.4587e-008    3.2278e-009    
  -0.85           -6.5839e-008    -1.9324e-008    1.5354e-009    
  -0.9            -6.5918e-008    -1.0492e-008    1.6556e-009    
  -0.95           -6.8203e-008    -2.0874e-008    1.5041e-009    
  -1              -6.8498e-008    -1.1009e-008    1.6523e-009    
  -1.05           -6.9856e-008    -2.2099e-008    3.6417e-009    
  -1.1            -6.961e-008     -1.3749e-008    1.6175e-009    
  -1.15           -7.1231e-008    -2.4532e-008    3.2985e-009    
  -1.2            -7.1278e-008    -1.8098e-008    1.548e-009     
  -1.25           -7.1573e-008    -1.0586e-008    1.6587e-009    
  -1.3            -7.376e-008     -1.9885e-008    1.5208e-009    
  -1.35           -7.3737e-008    -1.0776e-008    1.6552e-009    
  -1.4            -7.4484e-008    -2.1356e-008    3.6762e-009    
  -1.45           -7.5267e-008    -1.3018e-008    1.625e-009     
  -1.5            -7.5943e-008    -2.435e-008     3.3557e-009    
  -1.55           -7.7055e-008    -1.749e-008     1.5631e-009    
  -1.6            -7.6448e-008    -1.0557e-008    1.6568e-009    
  -1.65           -7.8591e-008    -1.913e-008     1.5377e-009    
  -1.7            -7.7731e-008    -1.0578e-008    1.6567e-009    
  -1.75           -7.9727e-008    -2.0799e-008    1.5077e-009    
  -1.8            -7.9778e-008    -1.0939e-008    1.6526e-009    
  -1.85           -8.1002e-008    -2.1781e-008    3.6338e-009    
  -1.9            -8.107e-008     -1.3554e-008    1.6179e-009    
  -1.95           -8.2571e-008    -2.4206e-008    3.2931e-009    
  -2              -8.2674e-008    -1.8211e-008    1.5494e-009    
  -2.05           -8.2006e-008    -1.0549e-008    1.6571e-009    
  -2.1            -8.5492e-008    -1.9846e-008    1.5226e-009    
  -2.15           -8.2183e-008    -1.0636e-008    1.6545e-009    
  -2.2            -8.4221e-008    -2.1287e-008    1.4912e-009    
  -2.25           -8.5654e-008    -1.1256e-008    1.6474e-009    
  -2.3            -8.6638e-008    -2.2745e-008    3.5872e-009    
  -2.35           -8.6126e-008    -1.3949e-008    1.6056e-009    
  -2.4            -8.7158e-008    -2.4441e-008    3.2242e-009    
  -2.45           -8.8086e-008    -1.9236e-008    1.5318e-009    
  -2.5            -8.8896e-008    -1.0575e-008    1.6536e-009    
  -2.55           -8.9078e-008    -2.0672e-008    1.5013e-009    
  -2.6            -8.8259e-008    -1.102e-008     1.6513e-009    
  -2.65           -9.0467e-008    -2.2045e-008    3.6366e-009    
  -2.7            -9.0185e-008    -1.3357e-008    1.6137e-009    
  -2.75           -9.1134e-008    -2.4316e-008    3.2987e-009    
  -2.8            -9.1293e-008    -1.8103e-008    1.5435e-009    
  -2.85           -9.1458e-008    -1.0527e-008    1.6588e-009    
  -2.9            -9.1069e-008    -2.0156e-008    1.5179e-009    
  -2.95           -9.1925e-008    -1.0834e-008    1.6545e-009    
  -3              -9.415e-008     -2.1386e-008    1.4883e-009    
  -3.05           -9.3106e-008    -1.1386e-008    1.6465e-009    
  -3.1            -9.366e-008     -2.2647e-008    3.5861e-009    
  -3.15           -9.512e-008     -1.4063e-008    1.6063e-009    
  -3.2            -9.5549e-008    -2.4499e-008    3.2185e-009    
  -3.25           -9.5967e-008    -1.9219e-008    1.5322e-009    
  -3.3            -9.4823e-008    -1.0646e-008    1.657e-009     
  -3.35           -9.676e-008     -2.0896e-008    1.5024e-009    
  -3.4            -9.6862e-008    -1.1022e-008    1.6505e-009    
  -3.45           -9.7833e-008    -2.2135e-008    3.6306e-009    
  -3.5            -9.722e-008     -1.3643e-008    1.6126e-009    
  -3.55           -9.8718e-008    -2.452e-008     3.2801e-009    
  -3.6            -9.8917e-008    -1.8123e-008    1.5442e-009    
  -3.65           -9.7429e-008    -1.0659e-008    1.656e-009     
  -3.7            -1.00192e-007   -1.9884e-008    1.5144e-009    
  -3.75           -9.9531e-008    -1.0724e-008    1.6532e-009    
  -3.8            -1.01216e-007   -2.1502e-008    1.4846e-009    
  -3.85           -1.00125e-007   -1.1447e-008    1.6466e-009    
  -3.9            -1.01878e-007   -2.2789e-008    3.5849e-009    
  -3.95           -1.02131e-007   -1.4225e-008    1.6027e-009    
  -4              -1.04028e-007   -2.4398e-008    3.2134e-009    
  -4.05           -1.02424e-007   -1.9163e-008    1.5307e-009    
  -4.1            -1.05715e-007   -1.0489e-008    1.6552e-009    
  -4.15           -1.05654e-007   -2.0883e-008    1.499e-009     
  -4.2            -1.04367e-007   -1.0988e-008    1.6496e-009    
  -4.25           -9.815e-008     -2.2075e-008    -4.92e-011     
  -4.3            -1.05695e-007   8.966e-009      -2.991e-010    
  -4.35           -1.07458e-007   -2.076e-008     1.5037e-009    
  -4.4            -1.04852e-007   -1.1175e-008    1.6468e-009    
  -4.45           -1.0492e-007    -1.067e-008     1.6592e-009    
  -4.5            -1.0661e-007    -1.0665e-008    1.6543e-009    
  -4.55           -1.0805e-007    -1.27e-008      1.6303e-009    
  -4.6            -1.0834e-007    -1.5541e-008    1.5818e-009    
  -4.65           -1.0914e-007    -2.0229e-008    1.5152e-009    
  -4.7            -1.0976e-007    -2.345e-008     3.5131e-009    
  -4.75           -1.0856e-007    -1.0491e-008    1.657e-009     
  -4.8            -1.0958e-007    -1.141e-008     1.6448e-009    
  -4.85           -1.1066e-007    -1.3703e-008    1.6124e-009    
  -4.9            -1.1191e-007    -1.7423e-008    1.5567e-009    
  -4.95           -1.1186e-007    -2.1674e-008    1.4814e-009    
  -5              -1.1211e-007    -2.4282e-008    3.4052e-009    
END_DB

BEGIN_DB
 ICCAP_VAR VG         -2             
 ICCAP_VAR VS         0              
 ICCAP_VAR VB         0              

 #VD              ID              IB              IG             
  0               -1.7985e-007    -1.0565e-008    3.9434e-009    
  -0.05           -9.9387e-006    8.402e-009      3.4251e-009    
  -0.1            -1.9364e-005    -1.2973e-008    -3.307e-010    
  -0.15           -2.8502e-005    -2.443e-008     3.3227e-009    
  -0.2            -3.7311e-005    -1.4901e-008    1.6193e-009    
  -0.25           -4.5744e-005    -2.4236e-008    3.449e-009     
  -0.3            -5.3809e-005    -1.3179e-008    1.6361e-009    
  -0.35           -6.144e-005     -2.3399e-008    3.5557e-009    
  -0.4            -6.8677e-005    -1.2441e-008    1.6507e-009    
  -0.45           -7.5416e-005    -2.2271e-008    3.6548e-009    
  -0.5            -8.1695e-005    -1.1585e-008    1.6626e-009    
  -0.55           -8.747e-005     -2.1206e-008    1.5236e-009    
  -0.6            -9.2679e-005    -1.1061e-008    1.684e-009     
  -0.65           -9.7419e-005    -1.2891e-008    1.6428e-009    
  -0.7            -0.000101525    -2.3146e-008    3.5985e-009    
  -0.75           -0.000105109    -1.2232e-008    1.6574e-009    
  -0.8            -0.000108174    -2.1583e-008    1.5052e-009    
  -0.85           -0.000110706    -1.0912e-008    1.6806e-009    
  -0.9            -0.000112945    -1.3659e-008    1.6325e-009    
  -0.95           -0.00011421     -2.3622e-008    -2.1714e-009   
  -1              -0.00011612     -1.3199e-008    1.6402e-009    
  -1.05           -0.00011738     -2.4467e-008    3.3502e-009    
  -1.1            -0.00011846     -1.782e-008     1.5763e-009    
  -1.15           -0.00011926     -1.0778e-008    1.6842e-009    
  -1.2            -0.00012016     -1.6025e-008    1.6018e-009    
  -1.25           -0.00012077     -2.4326e-008    3.0553e-009    
  -1.3            -0.00012145     -2.1274e-008    1.5196e-009    
  -1.35           -0.00012197     -1.0461e-008    1.679e-009     
  -1.4            -0.00012256     -1.9513e-008    1.5483e-009    
  -1.45           -0.00012295     -1.0646e-008    1.6814e-009    
  -1.5            -0.00012349     -1.7988e-008    1.5767e-009    
  -1.55           -0.00012377     -1.1063e-008    1.6841e-009    
  -1.6            -0.00012427     -1.6238e-008    1.6012e-009    
  -1.65           -0.00012451     -2.4248e-008    3.0323e-009    
  -1.7            -0.00012498     -2.1262e-008    1.5166e-009    
  -1.75           -0.00012524     -1.054e-008     1.6789e-009    
  -1.8            -0.00012561     -1.9919e-008    1.5429e-009    
  -1.85           -0.00012584     -1.052e-008     1.6813e-009    
  -1.9            -0.0001262      -1.8183e-008    1.5726e-009    
  -1.95           -0.0001264      -1.0983e-008    1.6832e-009    
  -2              -0.00012676     -1.6422e-008    1.5971e-009    
  -2.05           -0.00012696     -2.4041e-008    3.0204e-009    
  -2.1            -0.0001273      -2.1594e-008    1.5128e-009    
  -2.15           -0.0001275      -1.0332e-008    1.6789e-009    
  -2.2            -0.00012781     -2.0136e-008    1.5428e-009    
  -2.25           -0.00012793     -1.0707e-008    1.68e-009      
  -2.3            -0.00012824     -1.8401e-008    1.5689e-009    
  -2.35           -0.00012839     -1.0782e-008    1.6832e-009    
  -2.4            -0.00012871     -1.688e-008     1.5958e-009    
  -2.45           -0.0001288      -1.121e-008     1.6902e-009    
  -2.5            -0.00012917     -1.479e-008     1.6162e-009    
  -2.55           -0.00012921     -2.4406e-008    3.1326e-009    
  -2.6            -0.00012953     -2.0261e-008    1.5379e-009    
  -2.65           -0.00012964     -1.0502e-008    1.6806e-009    
  -2.7            -0.00012993     -1.8656e-008    1.5644e-009    
  -2.75           -0.00013        -1.0752e-008    1.6849e-009    
  -2.8            -0.00013031     -1.684e-008     1.5904e-009    
  -2.85           -0.00013037     -1.1056e-008    1.6889e-009    
  -2.9            -0.00013066     -1.5245e-008    1.6113e-009    
  -2.95           -0.00013071     -2.4513e-008    3.1237e-009    
  -3              -0.00013098     -2.052e-008     1.5342e-009    
  -3.05           -0.00013105     -1.0141e-008    1.6803e-009    
  -3.1            -0.00013128     -1.8924e-008    1.5605e-009    
  -3.15           -0.00013134     -1.0518e-008    1.6819e-009    
  -3.2            -0.00013159     -1.7433e-008    1.589e-009     
  -3.25           -0.00013163     -1.0871e-008    1.6881e-009    
  -3.3            -0.00013191     -1.5376e-008    1.6101e-009    
  -3.35           -0.00013195     -2.4419e-008    3.0961e-009    
  -3.4            -0.00013222     -2.0466e-008    1.53e-009      
  -3.45           -0.00013222     -1.0679e-008    1.6804e-009    
  -3.5            -0.00013248     -1.9059e-008    1.5556e-009    
  -3.55           -0.00013248     -1.0823e-008    1.681e-009     
  -3.6            -0.00013269     -1.7276e-008    1.5808e-009    
  -3.65           -0.00013274     -1.1132e-008    1.6873e-009    
  -3.7            -0.00013294     -1.5814e-008    1.6047e-009    
  -3.75           -0.000133       -2.4456e-008    3.0922e-009    
  -3.8            -0.00013323     -2.0841e-008    1.5207e-009    
  -3.85           -0.00013328     -1.0223e-008    1.6788e-009    
  -3.9            -0.0001335      -1.9494e-008    1.5496e-009    
  -3.95           -0.00013351     -1.0428e-008    1.6808e-009    
  -4              -0.00013373     -1.7618e-008    1.5765e-009    
  -4.05           -0.00013376     -1.1017e-008    1.6852e-009    
  -4.1            -0.00013397     -1.5614e-008    1.6043e-009    
  -4.15           -0.00013399     -2.4406e-008    3.0639e-009    
