! VERSION = 6.00
BEGIN_HEADER
 ICCAP_INPUTS
  VG         V  B GROUND SMU4 0.001 LIN        2    0          -5         6    -1        
  VS         V  E GROUND SMU3 0.1 CON        0
  VD         V  S GROUND SMU2 0.1 LIN        1    0          -10        201  -0.05     
  VB         V  C GROUND SMU1 0.1 LIN        3    0          2.5        2    2.5       
 ICCAP_OUTPUTS
  ID         I  S GROUND SMU2 B
  IB         I  C GROUND SMU1 B
  IG         I  B GROUND SMU4 B
END_HEADER

BEGIN_DB
 ICCAP_VAR VG         0              
 ICCAP_VAR VS         0              
 ICCAP_VAR VB         0              

 #VD              ID              IB              IG             
  0               -1.8216e-009    -3.7123e-009    3.416e-010     
  -0.05           -2.559e-009     1.4082e-009     -6.391e-010    
  -0.1            2.4545e-009     -3.8204e-009    8.874e-010     
  -0.15           -2.365e-009     2.9102e-009     -1.0228e-009   
  -0.2            2.0783e-009     -3.7706e-009    1.3071e-009    
  -0.25           -2.451e-009     2.6781e-009     -9.105e-010    
  -0.3            2.2254e-009     -3.6079e-009    1.1716e-009    
  -0.35           -2.4883e-009    2.4837e-009     -8.06e-010     
  -0.4            2.3468e-009     -3.772e-009     1.0575e-009    
  -0.45           -2.1349e-009    2.2997e-009     -1.2617e-009   
  -0.5            2.4322e-009     -3.7985e-009    9.546e-010     
  -0.55           -2.2778e-009    2.0975e-009     -1.1138e-009   
  -0.6            2.4604e-009     -3.8195e-009    8.555e-010     
  -0.65           -2.402e-009     2.8275e-009     -9.912e-010    
  -0.7            2.1303e-009     -3.7554e-009    1.2605e-009    
  -0.75           -2.4702e-009    2.6172e-009     -8.795e-010    
  -0.8            2.267e-009      -3.7433e-009    1.1299e-009    
  -0.85           -2.0207e-009    2.4285e-009     -1.384e-009    
  -0.9            -7.518e-010     -3.735e-009     1.6906e-009    
  -0.95           2.4824e-009     1.2389e-009     7.825e-010     
  -1              -2.4575e-009    2.6767e-009     -9.126e-010    
  -1.05           2.2262e-009     -3.6045e-009    1.1676e-009    
  -1.1            -2.4876e-009    2.4853e-009     -8.057e-010    
  -1.15           2.3482e-009     -3.7666e-009    1.0574e-009    
  -1.2            -2.1362e-009    2.3075e-009     -1.2626e-009   
  -1.25           2.4277e-009     -3.7941e-009    9.522e-010     
  -1.3            -2.279e-009     2.0962e-009     -1.1129e-009   
  -1.35           2.4668e-009     -3.804e-009     8.547e-010     
  -1.4            -2.3996e-009    2.8268e-009     -9.858e-010    
  -1.45           2.1317e-009     -3.7321e-009    1.2596e-009    
  -1.5            -2.4716e-009    2.609e-009      -8.76e-010     
  -1.55           2.2677e-009     -3.7462e-009    1.1255e-009    
  -1.6            -2.0261e-009    2.4229e-009     -1.3798e-009   
  -1.65           -7.483e-010     -3.7359e-009    1.6891e-009    
  -1.7            2.4835e-009     1.2639e-009     7.792e-010     
  -1.75           -2.4536e-009    2.6695e-009     -9.073e-010    
  -1.8            2.2292e-009     -3.7454e-009    1.1642e-009    
  -1.85           -2.4912e-009    2.4707e-009     -8.026e-010    
  -1.9            2.3513e-009     -3.7709e-009    1.05e-009      
  -1.95           -2.1409e-009    2.2892e-009     -1.2542e-009   
  -2              2.4333e-009     -3.8142e-009    9.502e-010     
  -2.05           -2.2857e-009    3.0706e-009     -1.1036e-009   
  -2.1            1.9826e-009     -3.8204e-009    1.4062e-009    
  -2.15           -2.4072e-009    2.8074e-009     -9.773e-010    
  -2.2            2.1418e-009     -3.7176e-009    1.2537e-009    
  -2.25           -2.4763e-009    2.5993e-009     -8.677e-010    
  -2.3            2.2777e-009     -3.7588e-009    1.1203e-009    
  -2.35           -2.0456e-009    2.4087e-009     -1.3652e-009   
  -2.4            -7.401e-010     -3.7438e-009    1.6946e-009    
  -2.45           2.4917e-009     1.3074e-009     7.713e-010     
  -2.5            -2.4649e-009    2.6555e-009     -8.987e-010    
  -2.55           2.2453e-009     -3.7369e-009    1.1511e-009    
  -2.6            -1.9955e-009    2.4587e-009     -1.411e-009    
  -2.65           -7.659e-010     -3.7275e-009    1.6874e-009    
  -2.7            2.4813e-009     1.175e-009      7.968e-010     
  -2.75           -2.4485e-009    2.7092e-009     -9.256e-010    
  -2.8            2.2086e-009     -3.633e-009     1.1869e-009    
  -2.85           -2.4874e-009    2.5071e-009     -8.172e-010    
  -2.9            2.3322e-009     -3.7651e-009    1.0663e-009    
  -2.95           -2.1195e-009    2.3172e-009     -1.2834e-009   
  -3              2.4231e-009     -3.8039e-009    9.664e-010     
  -3.05           -2.268e-009     2.1234e-009     -1.1267e-009   
  -3.1            2.4615e-009     -3.8202e-009    8.655e-010     
  -3.15           -2.3888e-009    2.8496e-009     -9.961e-010    
  -3.2            2.1205e-009     -3.7546e-009    1.2767e-009    
  -3.25           -2.4685e-009    2.6179e-009     -8.857e-010    
  -3.3            2.2588e-009     -3.7469e-009    1.1362e-009    
  -3.35           -2.0163e-009    2.4326e-009     -1.3903e-009   
  -3.4            -7.53e-010      -3.7388e-009    1.6911e-009    
  -3.45           2.4816e-009     1.2276e-009     7.86e-010      
  -3.5            -2.4548e-009    2.6789e-009     -9.123e-010    
  -3.55           2.2262e-009     -3.6314e-009    1.1703e-009    
  -3.6            -2.4949e-009    2.4816e-009     -8.05e-010     
  -3.65           2.3512e-009     -3.7658e-009    1.0492e-009    
  -3.7            -2.1418e-009    2.2943e-009     -1.2604e-009   
  -3.75           2.4299e-009     -3.8137e-009    9.505e-010     
  -3.8            -2.2877e-009    2.0938e-009     -1.1058e-009   
  -3.85           1.984e-009      -3.8209e-009    1.411e-009     
  -3.9            -2.408e-009     2.8101e-009     -9.757e-010    
  -3.95           2.1385e-009     -3.7197e-009    1.252e-009     
  -4              -2.4756e-009    2.5945e-009     -8.678e-010    
  -4.05           2.2843e-009     -3.75e-009      1.114e-009     
  -4.1            -2.0457e-009    2.3984e-009     -1.3554e-009   
  -4.15           -7.36e-010      -3.7407e-009    1.695e-009     
  -4.2            2.4916e-009     1.3237e-009     7.676e-010     
  -4.25           -2.4658e-009    2.6445e-009     -8.922e-010    
  -4.3            2.2489e-009     -3.7388e-009    1.1423e-009    
  -4.35           -2.0058e-009    2.4478e-009     -1.4006e-009   
  -4.4            -7.594e-010     -3.7312e-009    1.6889e-009    
  -4.45           2.4827e-009     1.2065e-009     7.896e-010     
  -4.5            -2.4513e-009    2.6936e-009     -9.187e-010    
  -4.55           2.2182e-009     -3.643e-009     1.1724e-009    
  -4.6            -2.4941e-009    2.4969e-009     -8.107e-010    
  -4.65           2.3459e-009     -3.7729e-009    1.0541e-009    
  -4.7            -2.1331e-009    2.3027e-009     -1.2642e-009   
  -4.75           2.4284e-009     -3.8102e-009    9.511e-010     
  -4.8            -2.2832e-009    2.0983e-009     -1.1092e-009   
  -4.85           1.9765e-009     -3.8165e-009    1.4168e-009    
  -4.9            -2.4055e-009    2.8112e-009     -9.801e-010    
  -4.95           2.1365e-009     -3.7427e-009    1.2519e-009    
  -5              -2.4727e-009    2.5941e-009     -8.693e-010    
  -5.05           2.2795e-009     -3.757e-009     1.1158e-009    
  -5.1            -2.0445e-009    2.4022e-009     -1.3585e-009   
  -5.15           2.395e-009      -3.7917e-009    1.0068e-009    
  -5.2            -2.2048e-009    2.2046e-009     -1.1885e-009   
  -5.25           2.4476e-009     -3.8141e-009    9.044e-010     
  -5.3            -2.3449e-009    2.9587e-009     -1.0463e-009   
  -5.35           2.0565e-009     -3.788e-009     1.3365e-009    
  -5.4            -2.4462e-009    2.7067e-009     -9.28e-010     
  -5.45           2.2099e-009     -3.6448e-009    1.1842e-009    
  -5.5            -2.4903e-009    2.502e-009      -8.171e-010    
  -5.55           2.3363e-009     -3.7658e-009    1.0642e-009    
  -5.6            -2.1227e-009    2.313e-009      -1.2733e-009   
  -5.65           2.4263e-009     -3.8114e-009    9.626e-010     
  -5.7            -2.2762e-009    2.1058e-009     -1.1202e-009   
  -5.75           2.4644e-009     -3.8042e-009    8.578e-010     
  -5.8            -2.3973e-009    2.8303e-009     -9.91e-010     
  -5.85           2.1269e-009     -3.7289e-009    1.2643e-009    
  -5.9            -2.4691e-009    2.6036e-009     -8.77e-010     
  -5.95           2.2699e-009     -3.754e-009     1.1245e-009    
  -6              -2.0328e-009    2.4147e-009     -1.3752e-009   
  -6.05           -7.436e-010     -3.742e-009     1.6941e-009    
  -6.1            2.4942e-009     1.2849e-009     7.748e-010     
  -6.15           -2.4582e-009    2.6563e-009     -9.023e-010    
  -6.2            2.2425e-009     -3.75e-009      1.1529e-009    
  -6.25           -2.498e-009     2.4643e-009     -7.924e-010    
  -6.3            2.3601e-009     -3.7753e-009    1.0388e-009    
  -6.35           -2.1598e-009    2.2691e-009     -1.2385e-009   
  -6.4            2.4363e-009     -3.81e-009      9.372e-010     
  -6.45           -2.3027e-009    3.0369e-009     -1.0887e-009   
  -6.5            2.0004e-009     -3.8078e-009    1.3897e-009    
  -6.55           -2.4172e-009    2.7772e-009     -9.629e-010    
  -6.6            2.162e-009      -3.7001e-009    1.2281e-009    
  -6.65           -2.48e-009      2.5663e-009     -8.523e-010    
  -6.7            2.2955e-009     -3.7519e-009    1.1003e-009    
  -6.75           -2.0746e-009    2.3797e-009     -1.3345e-009   
  -6.8            2.4021e-009     -3.7906e-009    9.904e-010     
  -6.85           -2.2277e-009    2.179e-009      -1.17e-009     
  -6.9            2.4537e-009     -3.8205e-009    8.932e-010     
  -6.95           -2.3546e-009    2.9254e-009     -1.0303e-009   
  -7              2.0779e-009     -3.7809e-009    1.3132e-009    
  -7.05           -2.45e-009      2.6816e-009     -9.13e-010     
  -7.1            2.2244e-009     -3.6209e-009    1.1691e-009    
  -7.15           -2.4918e-009    2.486e-009      -8.045e-010    
  -7.2            2.3453e-009     -3.7711e-009    1.0541e-009    
  -7.25           -2.1403e-009    2.2875e-009     -1.2596e-009   
  -7.3            2.4281e-009     -3.8039e-009    9.521e-010     
  -7.35           -2.2838e-009    2.0911e-009     -1.107e-009    
  -7.4            1.9817e-009     -3.82e-009      1.4107e-009    
  -7.45           -2.407e-009     2.8051e-009     -9.806e-010    
  -7.5            2.1448e-009     -3.7255e-009    1.2499e-009    
  -7.55           -2.4733e-009    2.5922e-009     -8.637e-010    
  -7.6            2.2785e-009     -3.755e-009     1.1149e-009    
  -7.65           -2.05e-009      2.3979e-009     -1.3573e-009   
  -7.7            2.3895e-009     -3.7813e-009    1.006e-009     
  -7.75           -2.2053e-009    2.2052e-009     -1.1894e-009   
  -7.8            2.4473e-009     -3.8063e-009    9.067e-010     
  -7.85           -2.34e-009      2.9563e-009     -1.0446e-009   
  -7.9            2.0579e-009     -3.7765e-009    1.3379e-009    
  -7.95           -2.4429e-009    2.7029e-009     -9.259e-010    
  -8              2.2097e-009     -3.6291e-009    1.1834e-009    
  -8.05           -2.489e-009     2.5004e-009     -8.175e-010    
  -8.1            2.3306e-009     -3.7702e-009    1.064e-009     
  -8.15           -2.1254e-009    2.3116e-009     -1.2799e-009   
  -8.2            2.4215e-009     -3.7961e-009    9.607e-010     
  -8.25           -2.2714e-009    2.1075e-009     -1.1175e-009   
  -8.3            2.4616e-009     -3.8184e-009    8.551e-010     
  -8.35           -2.397e-009     2.8338e-009     -9.875e-010    
  -8.4            2.1313e-009     -3.7327e-009    1.2595e-009    
  -8.45           -2.4706e-009    2.6033e-009     -8.761e-010    
  -8.5            2.2734e-009     -3.7595e-009    1.124e-009     
  -8.55           -2.0404e-009    2.4142e-009     -1.3674e-009   
  -8.6            -7.372e-010     -3.7397e-009    1.6946e-009    
  -8.65           2.4944e-009     1.3e-009        7.73e-010      
  -8.7            -2.4592e-009    2.6566e-009     -8.991e-010    
  -8.75           2.2461e-009     -3.7601e-009    1.1498e-009    
  -8.8            -2.0046e-009    2.4538e-009     -1.4092e-009   
  -8.85           -7.682e-010     -3.7347e-009    1.6892e-009    
  -8.9            2.484e-009      1.1932e-009     7.941e-010     
  -8.95           -2.449e-009     2.6897e-009     -9.206e-010    
  -9              2.2164e-009     -3.6282e-009    1.1775e-009    
  -9.05           -2.4909e-009    2.4982e-009     -8.111e-010    
  -9.1            2.341e-009      -3.7711e-009    1.0565e-009    
  -9.15           -2.1333e-009    2.2956e-009     -1.267e-009    
  -9.2            2.4304e-009     -3.8065e-009    9.515e-010     
  -9.25           -2.2867e-009    2.0924e-009     -1.1038e-009   
  -9.3            1.9802e-009     -3.8121e-009    1.4109e-009    
  -9.35           -2.4066e-009    2.8134e-009     -9.772e-010    
  -9.4            2.1442e-009     -3.7223e-009    1.2475e-009    
  -9.45           -2.4766e-009    2.5911e-009     -8.668e-010    
  -9.5            2.2864e-009     -3.7499e-009    1.111e-009     
  -9.55           -2.0556e-009    2.3922e-009     -1.3507e-009   
  -9.6            2.3961e-009     -3.792e-009     1.0007e-009    
  -9.65           -2.2151e-009    2.1969e-009     -1.1798e-009   
  -9.7            2.4486e-009     -3.8229e-009    9.012e-010     
  -9.75           -2.3475e-009    2.9324e-009     -1.0374e-009   
  -9.8            2.0657e-009     -3.8021e-009    1.3261e-009    
  -9.85           -2.4487e-009    2.697e-009      -9.228e-010    
  -9.9            2.2171e-009     -3.6444e-009    1.1771e-009    
  -9.95           -2.4933e-009    2.4926e-009     -8.101e-010    
  -10             2.3435e-009     -3.7626e-009    1.0556e-009    
END_DB

BEGIN_DB
 ICCAP_VAR VG         -1             
 ICCAP_VAR VS         0              
 ICCAP_VAR VB         0              

 #VD              ID              IB              IG             
  0               1.1043e-008     -3.4374e-009    -1.994e-010    
  -0.05           -1.5743e-007    -3.1229e-009    -1.7547e-009   
  -0.1            -1.9316e-007    3.8368e-009     -1.7359e-009   
  -0.15           -2.0417e-007    3.8248e-009     -1.7234e-009   
  -0.2            -2.1035e-007    3.8215e-009     -1.7157e-009   
  -0.25           -2.1504e-007    3.8065e-009     -1.7017e-009   
  -0.3            -2.1897e-007    3.7548e-009     -1.6777e-009   
  -0.35           -2.2263e-007    3.6652e-009     -1.6355e-009   
  -0.4            -2.2612e-007    3.5612e-009     -1.7478e-009   
  -0.45           -2.3125e-007    3.8359e-009     -1.7301e-009   
  -0.5            -2.3414e-007    3.8231e-009     -1.7186e-009   
  -0.55           -2.3698e-007    3.8143e-009     -1.711e-009    
  -0.6            -2.3947e-007    3.7926e-009     -1.6968e-009   
  -0.65           -2.4194e-007    3.7304e-009     -1.6703e-009   
  -0.7            -2.4438e-007    3.6434e-009     -1.6244e-009   
  -0.75           -2.4692e-007    3.5383e-009     -1.7412e-009   
  -0.8            -2.5105e-007    3.8323e-009     -1.728e-009    
  -0.85           -2.5329e-007    3.8225e-009     -1.7171e-009   
  -0.9            -2.553e-007     3.8164e-009     -1.7089e-009   
  -0.95           -2.572e-007     3.7809e-009     -1.6906e-009   
  -1              -2.5906e-007    3.7124e-009     -1.6581e-009   
  -1.05           -2.6104e-007    3.6169e-009     -1.6093e-009   
  -1.1            -2.6317e-007    3.5056e-009     -1.7395e-009   
  -1.15           -2.6692e-007    3.83e-009       -1.7224e-009   
  -1.2            -2.6866e-007    3.8211e-009     -1.7143e-009   
  -1.25           -2.7017e-007    3.8084e-009     -1.7046e-009   
  -1.3            -2.7165e-007    3.7643e-009     -1.6851e-009   
  -1.35           -2.7322e-007    3.691e-009      -1.6476e-009   
  -1.4            -2.7494e-007    3.5919e-009     -1.5968e-009   
  -1.45           -2.7682e-007    3.4809e-009     -1.7357e-009   
  -1.5            -2.8018e-007    3.8284e-009     -1.7219e-009   
  -1.55           -2.8157e-007    3.8202e-009     -1.7136e-009   
  -1.6            -2.8285e-007    3.8062e-009     -1.7029e-009   
  -1.65           -2.8406e-007    3.7489e-009     -1.6769e-009   
  -1.7            -2.8536e-007    3.6632e-009     -1.6339e-009   
  -1.75           -2.8688e-007    3.5618e-009     -1.7482e-009   
  -1.8            -2.9031e-007    3.8361e-009     -1.7293e-009   
  -1.85           -2.9159e-007    3.8231e-009     -1.7172e-009   
  -1.9            -2.9273e-007    3.814e-009      -1.7111e-009   
  -1.95           -2.9373e-007    3.7933e-009     -1.6971e-009   
  -2              -2.9478e-007    3.7266e-009     -1.6698e-009   
  -2.05           -2.9582e-007    3.6362e-009     -1.6214e-009   
  -2.1            -2.9715e-007    3.5389e-009     -1.743e-009    
  -2.15           -3.004e-007     3.8297e-009     -1.7284e-009   
  -2.2            -3.0144e-007    3.8238e-009     -1.7179e-009   
  -2.25           -3.0228e-007    3.8137e-009     -1.7087e-009   
  -2.3            -3.0317e-007    3.7821e-009     -1.6914e-009   
  -2.35           -3.0394e-007    3.7103e-009     -1.6579e-009   
  -2.4            -3.0492e-007    3.6118e-009     -1.6087e-009   
  -2.45           -3.0626e-007    3.5087e-009     -1.7393e-009   
  -2.5            -3.092e-007     3.8286e-009     -1.724e-009    
  -2.55           -3.1003e-007    3.819e-009      -1.7153e-009   
  -2.6            -3.1086e-007    3.808e-009      -1.7058e-009   
  -2.65           -3.1155e-007    3.7659e-009     -1.6847e-009   
  -2.7            -3.1228e-007    3.6879e-009     -1.6479e-009   
  -2.75           -3.1323e-007    3.5893e-009     -1.5954e-009   
  -2.8            -3.1451e-007    3.481e-009      -1.7344e-009   
  -2.85           -3.1733e-007    3.823e-009      -1.7208e-009   
  -2.9            -3.1805e-007    3.8218e-009     -1.7137e-009   
  -2.95           -3.188e-007     3.8041e-009     -1.7022e-009   
  -3              -3.1943e-007    3.75e-009       -1.678e-009    
  -3.05           -3.2011e-007    3.6622e-009     -1.6333e-009   
  -3.1            -3.2114e-007    3.5631e-009     -1.7483e-009   
  -3.15           -3.2423e-007    3.8355e-009     -1.7299e-009   
  -3.2            -3.2508e-007    3.8235e-009     -1.7188e-009   
  -3.25           -3.2571e-007    3.8179e-009     -1.7087e-009   
  -3.3            -3.2634e-007    3.7925e-009     -1.6961e-009   
  -3.35           -3.2692e-007    3.7256e-009     -1.667e-009    
  -3.4            -3.2769e-007    3.6393e-009     -1.6235e-009   
  -3.45           -3.288e-007     3.5375e-009     -1.7426e-009   
  -3.5            -3.3186e-007    3.8301e-009     -1.7254e-009   
  -3.55           -3.326e-007     3.8222e-009     -1.7165e-009   
  -3.6            -3.3326e-007    3.8151e-009     -1.708e-009    
  -3.65           -3.3381e-007    3.7811e-009     -1.6913e-009   
  -3.7            -3.3441e-007    3.711e-009      -1.6583e-009   
  -3.75           -3.3522e-007    3.6141e-009     -1.6067e-009   
  -3.8            -3.3641e-007    3.5106e-009     -1.7397e-009   
  -3.85           -3.3926e-007    3.8251e-009     -1.7218e-009   
  -3.9            -3.3995e-007    3.8177e-009     -1.7133e-009   
  -3.95           -3.4059e-007    3.8071e-009     -1.7017e-009   
  -4              -3.4114e-007    3.7648e-009     -1.6844e-009   
  -4.05           -3.417e-007     3.6849e-009     -1.6482e-009   
  -4.1            -3.4255e-007    3.5873e-009     -1.5941e-009   
  -4.15           -3.4386e-007    3.4848e-009     -1.7338e-009   
  -4.2            -3.4657e-007    3.8194e-009     -1.7183e-009   
  -4.25           -3.4722e-007    3.8145e-009     -1.7108e-009   
  -4.3            -3.4773e-007    3.802e-009      -1.6988e-009   
  -4.35           -3.4832e-007    3.7448e-009     -1.6757e-009   
