! VERSION = 6.00
BEGIN_HEADER
 ICCAP_INPUTS
  VG         V  B GROUND SMU4 0.001 LIN        2    0          -5         6    -1        
  VS         V  E GROUND SMU2 0.1 CON        0
  VD         V  S GROUND SMU1 0.1 LIN        1    0          -5         101  -0.05     
  VB         V  C GROUND SMU3 0.1 LIN        3    0          2.5        2    2.5       
 ICCAP_OUTPUTS
  ID         I  S GROUND SMU1 B
  IB         I  C GROUND SMU3 B
  IG         I  B GROUND SMU4 B
END_HEADER

BEGIN_DB
 ICCAP_VAR VG         0              
 ICCAP_VAR VS         0              
 ICCAP_VAR VB         0              

 #VD              ID              IB              IG             
  0               6.522e-010      2.7033e-008     6.341e-010     
  -0.05           1.9911e-009     -7.163e-009     4.94e-011      
  -0.1            2.033e-010      1.3225e-008     -2.5084e-009   
  -0.15           -1.4892e-009    -1.7214e-008    2.1014e-009    
  -0.2            2.1325e-009     -6.819e-009     5.134e-010     
  -0.25           2.1614e-009     8.965e-009      6.824e-010     
  -0.3            1.4829e-009     1.7805e-008     -1.813e-009    
  -0.35           -2.083e-009     5.234e-009      -6.532e-010    
  -0.4            -2.07e-009      -9e-009         -8.347e-010    
  -0.45           -1.5547e-009    -1.3072e-008    1.8329e-009    
  -0.5            2.156e-009      -8.178e-009     6.476e-010     
  -0.55           1.4585e-009     1.9341e-008     -1.8875e-009   
  -0.6            -1.7397e-009    5.082e-009      -1.4897e-009   
  -0.65           -1.369e-009     -2.3557e-008    2.4333e-009    
  -0.7            2.0901e-009     -4.555e-009     3.053e-010     
  -0.75           4.213e-010      1.5446e-008     -2.3614e-009   
  -0.8            -2.0171e-009    2.249e-009      -1.1766e-009   
  -0.85           -1.7533e-009    -8.523e-009     2.145e-010     
  -0.9            -8.981e-010     -1.8716e-008    1.6336e-009    
  -0.95           2.1677e-009     -8.696e-009     7.452e-010     
  -1              1.5337e-009     1.5864e-008     -1.7138e-009   
  -1.05           -2.0814e-009    5.246e-009      -7.289e-010    
  -1.1            -1.5018e-009    -1.6794e-008    2.0599e-009    
  -1.15           2.1392e-009     -7.147e-009     5.495e-010     
  -1.2            1.3862e-009     2.38e-008       -2.068e-009    
  -1.25           -1.8597e-009    4.5e-009        -1.3921e-009   
  -1.3            -1.2884e-009    -2.5021e-008    2.5551e-009    
  -1.35           2.1261e-009     1.0554e-008     4.495e-010     
  -1.4            1.317e-009      2.644e-008      -2.2125e-009   
  -1.45           -1.9405e-009    3.518e-009      -1.2962e-009   
  -1.5            -4.869e-010     -1.6835e-008    2.5322e-009    
  -1.55           8.11e-011       1.2499e-008     -2.5296e-009   
  -1.6            -1.4083e-009    -2.1956e-008    2.3403e-009    
  -1.65           2.1064e-009     -4.905e-009     3.723e-010     
  -1.7            2.1443e-009     1.0185e-008     5.566e-010     
  -1.75           2.1682e-009     8.786e-009      7.212e-010     
  -1.8            1.5149e-009     1.6505e-008     -1.7503e-009   
  -1.85           -2.0858e-009    5.269e-009      -6.989e-010    
  -1.9            -1.4902e-009    -1.755e-008     2.1033e-009    
  -1.95           2.1364e-009     -6.726e-009     5.114e-010     
  -2              5.875e-010      1.6479e-008     -2.1205e-009   
  -2.05           -1.8868e-009    4.015e-009      -1.3549e-009   
  -2.1            -1.2687e-009    -2.4768e-008    2.5762e-009    
  -2.15           1.5973e-009     1.3432e-008     -1.5933e-009   
  -2.2            -2.0748e-009    5.61e-009       -8.041e-010    
  -2.25           -1.5415e-009    -1.4427e-008    1.9206e-009    
  -2.3            2.1605e-009     -7.933e-009     6.135e-010     
  -2.35           1.4399e-009     2.1079e-008     -1.958e-009    
  -2.4            -1.7821e-009    4.7e-009        -1.4559e-009   
  -2.45           -1.3435e-009    -2.3959e-008    2.4702e-009    
  -2.5            2.1458e-009     1.0249e-008     5.176e-010     
  -2.55           5.876e-010      1.6724e-008     -2.109e-009    
  -2.6            -1.8779e-009    3.926e-009      -1.3635e-009   
  -2.65           -5.472e-010     -1.7105e-008    2.4471e-009    
  -2.7            2.0848e-009     -4.127e-009     2.828e-010     
  -2.75           2.1385e-009     1.0469e-008     4.725e-010     
  -2.8            5.566e-010      1.6332e-008     -2.1654e-009   
  -2.85           -1.911e-009     3.546e-009      -1.3234e-009   
  -2.9            -1.2337e-009    -2.4739e-008    2.5952e-009    
  -2.95           1.5706e-009     1.4782e-008     -1.6535e-009   
  -3              -2.0843e-009    5.481e-009      -7.713e-010    
  -3.05           -1.5269e-009    -1.5673e-008    1.9809e-009    
  -3.1            2.1565e-009     -7.633e-009     5.744e-010     
  -3.15           1.4149e-009     2.2643e-008     -2.0129e-009   
  -3.2            -1.817e-009     4.413e-009      -1.4183e-009   
  -3.25           -6.105e-010     -1.7385e-008    2.3564e-009    
  -3.3            2.1057e-009     -4.765e-009     3.418e-010     
  -3.35           2.1486e-009     1.0195e-008     5.404e-010     
  -3.4            1.3843e-009     2.3963e-008     -2.0695e-009   
  -3.45           -1.8505e-009    4.225e-009      -1.3827e-009   
  -3.5            -5.707e-010     -1.7331e-008    2.4096e-009    
  -3.55           2.0946e-009     -4.23e-009      3.023e-010     
  -3.6            2.1427e-009     1.0326e-008     4.985e-010     
  -3.65           5.744e-010      1.6505e-008     -2.1309e-009   
  -3.7            -1.8899e-009    4.005e-009      -1.3413e-009   
  -3.75           -5.27e-010      -1.7135e-008    2.4678e-009    
  -3.8            2.149e-009      1.0318e-008     5.18e-010      
  -3.85           5.944e-010      1.6653e-008     -2.1075e-009   
  -3.9            -1.8754e-009    4.244e-009      -1.3591e-009   
  -3.95           -1.2746e-009    -2.4465e-008    2.5588e-009    
  -4              2.1287e-009     1.0607e-008     4.159e-010     
  -4.05           2.1603e-009     9.811e-009      5.965e-010     
  -4.1            1.4241e-009     2.1854e-008     -1.9824e-009   
  -4.15           -1.7968e-009    4.626e-009      -1.4408e-009   
  -4.2            -6.268e-010     -1.7309e-008    2.3246e-009    
  -4.25           2.1129e-009     -5.127e-009     3.685e-010     
  -4.3            2.1543e-009     1.0039e-008     5.585e-010     
  -4.35           1.4012e-009     2.33e-008       -2.05e-009     
  -4.4            -1.8403e-009    4.509e-009      -1.3978e-009   
  -4.45           -1.301e-009     -2.4247e-008    2.5238e-009    
  -4.5            2.1349e-009     1.0518e-008     4.483e-010     
  -4.55           5.382e-010      1.6348e-008     -2.1861e-009   
  -4.6            -1.9174e-009    3.335e-009      -1.304e-009    
  -4.65           -4.893e-010     -1.6962e-008    2.5012e-009    
  -4.7            2.1401e-009     1.0394e-008     4.762e-010     
  -4.75           5.546e-010      1.6519e-008     -2.1582e-009   
  -4.8            -1.9026e-009    3.515e-009      -1.3226e-009   
  -4.85           -1.2345e-009    -2.4212e-008    2.5834e-009    
  -4.9            2.1165e-009     1.052e-008      3.675e-010     
  -4.95           4.747e-010      1.5843e-008     -2.2718e-009   
  -5              -1.9672e-009    2.536e-009      -1.2385e-009   
END_DB

BEGIN_DB
 ICCAP_VAR VG         -1             
 ICCAP_VAR VS         0              
 ICCAP_VAR VB         0              

 #VD              ID              IB              IG             
  0               -5.6654e-009    1.6589e-008     2.3765e-009    
  -0.05           -1.3637e-007    -1.7234e-008    1.2338e-009    
  -0.1            -1.7132e-007    -2.4374e-008    2.2076e-009    
  -0.15           -1.8014e-007    -2.2106e-008    1.9303e-009    
  -0.2            -1.8679e-007    -1.7421e-008    1.6433e-009    
  -0.25           -1.8182e-007    -1.0792e-008    -7.835e-010    
  -0.3            -1.8723e-007    1.8476e-008     -1.3603e-009   
  -0.35           -1.9054e-007    1.3433e-008     -2.3397e-009   
  -0.4            -1.9299e-007    1.5301e-008     -1.9695e-009   
  -0.45           -1.9451e-007    2.4646e-008     -1.7237e-009   
  -0.5            -1.9862e-007    1.9208e-008     -1.5008e-009   
  -0.55           -1.9536e-007    1.0191e-008     7.314e-010     
  -0.6            -2.0268e-007    -8.762e-009     2.6031e-009    
  -0.65           -2.1249e-007    -2.167e-008     1.8942e-009    
  -0.7            -2.155e-007     -1.6909e-008    1.6122e-009    
  -0.75           -2.0958e-007    -1.0818e-008    -8.013e-010    
  -0.8            -2.1238e-007    1.8707e-008     -1.3483e-009   
  -0.85           -2.1448e-007    1.343e-008      -2.3203e-009   
  -0.9            -2.1687e-007    1.5384e-008     -1.9507e-009   
  -0.95           -2.1805e-007    2.4183e-008     -1.7075e-009   
  -1              -2.21e-007      1.863e-008      -1.4786e-009   
  -1.05           -2.1783e-007    1.0213e-008     7.452e-010     
  -1.1            -2.2541e-007    -8.721e-009     2.6123e-009    
  -1.15           -2.3416e-007    -2.1369e-008    1.8771e-009    
  -1.2            -2.3669e-007    -1.6687e-008    1.593e-009     
  -1.25           -2.2859e-007    -1.0756e-008    -8.105e-010    
  -1.3            -2.3156e-007    1.8789e-008     -1.3381e-009   
  -1.35           -2.3317e-007    1.3671e-008     -2.3005e-009   
  -1.4            -2.3527e-007    1.5508e-008     -1.9225e-009   
  -1.45           -2.3248e-007    8.872e-009      1.8912e-009    
  -1.5            -2.4592e-007    -1.7202e-008    1.7784e-009    
  -1.55           -2.3886e-007    -1.1054e-008    -7.153e-010    
  -1.6            -2.4125e-007    1.76e-008       -1.4356e-009   
  -1.65           -2.3733e-007    1.0045e-008     7.837e-010     
  -1.7            -2.453e-007     -8.677e-009     2.6324e-009    
  -1.75           -2.4417e-007    -9.416e-009     -9.971e-010    
  -1.8            -2.4295e-007    7.837e-009      -2.5557e-009   
  -1.85           -2.508e-007     1.7617e-008     -1.446e-009    
  -1.9            -2.4907e-007    1.2599e-008     -2.409e-009    
  -1.95           -2.5198e-007    1.4979e-008     -2.0996e-009   
  -2              -2.5402e-007    1.6778e-008     -1.6709e-009   
  -2.05           -2.5546e-007    1.7951e-008     -1.4574e-009   
  -2.1            -2.5507e-007    1.2499e-008     -2.4105e-009   
  -2.15           -2.5724e-007    1.5132e-008     -2.1122e-009   
  -2.2            -2.5864e-007    1.6858e-008     -1.6815e-009   
  -2.25           -2.5973e-007    1.8444e-008     -1.4662e-009   
  -2.3            -2.6022e-007    1.2474e-008     -2.413e-009    
  -2.35           -2.6236e-007    1.5176e-008     -2.1144e-009   
  -2.4            -2.6305e-007    1.6763e-008     -1.6883e-009   
  -2.45           -2.5947e-007    1.0603e-008     6.25e-010      
  -2.5            -2.7388e-007    -1.7608e-008    1.5122e-009    
  -2.55           -2.6537e-007    -1.0595e-008    -8.549e-010    
  -2.6            -2.6416e-007    6.454e-009      -2.5675e-009   
  -2.65           -2.6884e-007    2.4082e-008     -1.7005e-009   
  -2.7            -2.7156e-007    1.8823e-008     -1.4826e-009   
  -2.75           -2.6626e-007    1.0259e-008     7.562e-010     
  -2.8            -2.7301e-007    -8.836e-009     2.6251e-009    
  -2.85           -2.8163e-007    -2.1349e-008    1.8732e-009    
  -2.9            -2.8425e-007    -1.6821e-008    1.581e-009     
  -2.95           -2.7398e-007    -1.0769e-008    -8.239e-010    
  -3              -2.722e-007     6.147e-009      -2.5667e-009   
  -3.05           -2.7831e-007    1.6756e-008     -1.7717e-009   
  -3.1            -2.791e-007     2.0417e-008     -1.5441e-009   
  -3.15           -2.7511e-007    1.0362e-008     7.182e-010     
  -3.2            -2.9007e-007    -1.8347e-008    2.6839e-009    
  -3.25           -2.9228e-007    -1.006e-008     1.927e-010     
  -3.3            -2.813e-007     1.1953e-008     -2.4771e-009   
  -3.35           -2.839e-007     1.3795e-008     -2.2634e-009   
  -3.4            -2.8595e-007    1.6126e-008     -1.8835e-009   
  -3.45           -2.82e-007      9.092e-009      1.9287e-009    
  -3.5            -2.9614e-007    -1.7733e-008    1.7363e-009    
  -3.55           -2.9808e-007    -1.4528e-008    2.6768e-009    
  -3.6            -2.9899e-007    -1.3261e-008    2.5656e-009    
  -3.65           -2.9982e-007    -1.6616e-008    2.2403e-009    
  -3.7            -2.9989e-007    -2.2326e-008    1.978e-009     
  -3.75           -3.0205e-007    -1.8392e-008    1.6874e-009    
  -3.8            -3.0432e-007    -1.4135e-008    2.6751e-009    
  -3.85           -3.0348e-007    -1.3703e-008    2.5438e-009    
  -3.9            -3.0368e-007    -1.6765e-008    2.2012e-009    
  -3.95           -3.0522e-007    -2.2021e-008    1.935e-009     
  -4              -3.075e-007     -1.7749e-008    1.65e-009      
  -4.05           -2.9611e-007    -1.0763e-008    -7.932e-010    
  -4.1            -2.9897e-007    1.8838e-008     -1.3718e-009   
  -4.15           -2.9531e-007    9.497e-009      8.486e-010     
  -4.2            -3.033e-007     -8.072e-009     2.6606e-009    
  -4.25           -3.1142e-007    -1.7899e-008    1.6611e-009    
  -4.3            -3.0318e-007    -1.0808e-008    -7.876e-010    
  -4.35           -3.0344e-007    1.8553e-008     -1.3734e-009   
  -4.4            -3.0411e-007    1.3045e-008     -2.3243e-009   
  -4.45           -3.0699e-007    1.5648e-008     -1.9809e-009   
  -4.5            -3.0668e-007    2.4651e-008     -1.7361e-009   
  -4.55           -3.0868e-007    1.9588e-008     -1.5221e-009   
  -4.6            -3.0367e-007    1.032e-008      7.382e-010     
  -4.65           -3.1063e-007    -8.885e-009     2.621e-009     
  -4.7            -3.202e-007     -2.1782e-008    1.9189e-009    
  -4.75           -3.2214e-007    -1.7323e-008    1.6353e-009    
  -4.8            -3.1056e-007    -1.0841e-008    -7.992e-010    
  -4.85           -3.1342e-007    1.8947e-008     -1.3612e-009   
  -4.9            -3.1435e-007    1.3391e-008     -2.3108e-009   
  -4.95           -3.1569e-007    1.5559e-008     -1.9504e-009   
  -5              -3.1314e-007    9.023e-009      1.8901e-009    
END_DB

BEGIN_DB
 ICCAP_VAR VG         -2             
 ICCAP_VAR VS         0              
 ICCAP_VAR VB         0              

 #VD              ID              IB              IG             
  0               -2.9811e-007    9.038e-009      -1.0774e-009   
  -0.05           -1.7569e-005    -9.545e-009     2.6787e-009    
  -0.1            -3.3977e-005    -1.5101e-008    2.5304e-009    
  -0.15           -4.9493e-005    -2.1646e-008    1.8716e-009    
  -0.2            -6.4091e-005    -1.0533e-008    -8.838e-010    
  -0.25           -7.7682e-005    7.996e-009      -2.5423e-009   
  -0.3            -9.0319e-005    1.3555e-008     -2.3589e-009   
  -0.35           -0.000101936    2.5728e-008     -1.7804e-009   
  -0.4            -0.000112437    1.3215e-008     -2.4168e-009   
  -0.45           -0.00012185     1.4684e-008     1.444e-010     
  -0.5            -0.00013018     -1.683e-008     1.6742e-009    
  -0.55           -0.00013696     -8.61e-009      -1.0651e-009   
  -0.6            -0.00014252     1.2476e-008     -2.4853e-009   
  -0.65           -0.00014697     2.6764e-008     -1.8619e-009   
  -0.7            -0.00015024     1.3653e-008     -2.3436e-009   
  -0.75           -0.00015299     8.714e-009      1.9488e-009    
  -0.8            -0.00015483     -2.1047e-008    2.6701e-009    
  -0.85           -0.00015595     -2.3746e-008    2.0655e-009    
  -0.9            -0.00015696     -1.4254e-008    2.5658e-009    
  -0.95           -0.00015756     -1.8922e-008    1.7159e-009    
  -1              -0.00015786     -8.767e-009     -1.0492e-009   
  -1.05           -0.00015816     1.2385e-008     -2.4906e-009   
  -1.1            -0.00015859     2.6928e-008     -1.8875e-009   
  -1.15           -0.00015909     9.819e-009      8.255e-010     
  -1.2            -0.00015976     -8.193e-009     2.6908e-009    
  -1.25           -0.00015995     -2.5336e-008    2.3534e-009    
  -1.3            -0.00016023     -1.3337e-008    2.6872e-009    
  -1.35           -0.0001604      -1.6754e-008    2.041e-009     
  -1.4            -0.00016069     -1.446e-008     2.5505e-009    
  -1.45           -0.00016075     -1.8552e-008    1.6856e-009    
  -1.5            -0.00016105     -1.6808e-008    2.3285e-009    
  -1.55           -0.00016095     -1.0936e-008    -7.762e-010    
  -1.6            -0.00016092     8.077e-009      -2.5461e-009   
  -1.65           -0.0001611      1.4757e-008     -2.2154e-009   
  -1.7            -0.00016129     1.7095e-008     -1.4201e-009   
  -1.75           -0.00016141     1.5624e-008     -1.9397e-009   
  -1.8            -0.00016178     9.749e-009      8.093e-010     
  -1.85           -0.00016219     -8.013e-009     2.6861e-009    
  -1.9            -0.00016232     -2.5378e-008    2.3918e-009    
  -1.95           -0.00016215     -1.1093e-008    -7.34e-010     
  -2              -0.00016211     7.689e-009      -2.5447e-009   
  -2.05           -0.00016222     1.4213e-008     -2.2712e-009   
  -2.1            -0.00016243     1.8651e-008     -1.4743e-009   
  -2.15           -0.00016285     7.507e-009      1.0462e-009    
  -2.2            -0.00016298     -2.2128e-008    1.9276e-009    
  -2.25           -0.00016285     -9.688e-009     -9.593e-010    
  -2.3            -0.00016277     1.0809e-008     -2.5189e-009   
  -2.35           -0.00016298     1.5725e-008     -1.8619e-009   
  -2.4            -0.00016302     1.3559e-008     -2.3492e-009   
  -2.45           -0.00016353     8.757e-009      1.9434e-009    
  -2.5            -0.00016377     -2.0937e-008    2.6746e-009    
  -2.55           -0.00016383     -2.3972e-008    2.0687e-009    
  -2.6            -0.000164       -1.3923e-008    2.5685e-009    
  -2.65           -0.00016393     -1.9058e-008    1.717e-009     
  -2.7            -0.00016378     -8.86e-009      -1.0427e-009   
  -2.75           -0.0001638      2.7333e-008     -1.9492e-009   
  -2.8            -0.00016403     9.96e-009       7.996e-010     
  -2.85           -0.00016444     -2.5186e-008    2.4409e-009    
  -2.9            -0.00016444     -1.5171e-008    2.6907e-009    
  -2.95           -0.00016454     -1.6731e-008    2.1608e-009    
  -3              -0.00016474     -1.2999e-008    2.6083e-009    
  -3.05           -0.00016468     -2.0731e-008    1.8168e-009    
  -3.1            -0.00016451     -9.276e-009     -1.0066e-009   
  -3.15           -0.00016453     2.758e-008      -2.0249e-009   
  -3.2            -0.00016447     1.2876e-008     -2.4358e-009   
  -3.25           -0.00016459     2.4831e-008     -1.7231e-009   
  -3.3            -0.00016466     1.43e-008       -2.2524e-009   
  -3.35           -0.00016479     1.8135e-008     -1.4603e-009   
  -3.4            -0.00016517     7.611e-009      1.0575e-009    
  -3.45           -0.00016525     -2.1754e-008    1.9135e-009    
  -3.5            -0.00016547     -1.5687e-008    2.4805e-009    
  -3.55           -0.00016545     -1.6109e-008    2.6891e-009    
  -3.6            -0.00016549     -2.5275e-008    2.3965e-009    
  -3.65           -0.00016557     -1.4338e-008    2.69e-009      
  -3.7            -0.00016557     -2.5257e-008    2.3113e-009    
  -3.75           -0.00016569     -1.2913e-008    2.6914e-009    
  -3.8            -0.0001657      -2.4783e-008    2.2298e-009    
  -3.85           -0.00016555     -1.081e-008     -8.321e-010    
  -3.9            -0.00016543     8.404e-009      -2.5369e-009   
  -3.95           -0.00016554     1.5161e-008     -2.1264e-009   
  -4              -0.00016562     1.507e-008      -1.3609e-009   
  -4.05           -0.00016567     1.5625e-008     -1.8362e-009   
  -4.1            -0.00016567     1.3666e-008     -2.3337e-009   
  -4.15           -0.00016579     2.0825e-008     -1.5516e-009   
