! VERSION = 6.00
BEGIN_HEADER
 ICCAP_INPUTS
  VG         V  B GROUND SMU4 0.001 LIN        2    0          -5         6    -1        
  VS         V  E GROUND SMU2 0.1 CON        0
  VD         V  S GROUND SMU1 0.1 LIN        1    0          -5         101  -0.05     
  VB         V  C GROUND SMU3 0.1 LIN        3    0          2.5        2    2.5       
 ICCAP_OUTPUTS
  ID         I  S GROUND SMU1 B
  IB         I  C GROUND SMU3 B
  IG         I  B GROUND SMU4 B
END_HEADER

BEGIN_DB
 ICCAP_VAR VG         0              
 ICCAP_VAR VS         0              
 ICCAP_VAR VB         0              

 #VD              ID              IB              IG             
  0               -2.385e-009     -1.3e-009       -2e-010        
  -0.05           2.4028e-009     -7.108e-009     5.479e-010     
  -0.1            2.4908e-009     -8.924e-009     1.055e-009     
  -0.15           2.2429e-009     -5.578e-009     1.5143e-009    
  -0.2            2.4951e-009     -9.224e-009     9.277e-010     
  -0.25           2.42e-011       -1.0489e-008    1.3828e-009    
  -0.3            2.4913e-009     -1.501e-009     9.225e-010     
  -0.35           3.41e-011       -1.0299e-008    1.3871e-009    
  -0.4            2.4952e-009     -1.374e-009     8.985e-010     
  -0.45           2.3718e-009     -1.0205e-008    1.3554e-009    
  -0.5            2.4736e-009     -9.094e-009     7.644e-010     
  -0.55           2.4445e-009     -9.508e-009     1.2381e-009    
  -0.6            2.4321e-009     -7.804e-009     6.234e-010     
  -0.65           2.479e-009      -9.02e-009      1.1161e-009    
  -0.7            2.1793e-009     -6.313e-009     1.5803e-009    
  -0.75           2.4939e-009     -8.926e-009     9.99e-010      
  -0.8            -2.16e-011      -1.1179e-008    1.3696e-009    
  -0.85           2.4974e-009     -1.58e-009      9.872e-010     
  -0.9            -1.36e-011      -1.1275e-008    1.3737e-009    
  -0.95           2.4928e-009     -1.446e-009     9.689e-010     
  -1              -1.1e-012       -1.0892e-008    1.3771e-009    
  -1.05           2.4992e-009     -1.668e-009     9.567e-010     
  -1.1            7.6e-012        -1.0579e-008    1.3798e-009    
  -1.15           2.4898e-009     -1.528e-009     9.406e-010     
  -1.2            1.62e-011       -1.049e-008     1.3835e-009    
  -1.25           2.4943e-009     -1.489e-009     9.243e-010     
  -1.3            2.64e-011       -1.0789e-008    1.385e-009     
  -1.35           2.4935e-009     -1.45e-009      9.12e-010      
  -1.4            3.56e-011       -1.0371e-008    1.3891e-009    
  -1.45           2.4958e-009     -1.391e-009     9.012e-010     
  -1.5            4.84e-011       -1.0289e-008    1.3934e-009    
  -1.55           2.4909e-009     -1.285e-009     8.838e-010     
  -1.6            2.3817e-009     -1.0072e-008    1.3357e-009    
  -1.65           2.4701e-009     -8.916e-009     7.444e-010     
  -1.7            2.4475e-009     -9.363e-009     1.2195e-009    
  -1.75           2.4259e-009     -7.642e-009     6.089e-010     
  -1.8            2.487e-009      -9.098e-009     1.0995e-009    
  -1.85           2.1839e-009     -6.144e-009     1.5677e-009    
  -1.9            2.4953e-009     -8.956e-009     9.828e-010     
  -1.95           -1.7e-011       -1.0937e-008    1.3744e-009    
  -2              2.4971e-009     -1.649e-009     9.711e-010     
  -2.05           -2.4e-012       -1.0734e-008    1.3758e-009    
  -2.1            2.4971e-009     -1.497e-009     9.602e-010     
  -2.15           6.1e-012        -1.0642e-008    1.3811e-009    
  -2.2            2.4901e-009     -1.602e-009     9.383e-010     
  -2.25           1.61e-011       -1.0562e-008    1.3838e-009    
  -2.3            2.4937e-009     -1.393e-009     9.237e-010     
  -2.35           2.98e-011       -1.0472e-008    1.3861e-009    
  -2.4            2.4921e-009     -1.582e-009     9.126e-010     
  -2.45           3.92e-011       -1.0251e-008    1.3904e-009    
  -2.5            2.4938e-009     -1.457e-009     8.982e-010     
  -2.55           2.3737e-009     -1.0222e-008    1.3481e-009    
  -2.6            2.4723e-009     -9.02e-009      7.584e-010     
  -2.65           2.446e-009      -9.654e-009     1.2305e-009    
  -2.7            2.4308e-009     -7.785e-009     6.234e-010     
  -2.75           2.4844e-009     -9.118e-009     1.1154e-009    
  -2.8            2.1669e-009     -6.196e-009     1.573e-009     
  -2.85           2.4949e-009     -8.982e-009     9.926e-010     
  -2.9            -2.26e-011      -1.0981e-008    1.3701e-009    
  -2.95           2.4971e-009     -1.68e-009      9.802e-010     
  -3              -1.21e-011      -1.0969e-008    1.3753e-009    
  -3.05           2.4948e-009     -1.629e-009     9.71e-010      
  -3.1            -1.3e-012       -1.0711e-008    1.3792e-009    
  -3.15           2.498e-009      -1.651e-009     9.492e-010     
  -3.2            5.9e-012        -1.0699e-008    1.3798e-009    
  -3.25           2.4938e-009     -1.535e-009     9.386e-010     
  -3.3            1.97e-011       -1.0495e-008    1.384e-009     
  -3.35           2.4951e-009     -1.464e-009     9.278e-010     
  -3.4            3.06e-011       -1.0446e-008    1.3872e-009    
  -3.45           2.4903e-009     -1.482e-009     9.079e-010     
  -3.5            3.76e-011       -1.0265e-008    1.3896e-009    
  -3.55           2.4922e-009     -1.414e-009     8.92e-010      
  -3.6            2.3684e-009     -1.0106e-008    1.3481e-009    
  -3.65           2.4684e-009     -9.114e-009     7.622e-010     
  -3.7            2.4433e-009     -9.491e-009     1.2272e-009    
  -3.75           2.4317e-009     -7.811e-009     6.21e-010      
  -3.8            2.4809e-009     -8.897e-009     1.114e-009     
  -3.85           2.1739e-009     -6.381e-009     1.5809e-009    
  -3.9            2.4926e-009     -9.024e-009     1.0003e-009    
  -3.95           -2.5e-011       -1.1024e-008    1.3683e-009    
  -4              2.4937e-009     -1.738e-009     9.897e-010     
  -4.05           -1.59e-011      -1.0967e-008    1.3716e-009    
  -4.1            2.4925e-009     -1.639e-009     9.727e-010     
  -4.15           -6.2e-012       -1.0689e-008    1.3746e-009    
  -4.2            2.4962e-009     -1.642e-009     9.608e-010     
  -4.25           2.4e-012        -1.0728e-008    1.3751e-009    
  -4.3            2.4917e-009     -1.532e-009     9.518e-010     
  -4.35           9.1e-012        -1.0765e-008    1.3788e-009    
  -4.4            2.4932e-009     -1.603e-009     9.425e-010     
  -4.45           1.54e-011       -1.0492e-008    1.3805e-009    
  -4.5            2.4923e-009     -1.349e-009     9.25e-010      
  -4.55           2.34e-011       -1.0318e-008    1.3836e-009    
  -4.6            2.4929e-009     -1.49e-009      9.08e-010      
  -4.65           3.69e-011       -1.0225e-008    1.3867e-009    
  -4.7            2.4922e-009     -1.429e-009     9.04e-010      
  -4.75           2.3674e-009     -1.0248e-008    1.3498e-009    
  -4.8            2.4722e-009     -8.957e-009     7.653e-010     
  -4.85           2.4368e-009     -9.402e-009     1.2353e-009    
  -4.9            2.4316e-009     -7.933e-009     6.33e-010      
  -4.95           2.4755e-009     -9.079e-009     1.1238e-009    
  -5              2.3802e-009     -6.5e-009       4.865e-010     
END_DB

BEGIN_DB
 ICCAP_VAR VG         -1             
 ICCAP_VAR VS         0              
 ICCAP_VAR VB         0              

 #VD              ID              IB              IG             
  0               -3.4611e-009    -1.0545e-008    -1.606e-009    
  -0.05           -1.0099e-007    -1.0052e-008    2.348e-010     
  -0.1            -1.2959e-007    -4.196e-009     2.1429e-009    
  -0.15           -1.3999e-007    -5.908e-009     1.8637e-009    
  -0.2            -1.4593e-007    -7.862e-009     1.6603e-009    
  -0.25           -1.5115e-007    -9.002e-009     1.5198e-009    
  -0.3            -1.5584e-007    -9.096e-009     1.4394e-009    
  -0.35           -1.6035e-007    -9.155e-009     1.394e-009     
  -0.4            -1.6434e-007    -9.736e-009     1.3602e-009    
  -0.45           -1.6804e-007    -1.0894e-008    1.3312e-009    
  -0.5            -1.6831e-007    -4.833e-009     2.0211e-009    
  -0.55           -1.7213e-007    -6.79e-009      1.7732e-009    
  -0.6            -1.7568e-007    -8.607e-009     1.5879e-009    
  -0.65           -1.7865e-007    -9.185e-009     1.4827e-009    
  -0.7            -1.8202e-007    -8.988e-009     1.4169e-009    
  -0.75           -1.8514e-007    -9.447e-009     1.3785e-009    
  -0.8            -1.8844e-007    -1.0047e-008    1.3495e-009    
  -0.85           -1.9214e-007    -1.166e-008     3.3931e-009    
  -0.9            -1.9206e-007    -8.708e-009     1.5757e-009    
  -0.95           -1.9452e-007    -9.151e-009     1.4722e-009    
  -1              -1.9719e-007    -9.062e-009     1.4109e-009    
  -1.05           -2.0015e-007    -9.4e-009       1.3765e-009    
  -1.1            -2.0373e-007    -1.0003e-008    1.3447e-009    
  -1.15           -2.0555e-007    -1.1874e-008    3.3877e-009    
  -1.2            -2.062e-007     -8.915e-009     1.5645e-009    
  -1.25           -2.0861e-007    -9.11e-009      1.4638e-009    
  -1.3            -2.1097e-007    -9.101e-009     1.4072e-009    
  -1.35           -2.139e-007     -9.433e-009     1.3731e-009    
  -1.4            -2.1757e-007    -1.0302e-008    1.3425e-009    
  -1.45           -2.1613e-007    -4.282e-009     2.1344e-009    
  -1.5            -2.1858e-007    -5.922e-009     1.8489e-009    
  -1.55           -2.2082e-007    -8.089e-009     1.6482e-009    
  -1.6            -2.2272e-007    -9.088e-009     1.5151e-009    
  -1.65           -2.2556e-007    -9.151e-009     1.438e-009     
  -1.7            -2.2914e-007    -9.04e-009      1.3937e-009    
  -1.75           -2.3227e-007    -9.729e-009     1.361e-009     
  -1.8            -2.3495e-007    -1.0936e-008    1.3308e-009    
  -1.85           -2.317e-007     -4.866e-009     2.0047e-009    
  -1.9            -2.3389e-007    -6.889e-009     1.7597e-009    
  -1.95           -2.3734e-007    -8.613e-009     1.5844e-009    
  -2              -2.4005e-007    -9.247e-009     1.4771e-009    
  -2.05           -2.4389e-007    -9.011e-009     1.4159e-009    
  -2.1            -2.4541e-007    -9.438e-009     1.3787e-009    
  -2.15           -2.4854e-007    -1.013e-008     1.347e-009     
  -2.2            -2.5064e-007    -1.1732e-008    3.3891e-009    
  -2.25           -2.4923e-007    -8.764e-009     1.5697e-009    
  -2.3            -2.513e-007     -9.142e-009     1.469e-009     
  -2.35           -2.54e-007      -8.945e-009     1.4096e-009    
  -2.4            -2.5568e-007    -9.286e-009     1.3747e-009    
  -2.45           -2.586e-007     -1.0204e-008    1.3442e-009    
  -2.5            -2.6064e-007    -1.1791e-008    3.3801e-009    
  -2.55           -2.5842e-007    -8.857e-009     1.5551e-009    
  -2.6            -2.6006e-007    -9.235e-009     1.4609e-009    
  -2.65           -2.6361e-007    -9.012e-009     1.4073e-009    
  -2.7            -2.6556e-007    -9.571e-009     1.372e-009     
  -2.75           -2.6807e-007    -1.0463e-008    1.342e-009     
  -2.8            -2.6957e-007    -1.2195e-008    3.3745e-009    
  -2.85           -2.6838e-007    -8.944e-009     1.5484e-009    
  -2.9            -2.6998e-007    -9.001e-009     1.4556e-009    
  -2.95           -2.7235e-007    -9.006e-009     1.4034e-009    
  -3              -2.7464e-007    -9.497e-009     1.3696e-009    
  -3.05           -2.7734e-007    -1.0465e-008    1.3385e-009    
  -3.1            -2.7424e-007    -4.557e-009     2.0976e-009    
  -3.15           -2.7616e-007    -6.16e-009      1.8332e-009    
  -3.2            -2.7816e-007    -8.101e-009     1.6354e-009    
  -3.25           -2.7992e-007    -9.287e-009     1.5063e-009    
  -3.3            -2.8235e-007    -9.053e-009     1.4298e-009    
  -3.35           -2.8536e-007    -9.218e-009     1.3871e-009    
  -3.4            -2.874e-007     -1.0031e-008    1.3554e-009    
  -3.45           -2.9064e-007    -1.1071e-008    1.3264e-009    
  -3.5            -2.862e-007     -5.271e-009     1.9695e-009    
  -3.55           -2.8841e-007    -6.983e-009     1.7361e-009    
  -3.6            -2.9067e-007    -8.664e-009     1.5701e-009    
  -3.65           -2.9288e-007    -9.199e-009     1.468e-009     
  -3.7            -2.9493e-007    -8.925e-009     1.4101e-009    
  -3.75           -2.9706e-007    -9.533e-009     1.3734e-009    
  -3.8            -3.0012e-007    -1.0325e-008    1.3426e-009    
  -3.85           -3.0197e-007    -1.1763e-008    3.3803e-009    
  -3.9            -3.0017e-007    -8.699e-009     1.5615e-009    
  -3.95           -3.019e-007     -8.95e-009      1.4606e-009    
  -4              -3.0354e-007    -8.995e-009     1.4046e-009    
  -4.05           -3.0736e-007    -9.492e-009     1.3725e-009    
  -4.1            -3.0861e-007    -1.0413e-008    1.3418e-009    
  -4.15           -3.0612e-007    -4.402e-009     2.1194e-009    
  -4.2            -3.0864e-007    -6.034e-009     1.8463e-009    
  -4.25           -3.1071e-007    -7.948e-009     1.6453e-009    
  -4.3            -3.1203e-007    -9.07e-009      1.5115e-009    
  -4.35           -3.1466e-007    -8.969e-009     1.435e-009     
  -4.4            -3.1537e-007    -9.049e-009     1.3907e-009    
  -4.45           -3.1878e-007    -9.687e-009     1.3574e-009    
  -4.5            -3.2035e-007    -1.0903e-008    1.3295e-009    
  -4.55           -3.1819e-007    -5.056e-009     1.9966e-009    
  -4.6            -3.1991e-007    -6.983e-009     1.7519e-009    
  -4.65           -3.2169e-007    -8.585e-009     1.5849e-009    
  -4.7            -3.2358e-007    -9.227e-009     1.477e-009     
  -4.75           -3.2473e-007    -8.727e-009     1.4128e-009    
  -4.8            -3.2738e-007    -9.411e-009     1.3769e-009    
  -4.85           -3.3134e-007    -1.0025e-008    1.347e-009     
  -4.9            -3.3357e-007    -1.1621e-008    3.3917e-009    
  -4.95           -3.3027e-007    -8.824e-009     1.5707e-009    
  -5              -3.3181e-007    -9.052e-009     1.4671e-009    
END_DB

BEGIN_DB
 ICCAP_VAR VG         -2             
 ICCAP_VAR VS         0              
 ICCAP_VAR VB         0              

 #VD              ID              IB              IG             
  0               -1.5009e-007    -1.448e-009     6.198e-010     
  -0.05           -1.0654e-005    -5.428e-009     -1.6764e-009   
  -0.1            -2.0875e-005    -1.1034e-008    1.3377e-009    
  -0.15           -3.0761e-005    -8.364e-009     1.6286e-009    
  -0.2            -4.0339e-005    -8.978e-009     1.4037e-009    
  -0.25           -4.954e-005     -4.49e-009      2.1456e-009    
  -0.3            -5.838e-005     -8.939e-009     1.56e-009      
  -0.35           -6.6817e-005    -9.246e-009     1.3873e-009    
  -0.4            -7.4823e-005    -5.246e-009     1.9963e-009    
  -0.45           -8.2398e-005    -9.254e-009     1.5045e-009    
  -0.5            -8.95e-005      -9.86e-009      1.3715e-009    
  -0.55           -9.6078e-005    -6.045e-009     1.8689e-009    
  -0.6            -0.000102159    -9.124e-009     1.4656e-009    
  -0.65           -0.000107719    -9.974e-009     1.3585e-009    
  -0.7            -0.000112657    -6.927e-009     1.7577e-009    
  -0.75           -0.00011699     -9.049e-009     1.3924e-009    
  -0.8            -0.00012081     -6.659e-009     1.7962e-009    
  -0.85           -0.00012414     -9.133e-009     1.4054e-009    
  -0.9            -0.00012692     -5.556e-009     1.9323e-009    
  -0.95           -0.00012927     -8.993e-009     1.4271e-009    
  -1              -0.00013131     -4.896e-009     2.0735e-009    
  -1.05           -0.00013299     -9.076e-009     1.4576e-009    
  -1.1            -0.00013449     -1.136e-008     1.3321e-009    
  -1.15           -0.00013565     -9.324e-009     1.4943e-009    
  -1.2            -0.00013679     -1.0661e-008    1.3468e-009    
  -1.25           -0.0001376      -9.019e-009     1.5512e-009    
  -1.3            -0.00013845     -9.927e-009     1.3599e-009    
  -1.35           -0.00013913     -8.372e-009     1.6182e-009    
  -1.4            -0.00013974     -9.68e-009      1.3753e-009    
  -1.45           -0.00014034     -7.391e-009     1.7088e-009    
  -1.5            -0.00014091     -9.241e-009     1.3901e-009    
  -1.55           -0.0001414      -6.454e-009     1.8173e-009    
  -1.6            -0.0001419      -8.94e-009      1.4085e-009    
  -1.65           -0.00014234     -5.619e-009     1.9522e-009    
  -1.7            -0.00014273     -8.939e-009     1.4331e-009    
  -1.75           -0.0001431      -4.463e-009     2.0974e-009    
  -1.8            -0.00014349     -9.222e-009     1.461e-009     
  -1.85           -0.00014394     -1.1394e-008    1.3359e-009    
  -1.9            -0.00014418     -9.113e-009     1.5041e-009    
  -1.95           -0.00014461     -1.0405e-008    1.3487e-009    
  -2              -0.00014486     -8.776e-009     1.5614e-009    
  -2.05           -0.00014519     -9.996e-009     1.3623e-009    
  -2.1            -0.00014548     -8.198e-009     1.6337e-009    
  -2.15           -0.00014577     -9.825e-009     1.3786e-009    
  -2.2            -0.00014607     -7.246e-009     1.7234e-009    
  -2.25           -0.00014638     -9.175e-009     1.3935e-009    
  -2.3            -0.00014659     -6.377e-009     1.8358e-009    
  -2.35           -0.00014691     -9.091e-009     1.4129e-009    
  -2.4            -0.00014708     -5.435e-009     1.9667e-009    
  -2.45           -0.00014738     -8.739e-009     1.4344e-009    
  -2.5            -0.00014762     -4.53e-009      2.1239e-009    
  -2.55           -0.00014783     -9.089e-009     1.4691e-009    
  -2.6            -0.00014817     -1.1045e-008    1.3372e-009    
  -2.65           -0.00014833     -9.131e-009     1.5127e-009    
  -2.7            -0.00014864     -1.0527e-008    1.3499e-009    
  -2.75           -0.00014876     -8.785e-009     1.5696e-009    
  -2.8            -0.00014904     -9.795e-009     1.3647e-009    
  -2.85           -0.0001492      -8.133e-009     1.6472e-009    
  -2.9            -0.00014936     -9.464e-009     1.3798e-009    
  -2.95           -0.00014959     -7.197e-009     1.7428e-009    
  -3              -0.00014977     -9.076e-009     1.3944e-009    
  -3.05           -0.00014997     -6.05e-009      1.8526e-009    
  -3.1            -0.00015018     -9.113e-009     1.4151e-009    
  -3.15           -0.0001503      -5.218e-009     1.982e-009     
  -3.2            -0.00015048     -9.051e-009     1.4409e-009    
  -3.25           -0.00015067     -4.425e-009     2.1329e-009    
  -3.3            -0.00015081     -9e-009         1.4744e-009    
  -3.35           -0.00015108     -1.095e-008     1.3391e-009    
  -3.4            -0.00015117     -9.16e-009      1.5211e-009    
  -3.45           -0.00015141     -1.0253e-008    1.353e-009     
  -3.5            -0.00015148     -8.8e-009       1.5815e-009    
  -3.55           -0.00015167     -9.76e-009      1.3676e-009    
  -3.6            -0.00015175     -7.818e-009     1.6581e-009    
  -3.65           -0.00015193     -9.536e-009     1.3814e-009    
  -3.7            -0.00015206     -6.939e-009     1.7548e-009    
  -3.75           -0.00015221     -9.194e-009     1.3981e-009    
  -3.8            -0.00015235     -5.983e-009     1.8746e-009    
  -3.85           -0.00015252     -8.906e-009     1.4186e-009    
  -3.9            -0.00015264     -4.985e-009     2.0098e-009    
  -3.95           -0.00015281     -9.021e-009     1.4429e-009    
  -4              -0.00015295     -4.353e-009     2.1568e-009    
  -4.05           -0.00015312     -9.042e-009     1.4769e-009    
  -4.1            -0.0001533      -1.0913e-008    1.3408e-009    
  -4.15           -0.00015336     -9.087e-009     1.5245e-009    
