! VERSION = 6.00
BEGIN_HEADER
 ICCAP_INPUTS
  VG         V  B GROUND SMU4 0.001 LIN        2    0          1.8        6    0.36      
  VS         V  E GROUND SMU2 0.1 CON        0
  VD         V  S GROUND SMU1 0.1 LIN        1    0          1.8        37   0.05      
  VB         V  C GROUND SMU3 0.1 LIN        3    0          -0.9       2    -0.9      
 ICCAP_OUTPUTS
  ID         I  S GROUND SMU1 B
  IB         I  C GROUND SMU3 B
  IG         I  B GROUND SMU4 B
END_HEADER

BEGIN_DB
 ICCAP_VAR VG         0              
 ICCAP_VAR VS         0              
 ICCAP_VAR VB         0              

 #VD              ID              IB              IG             
  0               6.836e-010      2.4815e-008     5.623e-010     
  0.05            -1.7329e-009    -1.1606e-008    1.563e-009     
  0.1             2.3975e-009     -8.362e-009     8.811e-010     
  0.15            1.746e-009      1.3067e-008     -1.5949e-009   
  0.2             -1.4828e-009    7.092e-009      -1.7655e-009   
  0.25            -2.1834e-009    -1.1941e-008    -4.127e-010    
  0.3             -2.2391e-009    -1.1157e-008    -6.435e-010    
  0.35            -2.2713e-009    -1.0089e-008    -8.294e-010    
  0.4             -2.2624e-009    -9.422e-009     -9.895e-010    
  0.45            -1.7084e-009    -1.1776e-008    1.6143e-009    
  0.5             2.3933e-009     -8.464e-009     8.387e-010     
  0.55            2.3746e-009     8.922e-009      9.97e-010      
  0.6             9.723e-010      2.6898e-008     -1.4828e-009   
  0.65            -2.264e-009     8.843e-009      -9.884e-010    
  0.7             -1.7084e-009    -1.1922e-008    1.6089e-009    
  0.75            2.3874e-009     -8.548e-009     8.427e-010     
  0.8             1.7084e-009     1.3863e-008     -1.6395e-009   
  0.85            -1.5274e-009    6.271e-009      -1.7252e-009   
  0.9             -2.1651e-009    -1.1961e-008    -3.502e-010    
  0.95            -2.227e-009     -1.1035e-008    -5.896e-010    
  1               -2.2683e-009    -9.914e-009     -7.961e-010    
  1.05            -1.6103e-009    -1.4427e-008    1.9703e-009    
  1.1             1.8342e-009     -8.345e-009     1.5098e-009    
  1.15            1.5515e-009     1.046e-008      1.7069e-009    
  1.2             2.2035e-009     1.1292e-008     3.693e-010     
  1.25            2.3075e-009     1.0153e-008     5.758e-010     
  1.3             2.3781e-009     9.567e-009      7.652e-010     
  1.35            1.6373e-009     1.5661e-008     -1.7542e-009   
  1.4             -1.6451e-009    5.434e-009      -1.6458e-009   
  1.45            -2.129e-009     -1.2004e-008    -2.372e-010    
  1.5             -2.1966e-009    -1.1559e-008    -4.802e-010    
  1.55            -2.2529e-009    -1.0358e-008    -7.084e-010    
  1.6             -1.5674e-009    -1.6801e-008    1.26e-009      
  1.65            -2.011e-010     -1.3731e-008    2.8541e-009    
  1.7             2.1152e-009     1.1498e-008     1.903e-010     
  1.75            2.2201e-009     1.1186e-008     3.953e-010     
  1.8             1.3386e-009     2.5212e-008     -1.3591e-009   
END_DB

BEGIN_DB
 ICCAP_VAR VG         0.36           
 ICCAP_VAR VS         0              
 ICCAP_VAR VB         0              

 #VD              ID              IB              IG             
  0               5.942e-010      2.217e-008      -1.619e-010    
  0.05            2.0952e-009     2.6521e-008     -1.5285e-009   
  0.1             9.405e-010      8.211e-009      -1.43e-009     
  0.15            1.1087e-009     1.0222e-008     -1.385e-009    
  0.2             1.2761e-009     1.1743e-008     -1.3506e-009   
  0.25            1.446e-009      1.1406e-008     -2.7397e-009   
  0.3             2.0926e-009     -9.594e-009     2.3549e-009    
  0.35            2.0185e-009     -4.658e-009     2.0256e-009    
  0.4             2.4543e-009     -7.676e-009     2.4139e-009    
  0.45            3.4482e-009     1.1374e-008     1.032e-010     
  0.5             3.5476e-009     1.1325e-008     3.113e-010     
  0.55            3.651e-009      1.0787e-008     5.223e-010     
  0.6             2.8782e-009     2.2268e-008     -1.3386e-009   
  0.65            1.5805e-009     1.149e-008      -2.7219e-009   
  0.7             5.976e-010      8.55e-010       -2.5777e-009   
  0.75            6.575e-010      1.051e-009      -2.3425e-009   
  0.8             7.446e-010      1.921e-009      -2.059e-009    
  0.85            8.504e-010      3.091e-009      -1.767e-009    
  0.9             9.583e-010      4.807e-009      -1.5641e-009   
  0.95            1.0791e-009     7.354e-009      -1.4468e-009   
  1               1.2253e-009     9.472e-009      -1.3968e-009   
  1.05            1.4015e-009     1.1343e-008     -1.3596e-009   
  1.1             1.5485e-009     1.1634e-008     -1.3194e-009   
  1.15            1.7035e-009     1.1632e-008     -2.6939e-009   
  1.2             6.556e-010      8.52e-010       -2.5203e-009   
  1.25            7.338e-010      1.474e-009      -2.2672e-009   
  1.3             8.36e-010       2.252e-009      -1.9661e-009   
  1.35            9.698e-010      3.6e-009        -1.6998e-009   
  1.4             1.087e-009      5.466e-009      -1.5217e-009   
  1.45            1.2147e-009     8.069e-009      -1.4294e-009   
  1.5             1.3579e-009     1.0097e-008     -1.3851e-009   
  1.55            1.4989e-009     1.1752e-008     -1.351e-009    
  1.6             1.6639e-009     1.1359e-008     -2.7356e-009   
  1.65            2.2926e-009     -2.0013e-008    2.3587e-009    
  1.7             2.22e-009       -4.718e-009     2.0194e-009    
  1.75            2.1358e-009     -7.596e-009     1.7218e-009    
  1.8             2.6107e-009     -8.68e-009      2.5399e-009    
END_DB

BEGIN_DB
 ICCAP_VAR VG         0.72           
 ICCAP_VAR VS         0              
 ICCAP_VAR VB         0              

 #VD              ID              IB              IG             
  0               -2.7426e-010    -6.501e-009     -1.3624e-009   
  0.05            1.0712e-006     -5.26e-010      -4.212e-010    
  0.1             1.7503e-006     1.3893e-008     -2.0065e-009   
  0.15            2.107e-006      1.1327e-008     3.072e-010     
  0.2             2.2599e-006     -1.4656e-008    2.3018e-009    
  0.25            2.3453e-006     -2.4238e-008    1.2736e-009    
  0.3             2.3905e-006     -2.0423e-008    1.9639e-009    
  0.35            2.4138e-006     -1.1933e-008    -4.987e-010    
  0.4             2.4726e-006     1.4541e-008     -1.9222e-009   
  0.45            2.4506e-006     1.0852e-008     1.8934e-009    
  0.5             2.4734e-006     -1.2747e-008    1.5024e-009    
  0.55            2.4982e-006     -1.0862e-008    -8.619e-010    
  0.6             2.5356e-006     2.152e-008      -1.5201e-009   
  0.65            2.5283e-006     1.0802e-008     7.294e-010     
  0.7             2.5247e-006     -1.9914e-008    1.6583e-009    
  0.75            2.5447e-006     -1.1587e-008    -7.46e-010     
  0.8             2.5772e-006     1.8274e-008     -1.6417e-009   
  0.85            2.5813e-006     1.1328e-008     5.882e-010     
  0.9             2.5653e-006     -1.7875e-008    1.8541e-009    
  0.95            2.583e-006      -1.1832e-008    -5.788e-010    
  1               2.6171e-006     1.5954e-008     -1.8171e-009   
  1.05            2.5857e-006     1.0408e-008     1.9597e-009    
  1.1             2.5975e-006     -1.2143e-008    3.001e-010     
  1.15            2.6505e-006     1.1526e-008     -1.2998e-009   
  1.2             2.6515e-006     1.1377e-008     3.782e-010     
  1.25            2.6301e-006     -1.5293e-008    2.1792e-009    
  1.3             2.6349e-006     -1.1941e-008    -3.4e-010      
  1.35            2.6852e-006     1.3128e-008     -2.1136e-009   
  1.4             2.6855e-006     1.1382e-008     2.247e-010     
  1.45            2.6526e-006     -1.4284e-008    2.4225e-009    
  1.5             2.6662e-006     -2.5496e-008    1.2859e-009    
  1.55            2.6722e-006     -2.2428e-008    1.2529e-009    
  1.6             2.6758e-006     -1.2017e-008    -4.059e-010    
  1.65            2.7195e-006     1.3309e-008     -2.0275e-009   
  1.7             2.7305e-006     2.5405e-008     -1.3135e-009   
  1.75            2.7385e-006     2.1638e-008     -1.745e-009    
  1.8             2.7037e-006     9.228e-009      2.0112e-009    
END_DB

BEGIN_DB
 ICCAP_VAR VG         1.08           
 ICCAP_VAR VS         0              
 ICCAP_VAR VB         0              

 #VD              ID              IB              IG             
  0               -9.183e-009     -1.1998e-008    -1.2347e-009   
  0.05            4.5058e-006     3.181e-009      1.0574e-009    
  0.1             8.422e-006      -2.5876e-008    1.3494e-009    
  0.15            1.1771e-005     -1.1923e-008    2.6433e-009    
  0.2             1.4502e-005     -1.7589e-008    1.7735e-009    
  0.25            1.6728e-005     -1.0083e-008    -9.868e-010    
  0.3             1.8424e-005     2.8445e-008     -1.3546e-009   
  0.35            1.9609e-005     1.1296e-008     5.059e-010     
  0.4             2.0362e-005     -2.2594e-008    1.4897e-009    
  0.45            2.1034e-005     -9.17e-009      -1.1904e-009   
  0.5             2.1396e-005     2.5456e-008     -1.3098e-009   
  0.55            2.1639e-005     1.0793e-008     7.413e-010     
  0.6             2.1785e-005     -2.5855e-008    1.3528e-009    
  0.65            2.2096e-005     -1.0171e-008    -1.413e-009    
  0.7             2.2209e-005     1.9487e-008     -1.6401e-009   
  0.75            2.2258e-005     9.516e-009      9.382e-010     
  0.8             2.2361e-005     -2.6225e-008    1.2954e-009    
  0.85            2.2495e-005     -1.1948e-008    -5.977e-010    
  0.9             2.2686e-005     2.3647e-008     -1.4592e-009   
  0.95            2.2798e-005     2.7776e-008     -1.3364e-009   
  1               2.2846e-005     1.1263e-008     6.265e-010     
  1.05            2.2841e-005     -2.4797e-008    1.4126e-009    
  1.1             2.295e-005      -2.3485e-008    1.2613e-009    
  1.15            2.3062e-005     -1.1578e-008    -7.859e-010    
  1.2             2.3222e-005     2.6746e-008     -1.4015e-009   
  1.25            2.3293e-005     2.4577e-008     -1.2954e-009   
  1.3             2.3301e-005     1.0665e-008     7.928e-010     
  1.35            2.3306e-005     -2.6223e-008    1.3352e-009    
  1.4             2.3402e-005     -1.1884e-008    -3.792e-010    
  1.45            2.3554e-005     1.9726e-008     -1.5821e-009   
  1.5             2.3518e-005     9.492e-009      9.778e-010     
  1.55            2.3578e-005     -2.5554e-008    1.2847e-009    
  1.6             2.3664e-005     -1.2055e-008    -6.692e-010    
  1.65            2.3815e-005     2.4592e-008     -1.4342e-009   
  1.7             2.3864e-005     1.518e-008      -1.8487e-009   
  1.75            2.386e-005      9.625e-009      8.008e-010     
  1.8             2.3855e-005     -2.7647e-008    1.3371e-009    
END_DB

BEGIN_DB
 ICCAP_VAR VG         1.44           
 ICCAP_VAR VS         0              
 ICCAP_VAR VB         0              

 #VD              ID              IB              IG             
  0               -1.167e-008     2.2184e-008     5.928e-010     
  0.05            7.6297e-006     -1.8238e-008    -2.4882e-009   
  0.1             1.4761e-005     2.7161e-008     -1.3011e-009   
  0.15            2.1338e-005     2.1991e-008     -1.7513e-009   
  0.2             2.7303e-005     9.973e-009      8.456e-010     
  0.25            3.2662e-005     -2.6695e-008    1.326e-009     
  0.3             3.7446e-005     -1.1826e-008    -4.647e-010    
  0.35            4.1667e-005     2.1719e-008     -1.5318e-009   
  0.4             4.513e-005      9.338e-009      1.0287e-009    
  0.45            4.8099e-005     -2.381e-008     1.2729e-009    
  0.5             5.0537e-005     -1.1627e-008    -7.364e-010    
  0.55            5.2522e-005     2.6417e-008     -1.4249e-009   
  0.6             5.3996e-005     2.5034e-008     -1.31e-009     
  0.65            5.5037e-005     1.0812e-008     7.413e-010     
  0.7             5.5777e-005     -2.6324e-008    1.3665e-009    
  0.75            5.6436e-005     -2.0116e-008    1.954e-009     
  0.8             5.6987e-005     -1.1144e-008    -8.823e-010    
  0.85            5.7461e-005     2.7832e-008     -1.3835e-009   
  0.9             5.7752e-005     2.1032e-008     -1.6976e-009   
  0.95            5.7971e-005     1.009e-008      8.882e-010     
  1               5.8188e-005     -2.6469e-008    1.3126e-009    
  1.05            5.8468e-005     -1.1837e-008    -5.202e-010    
  1.1             5.8797e-005     2.2819e-008     -1.4962e-009   
  1.15            5.8835e-005     8.854e-009      1.0694e-009    
  1.2             5.9076e-005     -2.2866e-008    1.2625e-009    
  1.25            5.931e-005      -1.1394e-008    -7.804e-010    
  1.3             5.9579e-005     2.6962e-008     -1.4108e-009   
  1.35            5.9746e-005     2.412e-008      -1.2942e-009   
  1.4             5.9915e-005     2.7515e-008     -1.3952e-009   
  1.45            6.004e-005      1.134e-008      3.054e-010     
  1.5             6.0048e-005     -1.9496e-008    1.6928e-009    
  1.55            6.0186e-005     -2.6838e-008    1.3278e-009    
  1.6             6.0367e-005     -1.1875e-008    -4.562e-010    
  1.65            6.063e-005      2.1423e-008     -1.5327e-009   
  1.7             6.0596e-005     8.993e-009      1.02e-009      
  1.75            6.0745e-005     -2.43e-008      1.2758e-009    
  1.8             6.0911e-005     -1.2034e-008    -7.304e-010    
END_DB

BEGIN_DB
 ICCAP_VAR VG         1.8            
 ICCAP_VAR VS         0              
 ICCAP_VAR VB         0              

 #VD              ID              IB              IG             
  0               -1.8847e-008    1.1119e-008     -2.435e-010    
  0.05            9.9395e-006     -2.2582e-008    -2.6592e-009   
  0.1             1.9496e-005     1.6277e-008     -1.9566e-009   
  0.15            2.8619e-005     2.3021e-008     -1.4727e-009   
  0.2             3.7221e-005     2.7932e-008     -1.3426e-009   
  0.25            4.5277e-005     1.1293e-008     6.002e-010     
  0.3             5.2739e-005     -2.4394e-008    1.4298e-009    
  0.35            5.9651e-005     -2.3953e-008    1.2669e-009    
  0.4             6.5962e-005     -1.168e-008     -7.708e-010    
  0.45            7.1691e-005     2.6359e-008     -1.4072e-009   
  0.5             7.6774e-005     2.495e-008      -1.3049e-009   
  0.55            8.1203e-005     1.0917e-008     7.75e-010      
  0.6             8.5017e-005     -2.6023e-008    1.3456e-009    
  0.65            8.837e-005      -1.1826e-008    -3.467e-010    
  0.7             9.1242e-005     1.917e-008      -1.6056e-009   
  0.75            9.3456e-005     9.463e-009      9.588e-010     
  0.8             9.53e-005       -2.5903e-008    1.2891e-009    
  0.85            9.6946e-005     -1.1716e-008    -1.666e-009    
  0.9             9.8089e-005     1.351e-008      -1.4451e-009   
  0.95            9.9095e-005     2.7093e-008     -1.3317e-009   
  1               9.9787e-005     1.1106e-008     6.624e-010     
  1.05            0.000100283     -2.5307e-008    1.3937e-009    
  1.1             0.000100842     -2.2675e-008    1.2577e-009    
  1.15            0.000101341     -1.1399e-008    -8.132e-010    
  1.2             0.00010183      2.7077e-008     -1.3938e-009   
  1.25            0.000102167     2.384e-008      -1.291e-009    
  1.3             0.000102508     2.7625e-008     -1.3796e-009   
  1.35            0.000102805     2.2108e-008     -1.7255e-009   
  1.4             0.000103097     2.7063e-008     -1.3909e-009   
  1.45            0.000103297     1.1263e-008     2.975e-010     
  1.5             0.000103389     -1.9188e-008    1.7215e-009    
  1.55            0.000103649     -2.6444e-008    1.3214e-009    
  1.6             0.000103939     -1.1822e-008    -4.465e-010    
  1.65            0.000104259     2.1138e-008     -1.5449e-009   
  1.7             0.000104325     9.035e-009      1.0192e-009    
  1.75            0.000104544     -2.4643e-008    1.2771e-009    
  1.8             0.000104795     -1.1824e-008    -7.2e-010      
END_DB

BEGIN_DB
 ICCAP_VAR VG         0              
 ICCAP_VAR VS         0              
 ICCAP_VAR VB         -0.9           

 #VD              ID              IB              IG             
  0               -1.2649e-009    1.0964e-008     -1.3259e-009   
  0.05            1.395e-010      1.1322e-008     -2.6873e-009   
  0.1             -2.2738e-009    6.93e-010       -9.549e-010    
  0.15            -1.6953e-009    -1.2225e-008    1.6628e-009    
  0.2             1.5518e-009     -8.543e-009     1.7326e-009    
  0.25            2.2288e-009     1.1185e-008     3.886e-010     
  0.3             2.3261e-009     1.0241e-008     6.049e-010     
  0.35            1.5116e-009     2.0132e-008     -1.3175e-009   
  0.4             1.795e-010      1.1556e-008     -2.6628e-009   
  0.45            -2.264e-009     5.05e-010       -9.84e-010     
  0.5             -2.1673e-009    -1.0178e-008    -1.156e-009    
  0.55            -1.8254e-009    -1.1631e-008    2.889e-010     
  0.6             -9.009e-010     -2.3243e-008    1.7516e-009    
  0.65            1.6393e-009     -8.765e-009     1.6577e-009    
  0.7             2.1946e-009     1.1362e-008     3.219e-010     
  0.75            2.298e-009      1.0903e-008     5.393e-010     
  0.8             2.3724e-009     9.955e-009      7.327e-010     
  0.85            1.6174e-009     1.6786e-008     -1.7939e-009   
  0.9             -1.6659e-009    5.111e-009      -1.6308e-009   
  0.95            -1.5106e-009    -1.9093e-008    1.2765e-009    
  1               -1.102e-010     -1.2497e-008    2.8792e-009    
  1.05            1.4817e-009     2.124e-008      -1.3255e-009   
  1.1             1.44e-010       1.1584e-008     -2.6858e-009   
  1.15            -1.3025e-009    7.41e-010       -1.9149e-009   
  1.2             -2.2637e-009    -1.1182e-008    -7.026e-010    
  1.25            -2.2752e-009    -9.892e-009     -8.717e-010    
  1.3             -1.6518e-009    -1.313e-008     1.8079e-009    
  1.35            1.6832e-009     -8.751e-009     1.6285e-009    
  1.4             2.1727e-009     1.1311e-008     2.806e-010     
  1.45            2.2771e-009     1.1006e-008     5.01e-010      
  1.5             2.3623e-009     1.0053e-008     7.029e-010     
  1.55            1.5944e-009     1.7579e-008     -1.8453e-009   
  1.6             -1.7115e-009    4.803e-009      -1.6031e-009   
  1.65            -2.1122e-009    -1.1756e-008    -1.614e-010    
  1.7             -2.1931e-009    -1.1688e-008    -4.105e-010    
  1.75            -2.2546e-009    -1.082e-008     -6.573e-010    
  1.8             -1.5473e-009    -1.7882e-008    1.2641e-009    
END_DB

BEGIN_DB
 ICCAP_VAR VG         0.36           
 ICCAP_VAR VS         0              
 ICCAP_VAR VB         -0.9           

 #VD              ID              IB              IG             
  0               1.0427e-009     1.1976e-008     1.0921e-009    
  0.05            -8.133e-010     -2.0789e-008    1.9531e-009    
  0.1             1.8151e-009     -8.64e-009      1.5349e-009    
  0.15            1.5395e-009     1.0815e-008     1.7366e-009    
  0.2             2.2435e-009     1.1185e-008     4.043e-010     
  0.25            2.3357e-009     1.0592e-008     6.129e-010     
  0.3             1.5339e-009     1.9912e-008     -1.3138e-009   
  0.35            2.053e-010      1.1778e-008     -2.6573e-009   
  0.4             -2.2517e-009    4.45e-010       -1.0039e-009   
  0.45            -2.151e-009     -9.604e-009     -1.1798e-009   
  0.5             -1.8213e-009    -1.1647e-008    2.701e-010     
  0.55            -9.092e-010     -2.3471e-008    1.7247e-009    
