! VERSION = 6.00
BEGIN_HEADER
 ICCAP_INPUTS
  VG         V  B GROUND SMU4 0.001 LIN        1    0          1.8        37   0.05      
  VS         V  E GROUND SMU3 0.1 CON        0
  VB         V  C GROUND SMU1 0.1 LIN        3    0          -1.8       3    -0.9      
  VD         V  S GROUND SMU2 0.1 LIN        2    0.1        1.8        2    1.7       
 ICCAP_OUTPUTS
  IG         I  B GROUND SMU4 B
  ID         I  S GROUND SMU2 B
  IB         I  C GROUND SMU1 B
END_HEADER

BEGIN_DB
 ICCAP_VAR VS         0              
 ICCAP_VAR VB         0              
 ICCAP_VAR VD         0.1            

 #VG              IG              ID              IB             
  0               4.438e-010      -9.16e-010      -1.5853e-008   
  0.05            1.3244e-009     4.895e-010      -7.721e-009    
  0.1             8.688e-010      4.5231e-009     9.381e-009     
  0.15            -2.5009e-009    -2.1443e-009    4.717e-009     
  0.2             1.5265e-009     -1.9866e-009    -2.2099e-008   
  0.25            5.725e-010      4.5344e-009     1.0897e-008    
  0.3             -2.2037e-009    -2.0731e-009    2.168e-009     
  0.35            2.453e-009      -7.552e-010     -1.8148e-008   
  0.4             -2.3509e-009    2.8041e-009     1.664e-008     
  0.45            2.614e-009      1.0024e-008     1.117e-008     
  0.5             -1.4421e-009    3.1858e-008     5.12e-009      
  0.55            5.254e-010      1.235e-007      -2.3085e-008   
  0.6             2.8949e-009     3.9559e-007     -8.112e-009    
  0.65            2.1551e-009     1.1307e-006     1.2063e-008    
  0.7             -2.0207e-009    2.8356e-006     1.6537e-008    
  0.75            -7.6e-010       5.9876e-006     -1.1791e-008   
  0.8             1.3189e-009     1.10657e-005    -8.419e-009    
  0.85            3.165e-010      1.8125e-005     8.331e-009     
  0.9             2.8049e-009     2.66e-005       -1.0813e-008   
  0.95            -1.3817e-009    3.6367e-005     2.603e-008     
  1               -5.459e-010     4.6026e-005     -1.1687e-008   
  1.05            1.6381e-009     5.559e-005      -1.847e-008    
  1.1             -1.3857e-009    6.5281e-005     2.4225e-008    
  1.15            2.0602e-009     7.3953e-005     -2.1715e-008   
  1.2             7.376e-010      8.2372e-005     1.1161e-008    
  1.25            -1.3834e-009    9.0239e-005     7.586e-009     
  1.3             1.9396e-009     9.7252e-005     -2.0163e-008   
  1.35            7.936e-010      0.000103892     1.0957e-008    
  1.4             -1.3841e-009    0.000110096     8.029e-009     
  1.45            2.2771e-009     0.00011559      9.815e-009     
  1.5             -1.4192e-009    0.00012082      2.2215e-008    
  1.55            1.3084e-009     0.00012542      -2.3943e-008   
  1.6             5.553e-010      0.00012991      1.1338e-008    
  1.65            -1.5277e-009    0.00013395      1.9592e-008    
  1.7             9.9e-011        0.00013767      -9.65e-009     
  1.75            2.5678e-009     0.00014099      -1.5363e-008   
  1.8             -1.3541e-009    0.00014433      2.4902e-008    
END_DB

BEGIN_DB
 ICCAP_VAR VS         0              
 ICCAP_VAR VB         0              
 ICCAP_VAR VD         1.8            

 #VG              IG              ID              IB             
  0               -3.412e-010     1.0012e-009     1.5684e-008    
  0.05            -1.3827e-009    -3.264e-010     9.308e-009     
  0.1             1.3149e-009     -2.592e-009     -2.3984e-008   
  0.15            -1.3798e-009    2.3389e-009     2.6463e-008    
  0.2             1.3311e-009     -2.3849e-009    -2.4114e-008   
  0.25            8.158e-010      4.6248e-009     9.531e-009     
  0.3             -1.7773e-009    -7.068e-010     4.551e-009     
  0.35            -3.565e-010     -2.2944e-009    -1.186e-008    
  0.4             2.162e-009      1.1858e-008     2.1216e-008    
  0.45            -1.3815e-009    3.907e-008      7.303e-009     
  0.5             2.7687e-009     1.5445e-007     -1.1084e-008   
  0.55            -2.0645e-009    5.2008e-007     1.5493e-008    
  0.6             2.6183e-009     1.4945e-006     1.6127e-008    
  0.65            -1.8105e-009    4.0381e-006     1.3948e-008    
  0.7             -8.874e-010     9.1067e-006     -1.8928e-008   
  0.75            -9.328e-010     1.8088e-005     5.136e-009     
  0.8             1.3291e-009     3.1182e-005     -4.2027e-008   
  0.85            2.7329e-009     4.9086e-005     -1.7157e-008   
  0.9             8.906e-010      7.0804e-005     -2.1869e-008   
  0.95            -1.3845e-009    9.6584e-005     -1.3427e-008   
  1               -2.5502e-009    0.00012416      -5.4027e-008   
  1.05            -7.685e-010     0.00015432      -5.6979e-008   
  1.1             1.4221e-009     0.00018569      -6.7775e-008   
  1.15            2.6135e-009     0.00021938      -3.9785e-008   
  1.2             7.303e-010      0.00025384      -3.6875e-008   
  1.25            -1.4255e-009    0.00028964      -2.5148e-008   
  1.3             -2.6287e-009    0.00032498      -5.3963e-008   
  1.35            -8.532e-010     0.00036128      -5.5352e-008   
  1.4             1.3689e-009     0.00039708      -6.3354e-008   
  1.45            2.6674e-009     0.00043446      -3.1482e-008   
  1.5             8.051e-010      0.00047158      -2.5987e-008   
  1.55            -1.4013e-009    0.00050956      -1.1333e-008   
  1.6             -2.6867e-009    0.00054615      -3.9943e-008   
  1.65            -9.208e-010     0.00058352      -4.0637e-008   
  1.7             1.3363e-009     0.00061979      -4.9593e-008   
  1.75            2.7208e-009     0.00065753      -1.6239e-008   
  1.8             8.726e-010      0.00069469      -1.1903e-008   
END_DB

BEGIN_DB
 ICCAP_VAR VS         0              
 ICCAP_VAR VB         -0.9           
 ICCAP_VAR VD         0.1            

 #VG              IG              ID              IB             
  0               1.058e-010      8.344e-010      -1.9645e-007   
  0.05            -2.4383e-009    8.44e-010       -1.5736e-007   
  0.1             -1.7573e-009    -2.8295e-009    -2.0648e-007   
  0.15            1.8313e-009     -3.1813e-009    -1.9496e-007   
  0.2             2.1581e-009     2.109e-009      -1.8932e-007   
  0.25            -1.234e-010     3.9222e-009     -1.761e-007    
  0.3             -2.6428e-009    4.669e-010      -1.5879e-007   
  0.35            -1.547e-009     -3.3878e-009    -2.0561e-007   
  0.4             1.3028e-009     -2.934e-009     -1.9959e-007   
  0.45            2.8096e-009     2.0562e-009     -1.949e-007    
  0.5             7.869e-010      5.3941e-009     -1.811e-007    
  0.55            -1.5427e-009    6.147e-009      -1.5475e-007   
  0.6             2.1377e-009     1.914e-008      -1.8364e-007   
  0.65            -2.5225e-009    7.433e-008      -1.9199e-007   
  0.7             1.7526e-009     2.5439e-007     -2.0164e-007   
  0.75            2.8188e-009     7.2962e-007     -1.9734e-007   
  0.8             -2.7208e-009    1.8969e-006     -2.0167e-007   
  0.85            -1.6205e-009    4.3319e-006     -2.0286e-007   
  0.9             1.685e-009      8.4245e-006     -1.9811e-007   
  0.95            2.04e-009       1.469e-005      -1.7582e-007   
  1               2.2766e-009     2.2782e-005     -1.8916e-007   
  1.05            2.798e-010      3.2072e-005     -1.766e-007    
  1.1             -1.8683e-009    4.1899e-005     -1.57e-007     
  1.15            -2.2086e-009    5.1638e-005     -2.0627e-007   
  1.2             -3.464e-010     6.119e-005      -1.9821e-007   
  1.25            1.9274e-009     7.0169e-005     -1.9249e-007   
  1.3             2.3298e-009     7.8861e-005     -1.8911e-007   
  1.35            3.462e-010      8.6827e-005     -1.7655e-007   
  1.4             -1.7681e-009    9.4179e-005     -1.5712e-007   
  1.45            -2.2692e-009    0.000100838     -2.0675e-007   
  1.5             -4.294e-010     0.000106997     -1.9887e-007   
  1.55            1.8223e-009     0.000112577     -1.924e-007    
  1.6             -1.4304e-009    0.00011783      -2.0692e-007   
  1.65            -2.6066e-009    0.00012267      -2.0737e-007   
  1.7             -8.227e-010     0.00012703      -2.0087e-007   
  1.75            1.3879e-009     0.00013097      -1.9876e-007   
  1.8             2.6468e-009     0.00013479      -1.9196e-007   
END_DB

BEGIN_DB
 ICCAP_VAR VS         0              
 ICCAP_VAR VB         -0.9           
 ICCAP_VAR VD         1.8            

 #VG              IG              ID              IB             
  0               8.98e-011       -1.5761e-009    -1.9334e-007   
  0.05            2.808e-009      -5.949e-010     -1.8797e-007   
  0.1             1.4781e-009     3.5923e-009     -1.8484e-007   
  0.15            -1.3712e-009    2.9522e-009     -1.6244e-007   
  0.2             -2.7692e-009    -1.9786e-009    -2.0512e-007   
  0.25            -8.838e-010     -4.289e-009     -2.0169e-007   
  0.3             1.5462e-009     -1.9285e-009    -1.9955e-007   
  0.35            2.3156e-009     2.1628e-009     -1.9057e-007   
  0.4             5.55e-011       4.6618e-009     -1.7668e-007   
  0.45            -2.5053e-009    3.5746e-009     -1.5789e-007   
  0.5             2.8972e-009     1.4974e-008     -1.7656e-007   
  0.55            1.2499e-009     6.0814e-008     -1.8413e-007   
  0.6             1.4355e-009     1.9918e-007     -2.0002e-007   
  0.65            1.3191e-009     6.1422e-007     -2.0243e-007   
  0.7             -2.333e-009     1.7689e-006     -2.0463e-007   
  0.75            -1.9908e-009    4.4112e-006     -2.1121e-007   
  0.8             2.92e-011       9.9723e-006     -2.0266e-007   
  0.85            -1.2944e-009    2.0019e-005     -1.679e-007    
  0.9             2.2671e-009     3.4064e-005     -2.2363e-007   
  0.95            2.1667e-009     5.3078e-005     -2.1298e-007   
  1               8.87e-011       7.6418e-005     -2.0778e-007   
  1.05            -2.0847e-009    0.000102948     -1.9314e-007   
  1.1             -1.4019e-009    0.00013185      -2.4647e-007   
  1.15            -2.6582e-009    0.00016275      -2.5037e-007   
  1.2             -8.737e-010     0.00019548      -2.4567e-007   
  1.25            1.3556e-009     0.00022879      -2.4414e-007   
  1.3             2.6669e-009     0.00026433      -2.3661e-007   
  1.35            8.018e-010      0.00030006      -2.2224e-007   
  1.4             -1.3973e-009    0.00033701      -1.9692e-007   
  1.45            -2.6812e-009    0.00037316      -2.4802e-007   
  1.5             -8.976e-010     0.00041015      -2.3921e-007   
  1.55            1.341e-009      0.00044646      -2.3591e-007   
  1.6             2.6951e-009     0.0004843       -2.2575e-007   
  1.65            8.243e-010      0.00052173      -2.104e-007    
  1.7             -1.3904e-009    0.00055975      -1.8372e-007   
  1.75            -2.6968e-009    0.00059657      -2.3449e-007   
  1.8             -9.218e-010     0.00063399      -2.2609e-007   
END_DB

BEGIN_DB
 ICCAP_VAR VS         0              
 ICCAP_VAR VB         -1.8           
 ICCAP_VAR VD         0.1            

 #VG              IG              ID              IB             
  0               1.2287e-009     2.0361e-009     -1.88e-007     
  0.05            1.526e-009      3.5015e-009     -2.0139e-007   
  0.1             -1.3613e-009    3.024e-009      -1.6768e-007   
  0.15            -2.7698e-009    -1.9495e-009    -2.0766e-007   
  0.2             -9.203e-010     -4.2703e-009    -2.0448e-007   
  0.25            1.4982e-009     -2.0209e-009    -2.0343e-007   
  0.3             2.352e-009      2.0597e-009     -1.9387e-007   
  0.35            1.08e-010       4.1727e-009     -1.7998e-007   
  0.4             -2.4589e-009    8.379e-010      -1.605e-007    
  0.45            -1.7607e-009    -2.8457e-009    -2.1002e-007   
  0.5             1.8758e-009     -3.0373e-009    -1.9915e-007   
  0.55            2.1339e-009     2.7864e-009     -1.9253e-007   
  0.6             -1.42e-010      7.2397e-009     -1.7945e-007   
  0.65            1.3948e-009     1.4934e-008     -1.8772e-007   
  0.7             2.6297e-009     6.3887e-008     -1.946e-007    
  0.75            -1.3823e-009    2.0993e-007     -1.9794e-007   
  0.8             -1.3849e-009    5.9997e-007     -1.566e-007    
  0.85            2.8461e-009     1.4683e-006     -1.859e-007    
  0.9             1.6566e-009     3.3895e-006     -1.8746e-007   
  0.95            -1.5111e-009    7.1963e-006     -1.719e-007    
  1               -1.7613e-009    1.2916e-005     -2.0146e-007   
  1.05            -2.2773e-009    2.0428e-005     -2.0982e-007   
  1.1             -4.304e-010     2.9342e-005     -2.0235e-007   
  1.15            1.8126e-009     3.8857e-005     -1.9627e-007   
  1.2             2.3833e-009     4.8878e-005     -1.9309e-007   
  1.25            4.047e-010      5.8571e-005     -1.8022e-007   
  1.3             -1.6992e-009    6.7859e-005     -1.6017e-007   
  1.35            -2.3121e-009    7.6418e-005     -2.0973e-007   
  1.4             -4.79e-010      8.4421e-005     -2.0196e-007   
  1.45            1.7424e-009     9.1679e-005     -1.9634e-007   
  1.5             2.4147e-009     9.8615e-005     -1.9253e-007   
  1.55            4.522e-010      0.000104926     -1.8015e-007   
  1.6             -1.6436e-009    0.000110709     -1.5994e-007   
  1.65            2.8935e-009     0.00011584      -1.8542e-007   
  1.7             1.2165e-009     0.00012063      -1.8703e-007   
  1.75            -1.3692e-009    0.00012516      -1.5784e-007   
  1.8             -2.7732e-009    0.0001292       -2.09e-007     
END_DB

BEGIN_DB
 ICCAP_VAR VS         0              
 ICCAP_VAR VB         -1.8           
 ICCAP_VAR VD         1.8            

 #VG              IG              ID              IB             
  0               -2.7622e-009    -4.0147e-009    -2.0343e-007   
  0.05            -8.757e-010     -4.289e-009     -2.0464e-007   
  0.1             1.5406e-009     -1.951e-009     -2.0257e-007   
  0.15            2.3197e-009     2.0601e-009     -1.941e-007    
  0.2             7.8e-011        4.1414e-009     -1.7993e-007   
  0.25            -2.4874e-009    7.975e-010      -1.6083e-007   
  0.3             -1.7415e-009    -2.9196e-009    -2.1035e-007   
  0.35            1.8868e-009     -3.1271e-009    -1.9933e-007   
  0.4             2.1296e-009     2.2547e-009     -1.9263e-007   
  0.45            -1.424e-010     4.6302e-009     -1.7967e-007   
  0.5             -2.6594e-009    4.2716e-009     -1.6175e-007   
  0.55            1.3186e-009     1.9289e-008     -1.7972e-007   
  0.6             2.7692e-009     7.4856e-008     -1.9472e-007   
  0.65            1.9909e-009     2.472e-007      -1.914e-007    
  0.7             1.7143e-009     7.3322e-007     -1.9727e-007   
  0.75            -1.3859e-009    2.0551e-006     -2.0629e-007   
  0.8             -2.7692e-009    5.0763e-006     -2.1519e-007   
  0.85            -1.1104e-009    1.1267e-005     -2.1306e-007   
  0.9             -2.6626e-009    2.1578e-005     -1.9371e-007   
  0.95            -8.769e-010     3.6774e-005     -2.2491e-007   
  1               1.3468e-009     5.6023e-005     -2.2895e-007   
  1.05            2.6983e-009     7.984e-005      -2.2711e-007   
  1.1             8.417e-010      0.000106673     -2.1927e-007   
  1.15            3.771e-010      0.00013654      -2.0046e-007   
  1.2             -1.7201e-009    0.00016826      -2.0257e-007   
  1.25            -2.3047e-009    0.00020086      -2.5333e-007   
  1.3             -4.785e-010     0.00023504      -2.4682e-007   
  1.35            1.735e-009      0.00026989      -2.402e-007    
  1.4             2.4242e-009     0.00030621      -2.3616e-007   
  1.45            4.686e-010      0.00034278      -2.2129e-007   
  1.5             -1.6066e-009    0.00037994      -1.9932e-007   
  1.55            -2.392e-009     0.00041642      -2.4735e-007   
  1.6             -5.805e-010     0.00045343      -2.383e-007    
  1.65            1.5918e-009     0.00049033      -2.3023e-007   
  1.7             2.4974e-009     0.00052813      -2.2449e-007   
  1.75            5.62e-010       0.0005656       -2.0859e-007   
  1.8             -1.5181e-009    0.00060337      -1.8573e-007   
END_DB

