! VERSION = 6.00
BEGIN_HEADER
 ICCAP_INPUTS
  VG         V  B GROUND SMU4 0.001 LIN        2    0          1.8        6    0.36      
  VS         V  E GROUND SMU2 0.1 CON        0
  VD         V  S GROUND SMU1 0.1 LIN        1    0          1.8        37   0.05      
  VB         V  C GROUND SMU3 0.1 LIN        3    0          -0.9       2    -0.9      
 ICCAP_OUTPUTS
  ID         I  S GROUND SMU1 B
  IB         I  C GROUND SMU3 B
  IG         I  B GROUND SMU4 B
END_HEADER

BEGIN_DB
 ICCAP_VAR VG         0              
 ICCAP_VAR VS         0              
 ICCAP_VAR VB         0              

 #VD              ID              IB              IG             
  0               2.114e-010      9.96e-009       -7.071e-010    
  0.05            1.5963e-009     1.7421e-008     -1.8189e-009   
  0.1             -1.6768e-009    5.111e-009      -1.6024e-009   
  0.15            -2.0898e-009    -1.0943e-008    -1.73e-010     
  0.2             -2.1672e-009    -1.1266e-008    -4.029e-010    
  0.25            -2.2178e-009    -1.1264e-008    -6.208e-010    
  0.3             -2.2261e-009    -1.0762e-008    -8.17e-010     
  0.35            -1.5817e-009    -1.4903e-008    1.9335e-009    
  0.4             1.8026e-009     -8.748e-009     1.5361e-009    
  0.45            1.5343e-009     1.0277e-008     1.7198e-009    
  0.5             2.2107e-009     1.0616e-008     3.757e-010     
  0.55            2.2963e-009     1.0205e-008     5.752e-010     
  0.6             2.3416e-009     9.879e-009      7.591e-010     
  0.65            1.6281e-009     1.6617e-008     -1.7666e-009   
  0.7             -1.638e-009     5.549e-009      -1.6323e-009   
  0.75            -2.1071e-009    -1.1049e-008    -2.122e-010    
  0.8             -2.1772e-009    -1.1151e-008    -4.418e-010    
  0.85            -2.2193e-009    -1.0853e-008    -6.691e-010    
  0.9             -1.5145e-009    -1.7954e-008    1.2335e-009    
  0.95            -1.71e-010      -1.3362e-008    2.8142e-009    
  1               2.092e-009      1.0318e-008     1.511e-010     
  1.05            2.2004e-009     1.0587e-008     3.47e-010      
  1.1             2.2908e-009     1.0366e-008     5.468e-010     
  1.15            1.4563e-009     2.2486e-008     -1.2934e-009   
  1.2             1.309e-010      1.1305e-008     -2.655e-009    
  1.25            -1.3037e-009    4.24e-010       -1.8651e-009   
  1.3             -2.2191e-009    -1.1018e-008    -6.32e-010     
  1.35            -1.5009e-009    -1.8862e-008    1.2379e-009    
  1.4             -1.308e-010     -1.2901e-008    2.8255e-009    
  1.45            2.0735e-009     1.0331e-008     1.207e-010     
  1.5             2.1825e-009     1.0552e-008     3.186e-010     
  1.55            2.275e-009      1.0768e-008     5.211e-010     
  1.6             2.3378e-009     1.0281e-008     6.995e-010     
  1.65            1.5789e-009     1.8282e-008     -1.8443e-009   
  1.7             -1.7072e-009    4.93e-009       -1.5801e-009   
  1.75            -2.0764e-009    -1.085e-008     -1.446e-010    
  1.8             -2.1558e-009    -1.1247e-008    -3.756e-010    
END_DB

BEGIN_DB
 ICCAP_VAR VG         0.36           
 ICCAP_VAR VS         0              
 ICCAP_VAR VB         0              

 #VD              ID              IB              IG             
  0               -9.128e-010     -1.8597e-008    -1.0303e-009   
  0.05            2.3558e-009     2.7388e-008     -1.4076e-009   
  0.1             1.2921e-009     1e-008          -1.3449e-009   
  0.15            1.4997e-009     1.1014e-008     -1.308e-009    
  0.2             1.6943e-009     1.0836e-008     -1.2756e-009   
  0.25            1.8913e-009     1.1813e-008     -2.6075e-009   
  0.3             8.349e-010      5.56e-010       -2.4286e-009   
  0.35            2.2543e-009     -1.1099e-008    1.7754e-009    
  0.4             2.1973e-009     -8.778e-009     1.5368e-009    
  0.45            2.1385e-009     -8.493e-009     1.3833e-009    
  0.5             2.7774e-009     -8.297e-009     2.7734e-009    
  0.55            4.1424e-009     1.0467e-008     6.579e-010     
  0.6             4.2077e-009     9.92e-009       8.27e-010      
  0.65            4.2202e-009     9.621e-009      9.764e-010     
  0.7             3.0411e-009     2.5823e-008     -1.4999e-009   
  0.75            1.8157e-009     8.503e-009      -1.397e-009    
  0.8             1.999e-009      1.0211e-008     -1.3431e-009   
  0.85            2.1796e-009     1.1021e-008     -1.3072e-009   
  0.9             2.3738e-009     1.0866e-008     -1.2753e-009   
  0.95            2.5819e-009     1.2017e-008     -2.6003e-009   
  1               1.5074e-009     7.92e-010       -2.4219e-009   
  1.05            2.2797e-009     -1.1092e-008    2.8385e-009    
  1.1             4.4195e-009     1.029e-008      8.8e-011       
  1.15            4.5694e-009     1.0391e-008     2.78e-010      
  1.2             4.6969e-009     1.0678e-008     4.733e-010     
  1.25            4.8135e-009     1.0481e-008     6.642e-010     
  1.3             4.8887e-009     9.878e-009      8.346e-010     
  1.35            4.9062e-009     9.639e-009      9.872e-010     
  1.4             3.793e-009      2.5761e-008     -1.4942e-009   
  1.45            2.5777e-009     8.806e-009      -1.3959e-009   
  1.5             2.774e-009      1.0267e-008     -1.3409e-009   
  1.55            2.9629e-009     1.1114e-008     -1.3024e-009   
  1.6             3.1814e-009     1.0787e-008     -2.6827e-009   
  1.65            1.0283e-009     -1.0946e-008    -9.9e-012      
  1.7             9.791e-010      -1.0914e-008    -2.327e-010    
  1.75            9.827e-010      -1.1008e-008    -4.542e-010    
  1.8             1.0039e-009     -1.0709e-008    -6.835e-010    
END_DB

BEGIN_DB
 ICCAP_VAR VG         0.72           
 ICCAP_VAR VS         0              
 ICCAP_VAR VB         0              

 #VD              ID              IB              IG             
  0               -3.8345e-008    1.0484e-008     6.763e-010     
  0.05            1.1886e-005     -1.7321e-008    6.487e-010     
  0.1             1.6229e-005     -2.4507e-008    1.3767e-009    
  0.15            1.8042e-005     -1.0992e-008    -1.766e-010    
  0.2             1.944e-005      1.7655e-008     -1.7533e-009   
  0.25            1.9648e-005     1.0704e-008     8.439e-010     
  0.3             2.0256e-005     -2.5884e-008    1.2835e-009    
  0.35            2.0776e-005     -1.0843e-008    -4.435e-010    
  0.4             2.1815e-005     2.1242e-008     -1.5274e-009   
  0.45            2.1619e-005     9.899e-009      1.0165e-009    
  0.5             2.2372e-005     -2.4252e-008    1.2418e-009    
  0.55            2.2862e-005     -1.1143e-008    -7.007e-010    
  0.6             2.3862e-005     2.5013e-008     -1.4042e-009   
  0.65            2.3399e-005     9.529e-009      1.199e-009     
  0.7             2.4299e-005     -2.0071e-008    1.9411e-009    
  0.75            2.4833e-005     -1.1194e-008    -8.92e-010     
  0.8             2.5756e-005     2.7212e-008     -1.3442e-009   
  0.85            2.6175e-005     2.1711e-008     -1.6889e-009   
  0.9             2.5981e-005     1.052e-008      8.851e-010     
  0.95            2.645e-005      -2.5946e-008    1.2746e-009    
  1               2.69e-005       -1.0928e-008    -5.07e-010     
  1.05            2.8e-005        2.1991e-008     -1.4908e-009   
  1.1             2.752e-005      9.832e-009      1.0628e-009    
  1.15            2.8076e-005     -9.925e-009     2.7952e-009    
  1.2             2.8742e-005     -1.109e-008     -1.666e-010    
  1.25            2.9873e-005     1.739e-008      -1.7768e-009   
  1.3             2.9642e-005     1.0413e-008     8.219e-010     
  1.35            3.0113e-005     -2.6426e-008    1.2937e-009    
  1.4             3.1261e-005     -1.1488e-008    -1.4982e-009   
  1.45            3.1646e-005     1.6148e-008     -1.544e-009    
  1.5             3.1285e-005     7.554e-009      1.0047e-009    
  1.55            3.1978e-005     -2.8334e-008    1.2474e-009    
  1.6             3.2977e-005     -1.666e-008     -1.6942e-009   
  1.65            3.3556e-005     7.776e-009      -1.8708e-009   
  1.7             3.3212e-005     -2.222e-009     2.2123e-009    
  1.75            3.3761e-005     -2.7864e-008    -4.477e-010    
  1.8             3.4377e-005     -2.388e-008     -2.568e-009    
END_DB

BEGIN_DB
 ICCAP_VAR VG         1.08           
 ICCAP_VAR VS         0              
 ICCAP_VAR VB         0              

 #VD              ID              IB              IG             
  0               -1.121e-007     1.0281e-008     -3.718e-010    
  0.05            0.00015132      -1.3454e-008    -1.8259e-009   
  0.1             0.00027172      1.4045e-008     -1.4245e-009   
  0.15            0.00036179      2.6889e-008     -1.3351e-009   
  0.2             0.00042167      9.51e-009       1.1739e-009    
  0.25            0.00046346      -2.5429e-008    1.2503e-009    
  0.3             0.00049075      -1.074e-008     -3.236e-010    
  0.35            0.00051112      1.5831e-008     -1.9578e-009   
  0.4             0.00052062      1.0242e-008     1.9805e-009    
  0.45            0.00052965      -1.1762e-008    1.486e-010     
  0.5             0.00054151      1.1077e-008     -2.5145e-009   
  0.55            0.00054783      1.0732e-008     1.81e-011      
  0.6             0.0005502       -1.4235e-008    2.5461e-009    
  0.65            0.00055683      -1.0793e-008    -1.925e-010    
  0.7             0.00056577      1.4215e-008     -2.111e-009    
  0.75            0.00056637      1.0925e-008     1.8845e-009    
  0.8             0.00057202      -1.2328e-008    2.41e-010      
  0.85            0.00058078      1.0872e-008     -2.5982e-009   
  0.9             0.00058414      1.1314e-008     -7.96e-011     
  0.95            0.00058563      -1.2936e-008    2.6581e-009    
  1               0.00059043      -2.596e-008     1.2603e-009    
  1.05            0.00059499      -1.8995e-008    1.844e-009     
  1.1             0.0006008       -1.1275e-008    -7.356e-010    
  1.15            0.00060638      2.0891e-008     -1.5352e-009   
  1.2             0.00060898      1.0669e-008     8.127e-010     
  1.25            0.00061125      -2.3518e-008    1.4258e-009    
  1.3             0.00061792      -1.1295e-008    -1.0192e-009   
  1.35            0.00062314      8.204e-009      -1.3041e-009   
  1.4             0.00062656      1.589e-008      -1.6709e-009   
  1.45            0.00063144      5.971e-009      -2.579e-009    
  1.5             0.00063482      4.033e-009      -2.2869e-009   
  1.55            0.00063885      1.441e-009      -1.8897e-009   
  1.6             0.00063896      -1.4755e-008    2.0272e-009    
  1.65            0.00064232      -5.1397e-008    1.029e-010     
  1.7             0.00065021      -5.0149e-008    -2.4728e-009   
  1.75            0.00064823      -8.0892e-008    1.6046e-009    
  1.8             0.00065517      -1.1933e-007    -8.888e-010    
END_DB

BEGIN_DB
 ICCAP_VAR VG         1.44           
 ICCAP_VAR VS         0              
 ICCAP_VAR VB         0              

 #VD              ID              IB              IG             
  0               -1.2532e-007    9.934e-009      7.528e-010     
  0.05            0.00027862      -2.0105e-008    -7.222e-010    
  0.1             0.00053139      2.1065e-008     -1.5386e-009   
  0.15            0.0007512       1.032e-008      7.964e-010     
  0.2             0.00093446      -2.3705e-008    1.4382e-009    
  0.25            0.00108601      -1.0854e-008    -1.0068e-009   
  0.3             0.0012048       9.989e-009      -1.7284e-009   
  0.35            0.0012944       1.6837e-008     -1.5214e-009   
  0.4             0.0013612       1.0714e-008     8.149e-010     
  0.45            0.0014094       -2.3872e-008    1.4264e-009    
  0.5             0.0014504       -1.0804e-008    -1.0244e-009   
  0.55            0.0014789       2.6392e-008     -1.3659e-009   
  0.6             0.001501        2.7105e-008     -1.3102e-009   
  0.65            0.0015182       2.3081e-008     -1.7583e-009   
  0.7             0.0015314       1.0664e-008     5.974e-010     
  0.75            0.0015416       -2.0113e-008    1.6594e-009    
  0.8             0.0015548       -1.1373e-008    -8.386e-010    
  0.85            0.0015667       2.3442e-008     -1.4508e-009   
  0.9             0.0015728       1.0458e-008     9.047e-010     
  0.95            0.0015807       -2.4821e-008    1.3552e-009    
  1               0.0015895       -2.5581e-008    1.2661e-009    
  1.05            0.0015983       -1.1003e-008    -2.709e-010    
  1.1             0.0016095       1.4799e-008     -1.9942e-009   
  1.15            0.0016124       1.0295e-008     1.9442e-009    
  1.2             0.0016193       -1.8714e-008    1.9029e-009    
  1.25            0.0016284       -1.1496e-008    -6.756e-010    
  1.3             0.0016373       1.9744e-008     -1.5767e-009   
  1.35            0.0016424       9.521e-009      7.592e-010     
  1.4             0.0016476       -2.464e-008     1.4735e-009    
  1.45            0.0016566       -1.4211e-008    -9.715e-010    
  1.5             0.0016639       2.638e-009      -1.3217e-009   
  1.55            0.0016679       -2.007e-009     2.6121e-009    
  1.6             0.0016751       -3.098e-008     -8.123e-010    
  1.65            0.0016829       -1.0465e-008    -1.4649e-009   
  1.7             0.0016863       -4.4151e-008    2.3057e-009    
  1.75            0.0016918       -9.4278e-008    -3.25e-010     
  1.8             0.0016983       -1.1702e-007    -2.6894e-009   
END_DB

BEGIN_DB
 ICCAP_VAR VG         1.8            
 ICCAP_VAR VS         0              
 ICCAP_VAR VB         0              

 #VD              ID              IB              IG             
  0               -1.3636e-007    2.6581e-008     -1.4052e-009   
  0.05            0.00035859      5.46e-010       -1.6125e-009   
  0.1             0.00069697      1.0836e-008     7.326e-010     
  0.15            0.00100827      -2.2091e-008    1.5021e-009    
  0.2             0.0012876       9.77e-009       2.8278e-009    
  0.25            0.0015326       -1.1839e-008    1.823e-010     
  0.3             0.0017454       1.0945e-008     -2.5418e-009   
  0.35            0.0019239       1.0892e-008     -1.35e-011     
  0.4             0.0020695       -1.3955e-008    2.5723e-009    
  0.45            0.0021912       -1.1016e-008    -1.58e-010     
  0.5             0.0022921       1.3844e-008     -2.1391e-009   
  0.55            0.0023701       1.7632e-008     -1.7501e-009   
  0.6             0.0024317       1.0716e-008     6.125e-010     
  0.65            0.0024785       -2.0253e-008    1.6343e-009    
  0.7             0.0025194       -1.1479e-008    -8.5e-010      
  0.75            0.0025534       2.3407e-008     -1.4413e-009   
  0.8             0.002576        1.0451e-008     9.182e-010     
  0.85            0.0025965       -2.4932e-008    1.3435e-009    
  0.9             0.0026152       -1.1395e-008    4.28e-011      
  0.95            0.0026361       1.2243e-008     -2.369e-009    
  1               0.0026499       1.5214e-008     -1.9837e-009   
  1.05            0.0026589       1.0836e-008     1.9599e-009    
  1.1             0.0026708       -1.1828e-008    1.792e-010     
  1.15            0.002687        1.0969e-008     -2.5421e-009   
  1.2             0.0026964       1.0852e-008     -9.4e-012      
  1.25            0.0027021       -1.4163e-008    2.5653e-009    
  1.3             0.002713        -1.1299e-008    -1.589e-010    
  1.35            0.0027264       1.3407e-008     -2.1389e-009   
  1.4             0.0027349       1.6676e-008     -1.7469e-009   
  1.45            0.0027441       2.0035e-008     -1.4788e-009   
  1.5             0.0027525       8.296e-009      -2.3652e-009   
  1.55            0.0027605       8.303e-009      -1.981e-009    
  1.6             0.002769        -1.066e-009     -2.6872e-009   
  1.65            0.0027748       -2.1117e-008    -2.616e-009    
  1.7             0.0027785       -2.2649e-008    1.4056e-009    
  1.75            0.0027885       -7.3204e-008    1.9899e-009    
  1.8             0.0027977       -9.2375e-008    -1.9568e-009   
END_DB

BEGIN_DB
 ICCAP_VAR VG         0              
 ICCAP_VAR VS         0              
 ICCAP_VAR VB         -0.9           

 #VD              ID              IB              IG             
  0               8.714e-010      2.3722e-008     9.425e-010     
  0.05            -1.3358e-009    -2.3306e-008    1.2851e-009    
  0.1             6.09e-011       -9.08e-009      1.2454e-009    
  0.15            -7.61e-011      -1.1758e-008    2.8461e-009    
  0.2             2.0359e-009     1.0245e-008     5.92e-011      
  0.25            2.1467e-009     1.0456e-008     2.472e-010     
  0.3             2.2462e-009     1.051e-008      4.358e-010     
  0.35            5.402e-010      1.6715e-008     -2.2097e-009   
  0.4             -1.9774e-009    2.638e-009      -1.3261e-009   
  0.45            -1.8855e-009    -1.1124e-008    1.264e-010     
  0.5             -2.0215e-009    -1.0865e-008    -4.58e-011     
  0.55            -2.1249e-009    -1.1055e-008    -2.67e-010     
  0.6             -2.1906e-009    -1.1233e-008    -4.921e-010    
  0.65            -2.2307e-009    -1.1155e-008    -7.121e-010    
  0.7             -1.5343e-009    -1.7185e-008    2.1314e-009    
  0.75            1.9412e-009     -7.296e-009     1.409e-009     
  0.8             2.0321e-009     1.0272e-008     5.58e-011      
  0.85            2.1395e-009     1.0463e-008     2.426e-010     
  0.9             2.2411e-009     1.0682e-008     4.355e-010     
  0.95            2.3204e-009     1.061e-008      6.247e-010     
  1               2.3467e-009     9.906e-009      8.007e-010     
  1.05            1.6625e-009     1.5955e-008     -1.7178e-009   
  1.1             -1.5897e-009    5.76e-009       -1.6644e-009   
  1.15            -2.1186e-009    -1.1009e-008    -2.663e-010    
  1.2             -2.1865e-009    -1.1192e-008    -4.824e-010    
  1.25            -2.2239e-009    -1.118e-008     -7.062e-010    
  1.3             -2.2238e-009    -1.0619e-008    -8.67e-010     
  1.35            -1.6048e-009    -1.4069e-008    1.8423e-009    
  1.4             1.7326e-009     -8.845e-009     1.5868e-009    
  1.45            1.4839e-009     1.0648e-008     1.7755e-009    
  1.5             2.2399e-009     1.0633e-008     4.278e-010     
  1.55            2.3168e-009     1.0596e-008     6.184e-010     
  1.6             2.3466e-009     1.0003e-008     7.945e-010     
  1.65            2.3318e-009     9.562e-009      9.45e-010      
  1.7             1.7814e-009     1.2971e-008     -1.5361e-009   
  1.75            -1.4089e-009    8.088e-009      -1.7931e-009   
  1.8             -2.1851e-009    -1.1237e-008    -4.79e-010     
END_DB

BEGIN_DB
 ICCAP_VAR VG         0.36           
 ICCAP_VAR VS         0              
 ICCAP_VAR VB         -0.9           

 #VD              ID              IB              IG             
  0               -1.4688e-009    1.0277e-008     -1.3946e-009   
  0.05            -2.1469e-009    1.0088e-008     -1.1134e-009   
  0.1             -1.731e-009     -1.1632e-008    1.4702e-009    
  0.15            2.3421e-009     -8.283e-009     9.431e-010     
  0.2             1.7781e-009     1.2782e-008     -1.5381e-009   
  0.25            -1.4109e-009    8.247e-009      -1.7918e-009   
  0.3             -2.1776e-009    -1.1256e-008    -4.642e-010    
  0.35            -2.2193e-009    -1.0864e-008    -6.791e-010    
  0.4             -1.5182e-009    -1.7971e-008    1.2327e-009    
  0.45            -1.688e-010     -1.3492e-008    2.8115e-009    
  0.5             2.1015e-009     1.0134e-008     1.528e-010     
  0.55            2.2091e-009     1.0589e-008     3.496e-010     
