! VERSION = 6.00
BEGIN_HEADER
 ICCAP_INPUTS
  VG         V  B GROUND SMU4 0.001 LIN        2    0          1.8        6    0.36      
  VS         V  E GROUND SMU2 0.1 CON        0
  VD         V  S GROUND SMU1 0.1 LIN        1    0          1.8        37   0.05      
  VB         V  C GROUND SMU3 0.1 LIN        3    0          -0.9       2    -0.9      
 ICCAP_OUTPUTS
  ID         I  S GROUND SMU1 B
  IB         I  C GROUND SMU3 B
  IG         I  B GROUND SMU4 B
END_HEADER

BEGIN_DB
 ICCAP_VAR VG         0              
 ICCAP_VAR VS         0              
 ICCAP_VAR VB         0              

 #VD              ID              IB              IG             
  0               2.3197e-009     -1.227e-008     2.3407e-009    
  0.05            2.1422e-009     -5.601e-009     1.2941e-009    
  0.1             4.659e-010      1.5235e-008     -2.3648e-009   
  0.15            -2.2196e-009    -1.1029e-008    -5.263e-010    
  0.2             -2.2546e-009    -1.0803e-008    -7.225e-010    
  0.25            -1.562e-009     -1.7663e-008    1.2362e-009    
  0.3             -1.714e-010     -1.3568e-008    2.8395e-009    
  0.35            2.1089e-009     1.0152e-008     1.457e-010     
  0.4             2.2077e-009     1.0582e-008     3.19e-010      
  0.45            2.2962e-009     1.0478e-008     4.973e-010     
  0.5             1.4124e-009     2.4326e-008     -1.3054e-009   
  0.55            6.48e-011       1.0852e-008     -1.2778e-009   
  0.6             2.073e-010      1.2054e-008     -2.6356e-009   
  0.65            -1.2903e-009    4.53e-010       -1.9133e-009   
  0.7             -2.2462e-009    -1.0717e-008    -6.793e-010    
  0.75            -1.5452e-009    -1.8585e-008    1.2387e-009    
  0.8             -1.309e-010     -1.2842e-008    2.8561e-009    
  0.85            2.0827e-009     1.0084e-008     1.03e-010      
  0.9             2.1839e-009     1.051e-008      2.78e-010      
  0.95            2.2741e-009     1.0566e-008     4.519e-010     
  1               2.3414e-009     1.0277e-008     6.291e-010     
  1.05            1.5141e-009     2.0962e-008     -1.288e-009    
  1.1             1.679e-010      1.152e-008      -2.6616e-009   
  1.15            -1.316e-009     5.91e-010       -1.8908e-009   
  1.2             -2.2451e-009    -1.0957e-008    -6.195e-010    
  1.25            -2.2548e-009    -1.065e-008     -8.042e-010    
  1.3             -2.2407e-009    -9.982e-009     -9.51e-010     
  1.35            -1.6556e-009    -1.3307e-008    1.7547e-009    
  1.4             1.6867e-009     -8.951e-009     1.6449e-009    
  1.45            1.4556e-009     9.904e-009      1.8111e-009    
  1.5             2.2727e-009     1.0577e-008     4.484e-010     
  1.55            1.3797e-009     2.5304e-008     -1.3129e-009   
  1.6             3.11e-011       1.0683e-008     -1.2856e-009   
  1.65            1.626e-010      1.1635e-008     -2.6633e-009   
  1.7             -1.3159e-009    6.79e-010       -1.8869e-009   
  1.75            -2.2404e-009    -1.0977e-008    -6.115e-010    
  1.8             -2.2492e-009    -1.0647e-008    -8.016e-010    
END_DB

BEGIN_DB
 ICCAP_VAR VG         0.36           
 ICCAP_VAR VS         0              
 ICCAP_VAR VB         0              

 #VD              ID              IB              IG             
  0               -1.3947e-009    1.0569e-008     -1.3593e-009   
  0.05            9.3483e-009     1.0503e-008     -1.3239e-009   
  0.1             1.2407e-008     -2.2236e-008    1.3526e-009    
  0.15            1.4557e-008     -1.1133e-008    2.2942e-009    
  0.2             1.722e-008      -2.5963e-008    1.2877e-009    
  0.25            1.7248e-008     -1.0824e-008    2.0059e-009    
  0.3             1.7284e-008     -1.0931e-008    1.4627e-009    
  0.35            2.0503e-008     -1.1155e-008    1.2741e-009    
  0.4             1.8006e-008     -1.0618e-008    1.8939e-009    
  0.45            2.3242e-008     -1.0875e-008    1.4078e-009    
  0.5             2.344e-008      -1.1179e-008    1.261e-009     
  0.55            2.7526e-008     -2.6085e-008    1.2807e-009    
  0.6             2.8255e-008     -1.0675e-008    1.9573e-009    
  0.65            2.3473e-008     -1.0862e-008    1.4347e-009    
  0.7             2.8209e-008     -1.1128e-008    1.267e-009     
  0.75            2.8859e-008     -2.6016e-008    1.2901e-009    
  0.8             3.3293e-008     -1.0798e-008    2.002e-009     
  0.85            2.5049e-008     -1.0882e-008    -1.514e-010    
  0.9             2.9877e-008     1.087e-008      -2.6038e-009   
  0.95            4.4714e-008     1.6623e-008     -1.5146e-009   
  1               1.2084e-008     9.842e-009      1.9951e-009    
  1.05            4.7591e-008     -1.6042e-008    1.672e-009     
  1.1             2.2619e-008     -1.0805e-008    -4.232e-010    
  1.15            4.3128e-008     1.2284e-008     -2.3894e-009   
  1.2             4.7517e-008     1.2698e-008     -1.852e-010    
  1.25            3.3096e-008     -8.389e-009     1.2521e-009    
  1.3             4.1906e-008     -1.1496e-008    8.13e-011      
  1.35            4.0398e-008     1.0596e-008     -1.2807e-009   
  1.4             4.5731e-008     1.6346e-008     -1.9048e-009   
  1.45            6.358e-008      2.7796e-008     -1.3133e-009   
  1.5             2.2641e-008     9.869e-009      9.912e-010     
  1.55            5.3792e-008     -2.0723e-008    1.5914e-009    
  1.6             3.0157e-008     -1.0913e-008    -4.862e-010    
  1.65            6.2598e-008     1.2814e-008     -2.3092e-009   
  1.7             6.5846e-008     2.5794e-008     -1.374e-009    
  1.75            2.8467e-008     1.0512e-008     7.514e-010     
  1.8             6.4379e-008     -1.7854e-008    2.0319e-009    
END_DB

BEGIN_DB
 ICCAP_VAR VG         0.72           
 ICCAP_VAR VS         0              
 ICCAP_VAR VB         0              

 #VD              ID              IB              IG             
  0               1.00842e-007    -1.1204e-008    -4.96e-011     
  0.05            1.7372e-005     2.7612e-008     -1.4254e-009   
  0.1             2.7347e-005     2.0087e-008     -1.657e-009    
  0.15            3.2669e-005     2.6968e-008     -1.3515e-009   
  0.2             3.2701e-005     1.022e-008      3.444e-010     
  0.25            3.6542e-005     -1.9633e-008    1.6792e-009    
  0.3             3.88e-005       -2.6037e-008    1.2882e-009    
  0.35            3.7286e-005     -1.0794e-008    -4.448e-010    
  0.4             4.2336e-005     2.1046e-008     -1.5403e-009   
  0.45            3.717e-005      9.678e-009      1.0196e-009    
  0.5             4.4202e-005     -2.48e-008      1.2524e-009    
  0.55            4.142e-005      -1.1162e-008    -6.865e-010    
  0.6             4.772e-005      2.4391e-008     -1.4187e-009   
  0.65            4.7735e-005     1.0522e-008     1.23e-010      
  0.7             4.9137e-005     -1.7735e-008    2.0153e-009    
  0.75            4.6432e-005     -1.0881e-008    -8.707e-010    
  0.8             5.2819e-005     2.7074e-008     -1.3548e-009   
  0.85            5.0249e-005     1.0274e-008     3.274e-010     
  0.9             5.4262e-005     -1.9512e-008    1.7003e-009    
  0.95            5.5596e-005     -2.5967e-008    1.2912e-009    
  1               5.3628e-005     -1.0794e-008    -4.305e-010    
  1.05            5.8819e-005     2.0635e-008     -1.5535e-009   
  1.1             5.2785e-005     9.724e-009      1.0103e-009    
  1.15            6.1945e-005     -2.4953e-008    1.2524e-009    
  1.2             5.7865e-005     -1.1339e-008    -6.67e-010     
  1.25            6.5498e-005     2.408e-008      -1.4226e-009   
  1.3             6.6288e-005     1.5747e-008     -1.8866e-009   
  1.35            5.9931e-005     9.378e-009      7.729e-010     
  1.4             6.8467e-005     -2.7282e-008    1.319e-009     
  1.45            6.4657e-005     -1.4044e-008    -1.4458e-009   
  1.5             7.2502e-005     7.81e-009       -2.3235e-009   
  1.55            7.1911e-005     1.1837e-008     -1.6168e-009   
  1.6             6.4594e-005     -2.907e-009     2.3678e-009    
  1.65            6.992e-005      -2.8519e-008    -7.126e-010    
  1.7             7.7507e-005     7.64e-010       -1.409e-009    
  1.75            6.8762e-005     -2.4867e-008    2.5805e-009    
  1.8             7.4699e-005     -5.8652e-008    -9.762e-010    
END_DB

BEGIN_DB
 ICCAP_VAR VG         1.08           
 ICCAP_VAR VS         0              
 ICCAP_VAR VB         0              

 #VD              ID              IB              IG             
  0               9.2882e-007     -1.0867e-008    1.0229e-009    
  0.05            0.00019072      -1.4212e-008    -4.56e-011     
  0.1             0.00034391      1.2956e-008     -2.3047e-009   
  0.15            0.00045718      1.6219e-008     -1.9056e-009   
  0.2             0.00053836      1.0013e-008     2.0282e-009    
  0.25            0.00058911      -1.8746e-008    1.8033e-009    
  0.3             0.00062986      -1.1111e-008    -7.62e-010     
  0.35            0.00065556      2.111e-008      -1.5249e-009   
  0.4             0.00067406      1.0206e-008     8.298e-010     
  0.45            0.00068571      -2.3481e-008    1.4193e-009    
  0.5             0.00069916      -2.5933e-008    1.2887e-009    
  0.55            0.00071125      -1.0949e-008    -1.261e-010    
  0.6             0.00072414      1.3641e-008     -2.2105e-009   
  0.65            0.00073323      1.7312e-008     -1.8201e-009   
  0.7             0.00074063      1.0588e-008     5.877e-010     
  0.75            0.00074722      -1.9498e-008    1.7077e-009    
  0.8             0.00075754      -1.1037e-008    -8.22e-010     
  0.85            0.00076906      2.2399e-008     -1.4749e-009   
  0.9             0.00077485      2.6277e-008     -1.3579e-009   
  0.95            0.00078288      1.52e-008       -2.0085e-009   
  1               0.00078364      1.0181e-008     1.9703e-009    
  1.05            0.00079556      -1.8329e-008    1.9151e-009    
  1.1             0.0008018       -1.1197e-008    -6.887e-010    
  1.15            0.00081105      1.9873e-008     -1.5874e-009   
  1.2             0.00081511      1.0032e-008     7.736e-010     
  1.25            0.00082347      -2.3049e-008    1.4793e-009    
  1.3             0.00083128      -1.252e-008     -9.781e-010    
  1.35            0.00083845      5.674e-009      -1.3221e-009   
  1.4             0.00084847      1.1782e-008     -1.7685e-009   
  1.45            0.00085404      1.79e-010       -2.6459e-009   
  1.5             0.00086307      -6.249e-009     -2.4067e-009   
  1.55            0.00086159      -1.8859e-008    1.7034e-009    
  1.6             0.00087045      -6.3001e-008    1.6036e-009    
  1.65            0.00087885      -8.4469e-008    -2.1697e-009   
  1.7             0.00088617      -1.1434e-007    9.997e-010     
  1.75            0.00089472      -1.6558e-007    -1.8064e-009   
  1.8             0.00089868      -2.2829e-007    2.0828e-009    
END_DB

BEGIN_DB
 ICCAP_VAR VG         1.44           
 ICCAP_VAR VS         0              
 ICCAP_VAR VB         0              

 #VD              ID              IB              IG             
  0               -1.2412e-007    1.1765e-008     -2.6357e-009   
  0.05            0.00034731      -1.0662e-008    -2.2816e-009   
  0.1             0.0006604       2.5405e-008     -1.3785e-009   
  0.15            0.00093091      9.648e-009      1.0568e-009    
  0.2             0.0011548       -1.0024e-008    1.3318e-009    
  0.25            0.0013327       -2.3364e-008    1.2355e-009    
  0.3             0.0014762       -1.0802e-008    -4.954e-010    
  0.35            0.0015827       1.7952e-008     -1.78e-009     
  0.4             0.0016656       1.0549e-008     6.177e-010     
  0.45            0.0017201       -1.9946e-008    1.6741e-009    
  0.5             0.0017735       -1.1017e-008    -8.477e-010    
  0.55            0.0018077       2.2877e-008     -1.4588e-009   
  0.6             0.001839        2.6431e-008     -1.35e-009     
  0.65            0.0018636       1.5755e-008     -1.9573e-009   
  0.7             0.0018789       1.0124e-008     2.0029e-009    
  0.75            0.0018964       -1.8681e-008    1.8621e-009    
  0.8             0.0019151       -1.1095e-008    -7.333e-010    
  0.85            0.0019318       2.0672e-008     -1.5585e-009   
  0.9             0.001944        1.0339e-008     8.059e-010     
  0.95            0.0019519       -2.2958e-008    1.4487e-009    
  1               0.0019718       -1.0964e-008    -1.0135e-009   
  1.05            0.0019824       2.5698e-008     -1.3721e-009   
  1.1             0.0019909       9.755e-009      1.0716e-009    
  1.15            0.0020005       -2.6076e-008    1.2813e-009    
  1.2             0.0020138       -2.3871e-008    1.2371e-009    
  1.25            0.0020257       -1.1545e-008    -4.848e-010    
  1.3             0.0020392       1.6308e-008     -1.7872e-009   
  1.35            0.0020512       7.734e-009      -2.6476e-009   
  1.4             0.0020589       6.417e-009      -2.4126e-009   
  1.45            0.0020704       5.313e-009      -2.0352e-009   
  1.5             0.0020786       -2.3794e-008    -2.7229e-009   
  1.55            0.002085        -1.7949e-008    1.0291e-009    
  1.6             0.0020973       -7.2572e-008    1.2984e-009    
  1.65            0.0021077       -8.3156e-008    -2.5356e-009   
  1.7             0.0021184       -8.438e-008     2.588e-010     
  1.75            0.0021294       -1.6485e-007    -2.6381e-009   
  1.8             0.0021336       -2.4165e-007    1.4407e-009    
END_DB

BEGIN_DB
 ICCAP_VAR VG         1.8            
 ICCAP_VAR VS         0              
 ICCAP_VAR VB         0              

 #VD              ID              IB              IG             
  0               -1.2746e-007    1.9888e-008     -1.8781e-009   
  0.05            0.00044089      -2.5934e-008    -1.2244e-009   
  0.1             0.00085601      2.7587e-008     -1.3194e-009   
  0.15            0.0012365       -1.3607e-008    -2.0272e-009   
  0.2             0.001573        1.0372e-008     1.9509e-009    
  0.25            0.001864        -1.8331e-008    1.9532e-009    
  0.3             0.0021142       -1.1123e-008    -6.603e-010    
  0.35            0.0023213       1.9826e-008     -1.6066e-009   
  0.4             0.0024933       1.0436e-008     7.481e-010     
  0.45            0.0026288       -2.2175e-008    1.5139e-009    
  0.5             0.002744        -1.1066e-008    -9.577e-010    
  0.55            0.0028333       2.5299e-008     -1.4001e-009   
  0.6             0.0029023       9.975e-009      1.0212e-009    
  0.65            0.0029572       -2.5655e-008    1.3074e-009    
  0.7             0.0030116       -1.019e-008     -1.2459e-009   
  0.75            0.0030488       2.7663e-008     -1.3187e-009   
  0.8             0.003081        1.8561e-008     -1.7019e-009   
  0.85            0.0031062       1.0629e-008     6.653e-010     
  0.9             0.0031283       -2.0949e-008    1.6039e-009    
  0.95            0.0031539       -1.1312e-008    -8.866e-010    
  1               0.0031731       2.3936e-008     -1.4359e-009   
  1.05            0.0031885       1.0285e-008     9.551e-010     
  1.1             0.0032026       -2.5077e-008    1.3378e-009    
  1.15            0.0032249       -1.0394e-008    -1.1679e-009   
  1.2             0.0032396       2.7247e-008     -1.3336e-009   
  1.25            0.0032539       1.6866e-008     -1.805e-009    
  1.3             0.0032664       9.479e-009      5.929e-010     
  1.35            0.0032759       -2.1678e-008    1.7103e-009    
  1.4             0.0032936       -1.4721e-008    -8.225e-010    
  1.45            0.003307        -2.94e-010      -1.365e-009    
  1.5             0.0033173       -4.604e-009     2.4748e-009    
  1.55            0.0033298       -3.0866e-008    -6.113e-010    
  1.6             0.0033434       -1.3889e-008    -1.6668e-009   
  1.65            0.0033525       -4.4415e-008    2.1752e-009    
  1.7             0.0033636       -9.4205e-008    -6.19e-011     
  1.75            0.0033773       -1.1738e-007    -2.6584e-009   
  1.8             0.0033885       -1.8177e-007    8.371e-010     
END_DB

BEGIN_DB
 ICCAP_VAR VG         0              
 ICCAP_VAR VS         0              
 ICCAP_VAR VB         -0.9           

 #VD              ID              IB              IG             
  0               8.611e-010      2.6043e-008     8.805e-010     
  0.05            -9.44e-011      -1.1668e-008    2.8554e-009    
  0.1             7.029e-010      1.9346e-008     -1.9656e-009   
  0.15            -1.8343e-009    4.116e-009      -1.5139e-009   
  0.2             -6.467e-010     -1.8423e-008    2.3676e-009    
  0.25            2.1387e-009     -5.143e-009     1.2799e-009    
  0.3             4.6e-010        1.4933e-008     -2.361e-009    
  0.35            -2.1031e-009    2.211e-009      -1.2311e-009   
  0.4             -1.1668e-009    -2.5675e-008    1.408e-009     
  0.45            2.3325e-009     -8.249e-009     1.0229e-009    
  0.5             9.885e-010      2.5765e-008     -1.4936e-009   
  0.55            -1.3856e-009    8.948e-009      -1.8418e-009   
  0.6             -2.2305e-009    -1.1015e-008    -5.332e-010    
  0.65            -2.2607e-009    -1.0705e-008    -7.34e-010     
  0.7             -1.5623e-009    -1.7419e-008    1.23e-009      
  0.75            -1.905e-010     -1.3385e-008    2.818e-009     
  0.8             1.5318e-009     2.0715e-008     -1.287e-009    
  0.85            1.747e-010      1.1488e-008     -2.6429e-009   
  0.9             -1.3131e-009    6.75e-010       -1.8935e-009   
  0.95            -2.2513e-009    -1.1308e-008    -6.492e-010    
  1               -2.2611e-009    -1.0849e-008    -8.267e-010    
  1.05            -1.6006e-009    -1.5417e-008    1.984e-009     
  1.1             1.8672e-009     -8.698e-009     1.5113e-009    
  1.15            1.6322e-009     1.0716e-008     1.6912e-009    
  1.2             2.1978e-009     1.0464e-008     3.092e-010     
  1.25            2.2906e-009     1.0637e-008     4.948e-010     
  1.3             2.353e-009      1.0532e-008     6.669e-010     
  1.35            1.549e-009      1.9946e-008     -1.2811e-009   
  1.4             1.994e-010      1.1959e-008     -2.6207e-009   
  1.45            -1.2901e-009    6.92e-010       -1.9063e-009   
  1.5             -2.2582e-009    -1.1199e-008    -6.912e-010    
  1.55            -2.2596e-009    -1.0669e-008    -8.509e-010    
  1.6             -2.2293e-009    -1.0195e-008    -9.939e-010    
  1.65            -1.6801e-009    -1.2734e-008    1.6819e-009    
  1.7             1.6062e-009     -8.877e-009     1.7197e-009    
  1.75            2.221e-009      1.0459e-008     3.412e-010     
  1.8             2.309e-009      1.0709e-008     5.307e-010     
END_DB

BEGIN_DB
 ICCAP_VAR VG         0.36           
 ICCAP_VAR VS         0              
 ICCAP_VAR VB         -0.9           

 #VD              ID              IB              IG             
  0               -1.1262e-009    -8.184e-009     -1.253e-009    
  0.05            4.165e-010      1.4304e-008     -2.4662e-009   
  0.1             -2.1424e-009    1.536e-009      -1.1542e-009   
  0.15            -1.7341e-009    -1.1543e-008    1.4685e-009    
  0.2             1.4307e-009     -8.045e-009     1.8899e-009    
  0.25            2.3398e-009     1.0763e-008     5.244e-010     
  0.3             2.3935e-009     1.0464e-008     6.883e-010     
  0.35            1.6259e-009     1.946e-008      -1.2831e-009   
  0.4             2.898e-010      1.2203e-008     -2.6257e-009   
  0.45            -2.1874e-009    6.41e-010       -9.892e-010    
  0.5             -1.606e-009     -1.273e-008     1.6883e-009    
  0.55            1.6841e-009     -8.841e-009     1.7048e-009    
