! VERSION = 6.00
BEGIN_HEADER
 ICCAP_INPUTS
  VG         V  B GROUND SMU4 0.001 LIN        2    0          1.8        6    0.36      
  VS         V  E GROUND SMU2 0.1 CON        0
  VD         V  S GROUND SMU1 0.1 LIN        1    0          1.8        37   0.05      
  VB         V  C GROUND SMU3 0.1 CON        0
 ICCAP_OUTPUTS
  ID         I  S GROUND SMU1 B
  IG         I  B GROUND SMU4 B
END_HEADER

BEGIN_DB
 ICCAP_VAR VG         0              
 ICCAP_VAR VS         0              
 ICCAP_VAR VB         0              

 #VD              ID              IG             
  0               1.9353e-010     -3.3764e-010   
  0.05            -1.6941e-010    -4.928e-011    
  0.1             2.162e-010      1.418e-010     
  0.15            1.1598e-010     -3.1363e-010   
  0.2             -1.8266e-010    -9.959e-011    
  0.25            2.341e-010      1.2728e-010    
  0.3             1.0838e-010     -3.3153e-010   
  0.35            -1.8157e-010    -8.571e-011    
  0.4             2.4731e-010     1.1392e-010    
  0.45            9.999e-011      -3.4067e-010   
  0.5             -1.7763e-010    -7.193e-011    
  0.55            1.9229e-010     1.8136e-010    
  0.6             1.3762e-010     -2.7027e-010   
  0.65            -1.7084e-010    -5.907e-011    
  0.7             2.0947e-010     1.5806e-010    
  0.75            1.2943e-010     -2.9495e-010   
  0.8             -1.5778e-010    -4.731e-011    
  0.85            -6.412e-011     2.6001e-010    
  0.9             2.332e-010      1.3296e-010    
  0.95            1.197e-010      -3.247e-010    
  1               -1.7488e-010    -9.209e-011    
  1.05            2.5074e-010     1.1936e-010    
  1.1             1.1259e-010     -3.3778e-010   
  1.15            -1.707e-010     -7.749e-011    
  1.2             1.9533e-010     1.9293e-010    
  1.25            1.523e-010      -2.589e-010    
  1.3             -1.6259e-010    -6.471e-011    
  1.35            2.1446e-010     1.6725e-010    
  1.4             1.476e-010      -2.8407e-010   
  1.45            -1.4677e-010    -5.179e-011    
  1.5             2.41e-010       1.4671e-010    
  1.55            1.5444e-010     -3.0766e-010   
  1.6             -1.0768e-010    -4.057e-011    
  1.65            1.48e-012       2.7289e-010    
  1.7             1.9688e-010     3.3559e-010    
  1.75            3.2007e-010     2.0944e-010    
  1.8             3.2216e-010     -3.4092e-010   
END_DB

BEGIN_DB
 ICCAP_VAR VG         0.36           
 ICCAP_VAR VS         0              
 ICCAP_VAR VB         0              

 #VD              ID              IG             
  0               -2.6064e-008    2.6431e-010    
  0.05            1.5182e-007     -3.4046e-010   
  0.1             1.9134e-007     -2.5448e-010   
  0.15            2.0794e-007     -2.6495e-010   
  0.2             2.2077e-007     -2.7506e-010   
  0.25            2.3338e-007     -2.8627e-010   
  0.3             2.4524e-007     -2.9724e-010   
  0.35            2.5783e-007     -3.0811e-010   
  0.4             2.7012e-007     -3.1737e-010   
  0.45            2.8362e-007     -3.2674e-010   
  0.5             2.9656e-007     -2.2947e-010   
  0.55            3.1019e-007     -2.3753e-010   
  0.6             3.2373e-007     -2.4581e-010   
  0.65            3.379e-007      -2.5567e-010   
  0.7             3.5191e-007     -2.6711e-010   
  0.75            3.6676e-007     -2.7671e-010   
  0.8             3.8179e-007     -2.8862e-010   
  0.85            3.9732e-007     -2.9929e-010   
  0.9             4.1299e-007     -3.0943e-010   
  0.95            4.3078e-007     -3.1904e-010   
  1               4.4753e-007     -3.269e-010    
  1.05            4.65e-007       -2.3109e-010   
  1.1             4.8335e-007     -2.3869e-010   
  1.15            5.019e-007      -2.4702e-010   
  1.2             5.206e-007      -2.5701e-010   
  1.25            5.405e-007      -2.6787e-010   
  1.3             5.6135e-007     -2.7793e-010   
  1.35            5.8182e-007     -2.8952e-010   
  1.4             6.0427e-007     -3.0033e-010   
  1.45            6.2644e-007     -3.1088e-010   
  1.5             6.51e-007       -3.2088e-010   
  1.55            6.7556e-007     -3.2896e-010   
  1.6             7.0093e-007     -2.3287e-010   
  1.65            7.2627e-007     -2.4187e-010   
  1.7             7.5362e-007     -2.5034e-010   
  1.75            7.8127e-007     -2.603e-010    
  1.8             8.0895e-007     -2.7082e-010   
END_DB

BEGIN_DB
 ICCAP_VAR VG         0.72           
 ICCAP_VAR VS         0              
 ICCAP_VAR VB         0              

 #VD              ID              IG             
  0               -2.6113e-006    3.1402e-010    
  0.05            0.00049792      -1.0818e-010   
  0.1             0.00072206      -3.1747e-010   
  0.15            0.00081891      -3.2605e-010   
  0.2             0.00087048      -2.2999e-010   
  0.25            0.0009069       -2.3802e-010   
  0.3             0.00093739      -2.4716e-010   
  0.35            0.0009672       -2.5715e-010   
  0.4             0.00099725      -2.6646e-010   
  0.45            0.00102836      -2.7652e-010   
  0.5             0.00106075      -2.8814e-010   
  0.55            0.00109447      -2.995e-010    
  0.6             0.00112955      -3.088e-010    
  0.65            0.0011668       -2.9082e-010   
  0.7             0.0012043       -3.0212e-010   
  0.75            0.0012431       -3.1306e-010   
  0.8             0.0012835       -3.2193e-010   
  0.85            0.0013243       -2.2647e-010   
  0.9             0.0013658       -2.3419e-010   
  0.95            0.0014084       -2.4137e-010   
  1               0.0014521       -2.5092e-010   
  1.05            0.0014971       -2.6135e-010   
  1.1             0.0015429       -2.7182e-010   
  1.15            0.0015903       -2.8229e-010   
  1.2             0.0016394       -2.9287e-010   
  1.25            0.0016899       -3.0326e-010   
  1.3             0.0017423       -3.1362e-010   
  1.35            0.0017974       -3.23e-010     
  1.4             0.0018536       -2.2655e-010   
  1.45            0.0019121       -2.3472e-010   
  1.5             0.001973        -2.4315e-010   
  1.55            0.0020362       -2.5214e-010   
  1.6             0.0021018       -2.627e-010    
  1.65            0.0021699       -2.722e-010    
  1.7             0.0022409       -2.8337e-010   
  1.75            0.0023142       -2.9521e-010   
  1.8             0.0023902       -3.0736e-010   
END_DB

BEGIN_DB
 ICCAP_VAR VG         1.08           
 ICCAP_VAR VS         0              
 ICCAP_VAR VB         0              

 #VD              ID              IG             
  0               -4.8258e-006    -2.1892e-010   
  0.05            0.0012894       3.276e-010     
  0.1             0.0025354       2.3088e-010    
  0.15            0.0037097       2.378e-010     
  0.2             0.004766        2.4682e-010    
  0.25            0.0056776       2.5754e-010    
  0.3             0.0063844       2.672e-010     
  0.35            0.0068599       2.7835e-010    
  0.4             0.0071489       2.8951e-010    
  0.45            0.0072402       3.0015e-010    
  0.5             0.0073556       3.1111e-010    
  0.55            0.0074218       3.2101e-010    
  0.6             0.0074404       3.29e-010      
  0.65            0.0074603       2.3143e-010    
  0.7             0.007481        2.3946e-010    
  0.75            0.007499        2.4859e-010    
  0.8             0.0075127       2.5918e-010    
  0.85            0.0075274       2.6978e-010    
  0.9             0.0075613       2.8054e-010    
  0.95            0.0075798       2.915e-010     
  1               0.0075943       3.0325e-010    
  1.05            0.0076109       3.135e-010     
  1.1             0.0076353       3.2366e-010    
  1.15            0.0076518       3.3114e-010    
  1.2             0.0076741       2.3355e-010    
  1.25            0.007699        2.4134e-010    
  1.3             0.0077305       2.5137e-010    
  1.35            0.0077627       2.6097e-010    
  1.4             0.0077997       2.7168e-010    
  1.45            0.00784         2.8292e-010    
  1.5             0.0078876       2.9447e-010    
  1.55            0.0079402       3.0542e-010    
  1.6             0.0079984       3.1586e-010    
  1.65            0.0080607       3.2569e-010    
  1.7             0.0081277       2.2878e-010    
  1.75            0.0082029       2.3678e-010    
  1.8             0.0082817       2.4533e-010    
END_DB

BEGIN_DB
 ICCAP_VAR VG         1.44           
 ICCAP_VAR VS         0              
 ICCAP_VAR VB         0              

 #VD              ID              IG             
  0               -5.0925e-006    2.4486e-010    
  0.05            0.0013409       -3.1185e-010   
  0.1             0.0026782       -3.2135e-010   
  0.15            0.0039989       -3.2929e-010   
  0.2             0.0053022       -2.3211e-010   
  0.25            0.0065844       -2.4193e-010   
  0.3             0.0078372       -2.508e-010    
  0.35            0.0090547       -2.6097e-010   
  0.4             0.0102221       -2.7237e-010   
  0.45            0.0113325       -2.8303e-010   
  0.5             0.012371        3.0637e-010    
  0.55            0.013288        3.1851e-010    
  0.6             0.01407         3.2725e-010    
  0.65            0.014689        2.2955e-010    
  0.7             0.015131        2.375e-010     
  0.75            0.015426        2.4736e-010    
  0.8             0.015614        2.5735e-010    
  0.85            0.015752        2.6675e-010    
  0.9             0.015857        2.7817e-010    
  0.95            0.015887        2.8951e-010    
  1               0.015906        3.0065e-010    
  1.05            0.015922        3.1142e-010    
  1.1             0.015936        3.2068e-010    
  1.15            0.015942        3.2918e-010    
  1.2             0.015949        2.3194e-010    
  1.25            0.015957        2.3971e-010    
  1.3             0.015962        2.4936e-010    
  1.35            0.015964        2.5962e-010    
  1.4             0.015969        2.6966e-010    
  1.45            0.015972        2.8029e-010    
  1.5             0.015976        2.9201e-010    
  1.55            0.015979        3.0324e-010    
  1.6             0.015983        3.1404e-010    
  1.65            0.015993        3.2429e-010    
  1.7             0.016002        2.265e-010     
  1.75            0.016018        2.3519e-010    
  1.8             0.016037        2.4285e-010    
END_DB

BEGIN_DB
 ICCAP_VAR VG         1.8            
 ICCAP_VAR VS         0              
 ICCAP_VAR VB         0              

 #VD              ID              IG             
  0               -5.1519e-006    2.5103e-010    
  0.05            0.0013667       -2.6891e-010   
  0.1             0.0027349       -2.7903e-010   
  0.15            0.0040945       -2.9157e-010   
  0.2             0.0054445       -3.0297e-010   
  0.25            0.0067857       -3.1238e-010   
  0.3             0.0081222       -3.225e-010    
  0.35            0.0094394       -2.2654e-010   
  0.4             0.0107377       -2.3479e-010   
  0.45            0.012026        2.5839e-010    
  0.5             0.013288        2.6949e-010    
  0.55            0.014519        2.8075e-010    
  0.6             0.01573         2.913e-010     
  0.65            0.016899        3.0269e-010    
  0.7             0.018026        3.1205e-010    
  0.75            0.019108        3.2187e-010    
  0.8             0.020123        2.2601e-010    
  0.85            0.021087        2.3424e-010    
  0.9             0.02195         2.4203e-010    
  0.95            0.022699        2.5207e-010    
  1               0.0233          2.6191e-010    
  1.05            0.023758        2.7308e-010    
  1.1             0.024095        2.827e-010     
  1.15            0.024312        2.9418e-010    
  1.2             0.024543        3.0474e-010    
  1.25            0.024669        3.1481e-010    
  1.3             0.024755        3.2428e-010    
  1.35            0.024784        2.2831e-010    
  1.4             0.024806        2.3598e-010    
  1.45            0.024828        2.439e-010     
  1.5             0.024838        2.5448e-010    
  1.55            0.02485         2.6407e-010    
  1.6             0.024859        2.7467e-010    
  1.65            0.024869        2.8625e-010    
  1.7             0.024881        2.9687e-010    
  1.75            0.024881        3.0755e-010    
  1.8             0.024876        3.1867e-010    
END_DB

