! VERSION = 6.00
BEGIN_HEADER
 ICCAP_INPUTS
  VG         V  B GROUND SMU4 0.001 LIN        2    0          1.8        6    0.36      
  VS         V  E GROUND SMU2 0.1 CON        0
  VD         V  S GROUND SMU1 0.1 LIN        1    0          1.8        37   0.05      
  VB         V  C GROUND SMU3 0.1 LIN        3    0          -0.9       2    -0.9      
 ICCAP_OUTPUTS
  ID         I  S GROUND SMU1 B
  IB         I  C GROUND SMU3 B
  IG         I  B GROUND SMU4 B
END_HEADER

BEGIN_DB
 ICCAP_VAR VG         0              
 ICCAP_VAR VS         0              
 ICCAP_VAR VB         0              

 #VD              ID              IB              IG             
  0               -7.843e-010     1.0215e-008     -7.611e-010    
  0.05            1.5705e-009     1.5786e-008     -1.2855e-009   
  0.1             2.292e-010      1.0141e-008     -2.6236e-009   
  0.15            -2.2146e-009    1.62e-010       -8.956e-010    
  0.2             -1.6766e-009    -1.205e-008     1.5976e-009    
  0.25            2.3274e-009     -9.825e-009     7.838e-010     
  0.3             2.3219e-009     8.37e-009       9.142e-010     
  0.35            1.7384e-009     1.1949e-008     -1.5498e-009   
  0.4             -1.4592e-009    6.524e-009      -1.707e-009    
  0.45            -2.1583e-009    -1.129e-008     -2.407e-010    
  0.5             -2.2022e-009    -1.0663e-008    -3.919e-010    
  0.55            -1.4243e-009    -1.9879e-008    1.2554e-009    
  0.6             -1.7e-012       -1.1975e-008    1.2281e-009    
  0.65            -1.503e-010     -1.413e-008     2.8099e-009    
  0.7             2.2515e-009     9.281e-009      1.0622e-009    
  0.75            2.1339e-009     1.068e-008      1.1929e-009    
  0.8             1.9134e-009     1.0204e-008     -2.015e-010    
  0.85            8.716e-010      2.3831e-008     -1.5584e-009   
  0.9             -1.469e-009     6.241e-009      -1.6832e-009   
  0.95            -2.1524e-009    -1.133e-008     -2.641e-010    
  1               -2.2007e-009    -1.0754e-008    -4.372e-010    
  1.05            -1.4182e-009    -2.0009e-008    2.391e-009     
  1.1             2.1404e-009     -6.295e-009     1.2017e-009    
  1.15            1.9349e-009     1.0198e-008     -1.894e-010    
  1.2             8.788e-010      2.3984e-008     -1.5445e-009   
  1.25            -1.4528e-009    6.461e-009      -1.7101e-009   
  1.3             -2.1582e-009    -1.1307e-008    -2.725e-010    
  1.35            -2.2052e-009    -1.0633e-008    -4.559e-010    
  1.4             -1.4276e-009    -1.9824e-008    1.2503e-009    
  1.45            9.5e-012        -1.2525e-008    2.8477e-009    
  1.5             2.3112e-009     -2.149e-009     7.251e-010     
  1.55            1.5657e-009     1.6095e-008     -1.285e-009    
  1.6             2.157e-010      1.0179e-008     -2.6265e-009   
  1.65            -2.214e-009     2.34e-010       -8.88e-010     
  1.7             -1.6718e-009    -1.205e-008     1.614e-009     
  1.75            2.3219e-009     -1.0023e-008    7.772e-010     
  1.8             2.3203e-009     8.416e-009      9.235e-010     
END_DB

BEGIN_DB
 ICCAP_VAR VG         0.36           
 ICCAP_VAR VS         0              
 ICCAP_VAR VB         0              

 #VD              ID              IB              IG             
  0               2.099e-009      -5.988e-009     2.7878e-009    
  0.05            1.6281e-009     1.1158e-008     1.7084e-009    
  0.1             2.3283e-009     1.0554e-008     3.146e-010     
  0.15            2.4209e-009     1.0092e-008     4.929e-010     
  0.2             2.4919e-009     9.482e-009      6.595e-010     
  0.25            2.5294e-009     8.823e-009      8.075e-010     
  0.3             2.5327e-009     8.431e-009      9.339e-010     
  0.35            2.0125e-009     1.1597e-008     -1.5232e-009   
  0.4             -1.5768e-009    6.78e-009       1.3402e-009    
  0.45            1.504e-009      -1.0228e-008    2.0178e-009    
  0.5             2.6081e-009     9.479e-009      6.447e-010     
  0.55            2.6536e-009     8.844e-009      7.896e-010     
  0.6             2.6691e-009     8.391e-009      9.232e-010     
  0.65            2.6384e-009     8.763e-009      1.0513e-009    
  0.7             2.5488e-009     9.472e-009      1.1907e-009    
  0.75            2.3926e-009     1.0203e-008     -1.952e-010    
  0.8             1.3869e-009     2.3701e-008     -1.5533e-009   
  0.85            1.023e-010      6.477e-009      -1.4361e-009   
  0.9             2.527e-010      8.207e-009      -1.3831e-009   
  0.95            4.115e-010      8.906e-009      -1.3542e-009   
  1               5.733e-010      9.514e-009      -1.3307e-009   
  1.05            7.494e-010      8.876e-009      -1.3028e-009   
  1.1             9.266e-010      9.168e-009      -2.689e-009    
  1.15            -1.0831e-009    2.26e-010       2.031e-010     
  1.2             1.7259e-009     -2.169e-008     2.8517e-009    
  1.25            1.7517e-009     -2.164e-009     2.8147e-009    
  1.3             2.4525e-009     1.9998e-008     -1.3147e-009   
  1.35            1.1766e-009     8.723e-009      -1.2824e-009   
  1.4             1.3924e-009     1.0179e-008     -2.6105e-009   
  1.45            3.623e-010      1.97e-010       -2.4204e-009   
  1.5             2.0938e-009     -1.1291e-008    2.8476e-009    
  1.55            2.1298e-009     -2.045e-009     2.8138e-009    
  1.6             2.8638e-009     2.0183e-008     -1.3167e-009   
  1.65            1.6263e-009     8.767e-009      -1.2845e-009   
  1.7             1.8467e-009     1.0214e-008     -2.6227e-009   
  1.75            8.342e-010      1.31e-010       -2.4315e-009   
  1.8             2.2977e-009     -1.1251e-008    1.7345e-009    
END_DB

BEGIN_DB
 ICCAP_VAR VG         0.72           
 ICCAP_VAR VS         0              
 ICCAP_VAR VB         0              

 #VD              ID              IB              IG             
  0               9.746e-010      -1.1273e-008    -1.0237e-009   
  0.05            9.1721e-007     -1.3995e-008    6.061e-010     
  0.1             1.3319e-006     1.9288e-008     2.5916e-009    
  0.15            1.5639e-006     -1.1408e-008    -5.52e-010     
  0.2             1.7574e-006     1.6112e-008     -1.7412e-009   
  0.25            1.8602e-006     1.1542e-008     2.0095e-009    
  0.3             1.9923e-006     -1.2242e-008    1.399e-009     
  0.35            2.1171e-006     -2.2199e-008    1.3235e-009    
  0.4             2.2806e-006     -9.967e-009     -9.312e-010    
  0.45            2.4095e-006     7.834e-009      -1.3471e-009   
  0.5             2.4815e-006     8.618e-009      1.0836e-009    
  0.55            2.6099e-006     -2.2678e-008    1.3014e-009    
  0.6             2.7356e-006     -2.3356e-008    1.2656e-009    
  0.65            2.8657e-006     -2.2507e-008    1.2411e-009    
  0.7             2.9918e-006     -2.0572e-008    2.0243e-009    
  0.75            3.1144e-006     -2.0302e-008    1.9912e-009    
  0.8             3.2402e-006     -1.127e-008     -3.548e-010    
  0.85            3.4128e-006     1.2576e-008     -1.9936e-009   
  0.9             3.5331e-006     1.0277e-008     2.7e-010       
  0.95            3.6149e-006     -1.5014e-008    2.313e-009     
  1               3.7426e-006     -2.2684e-008    1.2439e-009    
  1.05            3.8695e-006     -2.0942e-008    2.0547e-009    
  1.1             3.9949e-006     -1.1197e-008    -3.216e-010    
  1.15            4.2007e-006     1.2179e-008     -2.0504e-009   
  1.2             4.3105e-006     1.0265e-008     2.363e-010     
  1.25            4.3835e-006     -1.5013e-008    2.3694e-009    
  1.3             4.5126e-006     -2.3004e-008    1.2506e-009    
  1.35            4.6556e-006     -2.147e-008     2.1022e-009    
  1.4             4.7904e-006     -2.1195e-008    2.0695e-009    
  1.45            4.9256e-006     -1.1614e-008    -3.074e-010    
  1.5             5.138e-006      1.142e-008      -2.0752e-009   
  1.55            5.2558e-006     9.394e-009      2.156e-010     
  1.6             5.3258e-006     -1.6304e-008    2.3891e-009    
  1.65            5.4703e-006     -1.3231e-008    -7.26e-011     
  1.7             5.7027e-006     7.211e-009      -2.3706e-009   
  1.75            5.8468e-006     7.439e-009      -2.1564e-009   
  1.8             5.9848e-006     8.285e-009      -1.9266e-009   
END_DB

BEGIN_DB
 ICCAP_VAR VG         1.08           
 ICCAP_VAR VS         0              
 ICCAP_VAR VB         0              

 #VD              ID              IB              IG             
  0               2.243e-008      1.115e-008      -5.7e-010      
  0.05            1.0568e-005     -1.5421e-008    1.9312e-009    
  0.1             1.8952e-005     -1.8118e-008    1.578e-009     
  0.15            2.5345e-005     -9.77e-009      -9.613e-010    
  0.2             2.9927e-005     9.543e-009      -2.6982e-009   
  0.25            3.3036e-005     1.0237e-008     4.84e-011      
  0.3             3.5142e-005     -1.5682e-008    2.0728e-009    
  0.35            3.697e-005      -1.0976e-008    -7.055e-010    
  0.4             3.8448e-005     2.5299e-008     -1.3791e-009   
  0.45            3.9276e-005     8.691e-009      1.2843e-009    
  0.5             4.0394e-005     -1.7459e-008    1.7817e-009    
  0.55            4.1426e-005     -1.0283e-008    -8.431e-010    
  0.6             4.2372e-005     2.6782e-008     -1.3463e-009   
  0.65            4.2786e-005     1.0498e-008     1.4516e-009    
  0.7             4.366e-005      -1.4253e-008    1.5376e-009    
  0.75            4.4399e-005     -2.3199e-008    1.2647e-009    
  0.8             4.519e-005      -1.1213e-008    -4.482e-010    
  0.85            4.6045e-005     2.1371e-008     -1.4778e-009   
  0.9             4.6461e-005     8.596e-009      1.0538e-009    
  0.95            4.7156e-005     -2.1845e-008    1.2326e-009    
  1               4.79e-005       -1.1131e-008    -6.394e-010    
  1.05            4.865e-005      7.679e-009      -1.3443e-009   
  1.1             4.8905e-005     1.0624e-008     1.4514e-009    
  1.15            4.9634e-005     -1.4322e-008    1.5441e-009    
  1.2             5.0224e-005     -2.3345e-008    1.2658e-009    
  1.25            5.0993e-005     -1.1261e-008    -4.431e-010    
  1.3             5.1762e-005     2.1088e-008     -1.4753e-009   
  1.35            5.2058e-005     8.284e-009      1.0579e-009    
  1.4             5.2659e-005     -2.2427e-008    1.2327e-009    
  1.45            5.3321e-005     -1.2111e-008    -6.399e-010    
  1.5             5.3999e-005     5.972e-009      -1.3421e-009   
  1.55            5.4565e-005     1.7303e-008     -1.5192e-009   
  1.6             5.4844e-005     4.571e-009      1.0145e-009    
  1.65            5.5406e-005     -2.892e-008     2.2915e-009    
  1.7             5.6084e-005     -1.8849e-008    -1.9921e-009   
  1.75            5.6757e-005     -4.562e-009     -2.6786e-009   
  1.8             5.6865e-005     -8.798e-009     1.6544e-009    
END_DB

BEGIN_DB
 ICCAP_VAR VG         1.44           
 ICCAP_VAR VS         0              
 ICCAP_VAR VB         0              

 #VD              ID              IB              IG             
  0               4.5489e-008     -2.3401e-008    -9.422e-010    
  0.05            2.0115e-005     9.243e-009      -1.87e-010     
  0.1             3.8322e-005     1.6962e-008     -1.672e-009    
  0.15            5.4023e-005     9.71e-009       8.781e-010     
  0.2             6.7149e-005     -2.333e-008     1.2723e-009    
  0.25            7.7846e-005     -1.6805e-008    1.7161e-009    
  0.3             8.6408e-005     -1.0223e-008    -8.777e-010    
  0.35            9.3018e-005     2.6892e-008     -1.3371e-009   
  0.4             9.7694e-005     9.748e-009      1.4939e-009    
  0.45            0.000101659     -1.3547e-008    1.4956e-009    
  0.5             0.000104709     -2.3235e-008    1.2577e-009    
  0.55            0.000107206     -1.1294e-008    -4.838e-010    
  0.6             0.000109425     2.212e-008      -1.4466e-009   
  0.65            0.000110865     8.498e-009      1.0859e-009    
  0.7             0.000112481     -2.1484e-008    2.143e-009     
  0.75            0.00011405      -1.1138e-008    -1.968e-010    
  0.8             0.00011506      -1.2841e-008    2.7449e-009    
  0.85            0.0001163       -1.1289e-008    1.175e-010     
  0.9             0.00011774      9.274e-009      -2.4433e-009   
  0.95            0.00011875      1.02e-008       9.2e-011       
  1               0.0001195       -1.4963e-008    2.4067e-009    
  1.05            0.00012061      -2.1914e-008    2.1783e-009    
  1.1             0.0001216       -1.9785e-008    1.9369e-009    
  1.15            0.00012256      -1.1427e-008    -5.314e-010    
  1.2             0.00012364      1.7945e-008     -1.6149e-009   
  1.25            0.00012443      1.0363e-008     7.015e-010     
  1.3             0.00012518      -1.9158e-008    1.5166e-009    
  1.35            0.00012606      -1.2725e-008    1.3973e-009    
  1.4             0.00012718      -1.0495e-008    -9.194e-010    
  1.45            0.00012807      2.4629e-008     -1.3699e-009   
  1.5             0.00012879      1.1015e-008     -2.0141e-009   
  1.55            0.00012925      9.213e-009      1.9443e-009    
  1.6             0.00012999      -1.5886e-008    1.3536e-009    
  1.65            0.00013107      -1.6098e-008    -9.712e-010    
  1.7             0.00013185      -1.105e-009     -1.3161e-009   
  1.75            0.00013237      -5.29e-009      2.6981e-009    
  1.8             0.00013322      -3.1628e-008    -7.958e-010    
END_DB

BEGIN_DB
 ICCAP_VAR VG         1.8            
 ICCAP_VAR VS         0              
 ICCAP_VAR VB         0              

 #VD              ID              IB              IG             
  0               5.8283e-008     -1.1216e-008    -1.2959e-009   
  0.05            2.6255e-005     -1.1332e-008    2.7125e-009    
  0.1             5.0972e-005     -1.5338e-008    1.6125e-009    
  0.15            7.364e-005      -2.3346e-008    1.282e-009     
  0.2             9.3927e-005     -1.1185e-008    -3.752e-010    
  0.25            0.000111778     2.0203e-008     -1.5123e-009   
  0.3             0.00012695      9.621e-009      2.707e-009     
  0.35            0.00013981      -2.0507e-008    2.025e-009     
  0.4             0.00015052      -1.1225e-008    -4.66e-010     
  0.45            0.0001593       1.6762e-008     -1.671e-009    
  0.5             0.0001663       1.0427e-008     6.572e-010     
  0.55            0.00017185      -1.8154e-008    1.5719e-009    
  0.6             0.00017656      -1.2882e-008    1.4352e-009    
  0.65            0.00018029      -2.2809e-008    1.2996e-009    
  0.7             0.00018345      -2.2575e-008    1.2429e-009    
  0.75            0.00018616      -1.1218e-008    -3.083e-010    
  0.8             0.00018864      1.4235e-008     -1.8785e-009   
  0.85            0.0001904       1.1112e-008     2.0347e-009    
  0.9             0.00019225      -1.6863e-008    1.7779e-009    
  0.95            0.00019392      -1.1296e-008    -6.44e-010     
  1               0.00019559      1.9931e-008     -1.5178e-009   
  1.05            0.00019694      1.0022e-008     7.988e-010     
  1.1             0.00019808      -2.0516e-008    1.4279e-009    
  1.15            0.00019966      -1.0168e-008    -8.813e-010    
  1.2             0.00020093      2.5184e-008     -1.3784e-009   
  1.25            0.00020178      8.734e-009      1.0408e-009    
  1.3             0.00020277      -2.325e-008     1.2868e-009    
  1.35            0.00020394      -2.2095e-008    2.1967e-009    
  1.4             0.00020507      -1.151e-008     -3.594e-010    
  1.45            0.00020631      1.453e-008      -1.8036e-009   
  1.5             0.00020736      1.8781e-008     -1.507e-009    
  1.55            0.00020832      7.085e-009      -2.4878e-009   
  1.6             0.00020914      8.586e-009      -2.1086e-009   
  1.65            0.00021011      1.1493e-008     -1.7094e-009   
  1.7             0.00021108      2.015e-009      -2.6664e-009   
  1.75            0.00021199      -1.501e-009     -2.4003e-009   
  1.8             0.00021277      -2.3323e-008    -2.6495e-009   
END_DB

BEGIN_DB
 ICCAP_VAR VG         0              
 ICCAP_VAR VS         0              
 ICCAP_VAR VB         -0.9           

 #VD              ID              IB              IG             
  0               -8.186e-010     1.034e-008      -8.601e-010    
  0.05            1.4633e-009     1.9003e-008     -1.3112e-009   
  0.1             1.253e-010      9.09e-009       -2.7192e-009   
  0.15            -1.4857e-009    -1.8387e-008    2.2604e-009    
  0.2             2.065e-009      -7.142e-009     1.2895e-009    
  0.25            1.8426e-009     1.1386e-008     1.4432e-009    
  0.3             1.3142e-009     2.4053e-008     -1.342e-009    
  0.35            -1.9475e-009    9.175e-009      -1.2904e-009   
  0.4             -1.2422e-009    -2.3114e-008    1.3092e-009    
  0.45            2.2245e-009     -1.066e-008     1.1205e-009    
  0.5             1.8907e-009     1.0256e-008     -1.406e-009    
  0.55            -2.2048e-009    8.387e-009      -9.523e-010    
  0.6             -9.604e-010     -2.201e-008     1.5215e-009    
  0.65            2.3302e-009     -9.737e-009     8.436e-010     
  0.7             2.3067e-009     8.49e-009       9.743e-010     
  0.75            1.7805e-009     1.11e-008       -1.4914e-009   
  0.8             -1.3944e-009    6.908e-009      -1.7594e-009   
  0.85            -2.1733e-009    -1.1212e-008    -3.443e-010    
  0.9             -1.3512e-009    -2.151e-008     1.2736e-009    
  0.95            2.1155e-009     -1.159e-008     1.2395e-009    
  1               4.105e-010      1.2104e-008     -2.4223e-009   
  1.05            -2.1817e-009    -1.1214e-008    -3.758e-010    
  1.1             -1.3763e-009    -2.0953e-008    1.2693e-009    
  1.15            5.95e-011       -1.1807e-008    2.8546e-009    
  1.2             1.5454e-009     -1.75e-009      1.6749e-009    
  1.25            2.161e-009      1.0484e-008     2.999e-010     
  1.3             2.2354e-009     1.0042e-008     4.663e-010     
  1.35            2.2948e-009     9.24e-009       6.37e-010      
  1.4             2.3283e-009     8.723e-009      7.839e-010     
  1.45            2.3278e-009     8.307e-009      9.18e-010      
  1.5             1.7345e-009     1.1813e-008     -1.5471e-009   
  1.55            -1.4639e-009    6.076e-009      -1.7053e-009   
  1.6             -2.1545e-009    -1.134e-008     -2.65e-010     
  1.65            -2.1974e-009    -1.0757e-008    -4.453e-010    
  1.7             -2.2331e-009    -1.0358e-008    -6.312e-010    
  1.75            -1.5347e-009    -1.6615e-008    2.1195e-009    
  1.8             1.9674e-009     -8.08e-009      1.3686e-009    
END_DB

BEGIN_DB
 ICCAP_VAR VG         0.36           
 ICCAP_VAR VS         0              
 ICCAP_VAR VB         -0.9           

 #VD              ID              IB              IG             
  0               -6.725e-010     -1.88e-008      -6.061e-010    
  0.05            5.075e-010      1.3805e-008     -2.2676e-009   
  0.1             -1.0192e-009    -2.2722e-008    1.4515e-009    
  0.15            2.3332e-009     -9.795e-009     9.061e-010     
  0.2             2.2877e-009     9.109e-009      1.0307e-009    
  0.25            2.1792e-009     1.0553e-008     1.1638e-009    
  0.3             1.9169e-009     1.0269e-008     -2.326e-010    
  0.35            8.528e-010      2.3133e-008     -1.5884e-009   
  0.4             -1.505e-009     5.546e-009      -1.6645e-009   
  0.45            -2.131e-009     -1.1306e-008    -2.085e-010    
  0.5             -2.1802e-009    -1.0898e-008    -3.967e-010    
  0.55            -1.3802e-009    -2.0857e-008    1.2677e-009    
