! VERSION = 6.00
BEGIN_HEADER
 ICCAP_INPUTS
  VG         V  B GROUND SMU4 0.001 LIN        1    0          1.8        37   0.05      
  VS         V  E GROUND SMU2 0.1 CON        0
  VB         V  C GROUND SMU3 0.1 LIN        3    0          -1.8       3    -0.9      
  VD         V  S GROUND SMU1 0.1 LIN        2    0.1        1.8        2    1.7       
 ICCAP_OUTPUTS
  IG         I  B GROUND SMU4 B
  ID         I  S GROUND SMU1 B
  IB         I  C GROUND SMU3 B
END_HEADER

BEGIN_DB
 ICCAP_VAR VS         0              
 ICCAP_VAR VB         0              
 ICCAP_VAR VD         0.1            

 #VG              IG              ID              IB             
  0               -1.1284e-009    -1.0045e-009    1.1675e-008    
  0.05            -4.589e-010     -1.9229e-009    3.72e-009      
  0.1             -6.428e-010     -1.8135e-009    -9.559e-009    
  0.15            -8.463e-010     -1.6645e-009    -1.0081e-008   
  0.2             1.1931e-009     -1.548e-009     -8.744e-009    
  0.25            1.991e-009      1.0032e-009     -2.9e-009      
  0.3             -1.3206e-009    1.234e-009      1.083e-008     
  0.35            1.1918e-009     -1.3454e-009    2.676e-009     
  0.4             1.9391e-009     1.6108e-009     -2.962e-009    
  0.45            7.559e-010      4.2832e-009     1.0559e-008    
  0.5             -1.2144e-009    1.1017e-008     -9.406e-009    
  0.55            -2.1705e-009    4.6556e-008     5.938e-009     
  0.6             3.501e-010      1.574e-007      -9.064e-009    
  0.65            6.088e-010      4.523e-007      8.082e-009     
  0.7             9.506e-010      1.10057e-006    1.0462e-008    
  0.75            -1.22e-009      2.3006e-006     -9.651e-009    
  0.8             -1.2011e-009    4.0395e-006     5.032e-009     
  0.85            -1.8409e-009    6.2564e-006     8.169e-009     
  0.9             -3.412e-010     8.841e-006      -9.204e-009    
  0.95            2.1518e-009     1.1635e-005     -9.415e-009    
  1               9.274e-010      1.4449e-005     1.0241e-008    
  1.05            1.352e-009      1.7438e-005     1.2024e-008    
  1.1             3.866e-010      2.0395e-005     8.317e-009     
  1.15            6.418e-010      2.3223e-005     8.18e-009      
  1.2             1.0014e-009     2.6011e-005     1.0682e-008    
  1.25            1.4261e-009     2.8752e-005     1.2236e-008    
  1.3             4.375e-010      3.1353e-005     8.427e-009     
  1.35            7.021e-010      3.38e-005       8.489e-009     
  1.4             1.0918e-009     3.6175e-005     1.0831e-008    
  1.45            1.4927e-009     3.8477e-005     1.2546e-008    
  1.5             4.743e-010      4.061e-005      8.317e-009     
  1.55            7.744e-010      4.2625e-005     9.126e-009     
  1.6             1.1716e-009     4.4566e-005     1.1297e-008    
  1.65            2.596e-010      4.6429e-005     7.981e-009     
  1.7             5.407e-010      4.8125e-005     8.054e-009     
  1.75            8.423e-010      4.9739e-005     9.807e-009     
  1.8             -1.2138e-009    5.1318e-005     5.461e-009     
END_DB

BEGIN_DB
 ICCAP_VAR VS         0              
 ICCAP_VAR VB         0              
 ICCAP_VAR VD         1.8            

 #VG              IG              ID              IB             
  0               -2.3892e-009    1.0355e-009     -8.62e-009     
  0.05            -5.128e-010     -1.89e-009      -9.112e-009    
  0.1             -6.922e-010     -1.7772e-009    -9.729e-009    
  0.15            -9.09e-010      -1.606e-009     -1.0256e-008   
  0.2             1.1841e-009     -1.5803e-009    -8.759e-009    
  0.25            2.0217e-009     1.0196e-009     -2.826e-009    
  0.3             8.46e-010       1.5195e-009     1.0214e-008    
  0.35            1.0085e-009     1.524e-009      1.1639e-008    
  0.4             1.1858e-009     2.178e-009      1.2326e-008    
  0.45            6.04e-011       6.3046e-009     8.091e-009     
  0.5             -1.5289e-009    1.857e-008      -2.654e-009    
  0.55            -4.109e-010     7.5473e-008     -9.216e-009    
  0.6             -2.4016e-009    2.5856e-007     8.187e-009     
  0.65            -7.534e-010     7.5915e-007     -9.702e-009    
  0.7             1.1547e-009     1.8302e-006     7.068e-009     
  0.75            1.1894e-009     3.8058e-006     -1.1207e-008   
  0.8             1.343e-009      6.993e-006      -1.7749e-008   
  0.85            2.178e-010      1.1569e-005     2.5e-009       
  0.9             -2.186e-010     1.7403e-005     -1.407e-008    
  0.95            -5.669e-010     2.4857e-005     -1.4027e-008   
  1               -1.0653e-009    3.3233e-005     -1.6695e-008   
  1.05            -1.4183e-009    4.2218e-005     -1.7046e-008   
  1.1             -2.76e-010      5.2248e-005     -1.5625e-008   
  1.15            -6.521e-010     6.3195e-005     -1.5114e-008   
  1.2             -1.1422e-009    7.4591e-005     -1.6021e-008   
  1.25            -1.4668e-009    8.6211e-005     -1.7021e-008   
  1.3             -3.339e-010     9.8433e-005     -1.5211e-008   
  1.35            -7.485e-010     0.000111148     -1.4121e-008   
  1.4             -2.1832e-009    0.00012375      -1.4489e-008   
  1.45            -1.1978e-009    0.00013691      -1.5545e-008   
  1.5             -1.4999e-009    0.00014983      -1.4583e-008   
  1.55            -3.756e-010     0.00016312      -1.3002e-008   
  1.6             -8.095e-010     0.00017661      -1.2794e-008   
  1.65            -1.2721e-009    0.00018991      -1.4295e-008   
  1.7             -1.5627e-009    0.00020311      -1.3335e-008   
  1.75            -4.449e-010     0.00021664      -1.1479e-008   
  1.8             -9.048e-010     0.0002302       -1.2276e-008   
END_DB

BEGIN_DB
 ICCAP_VAR VS         0              
 ICCAP_VAR VB         -0.9           
 ICCAP_VAR VD         0.1            

 #VG              IG              ID              IB             
  0               1.1285e-009     9.055e-010      -9.05e-009     
  0.05            1.8096e-009     9.415e-010      -8.259e-009    
  0.1             -1.2097e-009    1.0239e-009     8.672e-009     
  0.15            -1.2247e-009    -1.3166e-009    7.182e-009     
  0.2             2.267e-010      -1.7737e-009    -9.504e-009    
  0.25            3.87e-011       -1.853e-009     -9.652e-009    
  0.3             -1.458e-010     -1.9106e-009    -9.373e-009    
  0.35            1.1283e-009     -1.0664e-009    -1.3508e-008   
  0.4             1.795e-009      9.458e-010      -8.197e-009    
  0.45            -1.2095e-009    1.0485e-009     9.238e-009     
  0.5             1.1869e-009     -1.2587e-009    7.052e-009     
  0.55            1.6555e-009     1.6193e-009     -1.5207e-008   
  0.6             1.078e-009      4.076e-009      1.1985e-008    
  0.65            -2.2502e-009    1.2685e-008     -9.911e-009    
  0.7             -1.0407e-009    4.9966e-008     -9.89e-009     
  0.75            -1.2681e-009    1.703e-007      1.1588e-008    
  0.8             -1.2215e-009    4.7024e-007     3.728e-009     
  0.85            -1.2008e-009    1.10414e-006    5.13e-009      
  0.9             -1.6373e-009    2.1998e-006     -8.492e-009    
  0.95            -5.289e-010     3.9307e-006     -8.774e-009    
  1               1.1927e-009     6.0286e-006     -8.86e-009     
  1.05            1.0783e-009     8.6374e-006     -3.01e-009     
  1.1             3.179e-010      1.1512e-005     -1.3022e-008   
  1.15            5.804e-010      1.4393e-005     8.137e-009     
  1.2             9.034e-010      1.7325e-005     9.158e-009     
  1.25            1.3235e-009     2.0265e-005     1.2009e-008    
  1.3             3.664e-010      2.313e-005      8.681e-009     
  1.35            6.242e-010      2.5831e-005     8.156e-009     
  1.4             9.74e-010       2.8455e-005     1.0569e-008    
  1.45            1.3916e-009     3.1001e-005     1.213e-008     
  1.5             4.282e-010      3.3406e-005     8.366e-009     
  1.55            6.837e-010      3.5655e-005     8.259e-009     
  1.6             1.042e-009      3.7814e-005     1.0829e-008    
  1.65            1.4562e-009     3.9888e-005     1.2414e-008    
  1.7             4.563e-010      4.1815e-005     8.386e-009     
  1.75            7.266e-010      4.3616e-005     8.797e-009     
  1.8             1.1239e-009     4.5337e-005     1.0506e-008    
END_DB

BEGIN_DB
 ICCAP_VAR VS         0              
 ICCAP_VAR VB         -0.9           
 ICCAP_VAR VD         1.8            

 #VG              IG              ID              IB             
  0               -1.23e-009      -1.1057e-009    8.223e-009     
  0.05            -7.041e-010     -1.7695e-009    5.239e-009     
  0.1             -9.062e-010     -1.602e-009     -1.0178e-008   
  0.15            1.1863e-009     -1.5708e-009    -8.855e-009    
  0.2             2.0138e-009     1.0149e-009     -2.807e-009    
  0.25            -1.3173e-009    1.2307e-009     1.0159e-008    
  0.3             -3.499e-010     -1.9255e-009    2.982e-009     
  0.35            -4.926e-010     -1.8857e-009    -9.171e-009    
  0.4             -6.76e-010      -1.778e-009     -9.626e-009    
  0.45            1.1766e-009     -1.1819e-009    -1.007e-008    
  0.5             2.0494e-009     1.2468e-009     -1.1902e-008   
  0.55            8.834e-010      2.5729e-009     1.0408e-008    
  0.6             1.0426e-009     6.8108e-009     1.1789e-008    
  0.65            -2.4196e-009    2.385e-008      -1.8786e-008   
  0.7             -5.53e-010      9.745e-008      -8.999e-009    
  0.75            -2.2359e-009    3.163e-007      8.125e-009     
  0.8             -1.0537e-009    8.7003e-007     -1.1304e-008   
  0.85            1.1865e-009     1.9766e-006     8.252e-009     
  0.9             1.4357e-009     4.0294e-006     -1.5541e-008   
  0.95            1.0907e-009     7.379e-006      -4.961e-009    
  1               1.1829e-009     1.2191e-005     2.432e-009     
  1.05            1.1309e-009     1.833e-005      -2.3103e-008   
  1.1             1.0892e-009     2.5913e-005     -6.266e-009    
  1.15            1.1663e-009     3.4556e-005     -9.359e-009    
  1.2             1.1819e-009     4.4307e-005     -1.476e-008    
  1.25            1.272e-009      5.4683e-005     -2.0882e-008   
  1.3             1.0711e-009     6.5834e-005     -7.046e-009    
  1.35            1.1328e-009     7.7383e-005     -7.063e-009    
  1.4             1.1829e-009     8.9459e-005     -1.2608e-008   
  1.45            1.4988e-009     0.000101877     -1.7262e-008   
  1.5             -9.944e-010     0.00011505      -2.0747e-008   
  1.55            -1.3815e-009    0.00012776      -1.4308e-008   
  1.6             -2.282e-010     0.00014066      -1.3013e-008   
  1.65            -5.736e-010     0.00015399      -1.1621e-008   
  1.7             -1.0581e-009    0.00016732      -1.2462e-008   
  1.75            -1.4157e-009    0.00018038      -1.3247e-008   
  1.8             -2.662e-010     0.00019364      -1.1588e-008   
END_DB

BEGIN_DB
 ICCAP_VAR VS         0              
 ICCAP_VAR VB         -1.8           
 ICCAP_VAR VD         0.1            

 #VG              IG              ID              IB             
  0               1.1624e-009     9.272e-010      -8.955e-009    
  0.05            1.9292e-009     9.806e-010      -1.0149e-008   
  0.1             -1.1969e-009    1.1447e-009     9.439e-009     
  0.15            -1.3579e-009    -1.1798e-009    9.084e-009     
  0.2             4.69e-011       -1.8483e-009    -9.902e-009    
  0.25            -1.343e-010     -1.9083e-009    -9.667e-009    
  0.3             -2.686e-010     -1.9418e-009    -9.062e-009    
  0.35            -4.001e-010     -1.9306e-009    -8.942e-009    
  0.4             -5.607e-010     -1.8635e-009    -9.596e-009    
  0.45            1.1868e-009     -1.3386e-009    -8.837e-009    
  0.5             1.1913e-009     -8.84e-011      -1.4262e-008   
  0.55            1.528e-009      -1.615e-010     -1.7028e-008   
  0.6             1.1834e-009     1.2838e-009     1.2179e-008    
  0.65            4.97e-011       2.4861e-009     8.181e-009     
  0.7             1.971e-010      5.9721e-009     8.534e-009     
  0.75            -1.5343e-009    1.8251e-008     -1.1758e-008   
  0.8             -5.366e-010     7.1157e-008     -8.786e-009    
  0.85            -1.7752e-009    2.1414e-007     8.401e-009     
  0.9             -3.695e-010     5.3256e-007     -9.176e-009    
  0.95            1.1868e-009     1.1482e-006     9.768e-009     
  1               1.3015e-009     2.2377e-006     -1.5906e-008   
  1.05            1.0744e-009     3.891e-006      -2.72e-009     
  1.1             1.13e-009       6.0884e-006     -2.889e-009    
  1.15            1.1852e-009     8.6505e-006     -8.062e-009    
  1.2             -1.2064e-009    1.1559e-005     -3.019e-009    
  1.25            -1.9556e-009    1.4482e-005     7.588e-009     
  1.3             -2.773e-010     1.7384e-005     -9.522e-009    
  1.35            -6.582e-010     2.0301e-005     -8.816e-009    
  1.4             -1.1395e-009    2.3097e-005     -1.0895e-008   
  1.45            4.83e-011       2.5719e-005     -9.309e-009    
  1.5             -3.206e-010     2.8328e-005     -9.293e-009    
  1.55            -7.206e-010     3.0824e-005     -9.019e-009    
  1.6             -1.1942e-009    3.3146e-005     -1.1082e-008   
  1.65            -7.9e-012       3.5315e-005     -9.56e-009     
  1.7             -3.67e-010      3.7431e-005     -9.205e-009    
  1.75            -7.857e-010     3.9424e-005     -9.442e-009    
  1.8             1.0994e-009     4.1231e-005     -8.808e-009    
END_DB

BEGIN_DB
 ICCAP_VAR VS         0              
 ICCAP_VAR VB         -1.8           
 ICCAP_VAR VD         1.8            

 #VG              IG              ID              IB             
  0               -1.2192e-009    -8.229e-010     8.251e-009     
  0.05            -2.62e-011      -1.6333e-009    5.136e-009     
  0.1             1.072e-009      -5.131e-010     -9.657e-009    
  0.15            2.2657e-009     1.2628e-009     -3.324e-009    
  0.2             1.2813e-009     1.2729e-009     1.2896e-008    
  0.25            1.396e-010      1.8968e-009     8.394e-009     
  0.3             2.771e-010      1.9674e-009     8.432e-009     
  0.35            3.993e-010      1.9957e-009     7.737e-009     
  0.4             4.986e-010      1.9863e-009     7.903e-009     
  0.45            6.069e-010      1.9201e-009     9.194e-009     
  0.5             7.464e-010      1.8125e-009     1.0266e-008    
  0.55            8.797e-010      1.7111e-009     1.0833e-008    
  0.6             1.0435e-009     1.8407e-009     1.1647e-008    
  0.65            1.211e-009      3.2749e-009     1.2111e-008    
  0.7             1.1002e-009     1.1259e-008     -1.0301e-008   
  0.75            1.175e-009      4.3769e-008     -6.135e-009    
  0.8             1.0886e-009     1.5208e-007     3.397e-009     
  0.85            1.1672e-009     4.4704e-007     -5.379e-009    
  0.9             1.0967e-009     1.0901e-006     1.1964e-008    
  0.95            1.1065e-009     2.3786e-006     -3.419e-009    
  1               1.1784e-009     4.6201e-006     -8.079e-009    
  1.05            1.193e-009      8.2336e-006     -1.3121e-008   
  1.1             -1.2043e-009    1.3415e-005     -5.432e-009    
  1.15            -1.8864e-009    1.9981e-005     4.983e-009     
  1.2             -1.3308e-009    2.784e-005      -1.444e-008    
  1.25            -1.6196e-009    3.6779e-005     -1.5011e-008   
  1.3             -5.039e-010     4.6809e-005     -1.2887e-008   
  1.35            -9.855e-010     5.7548e-005     -1.3671e-008   
  1.4             -1.3763e-009    6.8694e-005     -1.4911e-008   
  1.45            -2.268e-010     8.0349e-005     -1.352e-008    
  1.5             -5.759e-010     9.2703e-005     -1.2304e-008   
  1.55            -1.0664e-009    0.000105229     -1.4244e-008   
  1.6             -2.3874e-009    0.00011778      -1.1916e-008   
  1.65            -1.4792e-009    0.0001307       -1.361e-008    
  1.7             -3.398e-010     0.00014372      -1.1906e-008   
  1.75            -7.607e-010     0.00015705      -1.1603e-008   
  1.8             -1.229e-009     0.00017015      -1.3335e-008   
END_DB

