! VERSION = 6.00
BEGIN_HEADER
 ICCAP_INPUTS
  VG         V  B GROUND SMU4 0.001 LIN        1    0          1.8        37   0.05      
  VS         V  E GROUND SMU2 0.1 CON        0
  VB         V  C GROUND SMU3 0.1 LIN        3    0          -1.8       3    -0.9      
  VD         V  S GROUND SMU1 0.1 LIN        2    0.1        1.8        2    1.7       
 ICCAP_OUTPUTS
  IG         I  B GROUND SMU4 B
  ID         I  S GROUND SMU1 B
  IB         I  C GROUND SMU3 B
END_HEADER

BEGIN_DB
 ICCAP_VAR VS         0              
 ICCAP_VAR VB         0              
 ICCAP_VAR VD         0.1            

 #VG              IG              ID              IB             
  0               -1.1241e-009    -1.0609e-009    -1.349e-008    
  0.05            -1.7938e-009    7.033e-010      2.0111e-008    
  0.1             -1.5181e-009    -1.6563e-009    4.077e-009     
  0.15            1.2451e-009     -1.3673e-009    -2.0384e-008   
  0.2             2.8107e-009     7.31e-011       -1.0636e-008   
  0.25            1.7246e-009     1.6154e-009     -1.27e-010     
  0.3             3.798e-010      3.0237e-009     1.0578e-008    
  0.35            -1.3221e-009    5.3242e-009     2.4029e-008    
  0.4             2.7942e-009     1.8065e-008     1.059e-008     
  0.45            -1.7145e-009    7.0035e-008     2.1808e-008    
  0.5             1.0098e-009     2.1544e-007     -1.7322e-008   
  0.55            -1.353e-009     5.7154e-007     2.6078e-008    
  0.6             -1.49e-009      1.1758e-006     -8.432e-009    
  0.65            2.0056e-009     2.0178e-006     -2.1543e-008   
  0.7             1.4209e-009     3.0625e-006     -6.746e-009    
  0.75            1.2482e-009     4.2155e-006     -8.335e-009    
  0.8             2.7439e-009     5.4216e-006     -9.837e-009    
  0.85            4.026e-010      6.6917e-006     1.0525e-008    
  0.9             -1.834e-009     7.9416e-006     1.5531e-008    
  0.95            -1.4139e-009    9.177e-006      3.954e-009     
  1               -1.3175e-009    1.04112e-005    8.838e-009     
  1.05            2.142e-010      1.1587e-005     1.0407e-008    
  1.1             1.3536e-009     1.2784e-005     -2.3781e-008   
  1.15            2.7973e-009     1.395e-005      -8.141e-009    
  1.2             2.6519e-009     1.5095e-005     1.72e-010      
  1.25            5.287e-010      1.6204e-005     1.0567e-008    
  1.3             -1.6717e-009    1.7275e-005     1.7564e-008    
  1.35            -1.3731e-009    1.829e-005      5.166e-009     
  1.4             -1.2974e-009    1.9279e-005     9.764e-009     
  1.45            -2.4693e-009    2.0221e-005     1.1139e-008    
  1.5             -1.8759e-009    2.1108e-005     8.08e-010      
  1.55            -1.4352e-009    2.1964e-005     3.844e-009     
  1.6             -1.3273e-009    2.2785e-005     8.283e-009     
  1.65            -2.6024e-009    2.3557e-005     1.1554e-008    
  1.7             -2.1333e-009    2.4271e-005     4.11e-010      
  1.75            -1.5581e-009    2.4962e-005     2.324e-009     
  1.8             -1.3546e-009    2.5608e-005     6.026e-009     
END_DB

BEGIN_DB
 ICCAP_VAR VS         0              
 ICCAP_VAR VB         0              
 ICCAP_VAR VD         1.8            

 #VG              IG              ID              IB             
  0               1.4698e-009     1.7032e-009     2.514e-009     
  0.05            8.583e-010      2.2994e-009     -8.402e-009    
  0.1             9.974e-010      2.2486e-009     8.975e-009     
  0.15            -1.4336e-009    9.694e-010      2.6202e-008    
  0.2             -9.503e-010     -2.117e-009     8.62e-009      
  0.25            1.576e-009      -1.4173e-009    -1.1571e-008   
  0.3             2.5476e-009     1.9904e-009     -8.617e-009    
  0.35            3.328e-010      6.5964e-009     1.053e-008     
  0.4             -2.4391e-009    1.8484e-008     -2.5682e-008   
  0.45            -1.848e-009     7.6716e-008     9.2e-010       
  0.5             5.799e-010      2.5405e-007     -1.2406e-008   
  0.55            -1.605e-009     6.6549e-007     1.862e-008     
  0.6             -2.1287e-009    1.3761e-006     -1.5334e-008   
  0.65            -1.1857e-009    2.5248e-006     -1.0542e-008   
  0.7             -1.5998e-009    4.1052e-006     -1.1658e-008   
  0.75            -4.721e-010     6.1033e-006     -1.284e-008    
  0.8             -8.98e-010      8.6644e-006     -1.2423e-008   
  0.85            -5.336e-010     1.167e-005      1.182e-008     
  0.9             -9.45e-010      1.5246e-005     -1.203e-008    
  0.95            -1.3209e-009    1.9356e-005     -1.1191e-008   
  1               -1.246e-010     2.3757e-005     -1.2548e-008   
  1.05            -6.313e-010     2.8813e-005     -1.2199e-008   
  1.1             1.7023e-009     3.4272e-005     -1.7383e-008   
  1.15            1.3207e-009     4.022e-005      -9.177e-009    
  1.2             2.8116e-009     4.6641e-005     -8.878e-009    
  1.25            2.5757e-009     5.3562e-005     -2.57e-010     
  1.3             5.913e-010      6.0914e-005     1.0468e-008    
  1.35            9.716e-010      6.846e-005      9.391e-009     
  1.4             -1.667e-010     7.6712e-005     1.1474e-008    
  1.45            -1.3829e-009    8.5228e-005     2.5298e-008    
  1.5             -1.2974e-009    9.4017e-005     9.923e-009     
  1.55            -2.465e-009     0.000103153     1.1295e-008    
  1.6             -1.8713e-009    0.000112492     9.32e-010      
  1.65            -1.5064e-009    0.00012236      -1.9471e-008   
  1.7             1.9554e-009     0.00013201      -2.0472e-008   
  1.75            1.4121e-009     0.00014225      -6.951e-009    
  1.8             1.2479e-009     0.00015269      -8.168e-009    
END_DB

BEGIN_DB
 ICCAP_VAR VS         0              
 ICCAP_VAR VB         -0.9           
 ICCAP_VAR VD         0.1            

 #VG              IG              ID              IB             
  0               -1.0162e-009    -9.248e-010     -1.8819e-008   
  0.05            -1.3646e-009    1.0956e-009     2.7541e-008    
  0.1             -1.1124e-009    -2.0871e-009    9.997e-009     
  0.15            1.3882e-009     -1.7421e-009    -1.1225e-008   
  0.2             9.392e-010      2.2799e-009     -8.14e-009     
  0.25            -1.4746e-009    1.754e-009      1.1526e-008    
  0.3             -8.921e-010     -2.1713e-009    7.652e-009     
  0.35            1.6652e-009     -1.6033e-009    -1.1881e-008   
  0.4             1.6101e-009     1.6108e-009     -8.687e-009    
  0.45            1.7806e-009     1.5837e-009     9.598e-009     
  0.5             4.424e-010      3.4104e-009     1.0424e-008    
  0.55            -1.3084e-009    7.5973e-009     2.2829e-008    
  0.6             2.7683e-009     2.8633e-008     1.0785e-008    
  0.65            -1.5526e-009    1.08e-007       2.4521e-008    
  0.7             1.9193e-009     3.3023e-007     -2.0303e-008   
  0.75            1.3808e-009     7.7935e-007     -7.923e-009    
  0.8             2.7262e-009     1.4989e-006     2.4812e-008    
  0.85            8.46e-010       2.4291e-006     1.0058e-008    
  0.9             1.2042e-009     3.4721e-006     8.579e-009     
  0.95            -1.3097e-009    4.6476e-006     2.6975e-008    
  1               -2.5343e-009    5.8175e-006     1.1237e-008    
  1.05            -2.0105e-009    6.9878e-006     4.02e-010      
  1.1             -1.493e-009     8.1732e-006     3.221e-009     
  1.15            -1.3331e-009    9.3512e-006     7.382e-009     
  1.2             -2.6241e-009    1.0507e-005     1.1148e-008    
  1.25            2.8008e-009     1.1617e-005     -1.0392e-008   
  1.3             2.5653e-009     1.2718e-005     5.1e-011       
  1.35            6.086e-010      1.3788e-005     1.0719e-008    
  1.4             9.766e-010      1.4806e-005     9.524e-009     
  1.45            -1.657e-010     1.581e-005      1.1275e-008    
  1.5             -1.3711e-009    1.6777e-005     2.463e-008     
  1.55            -1.29e-009      1.7684e-005     9.56e-009      
  1.6             -2.4529e-009    1.8558e-005     1.0872e-008    
  1.65            -1.8813e-009    1.937e-005      9.54e-010      
  1.7             -1.4308e-009    2.0155e-005     3.865e-009     
  1.75            -1.3161e-009    2.0899e-005     8.258e-009     
  1.8             -2.5802e-009    2.1604e-005     1.1419e-008    
END_DB

BEGIN_DB
 ICCAP_VAR VS         0              
 ICCAP_VAR VB         -0.9           
 ICCAP_VAR VD         1.8            

 #VG              IG              ID              IB             
  0               -5.973e-010     -6.486e-010     -2.0281e-008   
  0.05            -2.1138e-009    5.406e-010      1.5836e-008    
  0.1             -1.2887e-009    -1.8848e-009    2.357e-009     
  0.15            1.3091e-009     -1.1693e-009    -2.4612e-008   
  0.2             1.0974e-009     2.1979e-009     -8.669e-009    
  0.25            -1.3954e-009    1.8895e-009     1.094e-008     
  0.3             -1.0555e-009    -2.0945e-009    9.407e-009     
  0.35            -1.2135e-009    -1.9396e-009    -9.787e-009    
  0.4             2.283e-010      -1.7245e-009    -1.1667e-008   
  0.45            1.5888e-009     -5.749e-010     -2.4377e-008   
  0.5             2.5357e-009     2.4884e-009     -8.718e-009    
  0.55            3.228e-010      9.3467e-009     1.0542e-008    
  0.6             -2.4358e-009    3.1812e-008     -2.5457e-008   
  0.65            -1.8342e-009    1.2531e-007     2.6461e-008    
  0.7             -7.884e-010     3.8467e-007     -1.1055e-008   
  0.75            -1.1443e-009    9.3423e-007     -9.963e-009    
  0.8             2.7862e-009     1.8245e-006     2.6045e-008    
  0.85            1.9906e-009     3.156e-006      8.672e-009     
  0.9             -1.3523e-009    5.0142e-006     2.5906e-008    
  0.95            -2.6516e-009    7.3192e-006     1.0115e-008    
  1               -1.2678e-009    1.01475e-005    -1.0334e-008   
  1.05            2.6271e-009     1.3377e-005     -1.1924e-008   
  1.1             -1.3702e-009    1.727e-005      2.5692e-008    
  1.15            -1.2732e-009    2.1581e-005     1.004e-008     
  1.2             -2.3341e-009    2.6412e-005     1.067e-008     
  1.25            -1.7349e-009    3.1642e-005     9.9e-010       
  1.3             -1.4103e-009    3.7401e-005     4.133e-009     
  1.35            -1.3066e-009    4.3598e-005     9.275e-009     
  1.4             -2.5084e-009    5.0236e-005     1.0961e-008    
  1.45            -1.9373e-009    5.7198e-005     5.33e-010      
  1.5             -1.4828e-009    6.4626e-005     3.067e-009     
  1.55            -1.3392e-009    7.2441e-005     7.576e-009     
  1.6             -2.614e-009     8.0591e-005     1.1413e-008    
  1.65            -1.3092e-009    8.9119e-005     -9.802e-009    
  1.7             -1.183e-010     9.7628e-005     -1.1643e-008   
  1.75            -6.248e-010     0.000106765     -1.1135e-008   
  1.8             -6.065e-010     0.00011606      -1.9068e-008   
END_DB

BEGIN_DB
 ICCAP_VAR VS         0              
 ICCAP_VAR VB         -1.8           
 ICCAP_VAR VD         0.1            

 #VG              IG              ID              IB             
  0               -2.2377e-009    -2.1651e-009    1.4601e-008    
  0.05            -1.2126e-009    -2.001e-009     2.038e-009     
  0.1             1.3337e-009     -1.1369e-009    -2.6112e-008   
  0.15            1.0425e-009     2.2328e-009     -8.466e-009    
  0.2             1.1976e-009     2.0708e-009     1.0364e-008    
  0.25            -1.362e-009     1.1294e-009     2.7305e-008    
  0.3             -1.1555e-009    -2.0543e-009    1.0817e-008    
  0.35            1.3644e-009     -1.0808e-009    -2.6075e-008   
  0.4             9.864e-010      2.268e-009      -8.505e-009    
  0.45            -1.4387e-009    9.546e-010      2.6504e-008    
  0.5             -9.44e-010      -2.1579e-009    8.322e-009     
  0.55            1.5699e-009     -1.5489e-009    -1.1509e-008   
  0.6             2.5435e-009     1.4975e-009     -8.496e-009    
  0.65            3.394e-010      4.6344e-009     1.0563e-008    
  0.7             -8.32e-010      9.484e-009      -1.34e-010     
  0.75            -1.193e-009     4.8257e-008     -9.313e-009    
  0.8             -2.0214e-009    1.7446e-007     2.1161e-008    
  0.85            1.2553e-009     4.7817e-007     -2.5832e-008   
  0.9             2.7474e-009     1.01981e-006    -1.0207e-008   
  0.95            2.0244e-009     1.8043e-006     1.1345e-008    
  1               -1.3391e-009    2.7754e-006     2.7274e-008    
  1.05            -2.6347e-009    3.8234e-006     1.1245e-008    
  1.1             1.7727e-009     4.8951e-006     -1.7697e-008   
  1.15            1.3467e-009     6.0207e-006     -8.385e-009    
  1.2             1.2328e-009     7.1521e-006     -8.214e-009    
  1.25            2.6433e-009     8.2746e-006     -1.1956e-008   
  1.3             5.671e-010      9.4102e-006     1.0543e-008    
  1.35            -1.6143e-009    1.05017e-005    1.9485e-008    
  1.4             2.1141e-009     1.1535e-005     3.517e-009     
  1.45            1.4859e-009     1.2561e-005     -5.55e-009     
  1.5             1.2741e-009     1.3545e-005     -8.31e-009     
  1.55            2.794e-009      1.4491e-005     -9.148e-009    
  1.6             -1.6206e-009    1.5429e-005     1.9788e-008    
  1.65            -1.3617e-009    1.6296e-005     5.323e-009     
  1.7             -1.2814e-009    1.7127e-005     1.0167e-008    
  1.75            -2.4273e-009    1.7917e-005     1.1341e-008    
  1.8             -1.8032e-009    1.8649e-005     1.089e-009     
END_DB

BEGIN_DB
 ICCAP_VAR VS         0              
 ICCAP_VAR VB         -1.8           
 ICCAP_VAR VD         1.8            

 #VG              IG              ID              IB             
  0               2.2233e-009     4.5152e-009     1.2791e-008    
  0.05            1.9213e-009     2.9272e-009     -6.745e-009    
  0.1             1.6412e-009     2.8304e-009     -9.458e-009    
  0.15            1.4514e-009     2.7398e-009     -1.087e-008    
  0.2             1.3347e-009     2.6398e-009     -1.0481e-008   
  0.25            2.7186e-009     2.5223e-009     -1.0704e-008   
  0.3             -2.44e-009      2.5956e-009     1.0939e-008    
  0.35            -1.3079e-009    3.665e-010      -1.235e-008    
  0.4             -1.491e-009     5.784e-010      -1.2934e-008   
  0.45            -1.6554e-009    7.909e-010      -1.3042e-008   
  0.5             2.8101e-009     2.3506e-009     -1.3452e-008   
  0.55            2.7717e-009     3.2356e-009     -2.322e-009    
  0.6             -1.7665e-009    3.7819e-009     1.7966e-008    
  0.65            -2.5482e-009    4.531e-009      -9.237e-009    
  0.7             2.4351e-009     1.7655e-008     1.0257e-008    
  0.75            -1.4614e-009    6.914e-008      1.8943e-008    
  0.8             1.0284e-009     2.0217e-007     -1.985e-008    
  0.85            -2.2892e-009    5.7292e-007     9.888e-009     
  0.9             2.2501e-009     1.2083e-006     1.0611e-008    
  0.95            -1.767e-009     2.2949e-006     1.3227e-008    
  1               -2.6416e-009    3.7601e-006     -9.829e-009    
  1.05            -1.87e-009      5.7394e-006     -1.3573e-008   
  1.1             -8.448e-010     8.2126e-006     -1.3562e-008   
  1.15            -1.2082e-009    1.12036e-005    -1.2191e-008   
  1.2             2.6027e-009     1.4563e-005     -1.3973e-008   
  1.25            -2.4006e-009    1.8621e-005     8.896e-009     
  1.3             -1.5767e-009    2.305e-005      -1.2693e-008   
  1.35            -4.515e-010     2.7839e-005     -1.3689e-008   
  1.4             -8.828e-010     3.3235e-005     -1.3011e-008   
  1.45            -1.2575e-009    3.8942e-005     -1.1625e-008   
  1.5             -1.6695e-009    4.5096e-005     -1.2614e-008   
  1.55            -5.724e-010     5.1654e-005     -1.3597e-008   
  1.6             -9.643e-010     5.8574e-005     -1.2269e-008   
  1.65            -1.355e-009     6.5986e-005     -1.2314e-008   
  1.7             -1.717e-010     7.3568e-005     -1.3758e-008   
  1.75            -6.84e-010      8.1598e-005     -1.353e-008    
  1.8             -1.0459e-009    9.0084e-005     -1.2039e-008   
END_DB

