! VERSION = 6.00
BEGIN_HEADER
 ICCAP_INPUTS
  VG         V  B GROUND SMU4 0.001 LIN        1    0          1.8        37   0.05      
  VS         V  E GROUND SMU2 0.1 CON        0
  VB         V  C GROUND SMU3 0.1 LIN        3    0          -1.8       3    -0.9      
  VD         V  S GROUND SMU1 0.1 LIN        2    0.1        1.8        2    1.7       
 ICCAP_OUTPUTS
  IG         I  B GROUND SMU4 B
  ID         I  S GROUND SMU1 B
  IB         I  C GROUND SMU3 B
END_HEADER

BEGIN_DB
 ICCAP_VAR VS         0              
 ICCAP_VAR VB         0              
 ICCAP_VAR VD         0.1            

 #VG              IG              ID              IB             
  0               7.576e-010      7.514e-010      2.4861e-008    
  0.05            1.9204e-009     -1.5556e-009    -1.452e-008    
  0.1             1.4452e-009     1.7575e-009     -7.945e-009    
  0.15            -1.34e-010      1.9098e-009     1.037e-008     
  0.2             -1.4998e-009    9.401e-010      2.5095e-008    
  0.25            -9.062e-010     -2.0375e-009    8.211e-009     
  0.3             1.68e-009       -1.0475e-009    -1.2785e-008   
  0.35            1.4684e-009     2.8385e-009     -8.752e-009    
  0.4             2.8044e-009     1.0842e-008     2.337e-008     
  0.45            2.584e-009      4.1124e-008     5.2e-011       
  0.5             -5.708e-010     1.6272e-007     1.0416e-008    
  0.55            -9.62e-010      6.3407e-007     -1.0632e-008   
  0.6             2.317e-009      2.1198e-006     1.5078e-008    
  0.65            -1.7453e-009    6.6992e-006     2.156e-008     
  0.7             1.4476e-009     1.665e-005      4.73e-010      
  0.75            2.7951e-009     3.6041e-005     -8.496e-009    
  0.8             2.6397e-009     6.7e-005        2.51e-010      
  0.85            1.3457e-009     0.000107031     8.94e-009      
  0.9             2.1538e-009     0.00015626      1.0796e-008    
  0.95            1.0492e-009     0.00020819      9.208e-009     
  1               -1.3412e-009    0.0002638       2.5228e-008    
  1.05            -2.5962e-009    0.00031689      1.119e-008     
  1.1             -1.297e-009     0.00036838      -9.513e-009    
  1.15            -1.029e-010     0.00041547      -1.1274e-008   
  1.2             -6.283e-010     0.00046193      -1.1036e-008   
  1.25            1.7543e-009     0.00050447      -1.6839e-008   
  1.3             1.3394e-009     0.00054438      -8.773e-009    
  1.35            2.7999e-009     0.00058132      -8.335e-009    
  1.4             2.491e-009      0.00061611      -7.3e-011      
  1.45            6.096e-010      0.00064798      1.0474e-008    
  1.5             9.744e-010      0.00067674      9.364e-009     
  1.55            -1.3675e-009    0.00070463      2.508e-008     
  1.6             -2.6431e-009    0.0007294       1.0702e-008    
  1.65            1.95e-009       0.00075216      -1.9359e-008   
  1.7             1.4302e-009     0.00077351      -7.454e-009    
  1.75            2.7969e-009     0.00079312      -8.416e-009    
  1.8             2.0327e-009     0.00081132      9.868e-009     
END_DB

BEGIN_DB
 ICCAP_VAR VS         0              
 ICCAP_VAR VB         0              
 ICCAP_VAR VD         1.8            

 #VG              IG              ID              IB             
  0               7.711e-010      7.839e-010      2.6819e-008    
  0.05            1.9854e-009     -1.5434e-009    -1.4968e-008   
  0.1             1.4211e-009     1.8385e-009     -7.337e-009    
  0.15            6.41e-011       2.0632e-009     1.037e-008     
  0.2             2.51e-010       2.3149e-009     1.0578e-008    
  0.25            4.536e-010      3.03e-009       1.0333e-008    
  0.3             -1.3047e-009    5.0922e-009     2.271e-008     
  0.35            -8.751e-010     1.357e-008      -1.22e-010     
  0.4             1.4181e-009     6.7466e-008     -1.2426e-008   
  0.45            2.6535e-009     2.793e-007      -1.1204e-008   
  0.5             2.0951e-009     1.0737e-006     9.608e-009     
  0.55            9.872e-010      3.6984e-006     4.502e-009     
  0.6             -1.4782e-009    1.1472e-005     -1.2204e-008   
  0.65            -1.3303e-009    2.9081e-005     -1.8987e-008   
  0.7             -2.6122e-009    6.3847e-005     -3.878e-008    
  0.75            -2.0894e-009    0.00012044      -8.2807e-008   
  0.8             7.58e-010       0.00019874      -1.1477e-007   
  0.85            1.5632e-009     0.00029916      -1.6857e-007   
  0.9             1.2786e-009     0.00041761      -1.9656e-007   
  0.95            2.7973e-009     0.00055095      -2.2692e-007   
  1               2.4145e-009     0.00069837      -2.4346e-007   
  1.05            1.7225e-009     0.0008517       -2.6541e-007   
  1.1             1.329e-009      0.00101079      -2.8521e-007   
  1.15            -2.722e-010     0.0011778       -2.7524e-007   
  1.2             1.312e-010      0.0013467       -2.7981e-007   
  1.25            5.88e-010       0.0015161       -2.8113e-007   
  1.3             9.716e-010      0.0016846       -2.8061e-007   
  1.35            1.3514e-009     0.0018534       -2.7554e-007   
  1.4             1.7822e-009     0.0020281       -2.6856e-007   
  1.45            2.1695e-009     0.0022026       -2.6105e-007   
  1.5             2.4387e-009     0.002375        -2.537e-007    
  1.55            2.7339e-009     0.0025464       -2.4417e-007   
  1.6             2.7938e-009     0.0027182       -2.4031e-007   
  1.65            2.3397e-009     0.0028884       -2.3096e-007   
  1.7             1.6767e-009     0.0030572       -2.2251e-007   
  1.75            1.3254e-009     0.0032251       -2.169e-007    
  1.8             2.8245e-009     0.003393        -2.0583e-007   
END_DB

BEGIN_DB
 ICCAP_VAR VS         0              
 ICCAP_VAR VB         -0.9           
 ICCAP_VAR VD         0.1            

 #VG              IG              ID              IB             
  0               7.689e-010      7.798e-010      2.6778e-008    
  0.05            1.9593e-009     -1.5483e-009    -1.4555e-008   
  0.1             1.4265e-009     1.7976e-009     -7.072e-009    
  0.15            7.2e-011        2.009e-009      1.0528e-008    
  0.2             2.569e-010      2.1141e-009     1.0331e-008    
  0.25            4.549e-010      2.2135e-009     1.0172e-008    
  0.3             6.446e-010      2.2988e-009     1.0053e-008    
  0.35            8.232e-010      2.3415e-009     9.426e-009     
  0.4             9.734e-010      2.3949e-009     8.717e-009     
  0.45            -1.459e-009     2.4297e-009     1.179e-008     
  0.5             -1.3855e-009    2.7246e-009     8.379e-009     
  0.55            1.9528e-009     1.3649e-008     8.796e-009     
  0.6             1.4231e-009     6.0948e-008     -7.222e-009    
  0.65            -1.5538e-009    2.6141e-007     2.5736e-008    
  0.7             -4.18e-010      9.9756e-007     -1.1047e-008   
  0.75            2.783e-009      3.3762e-006     1.0463e-008    
  0.8             1.9991e-009     9.8425e-006     1.0233e-008    
  0.85            -2.6345e-009    2.4178e-005     1.0495e-008    
  0.9             -8.527e-010     4.9038e-005     -1.1056e-008   
  0.95            1.4618e-009     8.4145e-005     -1.2687e-008   
  1               1.916e-009      0.00012961      -8.314e-009    
  1.05            1.4048e-009     0.00018039      -7.546e-009    
  1.1             1.2414e-009     0.00023362      -8.207e-009    
  1.15            2.6864e-009     0.00028694      -1.056e-008    
  1.2             4.819e-010      0.0003406       1.0382e-008    
  1.25            -1.6985e-009    0.0003905       2.1031e-008    
  1.3             -1.3909e-009    0.00043709      4.87e-009      
  1.35            -1.2949e-009    0.00048072      9.976e-009     
  1.4             -2.4459e-009    0.0005213       1.0832e-008    
  1.45            -1.8561e-009    0.00055832      8.49e-010      
  1.5             -1.4415e-009    0.000593        3.52e-009      
  1.55            -1.3191e-009    0.00062502      8.709e-009     
  1.6             -2.5639e-009    0.00065452      1.1352e-008    
  1.65            -2.0325e-009    0.00068115      4.52e-010      
  1.7             -1.5179e-009    0.00070618      2.252e-009     
  1.75            -1.3356e-009    0.00072933      6.944e-009     
  1.8             -2.6331e-009    0.0007504       1.113e-008     
END_DB

BEGIN_DB
 ICCAP_VAR VS         0              
 ICCAP_VAR VB         -0.9           
 ICCAP_VAR VD         1.8            

 #VG              IG              ID              IB             
  0               1.2909e-009     1.3163e-009     -1.1093e-008   
  0.05            1.1573e-009     2.1184e-009     -8.937e-009    
  0.1             -1.3779e-009    1.0958e-009     2.7034e-008    
  0.15            -1.1235e-009    -2.0948e-009    1.0404e-008    
  0.2             1.3888e-009     -1.7618e-009    -1.1435e-008   
  0.25            9.638e-010      2.3149e-009     -8.316e-009    
  0.3             -1.4504e-009    1.9309e-009     1.1413e-008    
  0.35            -1.3803e-009    3.854e-010      8.04e-009      
  0.4             -1.3459e-009    3.325e-009      9.783e-009     
  0.45            2.0806e-009     1.709e-008      2.1657e-008    
  0.5             1.4604e-009     7.3588e-008     -5.98e-009     
  0.55            2.0172e-009     3.1722e-007     -2.233e-008    
  0.6             -2.6212e-009    1.3005e-006     -1.2021e-008   
  0.65            -1.3417e-009    4.5017e-006     -1.4594e-008   
  0.7             2.5159e-009     1.2913e-005     -2.2722e-008   
  0.75            1.8222e-009     3.2709e-005     -2.9762e-008   
  0.8             1.3516e-009     7.0726e-005     -5.9417e-008   
  0.85            1.4487e-009     0.00013182      -8.4195e-008   
  0.9             -1.4939e-009    0.00021774      -1.0844e-007   
  0.95            -1.3385e-009    0.00032619      -1.4578e-007   
  1               -2.6293e-009    0.00045146      -1.7375e-007   
  1.05            -2.2045e-009    0.00058879      -2.122e-007    
  1.1             -1.6048e-009    0.0007386       -2.3253e-007   
  1.15            -1.3621e-009    0.00089617      -2.4617e-007   
  1.2             -2.6661e-009    0.0010594       -2.5312e-007   
  1.25            1.4578e-009     0.0012205       -2.5305e-007   
  1.3             2.7723e-009     0.0013896       -2.823e-007    
  1.35            2.7506e-009     0.0015617       -2.7376e-007   
  1.4             2.2515e-009     0.0017331       -2.7246e-007   
  1.45            1.5896e-009     0.0019043       -2.7172e-007   
  1.5             1.2945e-009     0.0020775       -2.6945e-007   
  1.55            2.8096e-009     0.0022483       -2.6134e-007   
  1.6             2.464e-009      0.0024229       -2.4437e-007   
  1.65            1.783e-009      0.002593        -2.3712e-007   
  1.7             1.3491e-009     0.002763        -2.3292e-007   
  1.75            2.821e-009      0.002933        -2.2243e-007   
  1.8             2.6377e-009     0.003103        -2.0366e-007   
END_DB

BEGIN_DB
 ICCAP_VAR VS         0              
 ICCAP_VAR VB         -1.8           
 ICCAP_VAR VD         0.1            

 #VG              IG              ID              IB             
  0               7.906e-010      -2.858e-010     -1.1882e-008   
  0.05            2.074e-009      -1.5288e-009    -1.6103e-008   
  0.1             1.374e-009      1.8995e-009     -6.637e-009    
  0.15            2.55e-011       2.001e-009      1.0426e-008    
  0.2             2.021e-010      2.0942e-009     1.0436e-008    
  0.25            3.998e-010      2.1901e-009     1.0592e-008    
  0.3             -2.2038e-009    4.886e-010      1.5862e-008    
  0.35            -1.2643e-009    -1.9732e-009    2.254e-009     
  0.4             1.311e-009      -1.1798e-009    -2.5294e-008   
  0.45            1.0822e-009     2.2732e-009     -8.362e-009    
  0.5             -1.3883e-009    2.2131e-009     1.0583e-008    
  0.55            -1.3384e-009    1.4873e-009     9.424e-009     
  0.6             -1.3075e-009    8.0661e-009     1.1015e-008    
  0.65            2.822e-009      3.6718e-008     1.0441e-008    
  0.7             2.188e-010      1.5773e-007     6.295e-009     
  0.75            1.3625e-009     6.4247e-007     -2.391e-008    
  0.8             1.4351e-009     2.2568e-006     7.63e-009      
  0.85            3.388e-010      7.2747e-006     1.0472e-008    
  0.9             -2.6022e-009    1.8507e-005     1.0643e-008    
  0.95            -8.015e-010     3.9659e-005     -1.0976e-008   
  1               -1.1684e-009    7.2699e-005     -9.3e-009      
  1.05            -1.5583e-009    0.00011496      4.35e-010      
  1.1             -1.3307e-009    0.00016419      6.064e-009     
  1.15            -2.6385e-009    0.00021706      1.0427e-008    
  1.2             -2.009e-010     0.00026937      -1.1183e-008   
  1.25            -7.09e-010      0.0003222       -1.121e-008    
  1.3             1.6152e-009     0.00037151      -1.5007e-008   
  1.35            1.3097e-009     0.00041886      -8.679e-009    
  1.4             2.832e-009      0.00046269      -8.578e-009    
  1.45            2.4848e-009     0.00050441      -2.33e-010     
  1.5             1.8166e-009     0.00054207      -2.61e-009     
  1.55            1.3634e-009     0.00057682      -8.497e-009    
  1.6             1.2546e-009     0.00060898      -8.235e-009    
  1.65            2.6709e-009     0.00063853      -1.178e-008    
  1.7             5.871e-010      0.0006664       1.059e-008     
  1.75            -1.6042e-009    0.00069169      2.0084e-008    
  1.8             -1.3352e-009    0.00071465      5.482e-009     
END_DB

BEGIN_DB
 ICCAP_VAR VS         0              
 ICCAP_VAR VB         -1.8           
 ICCAP_VAR VD         1.8            

 #VG              IG              ID              IB             
  0               -3.634e-010     -5.078e-010     -1.0511e-008   
  0.05            -1.7288e-009    7.436e-010      2.0779e-008    
  0.1             -1.5744e-009    -1.6164e-009    4.773e-009     
  0.15            -1.42e-010      -2.0655e-009    -1.124e-008    
  0.2             -3.574e-010     -2.1356e-009    -1.1439e-008   
  0.25            -5.667e-010     -2.1796e-009    -1.0861e-008   
  0.3             1.2324e-009     -1.434e-009     -1.8041e-008   
  0.35            1.4081e-009     1.9976e-009     -1.2027e-008   
  0.4             5.87e-011       2.7788e-009     1.0544e-008    
  0.45            2.404e-010      5.7645e-009     1.0511e-008    
  0.5             2.7057e-009     1.8418e-008     2.733e-008     
  0.55            4.955e-010      8.3153e-008     1.0339e-008    
  0.6             2.78e-009       3.5276e-007     -1.1885e-008   
  0.65            -1.5624e-009    1.4314e-006     -1.3206e-008   
  0.7             -2.0008e-009    4.7993e-006     -1.5158e-008   
  0.75            2.1515e-009     1.3991e-005     -2.5309e-008   
  0.8             1.5184e-009     3.4998e-005     -3.4472e-008   
  0.85            1.2914e-009     7.4854e-005     -6.1599e-008   
  0.9             -1.037e-010     0.00013884      -9.303e-008    
  0.95            -6.15e-010      0.00022622      -1.3083e-007   
  1               -9.881e-010     0.00033638      -1.6327e-007   
  1.05            -1.3943e-009    0.00046488      -1.949e-007    
  1.1             -1.7679e-009    0.00060289      -2.2223e-007   
  1.15            -2.0225e-009    0.00075178      -2.426e-007    
  1.2             -2.3762e-009    0.00090959      -2.5691e-007   
  1.25            -2.6113e-009    0.0010726       -2.6677e-007   
  1.3             1.186e-010      0.0012382       -2.825e-007    
  1.35            -3.726e-010     0.0014057       -2.8047e-007   
  1.4             -8.225e-010     0.0015783       -2.7972e-007   
  1.45            -1.189e-009     0.0017526       -2.755e-007    
  1.5             -1.6041e-009    0.0019246       -2.7266e-007   
  1.55            -1.8947e-009    0.0020935       -2.6487e-007   
  1.6             -2.1993e-009    0.0022647       -2.5632e-007   
  1.65            -2.5326e-009    0.0024361       -2.4596e-007   
  1.7             -2.6595e-009    0.0026066       -2.3407e-007   
  1.75            -2.5044e-009    0.0027762       -2.194e-007    
  1.8             -1.9503e-009    0.0029457       -2.0829e-007   
END_DB

