! VERSION = 6.00
BEGIN_HEADER
 ICCAP_INPUTS
  VG         V  B GROUND SMU4 0.001 LIN        2    0          1.8        6    0.36      
  VS         V  E GROUND SMU2 0.1 CON        0
  VD         V  S GROUND SMU1 0.1 LIN        1    0          1.8        37   0.05      
  VB         V  C GROUND SMU3 0.1 LIN        3    0          -0.9       2    -0.9      
 ICCAP_OUTPUTS
  ID         I  S GROUND SMU1 B
  IB         I  C GROUND SMU3 B
  IG         I  B GROUND SMU4 B
END_HEADER

BEGIN_DB
 ICCAP_VAR VG         0              
 ICCAP_VAR VS         0              
 ICCAP_VAR VB         0              

 #VD              ID              IB              IG             
  0               -1.0473e-009    -9.283e-009     -1.1678e-009   
  0.05            2.802e-010      1.3792e-008     -1.6778e-009   
  0.1             9.876e-010      -9.756e-009     1.9286e-009    
  0.15            1.1515e-009     1.0309e-008     -1.2075e-009   
  0.2             -1.2144e-009    8.29e-009       -1.3543e-009   
  0.25            -1.8725e-009    -9.707e-009     7.51e-011      
  0.3             -1.9298e-009    -9.965e-009     -1.082e-010    
  0.35            -1.9768e-009    -9.487e-009     -2.542e-010    
  0.4             -1.9801e-009    -8.905e-009     -3.807e-010    
  0.45            -1.9272e-009    -9.154e-009     -5.329e-010    
  0.5             -1.8054e-009    -9.829e-009     -7.123e-010    
  0.55            -1.6309e-009    -1.0225e-008    -9.134e-010    
  0.6             -1.6083e-009    -8.983e-009     1.1896e-009    
  0.65            1.0155e-009     -2.886e-009     2.0337e-009    
  0.7             1.247e-009      9.965e-009      -1.3333e-009   
  0.75            -1.1997e-009    2.851e-009      -1.3654e-009   
  0.8             -1.8676e-009    -9.75e-009      5.41e-011      
  0.85            -1.9341e-009    -9.626e-009     -1.284e-010    
  0.9             -1.9843e-009    -9.29e-009      -2.625e-010    
  0.95            -1.9787e-009    -9.006e-009     -3.966e-010    
  1               -1.9228e-009    -9.143e-009     -5.406e-010    
  1.05            -1.3542e-009    -8.969e-009     1.1871e-009    
  1.1             -8.95e-011      -1.3698e-008    1.1894e-009    
  1.15            -1.913e-010     -1.6607e-008    1.5716e-009    
  1.2             1.1657e-009     1.2019e-008     1.1806e-009    
  1.25            1.6508e-009     7.997e-009      2.48e-011      
  1.3             1.7261e-009     8.365e-009      1.758e-010     
  1.35            6.701e-010      8.386e-009      -1.2486e-009   
  1.4             -1.8262e-009    5.552e-009      -6.935e-010    
  1.45            -1.6494e-009    -1.1001e-008    -8.951e-010    
  1.5             -1.5941e-009    -8.942e-009     1.2033e-009    
  1.55            1.0114e-009     -2.861e-009     2.0215e-009    
  1.6             1.2364e-009     9.863e-009      -1.3336e-009   
  1.65            -1.2092e-009    2.87e-009       -1.3544e-009   
  1.7             -1.8604e-009    -9.75e-009      7.15e-011      
  1.75            -1.9359e-009    -9.701e-009     -1.075e-010    
  1.8             -1.9693e-009    -9.284e-009     -2.578e-010    
END_DB

BEGIN_DB
 ICCAP_VAR VG         0.36           
 ICCAP_VAR VS         0              
 ICCAP_VAR VB         0              

 #VD              ID              IB              IG             
  0               9.306e-010      -9.115e-009     1.155e-009     
  0.05            1.6648e-009     -9.027e-009     2.241e-009     
  0.1             2.4354e-009     8.781e-009      6.458e-010     
  0.15            2.3548e-009     9.705e-009      7.795e-010     
  0.2             2.2235e-009     1.1004e-008     9.354e-010     
  0.25            2.0735e-009     1.2138e-008     1.0981e-009    
  0.3             1.9347e-009     1.3334e-008     1.2762e-009    
  0.35            2.5485e-009     8.658e-009      9.6e-011       
  0.4             2.6446e-009     9.016e-009      2.44e-010      
  0.45            2.7066e-009     8.534e-009      3.707e-010     
  0.5             2.7272e-009     8.318e-009      4.718e-010     
  0.55            2.6955e-009     8.427e-009      5.849e-010     
  0.6             2.6159e-009     9.065e-009      6.974e-010     
  0.65            2.507e-009      1.003e-008      8.42e-010      
  0.7             2.3587e-009     1.1306e-008     9.999e-010     
  0.75            2.2114e-009     1.2314e-008     1.1683e-009    
  0.8             2.0952e-009     1.3463e-008     1.3404e-009    
  0.85            2.7906e-009     8.888e-009      1.544e-010     
  0.9             2.87e-009       8.869e-009      2.968e-010     
  0.95            2.9119e-009     8.302e-009      4.179e-010     
  1               2.9125e-009     8.295e-009      5.294e-010     
  1.05            2.8781e-009     8.673e-009      6.156e-010     
  1.1             2.786e-009      9.543e-009      7.51e-010      
  1.15            2.6574e-009     1.0557e-008     8.913e-010     
  1.2             2.5082e-009     1.1761e-008     1.0561e-009    
  1.25            2.363e-009      1.2826e-008     1.2391e-009    
  1.3             2.9186e-009     8.28e-009       6.3e-011       
  1.35            3.013e-009      8.752e-009      2.078e-010     
  1.4             3.0895e-009     8.652e-009      3.444e-010     
  1.45            3.1128e-009     8.256e-009      4.553e-010     
  1.5             3.0989e-009     8.332e-009      5.58e-010      
  1.55            3.0381e-009     8.968e-009      6.707e-010     
  1.6             2.9711e-009     9.666e-009      8.028e-010     
  1.65            2.7726e-009     1.1176e-008     9.582e-010     
  1.7             2.6195e-009     1.1816e-008     1.1202e-009    
  1.75            2.5026e-009     1.2423e-008     1.2933e-009    
  1.8             3.1346e-009     8.4e-009        1.158e-010     
END_DB

BEGIN_DB
 ICCAP_VAR VG         0.72           
 ICCAP_VAR VS         0              
 ICCAP_VAR VB         0              

 #VD              ID              IB              IG             
  0               -7.99e-010      9.721e-009      -1.141e-010    
  0.05            1.1141e-006     5.214e-009      1.4317e-009    
  0.1             1.6651e-006     -9.475e-009     1.2106e-009    
  0.15            1.9178e-006     -9.748e-009     -3.018e-010    
  0.2             2.0308e-006     1.24e-009       -1.2632e-009   
  0.25            2.0655e-006     8.863e-009      4.974e-010     
  0.3             2.1026e-006     -2.5e-009       1.1067e-009    
  0.35            2.1647e-006     -9.074e-009     -5.665e-010    
  0.4             2.1951e-006     3.898e-009      -1.2518e-009   
  0.45            2.1835e-006     8.309e-009      7.095e-010     
  0.5             2.213e-006      -2.722e-009     1.1483e-009    
  0.55            2.2816e-006     -9.394e-009     -9.316e-010    
  0.6             2.3013e-006     5.4e-009        -1.226e-009    
  0.65            2.2727e-006     9.445e-009      9.938e-010     
  0.7             2.3069e-006     -6.647e-009     1.1898e-009    
  0.75            2.3368e-006     -9.886e-009     -1.661e-010    
  0.8             2.3821e-006     1.3049e-008     -1.4715e-009   
  0.85            2.3751e-006     1.3203e-008     1.5269e-009    
  0.9             2.391e-006      -1.3834e-008    1.5036e-009    
  0.95            2.4063e-006     -9.346e-009     3.55e-011      
  1               2.4559e-006     9.957e-009      -1.6835e-009   
  1.05            2.4359e-006     1.1732e-008     1.3693e-009    
  1.1             2.4519e-006     -9.887e-009     1.197e-009     
  1.15            2.48e-006       -9.844e-009     -2.582e-010    
  1.2             2.519e-006      1.5034e-008     -1.3627e-009   
  1.25            2.5156e-006     8.765e-009      2.914e-010     
  1.3             2.5139e-006     -1.5532e-008    1.3464e-009    
  1.35            2.5326e-006     -9.84e-009      -9.05e-011     
  1.4             2.5732e-006     1.1884e-008     -1.5301e-009   
  1.45            2.5579e-006     1.2243e-008     1.4779e-009    
  1.5             2.5709e-006     -1.2342e-008    1.206e-009     
  1.55            2.6112e-006     -9.141e-009     -5.683e-010    
  1.6             2.6254e-006     3.542e-009      -1.2407e-009   
  1.65            2.5901e-006     7.859e-009      7.046e-010     
  1.7             2.6095e-006     -3.509e-009     1.1451e-009    
  1.75            2.6709e-006     -1.0961e-008    -9.235e-010    
  1.8             2.6787e-006     4.164e-009      -1.2265e-009   
END_DB

BEGIN_DB
 ICCAP_VAR VG         1.08           
 ICCAP_VAR VS         0              
 ICCAP_VAR VB         0              

 #VD              ID              IB              IG             
  0               -1.5731e-008    4.391e-009      1.0974e-009    
  0.05            6.2735e-006     8.652e-009      1.2056e-009    
  0.1             1.1611e-005     -9.794e-009     2.2882e-009    
  0.15            1.6008e-005     -9.448e-009     -7.933e-010    
  0.2             1.9407e-005     5.855e-009      -2.1726e-009   
  0.25            2.1833e-005     1.1739e-008     1.3889e-009    
  0.3             2.3539e-005     -1.6713e-008    1.2728e-009    
  0.35            2.4694e-005     -1.0029e-008    1.2094e-009    
  0.4             2.5582e-005     -9.225e-009     -7.445e-010    
  0.45            2.6056e-005     5.469e-009      -2.2242e-009   
  0.5             2.6245e-005     1.1822e-008     1.3481e-009    
  0.55            2.6471e-005     -1.6159e-008    1.3202e-009    
  0.6             2.6811e-005     -9.509e-009     -4.272e-010    
  0.65            2.7051e-005     5.646e-009      -1.2362e-009   
  0.7             2.7064e-005     1.1271e-008     1.2876e-009    
  0.75            2.7244e-005     -1.5109e-008    1.3769e-009    
  0.8             2.7538e-005     -9.521e-009     -3.768e-010    
  0.85            2.7681e-005     5.228e-009      -1.2481e-009   
  0.9             2.7626e-005     1.1095e-008     1.2253e-009    
  0.95            2.7797e-005     -1.4047e-008    1.4685e-009    
  1               2.8043e-005     -9.8e-009       -3.268e-010    
  1.05            2.8185e-005     5.012e-009      -1.2472e-009   
  1.1             2.8112e-005     1.0946e-008     1.1549e-009    
  1.15            2.8312e-005     -1.3175e-008    1.5361e-009    
  1.2             2.8507e-005     -9.935e-009     -2.826e-010    
  1.25            2.8637e-005     4.612e-009      -1.2567e-009   
  1.3             2.8544e-005     1.0797e-008     1.088e-009     
  1.35            2.8671e-005     -9.162e-009     1.2169e-009    
  1.4             2.8806e-005     -1.461e-008     1.4359e-009    
  1.45            2.9013e-005     -9.838e-009     -3.468e-010    
  1.5             2.9128e-005     5.001e-009      -1.2536e-009   
  1.55            2.904e-005      1.094e-008      1.1815e-009    
  1.6             2.9192e-005     -1.3679e-008    1.5055e-009    
  1.65            2.9351e-005     -1.0241e-008    -3.01e-010     
  1.7             2.9499e-005     3.92e-009       -1.2398e-009   
  1.75            2.9548e-005     6.706e-009      2.376e-010     
  1.8             2.9533e-005     -2.321e-008     1.1208e-009    
END_DB

BEGIN_DB
 ICCAP_VAR VG         1.44           
 ICCAP_VAR VS         0              
 ICCAP_VAR VB         0              

 #VD              ID              IB              IG             
  0               -2.5341e-008    -1.0365e-008    2.702e-010     
  0.05            1.1279e-005     7.893e-009      1.9e-011       
  0.1             2.1749e-005     1.642e-009      -1.2489e-009   
  0.15            3.1255e-005     9.011e-009      7.85e-010      
  0.2             3.9843e-005     -1.3808e-008    1.188e-009     
  0.25            4.747e-005      -1.0063e-008    1.2062e-009    
  0.3             5.4177e-005     -9.344e-009     -7.736e-010    
  0.35            5.9785e-005     5.65e-009       -2.1934e-009   
  0.4             6.4283e-005     1.1731e-008     1.3662e-009    
  0.45            6.7941e-005     -1.6781e-008    1.2766e-009    
  0.5             7.0986e-005     -9.743e-009     -4.546e-010    
  0.55            7.3166e-005     5.708e-009      -1.2375e-009   
  0.6             7.4616e-005     9.137e-009      3.897e-010     
  0.65            7.5685e-005     -2.722e-009     1.126e-009     
  0.7             7.6734e-005     -1.0162e-008    -1.2118e-009   
  0.75            7.7341e-005     9.733e-009      -1.6688e-009   
  0.8             7.7776e-005     8.901e-009      3.435e-010     
  0.85            7.8108e-005     -2.678e-009     1.114e-009     
  0.9             7.8745e-005     -1.0098e-008    -1.1538e-009   
  0.95            7.9008e-005     7.817e-009      -1.289e-009    
  1               7.911e-005      8.409e-009      6.22e-010      
  1.05            7.9388e-005     -5.46e-009      1.1963e-009    
  1.1             7.9889e-005     -9.836e-009     -4.058e-010    
  1.15            8.0191e-005     5.831e-009      -1.2411e-009   
  1.2             8.0199e-005     1.1086e-008     1.2635e-009    
  1.25            8.0462e-005     -1.4988e-008    1.3859e-009    
  1.3             8.0859e-005     -9.646e-009     -3.559e-010    
  1.35            8.1144e-005     5.418e-009      -1.2422e-009   
  1.4             8.1125e-005     1.0673e-008     1.2046e-009    
  1.45            8.1366e-005     -1.3767e-008    1.465e-009     
  1.5             8.1717e-005     -9.859e-009     -3.139e-010    
  1.55            8.1986e-005     5.089e-009      -1.2423e-009   
  1.6             8.1916e-005     1.0551e-008     1.136e-009     
  1.65            8.2175e-005     -1.2823e-008    1.5305e-009    
  1.7             8.2497e-005     -1.0177e-008    -2.68e-010     
  1.75            8.2767e-005     4.203e-009      -1.2434e-009   
  1.8             8.2671e-005     9.689e-009      1.0738e-009    
END_DB

BEGIN_DB
 ICCAP_VAR VG         1.8            
 ICCAP_VAR VS         0              
 ICCAP_VAR VB         0              

 #VD              ID              IB              IG             
  0               -3.5233e-008    -1.0003e-008    2.757e-010     
  0.05            1.5012e-005     8.944e-009      -1.5169e-009   
  0.1             2.9397e-005     6.074e-009      -1.2419e-009   
  0.15            4.3034e-005     8.879e-009      3.716e-010     
  0.2             5.5824e-005     -2.768e-009     1.126e-009     
  0.25            6.7836e-005     -1.1157e-008    -1.1961e-009   
  0.3             7.8837e-005     9.374e-009      -1.6914e-009   
  0.35            8.8871e-005     8.693e-009      3.301e-010     
  0.4             9.7873e-005     -2.522e-009     1.1144e-009    
  0.45            0.000105958     -9.796e-009     -1.86e-011     
  0.5             0.000113132     1.936e-009      -1.25e-009     
  0.55            0.00011926      8.258e-009      2.3252e-009    
  0.6             0.00012457      -9.059e-009     -6.546e-010    
  0.65            0.00012883      6.028e-009      -1.2431e-009   
  0.7             0.00013212      1.0285e-008     1.0103e-009    
  0.75            0.00013495      -1.3827e-008    1.19e-009      
  0.8             0.0001372       -1.0088e-008    -1.73e-010     
  0.85            0.00013903      7.39e-010       -1.255e-009    
  0.9             0.00014018      8.515e-009      5.578e-010     
  0.95            0.00014123      -2.58e-009      1.1332e-009    
  1               0.00014237      -1.0446e-008    -9.589e-010    
  1.05            0.000143        5.339e-009      -2.2923e-009   
  1.1             0.00014324      1.046e-008      1.0227e-009    
  1.15            0.00014385      -1.3681e-008    1.1893e-009    
  1.2             0.00014441      -1.0031e-008    -1.848e-010    
  1.25            0.00014496      9.4e-010        -1.254e-009    
  1.3             0.00014516      8.281e-009      5.611e-010     
  1.35            0.00014554      -2.616e-009     1.1357e-009    
  1.4             0.00014621      -1.0616e-008    -9.781e-010    
  1.45            0.0001465       5.401e-009      -2.2766e-009   
  1.5             0.00014648      1.0481e-008     1.0291e-009    
  1.55            0.00014689      -1.3524e-008    1.1903e-009    
  1.6             0.00014729      -1.0039e-008    -1.957e-010    
  1.65            0.00014771      1.02e-009       -1.2509e-009   
  1.7             0.00014777      8.384e-009      5.636e-010     
  1.75            0.00014805      -2.792e-009     1.1367e-009    
  1.8             0.00014865      -1.0758e-008    -9.751e-010    
END_DB

BEGIN_DB
 ICCAP_VAR VG         0              
 ICCAP_VAR VS         0              
 ICCAP_VAR VB         -0.9           

 #VD              ID              IB              IG             
  0               1.0914e-009     -9.585e-009     1.0907e-009    
  0.05            9.276e-010      -3.756e-009     1.6321e-009    
  0.1             7.858e-010      8.252e-009      -1.239e-009    
  0.15            -1.6958e-009    5.278e-009      -8.748e-010    
  0.2             -1.5817e-009    -8.869e-009     1.2046e-009    
  0.25            1.013e-009      -3.005e-009     2.0245e-009    
  0.3             1.2335e-009     9.668e-009      -1.2066e-009   
  0.35            -1.15e-009      1.0369e-008     -1.4332e-009   
  0.4             -1.9147e-009    -9.983e-009     -5.24e-011     
  0.45            -1.9631e-009    -9.63e-009      -2.181e-010    
  0.5             -1.9769e-009    -9.056e-009     -3.485e-010    
  0.55            -1.2174e-009    -9.751e-009     1.1822e-009    
  0.6             1.0096e-009     -1.0639e-008    2.0145e-009    
  0.65            1.2211e-009     1.0539e-008     -1.3611e-009   
  0.7             -1.2529e-009    2.566e-009      -1.334e-009    
  0.75            -1.8569e-009    -9.757e-009     1.076e-010     
  0.8             -1.9347e-009    -9.587e-009     -7.32e-011     
  0.85            -1.9709e-009    -9.257e-009     -2.34e-010     
  0.9             -1.971e-009     -8.952e-009     -3.726e-010    
  0.95            -1.2283e-009    -9.526e-009     1.1842e-009    
  1               9.9e-011        -1.0992e-008    1.1964e-009    
  1.05            -7.09e-011      -1.3586e-008    1.1944e-009    
  1.1             -1.776e-010     -1.6167e-008    1.1933e-009    
  1.15            1.0184e-009     -2.91e-009      2.0451e-009    
  1.2             1.2491e-009     1.0815e-008     -1.3361e-009   
  1.25            -1.2132e-009    3.105e-009      -1.3684e-009   
  1.3             -1.874e-009     -9.815e-009     5.06e-011      
  1.35            -1.9412e-009    -9.357e-009     -1.316e-010    
  1.4             -1.0799e-009    -1.415e-008     1.1353e-009    
  1.45            9.542e-010      -8.234e-009     1.8254e-009    
  1.5             1.0326e-009     9.053e-009      -1.2257e-009   
  1.55            -1.3725e-009    7.176e-009      -1.216e-009    
  1.6             -1.7904e-009    -9.461e-009     2.636e-010     
  1.65            -1.8736e-009    -9.836e-009     6.76e-011      
  1.7             -1.935e-009     -9.721e-009     -1.168e-010    
  1.75            -1.9736e-009    -9.389e-009     -2.67e-010     
  1.8             -1.9685e-009    -8.98e-009      -3.968e-010    
END_DB

BEGIN_DB
 ICCAP_VAR VG         0.36           
 ICCAP_VAR VS         0              
 ICCAP_VAR VB         -0.9           

 #VD              ID              IB              IG             
  0               1.0285e-009     -1.0048e-008    1.1901e-009    
  0.05            -1.675e-010     -1.594e-008     1.1935e-009    
  0.1             1.0197e-009     -2.978e-009     2.0386e-009    
  0.15            1.2456e-009     1.0091e-008     -1.334e-009    
  0.2             -1.203e-009     2.774e-009      -1.3673e-009   
  0.25            -1.8646e-009    -9.861e-009     5.67e-011      
  0.3             -1.9303e-009    -9.671e-009     -1.297e-010    
  0.35            -1.9699e-009    -9.263e-009     -2.709e-010    
  0.4             -1.9755e-009    -8.957e-009     -3.967e-010    
  0.45            -1.9083e-009    -9.251e-009     -5.604e-010    
  0.5             -1.358e-009     -8.888e-009     1.1919e-009    
  0.55            -9.51e-011      -1.3891e-008    1.1928e-009    
