! VERSION = 6.00
BEGIN_HEADER
 ICCAP_INPUTS
  VG         V  B GROUND SMU4 0.001 LIN        2    0          1.8        6    0.36      
  VS         V  E GROUND SMU2 0.1 CON        0
  VD         V  S GROUND SMU1 0.1 LIN        1    0          1.8        37   0.05      
  VB         V  C GROUND SMU3 0.1 LIN        3    0          -0.9       2    -0.9      
 ICCAP_OUTPUTS
  ID         I  S GROUND SMU1 B
  IB         I  C GROUND SMU3 B
  IG         I  B GROUND SMU4 B
END_HEADER

BEGIN_DB
 ICCAP_VAR VG         0              
 ICCAP_VAR VS         0              
 ICCAP_VAR VB         0              

 #VD              ID              IB              IG             
  0               9.08e-010       5.401e-009      7.391e-010     
  0.05            -2.893e-010     -2.0744e-008    1.3076e-009    
  0.1             9.905e-010      -2.931e-009     1.9587e-009    
  0.15            1.187e-009      1.0503e-008     -1.3335e-009   
  0.2             -1.898e-009     -9.539e-009     -5.14e-010     
  0.25            -1.7633e-009    -1.0899e-008    -7.041e-010    
  0.3             -1.5806e-009    -1.0912e-008    -9.078e-010    
  0.35            -1.577e-009     -9.122e-009     1.1978e-009    
  0.4             1.0009e-009     -2.628e-009     2.0003e-009    
  0.45            1.2179e-009     1.0597e-008     -1.3066e-009   
  0.5             -1.1627e-009    2.814e-009      -1.3536e-009   
  0.55            -1.8443e-009    -9.537e-009     4.83e-011      
  0.6             -1.9218e-009    -9.218e-009     -1.194e-010    
  0.65            -1.0547e-009    -1.2927e-008    1.1241e-009    
  0.7             9.415e-010      -7.892e-009     1.791e-009     
  0.75            1.0033e-009     9.229e-009      -1.2101e-009   
  0.8             -1.308e-009     6.57e-009       -1.1993e-009   
  0.85            -1.7537e-009    -9.494e-009     2.611e-010     
  0.9             -1.8543e-009    -9.562e-009     8.33e-011      
  0.95            -1.9007e-009    -9.312e-009     -1.048e-010    
  1               -1.0411e-009    -1.3458e-008    1.1194e-009    
  1.05            9.391e-010      -7.621e-009     1.7758e-009    
  1.1             9.918e-010      9.026e-009      -1.2116e-009   
  1.15            -1.3327e-009    6.399e-009      -1.1769e-009   
  1.2             -1.7483e-009    -9.492e-009     2.868e-010     
  1.25            -1.8215e-009    -9.446e-009     9.09e-011      
  1.3             -1.9069e-009    -9.31e-009      -8.16e-011     
  1.35            -1.0287e-009    -1.387e-008     1.12e-009      
  1.4             9.375e-010      -7.373e-009     1.7606e-009    
  1.45            9.743e-010      8.92e-009       -1.215e-009    
  1.5             -1.35e-009      6.344e-009      -1.1594e-009   
  1.55            -1.7295e-009    -9.34e-009      1.1152e-009    
  1.6             9.325e-010      -6.967e-009     1.7417e-009    
  1.65            9.454e-010      8.565e-009      -1.2161e-009   
  1.7             -1.3897e-009    5.979e-009      -1.1178e-009   
  1.75            -1.708e-009     -9.277e-009     1.1073e-009    
  1.8             9.262e-010      -6.453e-009     1.7235e-009    
END_DB

BEGIN_DB
 ICCAP_VAR VG         0.36           
 ICCAP_VAR VS         0              
 ICCAP_VAR VB         0              

 #VD              ID              IB              IG             
  0               -3.622e-010     8.166e-009      1.2717e-009    
  0.05            1.1758e-009     -2.688e-009     1.9992e-009    
  0.1             1.6644e-009     1.0913e-008     8.306e-010     
  0.15            1.5035e-009     1.165e-008      9.955e-010     
  0.2             1.344e-009      1.2054e-008     1.1671e-009    
  0.25            1.8326e-009     8.095e-009      2.59e-011      
  0.3             1.9207e-009     8.564e-009      1.798e-010     
  0.35            1.9945e-009     8.454e-009      3.169e-010     
  0.4             2.0174e-009     8.093e-009      4.335e-010     
  0.45            1.994e-009      8.609e-009      5.336e-010     
  0.5             1.909e-009      9.79e-009       6.484e-010     
  0.55            1.7773e-009     1.076e-008      7.829e-010     
  0.6             1.6031e-009     1.1205e-008     9.387e-010     
  0.65            1.4361e-009     1.1936e-008     1.109e-009     
  0.7             1.2908e-009     1.2567e-008     1.286e-009     
  0.75            1.9337e-009     8.538e-009      1.384e-010     
  0.8             2.0147e-009     8.848e-009      2.761e-010     
  0.85            2.0526e-009     8.269e-009      4.022e-010     
  0.9             2.0411e-009     8.183e-009      5.048e-010     
  0.95            1.9728e-009     8.739e-009      6.133e-010     
  1               1.8528e-009     1.0476e-008     7.388e-010     
  1.05            1.6918e-009     1.1129e-008     8.897e-010     
  1.1             1.5224e-009     1.1965e-008     1.0611e-009    
  1.15            1.3613e-009     1.246e-008      1.23e-009      
  1.2             1.9374e-009     8.512e-009      8.84e-011      
  1.25            2.0194e-009     8.546e-009      2.334e-010     
  1.3             2.0696e-009     8.156e-009      3.58e-010      
  1.35            2.0766e-009     8.082e-009      4.669e-010     
  1.4             2.024e-009      8.925e-009      5.769e-010     
  1.45            1.9186e-009     1.0217e-008     6.925e-010     
  1.5             1.7797e-009     1.0892e-008     8.377e-010     
  1.55            1.6037e-009     1.1684e-008     9.986e-010     
  1.6             1.4367e-009     1.2243e-008     1.1696e-009    
  1.65            1.9436e-009     8.321e-009      3.04e-011      
  1.7             2.0099e-009     8.508e-009      1.927e-010     
  1.75            2.0818e-009     8.338e-009      3.169e-010     
  1.8             2.0993e-009     8.068e-009      4.335e-010     
END_DB

BEGIN_DB
 ICCAP_VAR VG         0.72           
 ICCAP_VAR VS         0              
 ICCAP_VAR VB         0              

 #VD              ID              IB              IG             
  0               4.652e-010      -9.097e-009     2.1262e-009    
  0.05            1.0791e-006     -2.512e-009     -1.0055e-009   
  0.1             1.5387e-006     5.317e-009      -1.2006e-009   
  0.15            1.6672e-006     1.0697e-008     1.0419e-009    
  0.2             1.7627e-006     -7.584e-009     1.1844e-009    
  0.25            1.827e-006      -9.614e-009     -2.168e-010    
  0.3             1.9002e-006     1.4356e-008     -1.3711e-009   
  0.35            1.9198e-006     8.107e-009      2.66e-010      
  0.4             1.9419e-006     -1.4977e-008    1.3493e-009    
  0.45            1.9731e-006     -9.509e-009     -5.61e-011     
  0.5             2.0374e-006     1.128e-008      -1.5312e-009   
  0.55            2.0299e-006     1.197e-008      1.4324e-009    
  0.6             2.0631e-006     -1.1605e-008    1.2013e-009    
  0.65            2.1201e-006     -8.878e-009     -5.415e-010    
  0.7             2.1446e-006     3.619e-009      -1.2265e-009   
  0.75            2.1135e-006     8.293e-009      6.847e-010     
  0.8             2.1435e-006     -2.755e-009     1.1261e-009    
  0.85            2.2175e-006     -9.472e-009     -9.059e-010    
  0.9             2.24e-006       5.337e-009      -1.206e-009    
  0.95            2.1866e-006     9.378e-009      9.564e-010     
  1               2.2284e-006     -6.584e-009     1.1761e-009    
  1.05            2.2575e-006     -9.631e-009     -1.417e-010    
  1.1             2.3149e-006     1.2646e-008     -1.4365e-009   
  1.15            2.288e-006      1.3208e-008     1.5098e-009    
  1.2             2.3051e-006     -1.3189e-008    1.4663e-009    
  1.25            2.3091e-006     -9.373e-009     4.33e-011      
  1.3             2.3796e-006     9.682e-009      -1.6313e-009   
  1.35            2.3461e-006     1.1797e-008     1.3531e-009    
  1.4             2.3516e-006     -9.818e-009     1.1822e-009    
  1.45            2.3946e-006     -9.866e-009     -2.518e-010    
  1.5             2.4244e-006     2.99e-010       -1.2497e-009   
  1.55            2.4129e-006     8.201e-009      4.721e-010     
  1.6             2.4149e-006     -2.809e-009     1.0761e-009    
  1.65            2.4655e-006     -9.294e-009     -5.253e-010    
  1.7             2.4915e-006     2.747e-009      -1.2268e-009   
  1.75            2.4429e-006     7.335e-009      6.722e-010     
  1.8             2.4677e-006     -2.4073e-008    1.0816e-009    
END_DB

BEGIN_DB
 ICCAP_VAR VG         1.08           
 ICCAP_VAR VS         0              
 ICCAP_VAR VB         0              

 #VD              ID              IB              IG             
  0               -2.5816e-008    -9.06e-009      1.1343e-009    
  0.05            1.0544e-005     1.0487e-008     -1.8962e-009   
  0.1             1.9211e-005     1.2478e-008     1.504e-009     
  0.15            2.5954e-005     -2.0466e-008    1.13e-009      
  0.2             3.1202e-005     -8.894e-009     -6.287e-010    
  0.25            3.4764e-005     5.157e-009      -2.2858e-009   
  0.3             3.6962e-005     1.1361e-008     1.2283e-009    
  0.35            3.8547e-005     -1.4686e-008    1.369e-009     
  0.4             3.9757e-005     -9.62e-009      -3.471e-010    
  0.45            4.0574e-005     5.135e-009      -1.2114e-009   
  0.5             4.0909e-005     1.0878e-008     1.1803e-009    
  0.55            4.1448e-005     -1.3716e-008    1.4247e-009    
  0.6             4.2007e-005     -9.215e-009     -3.086e-010    
  0.65            4.2477e-005     4.813e-009      -1.2117e-009   
  0.7             4.2551e-005     1.0632e-008     1.1252e-009    
  0.75            4.296e-005      -1.2867e-008    1.4915e-009    
  0.8             4.325e-005      -7.492e-009     1.1718e-009    
  0.85            4.3827e-005     -9.244e-009     -4.966e-010    
  0.9             4.4131e-005     5.32e-009       -1.2008e-009   
  0.95            4.4178e-005     1.0586e-008     1.3567e-009    
  1               4.4375e-005     -2.561e-009     1.1171e-009    
  1.05            4.4783e-005     -9.658e-009     -1.635e-010    
  1.1             4.5181e-005     3.046e-009      -1.2302e-009   
  1.15            4.5109e-005     9.151e-009      9.349e-010     
  1.2             4.5419e-005     -1.0195e-008    1.1744e-009    
  1.25            4.5952e-005     -9.07e-009      -5.298e-010    
  1.3             4.6177e-005     5.418e-009      -1.2032e-009   
  1.35            4.6225e-005     8.65e-009       4.406e-010     
  1.4             4.6373e-005     -2.2872e-008    1.0864e-009    
  1.45            4.6914e-005     -1.0052e-008    -1.0426e-009   
  1.5             4.7207e-005     7.029e-009      -1.844e-009    
  1.55            4.7173e-005     7.367e-009      2.257e-010     
  1.6             4.7181e-005     -3.592e-009     1.0867e-009    
  1.65            4.7754e-005     -1.2513e-008    -9.741e-010    
  1.7             4.7901e-005     4.385e-009      -1.9045e-009   
  1.75            4.8251e-005     1.312e-009      -1.2084e-009   
  1.8             4.8268e-005     5.18e-010       -2.0087e-009   
END_DB

BEGIN_DB
 ICCAP_VAR VG         1.44           
 ICCAP_VAR VS         0              
 ICCAP_VAR VB         0              

 #VD              ID              IB              IG             
  0               -4.8085e-008    -2.311e-009     -1.226e-009    
  0.05            1.9798e-005     -9.465e-009     2.0773e-009    
  0.1             3.7958e-005     -1.3703e-008    1.169e-009     
  0.15            5.4293e-005     -9.926e-009     1.1903e-009    
  0.2             6.8658e-005     -9.359e-009     -7.691e-010    
  0.25            8.0796e-005     5.915e-009      -2.1528e-009   
  0.3             9.0731e-005     1.1687e-008     1.354e-009     
  0.35            9.8823e-005     -1.6708e-008    1.2383e-009    
  0.4             0.000105268     -9.701e-009     1.1887e-009    
  0.45            0.000110518     -9.188e-009     -7.437e-010    
  0.5             0.00011397      5.756e-009      1.0771e-009    
  0.55            0.00011682      -1.0665e-008    1.1937e-009    
  0.6             0.00011914      -8.87e-009      -5.587e-010    
  0.65            0.00012074      5.051e-009      -1.219e-009    
  0.7             0.0001216       1.0191e-008     9.248e-010     
  0.75            0.00012273      -7.658e-009     1.1835e-009    
  0.8             0.00012388      -1.0967e-008    -1.3987e-009   
  0.85            0.00012472      9.83e-009       -1.629e-009    
  0.9             0.00012523      1.2931e-008     1.478e-009     
  0.95            0.00012584      -1.4657e-008    1.3596e-009    
  1               0.00012659      -9.846e-009     -1.813e-010    
  1.05            0.00012734      6.63e-010       -1.245e-009    
  1.1             0.00012763      8.309e-009      5.564e-010     
  1.15            0.00012815      -2.342e-009     1.1198e-009    
  1.2             0.00012912      -9.673e-009     -9.745e-010    
  1.25            0.00012954      5.239e-009      -2.2443e-009   
  1.3             0.00012956      9.821e-009      1.0291e-009    
  1.35            0.00013018      -1.2875e-008    1.1706e-009    
  1.4             0.00013079      -9.993e-009     -1.977e-010    
  1.45            0.00013135      9.92e-010       -1.2422e-009   
  1.5             0.00013149      8.131e-009      5.721e-010     
  1.55            0.00013188      -2.705e-009     1.1241e-009    
  1.6             0.00013278      -1.0503e-008    -1.0137e-009   
  1.65            0.00013311      4.446e-009      -2.2073e-009   
  1.7             0.00013346      3.503e-009      -1.2309e-009   
  1.75            0.00013341      5.926e-009      7.36e-010      
  1.8             0.0001339       -2.4444e-008    1.1173e-009    
END_DB

BEGIN_DB
 ICCAP_VAR VG         1.8            
 ICCAP_VAR VS         0              
 ICCAP_VAR VB         0              

 #VD              ID              IB              IG             
  0               -6.195e-008     -1.3132e-008    -1.1305e-009   
  0.05            2.6204e-005     3.129e-009      1.1837e-009    
  0.1             5.1252e-005     -8.945e-009     -4.994e-010    
  0.15            7.4694e-005     5.234e-009      -1.2088e-009   
  0.2             9.6155e-005     1.1855e-008     1.3558e-009    
  0.25            0.00011586      -1.1101e-008    -1.2912e-009   
  0.3             0.00013325      9.412e-009      -1.3153e-009   
  0.35            0.00014848      8.515e-009      4.183e-010     
  0.4             0.00016162      -2.492e-009     1.0771e-009    
  0.45            0.00017312      -9.072e-009     -7.063e-010    
  0.5             0.00018253      5.23e-009       -1.2117e-009   
  0.55            0.00019005      1.061e-008      1.0531e-009    
  0.6             0.00019647      -1.2746e-008    1.1758e-009    
  0.65            0.00020174      -9.793e-009     -2.25e-010     
  0.7             0.00020596      1.341e-009      -1.236e-009    
  0.75            0.00020893      8.118e-009      5.947e-010     
  0.8             0.00021153      -2.483e-009     1.129e-009     
  0.85            0.00021367      -1.3187e-008    1.1754e-009    
  0.9             0.00021557      -1.0054e-008    -2.044e-010    
  0.95            0.00021713      1.176e-009      -1.2381e-009   
  1               0.0002181       8.142e-009      5.926e-010     
  1.05            0.00021921      -2.603e-009     1.1246e-009    
  1.1             0.00022026      -1.3503e-008    1.1727e-009    
  1.15            0.00022128      -9.894e-009     -2.025e-010    
  1.2             0.0002223       1.097e-009      -1.24e-009     
  1.25            0.00022278      8.307e-009      5.77e-010      
  1.3             0.00022354      -2.617e-009     1.1256e-009    
  1.35            0.00022436      -9.267e-009     8.54e-011      
  1.4             0.00022526      1.1469e-008     -1.5536e-009   
  1.45            0.00022586      7.863e-009      2.241e-010     
  1.5             0.00022625      -1.6208e-008    1.2869e-009    
  1.55            0.00022705      -1.0158e-008    -2.37e-010     
  1.6             0.00022779      1.454e-009      -1.2352e-009   
  1.65            0.00022808      7.849e-009      6.056e-010     
  1.7             0.00022859      -3.575e-009     1.1336e-009    
  1.75            0.00022968      -1.2197e-008    -1.0763e-009   
  1.8             0.00023011      3.769e-009      -2.1467e-009   
END_DB

BEGIN_DB
 ICCAP_VAR VG         0              
 ICCAP_VAR VS         0              
 ICCAP_VAR VB         -0.9           

 #VD              ID              IB              IG             
  0               -1.0565e-009    -2.0927e-008    -1.2122e-009   
  0.05            -1.3479e-009    6.751e-009      -1.1724e-009   
  0.1             -1.7506e-009    -9.511e-009     2.748e-010     
  0.15            -1.8354e-009    -9.659e-009     7.04e-011      
  0.2             -1.904e-009     -9.212e-009     -1.264e-010    
  0.25            -1.0597e-009    -1.3181e-008    1.1264e-009    
  0.3             9.441e-010      -8.291e-009     1.806e-009     
  0.35            1.0228e-009     8.734e-009      -1.209e-009    
  0.4             -1.2873e-009    7.209e-009      -1.2395e-009   
  0.45            -1.7809e-009    -9.637e-009     1.94e-010      
  0.5             -1.859e-009     -9.818e-009     1e-013         
  0.55            -1.9318e-009    -9.418e-009     -1.788e-010    
  0.6             -1.0942e-009    -1.1862e-008    1.138e-009     
  0.65            9.58e-010       -8.797e-009     1.8514e-009    
  0.7             1.0718e-009     8.984e-009      -1.2019e-009   
  0.75            -1.2257e-009    7.782e-009      -1.2966e-009   
  0.8             -1.8115e-009    -9.652e-009     1.192e-010     
  0.85            -1.89e-009      -9.73e-009      -7.4e-011      
  0.9             -1.9432e-009    -9.145e-009     -2.324e-010    
  0.95            -1.951e-009     -8.839e-009     -3.714e-010    
  1               -1.8897e-009    -9.217e-009     -5.314e-010    
  1.05            -1.3346e-009    -8.949e-009     1.1791e-009    
  1.1             -9.63e-011      -1.4103e-008    1.1808e-009    
  1.15            9.814e-010      -3.131e-009     1.9192e-009    
  1.2             1.1655e-009     9.6e-009        -1.1903e-009   
  1.25            -1.9519e-009    9.019e-009      -3.747e-010    
  1.3             -1.882e-009     -9.198e-009     -5.477e-010    
  1.35            -1.7386e-009    -1.0928e-008    -7.492e-010    
  1.4             -1.4934e-009    -8.908e-009     1.189e-009     
  1.45            9.873e-010      -3.075e-009     1.9365e-009    
  1.5             1.1722e-009     1.0567e-008     -1.3456e-009   
  1.55            -1.8981e-009    -9.308e-009     -5.049e-010    
  1.6             -1.7742e-009    -1.073e-008     -7.009e-010    
  1.65            -1.5781e-009    -1.1139e-008    -9.193e-010    
  1.7             -1.5921e-009    -9.009e-009     1.1844e-009    
  1.75            1.0237e-009     -2.712e-009     2.0384e-009    
  1.8             1.4296e-009     1.0638e-008     8.849e-010     
END_DB

BEGIN_DB
 ICCAP_VAR VG         0.36           
 ICCAP_VAR VS         0              
 ICCAP_VAR VB         -0.9           

 #VD              ID              IB              IG             
  0               9.833e-010      -9.41e-009      -3.327e-010    
  0.05            -1.5434e-009    5.297e-009      -9.854e-010    
  0.1             -1.3304e-009    -1.0975e-008    -1.1804e-009   
  0.15            -1.0319e-009    -1.4218e-008    1.1181e-009    
  0.2             9.38e-010       -7.743e-009     1.7826e-009    
  0.25            1.0045e-009     8.646e-009      -1.2095e-009   
  0.3             -1.3158e-009    6.89e-009       -1.2105e-009   
  0.35            -1.7689e-009    -9.65e-009      2.234e-010     
  0.4             -1.8504e-009    -9.829e-009     1.7e-011       
  0.45            -1.9149e-009    -9.416e-009     -1.639e-010    
  0.5             -1.078e-009     -1.2459e-008    1.132e-009     
  0.55            9.531e-010      -8.555e-009     1.8291e-009    
