! VERSION = 6.00
BEGIN_HEADER
 ICCAP_INPUTS
  VG         V  B GROUND SMU4 0.001 LIN        1    0          1.8        37   0.05      
  VS         V  E GROUND SMU2 0.1 CON        0
  VB         V  C GROUND SMU3 0.1 LIN        3    0          -1.8       3    -0.9      
  VD         V  S GROUND SMU1 0.1 LIN        2    0.1        1.8        2    1.7       
 ICCAP_OUTPUTS
  IG         I  B GROUND SMU4 B
  ID         I  S GROUND SMU1 B
  IB         I  C GROUND SMU3 B
END_HEADER

BEGIN_DB
 ICCAP_VAR VS         0              
 ICCAP_VAR VB         0              
 ICCAP_VAR VD         0.1            

 #VG              IG              ID              IB             
  0               -1.2751e-009    4.409e-010      5.596e-009     
  0.05            -4.545e-010     -1.9614e-009    3.885e-009     
  0.1             -6.3e-010       -1.8549e-009    -9.711e-009    
  0.15            -8.315e-010     -1.6897e-009    -1.0043e-008   
  0.2             1.1872e-009     -1.5336e-009    -9.046e-009    
  0.25            1.9716e-009     1.025e-009      -2.93e-009     
  0.3             7.945e-010      1.6848e-009     9.751e-009     
  0.35            9.524e-010      1.9955e-009     1.0955e-008    
  0.4             1.1245e-009     4.0475e-009     1.1786e-008    
  0.45            -2.3519e-009    1.073e-008      -1.3717e-008   
  0.5             -3.183e-010     3.994e-008      -9.663e-009    
  0.55            -1.9559e-009    1.1699e-007     8.269e-009     
  0.6             -2.804e-010     2.8119e-007     -9.756e-009    
  0.65            -6.594e-010     5.8299e-007     -9.027e-009    
  0.7             -1.1487e-009    1.04689e-006    -1.0158e-008   
  0.75            1.2422e-009     1.6752e-006     1.1617e-008    
  0.8             1.0908e-009     2.4572e-006     -2.35e-009     
  0.85            1.1474e-009     3.3325e-006     -3.271e-009    
  0.9             1.1887e-009     4.2676e-006     -8.912e-009    
  0.95            1.4134e-009     5.2308e-006     -1.4171e-008   
  1               6.128e-010      6.1975e-006     8.135e-009     
  1.05            9.595e-010      7.1558e-006     1.0493e-008    
  1.1             1.3847e-009     8.1178e-006     1.195e-008     
  1.15            4.013e-010      9.0504e-006     8.702e-009     
  1.2             6.69e-010       9.9435e-006     8.394e-009     
  1.25            1.0321e-009     1.08227e-005    9.905e-009     
  1.3             -1.3405e-009    1.1702e-005     1.2269e-008    
  1.35            -7.832e-010     1.2537e-005     -9.533e-009    
  1.4             1.1061e-009     1.3299e-005     -8.992e-009    
  1.45            1.172e-009      1.4059e-005     -6.01e-009     
  1.5             1.1961e-009     1.4792e-005     -1.0401e-008   
  1.55            1.1028e-009     1.5485e-005     -3.004e-009    
  1.6             1.1207e-009     1.615e-005      -2.472e-009    
  1.65            1.1801e-009     1.6784e-005     -7.12e-009     
  1.7             1.2011e-009     1.7389e-005     -1.1356e-008   
  1.75            1.0935e-009     1.7953e-005     -2.785e-009    
  1.8             1.1338e-009     1.849e-005      -2.806e-009    
END_DB

BEGIN_DB
 ICCAP_VAR VS         0              
 ICCAP_VAR VB         0              
 ICCAP_VAR VD         1.8            

 #VG              IG              ID              IB             
  0               -1.2297e-009    -1.0697e-009    8.297e-009     
  0.05            -9.934e-010     -1.5589e-009    5.314e-009     
  0.1             -1.1848e-009    -1.3426e-009    -1.0958e-008   
  0.15            2.622e-010      -1.7769e-009    -9.536e-009    
  0.2             5.56e-011       -1.8458e-009    -9.827e-009    
  0.25            -1.343e-010     -1.8783e-009    -9.202e-009    
  0.3             1.1323e-009     -8.413e-010     -1.3377e-008   
  0.35            2.2861e-009     2.0827e-009     -8.355e-009    
  0.4             6.226e-010      6.3931e-009     9.372e-009     
  0.45            -2.3258e-009    1.8648e-008     -1.2309e-008   
  0.5             -2.689e-010     6.7525e-008     -9.675e-009    
  0.55            -2.4397e-009    1.9047e-007     7.927e-009     
  0.6             -6.915e-010     4.5165e-007     -9.41e-009     
  0.65            -1.1813e-009    9.2311e-007     -1.1632e-008   
  0.7             1.1911e-009     1.6982e-006     9.429e-009     
  0.75            1.2393e-009     2.8552e-006     -1.763e-008    
  0.8             1.0834e-009     4.4542e-006     -3.951e-009    
  0.85            1.1496e-009     6.4718e-006     -4.677e-009    
  0.9             1.1882e-009     8.9129e-006     -1.0625e-008   
  0.95            -1.2487e-009    1.1829e-005     -4.118e-009    
  1               -1.2261e-009    1.506e-005      2.901e-009     
  1.05            -2.2282e-009    1.8642e-005     4.156e-009     
  1.1             -1.1174e-009    2.2554e-005     -1.1552e-008   
  1.15            5.48e-011       2.6621e-005     -1.0772e-008   
  1.2             -3.29e-010      3.1128e-005     -1.079e-008    
  1.25            -7.437e-010     3.5927e-005     -1.0232e-008   
  1.3             -1.2259e-009    4.0827e-005     -1.135e-008    
  1.35            -6.06e-011      4.5828e-005     -1.0415e-008   
  1.4             -4.098e-010     5.1199e-005     -9.658e-009    
  1.45            -8.648e-010     5.6722e-005     -1.0487e-008   
  1.5             1.1196e-009     6.2103e-005     -9.429e-009    
  1.55            1.1787e-009     6.7769e-005     -7.487e-009    
  1.6             1.1973e-009     7.3582e-005     -1.1642e-008   
  1.65            1.0837e-009     7.946e-005      -3.121e-009    
  1.7             1.1395e-009     8.5337e-005     -2.847e-009    
  1.75            1.1849e-009     9.1335e-005     -8.631e-009    
  1.8             1.4743e-009     9.7395e-005     -1.3285e-008   
END_DB

BEGIN_DB
 ICCAP_VAR VS         0              
 ICCAP_VAR VB         -0.9           
 ICCAP_VAR VD         0.1            

 #VG              IG              ID              IB             
  0               1.144e-009      9.238e-010      4.451e-009     
  0.05            1.858e-009      9.682e-010      -8.959e-009    
  0.1             -1.204e-009     1.1002e-009     9.984e-009     
  0.15            -1.3158e-009    -1.2145e-009    7.581e-009     
  0.2             8.6e-011        -1.8316e-009    -9.586e-009    
  0.25            -1.108e-010     -1.9168e-009    -9.25e-009     
  0.3             1.1291e-009     -1.0576e-009    -1.3205e-008   
  0.35            1.8096e-009     9.574e-010      -8.035e-009    
  0.4             -1.2141e-009    1.0563e-009     9.391e-009     
  0.45            1.1861e-009     -1.271e-009     7.037e-009     
  0.5             1.5978e-009     1.6756e-009     -1.5303e-008   
  0.55            1.1353e-009     4.4807e-009     1.1502e-008    
  0.6             -1.2287e-009    1.4232e-008     -9.152e-009    
  0.65            -2.2417e-009    5.2955e-008     5.489e-009     
  0.7             3.312e-010      1.4336e-007     -8.556e-009    
  0.75            6.02e-010       3.1437e-007     8.109e-009     
  0.8             9.662e-010      6.1223e-007     1.0421e-008    
  0.85            1.3924e-009     1.07412e-006    1.1542e-008    
  0.9             -2.1893e-009    1.7094e-006     -9.116e-009    
  0.95            -1.1418e-009    2.4709e-006     -1.1011e-008   
  1               3.14e-011       3.3054e-006     -9.375e-009    
  1.05            -3.544e-010     4.2273e-006     -9.115e-009    
  1.1             -7.833e-010     5.177e-006      -9.54e-009     
  1.15            1.1101e-009     6.0878e-006     -9.068e-009    
  1.2             1.1727e-009     7.0196e-006     -6.458e-009    
  1.25            1.1813e-009     7.9434e-006     -1.0595e-008   
  1.3             1.0962e-009     8.8386e-006     -2.999e-009    
  1.35            1.1332e-009     9.7053e-006     -2.572e-009    
  1.4             1.1809e-009     1.05509e-005    -8.188e-009    
  1.45            1.4951e-009     1.13648e-005    -1.2503e-008   
  1.5             -2.3277e-009    1.2159e-005     8.428e-009     
  1.55            -9.908e-010     1.2922e-005     -1.0663e-008   
  1.6             1.759e-010      1.3617e-005     -9.17e-009     
  1.65            -2.548e-010     1.4307e-005     -9.357e-009    
  1.7             -6.357e-010     1.497e-005      -8.925e-009    
  1.75            -1.1332e-009    1.5584e-005     -1.1019e-008   
  1.8             3.02e-011       1.6159e-005     -9.355e-009    
END_DB

BEGIN_DB
 ICCAP_VAR VS         0              
 ICCAP_VAR VB         -0.9           
 ICCAP_VAR VD         1.8            

 #VG              IG              ID              IB             
  0               -1.1281e-009    -1.0265e-009    9.959e-009     
  0.05            -1.3054e-009    -1.2331e-009    2.12e-009      
  0.1             9.44e-011       -1.838e-009     -9.737e-009    
  0.15            -1.034e-010     -1.9129e-009    -9.33e-009     
  0.2             1.1293e-009     -1.0552e-009    -1.3892e-008   
  0.25            1.8112e-009     9.519e-010      -8.058e-009    
  0.3             -1.2178e-009    1.0447e-009     9.3e-009       
  0.35            -1.2482e-009    -1.2928e-009    7.356e-009     
  0.4             1.757e-010      -1.7705e-009    -9.747e-009    
  0.45            -2.04e-011      -1.7056e-009    -9.924e-009    
  0.5             2.2057e-009     2.0519e-009     -9.433e-009    
  0.55            6.937e-010      6.7843e-009     9.228e-009     
  0.6             -2.3786e-009    2.2611e-008     -1.4513e-008   
  0.65            1.1898e-009     8.3778e-008     -1.0119e-008   
  0.7             -1.501e-010     2.2518e-007     5.355e-009     
  0.75            1.1755e-009     5.0667e-007     -1.3172e-008   
  0.8             1.1934e-009     1.01409e-006    -1.135e-008    
  0.85            1.7044e-009     1.8458e-006     7.036e-009     
  0.9             6.783e-010      3.0367e-006     7.444e-009     
  0.95            1.0649e-009     4.6796e-006     9.001e-009     
  1               1.4821e-009     6.8108e-006     1.1779e-008    
  1.05            4.825e-010      9.3326e-006     7.537e-009     
  1.1             -2.246e-010     1.2282e-005     9.769e-009     
  1.15            -5.838e-010     1.5649e-005     -9.995e-009    
  1.2             -1.0896e-009    1.9328e-005     -1.0975e-008   
  1.25            7.45e-011       2.3212e-005     -1.0091e-008   
  1.3             -3.186e-010     2.7523e-005     -1.0493e-008   
  1.35            -7.304e-010     3.2154e-005     -9.764e-009    
  1.4             -1.2231e-009    3.6909e-005     -1.0793e-008   
  1.45            -1.5307e-009    4.1806e-005     -1.1263e-008   
  1.5             -4.222e-010     4.7009e-005     -9.751e-009    
  1.55            -8.927e-010     5.2414e-005     -9.65e-009     
  1.6             2.723e-010      5.7698e-005     -9.223e-009    
  1.65            -1.968e-010     6.331e-005      -1.0124e-008   
  1.7             -5.503e-010     6.9084e-005     -9.127e-009    
  1.75            -1.0435e-009    7.4881e-005     -1.0168e-008   
  1.8             1.236e-010      8.0542e-005     -9.308e-009    
END_DB

BEGIN_DB
 ICCAP_VAR VS         0              
 ICCAP_VAR VB         -1.8           
 ICCAP_VAR VD         0.1            

 #VG              IG              ID              IB             
  0               -1.2301e-009    -1.075e-009     8.64e-009      
  0.05            -1.0203e-009    -1.5213e-009    5.374e-009     
  0.1             -1.2191e-009    -1.3074e-009    -1.0707e-008   
  0.15            2.228e-010      -1.7822e-009    -9.641e-009    
  0.2             1.87e-011       -1.8678e-009    -9.604e-009    
  0.25            -1.753e-010     -1.9381e-009    -9.146e-009    
  0.3             1.1414e-009     -1.0955e-009    -1.2033e-008   
  0.35            1.8486e-009     9.632e-010      -8.846e-009    
  0.4             -1.2098e-009    1.0865e-009     8.998e-009     
  0.45            -1.298e-009     -1.2335e-009    7.584e-009     
  0.5             1.176e-010      -1.7979e-009    -9.716e-009    
  0.55            -7.67e-011      -1.7527e-009    -9.626e-009    
  0.6             1.0922e-009     3.2e-011        -9.235e-009    
  0.65            1.1193e-009     5.0475e-009     -4.213e-009    
  0.7             -1.5228e-009    1.8678e-008     -2.348e-009    
  0.75            -4.064e-010     6.4841e-008     -9.375e-009    
  0.8             -1.7271e-009    1.6494e-007     8.516e-009     
  0.85            -4.084e-010     3.4554e-007     -9.294e-009    
  0.9             -8.692e-010     6.4545e-007     -9.389e-009    
  0.95            1.1199e-009     1.0802e-006     -9.121e-009    
  1               1.4842e-009     1.6836e-006     5.099e-009     
  1.05            4.771e-010      2.4138e-006     8.555e-009     
  1.1             7.767e-010      3.2282e-006     8.707e-009     
  1.15            1.186e-009      4.1149e-006     1.0697e-008    
  1.2             2.623e-010      5.0456e-006     8.087e-009     
  1.25            5.549e-010      5.948e-006      8.206e-009     
  1.3             8.797e-010      6.8533e-006     9.062e-009     
  1.35            -1.2242e-009    7.7769e-006     6.093e-009     
  1.4             -2.1172e-009    8.6523e-006     6.279e-009     
  1.45            -2.077e-010     9.4812e-006     -9.804e-009    
  1.5             -5.645e-010     1.03135e-005    -8.974e-009    
  1.55            1.1873e-009     1.1072e-005     -9.088e-009    
  1.6             4.118e-010      1.1848e-005     -1.4949e-008   
  1.65            6.92e-010       1.2558e-005     8.412e-009     
  1.7             1.0693e-009     1.3246e-005     1.0709e-008    
  1.75            1.5e-009        1.3911e-005     1.2028e-008    
  1.8             4.929e-010      1.4531e-005     8.218e-009     
END_DB

BEGIN_DB
 ICCAP_VAR VS         0              
 ICCAP_VAR VB         -1.8           
 ICCAP_VAR VD         1.8            

 #VG              IG              ID              IB             
  0               -1.197e-009     -1.0458e-009    -5.371e-009    
  0.05            -4.025e-010     -1.9544e-009    9.463e-009     
  0.1             -5.817e-010     -1.8598e-009    -9.392e-009    
  0.15            1.1852e-009     -1.3619e-009    -9.021e-009    
  0.2             1.1839e-009     -1.1e-010       -1.4963e-008   
  0.25            1.9588e-009     1.0011e-009     -2.973e-009    
  0.3             -1.1994e-009    1.202e-009      9.35e-009      
  0.35            -1.3938e-009    -1.1465e-009    9.111e-009     
  0.4             -1.9e-011       -1.8861e-009    -9.887e-009    
  0.45            -2.013e-010     -1.9406e-009    -9.478e-009    
  0.5             -3.349e-010     -1.9255e-009    -9.188e-009    
  0.55            1.1335e-009     -8.505e-010     -9.32e-009     
  0.6             2.2522e-009     2.2153e-009     -8.267e-009    
  0.65            6.219e-010      7.8578e-009     9.311e-009     
  0.7             -2.3365e-009    2.7512e-008     -1.2911e-008   
  0.75            -2.718e-010     9.8194e-008     -9.462e-009    
  0.8             -2.4397e-009    2.5802e-007     8.057e-009     
  0.85            -7.029e-010     5.6522e-007     -9.239e-009    
  0.9             -1.1881e-009    1.08853e-006    -1.1385e-008   
  0.95            1.1874e-009     1.908e-006      9.002e-009     
  1               1.3808e-009     3.1314e-006     -1.5459e-008   
  1.05            1.1017e-009     4.7794e-006     -3.564e-009    
  1.1             1.1304e-009     6.8585e-006     -3.104e-009    
  1.15            1.1838e-009     9.3787e-006     -8.41e-009     
  1.2             -1.5299e-009    1.2387e-005     1.0518e-008    
  1.25            -1.4993e-009    1.5692e-005     -1.1169e-008   
  1.3             -3.803e-010     1.9382e-005     -9.841e-009    
  1.35            -8.106e-010     2.3437e-005     -1.0296e-008   
  1.4             1.1137e-009     2.757e-005      -9.59e-009     
  1.45            1.1801e-009     3.2085e-005     -6.732e-009    
  1.5             1.1971e-009     3.6877e-005     -1.14e-008     
  1.55            1.0993e-009     4.1847e-005     -3.141e-009    
  1.6             1.1344e-009     4.6968e-005     -2.704e-009    
  1.65            1.186e-009      5.2275e-005     -7.776e-009    
  1.7             1.2045e-009     5.772e-005      -1.2563e-008   
  1.75            1.0945e-009     6.3259e-005     -2.702e-009    
  1.8             1.1502e-009     6.886e-005      -3.342e-009    
END_DB

