! VERSION = 6.00
BEGIN_HEADER
 ICCAP_INPUTS
  VG         V  B GROUND SMU4 0.001 LIN        1    0          1.8        37   0.05      
  VS         V  E GROUND SMU2 0.1 CON        0
  VB         V  C GROUND SMU3 0.1 LIN        3    0          -1.8       3    -0.9      
  VD         V  S GROUND SMU1 0.1 LIN        2    0.1        1.8        2    1.7       
 ICCAP_OUTPUTS
  IG         I  B GROUND SMU4 B
  ID         I  S GROUND SMU1 B
  IB         I  C GROUND SMU3 B
END_HEADER

BEGIN_DB
 ICCAP_VAR VS         0              
 ICCAP_VAR VB         0              
 ICCAP_VAR VD         0.1            

 #VG              IG              ID              IB             
  0               -9.284e-010     -8.718e-010     -2.2701e-008   
  0.05            -2.7214e-009    6.66e-011       1.117e-008     
  0.1             1.2758e-009     -1.4921e-009    -2.0108e-008   
  0.15            2.8857e-009     -7.79e-011      -1.199e-008    
  0.2             -1.3282e-009    1.4497e-009     2.2551e-008    
  0.25            -2.7044e-009    1.107e-010      1.1366e-008    
  0.3             -1.885e-009     -1.3183e-009    6.41e-010      
  0.35            -6.434e-010     -2.1935e-009    -1.0932e-008   
  0.4             1.2637e-009     -1.2986e-009    -1.828e-008    
  0.45            2.8615e-009     1.8596e-009     -1.2978e-008   
  0.5             1.288e-010      6.2758e-009     1.1096e-008    
  0.55            -2.0573e-009    1.57e-008       -2.0562e-008   
  0.6             -1.5261e-009    6.1847e-008     3.426e-009     
  0.65            1.2795e-009     2.014e-007      -2.1008e-008   
  0.7             -1.3301e-009    6.0261e-007     2.7382e-008    
  0.75            -2.1258e-009    1.4605e-006     -1.4003e-008   
  0.8             1.2744e-009     3.2419e-006     -2.4935e-008   
  0.85            2.7359e-009     6.1946e-006     -1.2148e-008   
  0.9             6.19e-010       1.04951e-005    1.124e-008     
  0.95            -2.7418e-009    1.5705e-005     1.0654e-008    
  1               -1.0898e-009    2.1637e-005     -9.888e-009    
  1.05            1.424e-010      2.7661e-005     -1.1729e-008   
  1.1             1.3688e-009     3.4035e-005     -2.5361e-008   
  1.15            2.901e-009      4.0348e-005     -8.573e-009    
  1.2             2.63e-009       4.6681e-005     -4.63e-010     
  1.25            1.938e-009      5.2692e-005     -2.452e-009    
  1.3             1.4167e-009     5.8497e-005     -8.582e-009    
  1.35            1.2762e-009     6.405e-005      -8.402e-009    
  1.4             2.7542e-009     6.9363e-005     -1.1974e-008   
  1.45            5.901e-010      7.4517e-005     1.1253e-008    
  1.5             -1.6814e-009    7.9317e-005     2.0988e-008    
  1.55            -1.3983e-009    8.3868e-005     6.102e-009     
  1.6             -1.3109e-009    8.8152e-005     1.0785e-008    
  1.65            -2.4424e-009    9.2207e-005     1.1698e-008    
  1.7             -1.7934e-009    9.5949e-005     1.769e-009     
  1.75            -1.4254e-009    9.9545e-005     5.06e-009      
  1.8             -1.3315e-009    0.000102919     1.0034e-008    
END_DB

BEGIN_DB
 ICCAP_VAR VS         0              
 ICCAP_VAR VB         0              
 ICCAP_VAR VD         1.8            

 #VG              IG              ID              IB             
  0               8.543e-010      8.259e-010      2.7116e-008    
  0.05            1.2705e-009     -1.5191e-009    -1.8338e-008   
  0.1             2.8835e-009     -1.276e-010     -1.292e-008    
  0.15            -1.3238e-009    1.4799e-009     2.1129e-008    
  0.2             -2.688e-009     1.629e-010      1.1771e-008    
  0.25            -9.581e-010     -2.2535e-009    9e-010         
  0.3             1.6514e-009     -1.628e-009     -1.1983e-008   
  0.35            2.5961e-009     1.3029e-009     -8.73e-009     
  0.4             3.855e-010      3.3723e-009     1.122e-008     
  0.45            5.954e-010      7.294e-009      1.0599e-008    
  0.5             1.711e-009      2.1364e-008     1.535e-008     
  0.55            1.3503e-009     7.4052e-008     -9.033e-009    
  0.6             -2.6726e-009    2.3608e-007     1.0568e-008    
  0.65            -2.1637e-009    6.7331e-007     -1.96e-010     
  0.7             -9.064e-010     1.7119e-006     -4.064e-009    
  0.75            -1.2995e-009    4.005e-006      -1.2645e-008   
  0.8             -1.7193e-009    8.2454e-006     -1.7212e-008   
  0.85            2.8907e-009     1.4978e-005     -1.801e-008    
  0.9             2.5127e-009     2.4688e-005     -1.2396e-008   
  0.95            1.7888e-009     3.715e-005      -1.9051e-008   
  1               1.3674e-009     5.2083e-005     -2.7688e-008   
  1.05            2.8989e-009     6.8954e-005     -3.0195e-008   
  1.1             2.6423e-009     8.7812e-005     -2.4242e-008   
  1.15            1.9457e-009     0.000107578     -2.8298e-008   
  1.2             2.3757e-009     0.00012852      -2.7105e-008   
  1.25            1.649e-009      0.00015033      -3.3533e-008   
  1.3             1.3324e-009     0.00017268      -3.7746e-008   
  1.35            2.8935e-009     0.00019537      -3.8301e-008   
  1.4             2.5099e-009     0.00021887      -3.0072e-008   
  1.45            1.7924e-009     0.00024218      -3.2961e-008   
  1.5             1.3694e-009     0.00026581      -3.7951e-008   
  1.55            2.8972e-009     0.00028939      -3.7062e-008   
  1.6             2.6435e-009     0.00031357      -2.8138e-008   
  1.65            1.9617e-009     0.00033722      -2.9522e-008   
  1.7             1.4271e-009     0.00036098      -3.4677e-008   
  1.75            1.2774e-009     0.00038483      -3.3714e-008   
  1.8             2.7613e-009     0.0004083       -3.6024e-008   
END_DB

BEGIN_DB
 ICCAP_VAR VS         0              
 ICCAP_VAR VB         -0.9           
 ICCAP_VAR VD         0.1            

 #VG              IG              ID              IB             
  0               8.143e-010      8.089e-010      2.7539e-008    
  0.05            2.1436e-009     -1.5593e-009    -1.6631e-008   
  0.1             1.4175e-009     1.9641e-009     -7.205e-009    
  0.15            -1.3535e-009    1.3308e-009     2.5508e-008    
  0.2             -1.3146e-009    5.8e-012        1.1396e-008    
  0.25            -2.6775e-009    1.65e-010       1.1688e-008    
  0.3             -9.656e-010     -2.2614e-009    8.12e-010      
  0.35            1.6618e-009     -1.6877e-009    -1.2232e-008   
  0.4             8.216e-010      2.3806e-009     -8.611e-009    
  0.45            -1.6858e-009    1.6961e-009     1.4862e-008    
  0.5             -1.7009e-009    -1.5175e-009    6.003e-009     
  0.55            -3.081e-010     -1.9008e-009    -1.1829e-008   
  0.6             1.4235e-009     7.81e-011       -1.1497e-008   
  0.65            1.3326e-009     5.6298e-009     -8.409e-009    
  0.7             -1.3397e-009    2.1811e-008     -1.1706e-008   
  0.75            -2.5931e-009    8.1756e-008     1.1314e-008    
  0.8             5.412e-010      2.4671e-007     -1.1349e-008   
  0.85            -1.7401e-009    6.548e-007      2.2134e-008    
  0.9             -2.5533e-009    1.5059e-006     -1.9747e-008   
  0.95            -6.843e-010     3.2138e-006     -1.1801e-008   
  1               1.7663e-009     6.1324e-006     -1.7416e-008   
  1.05            1.3552e-009     1.03318e-005    -8.99e-009     
  1.1             -1.4805e-009    1.5703e-005     -8.519e-009    
  1.15            -1.3534e-009    2.1645e-005     9.006e-009     
  1.2             -2.6473e-009    2.7934e-005     1.1418e-008    
  1.25            -2.1175e-009    3.4256e-005     3.52e-010      
  1.3             -1.5519e-009    4.0577e-005     3.091e-009     
  1.35            -1.3718e-009    4.6751e-005     7.617e-009     
  1.4             -2.7016e-009    5.2719e-005     1.1585e-008    
  1.45            -2.2749e-009    5.8336e-005     7.87e-010      
  1.5             -1.6525e-009    6.3769e-005     2.158e-009     
  1.55            -1.3948e-009    6.8918e-005     6.299e-009     
  1.6             -1.3112e-009    7.3783e-005     1.0943e-008    
  1.65            -2.4352e-009    7.8373e-005     1.1827e-008    
  1.7             -1.7882e-009    8.2636e-005     1.702e-009     
  1.75            -1.4285e-009    8.6705e-005     5.079e-009     
  1.8             -1.3326e-009    9.0534e-005     9.979e-009     
END_DB

BEGIN_DB
 ICCAP_VAR VS         0              
 ICCAP_VAR VB         -0.9           
 ICCAP_VAR VD         1.8            

 #VG              IG              ID              IB             
  0               1.0197e-009     9.009e-010      1.6994e-008    
  0.05            1.373e-009      -1.2061e-009    -2.6682e-008   
  0.1             1.0869e-009     2.3124e-009     -8.67e-009     
  0.15            -1.4303e-009    1.8985e-009     1.1248e-008    
  0.2             -1.0858e-009    -2.2292e-009    9.971e-009     
  0.25            1.4884e-009     -1.7655e-009    -1.1652e-008   
  0.3             9.37e-010       2.3929e-009     -8.289e-009    
  0.35            -1.5271e-009    1.7943e-009     1.2278e-008    
  0.4             -9.289e-010     -2.2404e-009    7.898e-009     
  0.45            1.7035e-009     -1.5235e-009    -1.2084e-008   
  0.5             2.5592e-009     1.7384e-009     -8.559e-009    
  0.55            3.431e-010      5.3784e-009     1.1272e-008    
  0.6             2.8794e-009     1.4805e-008     1.1223e-008    
  0.65            4.146e-010      5.4822e-008     1.124e-008     
  0.7             -1.3942e-009    1.7506e-007     1.0284e-008    
  0.75            -1.3098e-009    5.0667e-007     1.0645e-008    
  0.8             2.3872e-009     1.2412e-006     1.371e-008     
  0.85            -1.7355e-009    2.9068e-006     2.0298e-008    
  0.9             -1.981e-009     6.059e-006      -1.3338e-008   
  0.95            1.8792e-009     1.1613e-005     -1.7763e-008   
  1               1.4029e-009     2.0177e-005     -1.7636e-008   
  1.05            1.2802e-009     3.1736e-005     -2.0802e-008   
  1.1             2.7386e-009     4.5937e-005     -2.7874e-008   
  1.15            2.0393e-009     6.2538e-005     -1.9999e-008   
  1.2             1.4642e-009     8.0813e-005     -2.7973e-008   
  1.25            1.2976e-009     0.000100445     -3.06e-008     
  1.3             1.8235e-009     0.00012141      -3.2048e-008   
  1.35            1.3793e-009     0.00014293      -3.3518e-008   
  1.4             1.2678e-009     0.00016504      -3.4062e-008   
  1.45            2.6786e-009     0.00018774      -3.8852e-008   
  1.5             1.9489e-009     0.00021096      -2.8336e-008   
  1.55            1.4299e-009     0.00023429      -3.4044e-008   
  1.6             1.287e-009      0.00025778      -3.4109e-008   
  1.65            2.7811e-009     0.00028129      -3.6938e-008   
  1.7             2.1241e-009     0.00030511      -2.6339e-008   
  1.75            1.4983e-009     0.0003288       -3.092e-008    
  1.8             1.307e-009      0.00035235      -3.1632e-008   
END_DB

BEGIN_DB
 ICCAP_VAR VS         0              
 ICCAP_VAR VB         -1.8           
 ICCAP_VAR VD         0.1            

 #VG              IG              ID              IB             
  0               1.1918e-009     1.1195e-009     1.1737e-008    
  0.05            2.5909e-009     -4.736e-010     -1.5346e-008   
  0.1             1.1368e-009     2.2702e-009     -2.951e-009    
  0.15            -2.104e-010     1.923e-009      1.1461e-008    
  0.2             -1.5759e-009    8.885e-010      2.5425e-008    
  0.25            -1.7666e-009    -1.4514e-009    7.334e-009     
  0.3             -4.507e-010     -2.1882e-009    -1.1719e-008   
  0.35            -6.783e-010     -2.2519e-009    -1.0895e-008   
  0.4             1.2612e-009     -1.5388e-009    -1.6843e-008   
  0.45            2.8579e-009     -1.829e-010     -1.3471e-008   
  0.5             1.113e-009      2.2821e-009     1.0178e-008    
  0.55            -1.4308e-009    1.0927e-009     2.8328e-008    
  0.6             -1.107e-009     -2.1149e-009    1.0442e-008    
  0.65            1.4821e-009     -1.2869e-009    -1.188e-008    
  0.7             1.3647e-009     2.6232e-009     -8.185e-009    
  0.75            2.8679e-009     1.1394e-008     2.7262e-008    
  0.8             -1.6416e-009    4.2652e-008     1.9769e-008    
  0.85            8.605e-010      1.3513e-007     -1.4478e-008   
  0.9             -1.4477e-009    3.7431e-007     1.3725e-008    
  0.95            -1.35e-009      8.9203e-007     9.805e-009     
  1               -2.6053e-009    1.9192e-006     -2.0102e-008   
  1.05            -1.989e-009     3.8998e-006     9.15e-010      
  1.1             -1.4943e-009    7.1336e-006     3.286e-009     
  1.15            1.2739e-009     1.1522e-005     3.289e-009     
  1.2             2.6897e-009     1.6889e-005     -1.2876e-008   
  1.25            6.551e-010      2.3019e-005     1.1182e-008    
  1.3             -1.5876e-009    2.9326e-005     1.82e-008      
  1.35            -1.3943e-009    3.566e-005      6.97e-009      
  1.4             -2.7354e-009    4.1901e-005     1.1638e-008    
  1.45            1.8934e-009     4.777e-005      -1.9083e-008   
  1.5             1.4099e-009     5.3562e-005     -8.372e-009    
  1.55            1.2807e-009     5.9064e-005     -8.479e-009    
  1.6             2.7313e-009     6.4313e-005     -1.2476e-008   
  1.65            6.235e-010      6.9376e-005     1.1177e-008    
  1.7             -1.6174e-009    7.405e-005      1.9107e-008    
  1.75            -1.3992e-009    7.8469e-005     6.506e-009     
  1.8             -1.3063e-009    8.2609e-005     1.1479e-008    
END_DB

BEGIN_DB
 ICCAP_VAR VS         0              
 ICCAP_VAR VB         -1.8           
 ICCAP_VAR VD         1.8            

 #VG              IG              ID              IB             
  0               -1.3362e-009    -1.2687e-009    1.1031e-008    
  0.05            -2.7214e-009    9.82e-011       1.149e-008     
  0.1             -1.8669e-009    -1.3166e-009    7.83e-010      
  0.15            -6.398e-010     -2.235e-009     -1.1295e-008   
  0.2             -8.249e-010     -2.272e-009     -1.0142e-008   
  0.25            1.8981e-009     -1.6122e-009    -1.3662e-008   
  0.3             1.5493e-009     1.7677e-009     -8.557e-009    
  0.35            -4.48e-011      1.9992e-009     1.0604e-008    
  0.4             -1.4558e-009    1.0086e-009     2.7602e-008    
  0.45            -1.0289e-009    -2.2393e-009    9.413e-009     
  0.5             1.5529e-009     -1.6239e-009    -1.1703e-008   
  0.55            2.6482e-009     1.5338e-009     -8.16e-009     
  0.6             4.835e-010      4.6982e-009     1.0931e-008    
  0.65            2.7982e-009     1.1761e-008     1.0911e-008    
  0.7             5.478e-010      4.458e-008      1.1389e-008    
  0.75            -1.3981e-009    1.4501e-007     1.0515e-008    
  0.8             -2.742e-009     4.1972e-007     1.0965e-008    
  0.85            -1.2786e-009    1.05251e-006    -1.0243e-008   
  0.9             2.359e-009      2.3249e-006     1.2289e-008    
  0.95            -1.6337e-009    4.9593e-006     1.5228e-008    
  1               -1.2507e-009    9.7335e-006     -1.4376e-008   
  1.05            2.7336e-009     1.713e-005      -1.9575e-008   
  1.1             2.9057e-009     2.7774e-005     -9.568e-009    
  1.15            2.5413e-009     4.1175e-005     -1.4351e-008   
  1.2             1.8154e-009     5.6943e-005     -1.9927e-008   
  1.25            1.3869e-009     7.4669e-005     -2.7451e-008   
  1.3             2.8936e-009     9.3859e-005     -2.9212e-008   
  1.35            -7.293e-010     0.00011468      -4.2017e-008   
  1.4             -1.0896e-009    0.00013634      -3.3055e-008   
  1.45            -1.5087e-009    0.00015859      -3.467e-008    
  1.5             -1.856e-009     0.00018082      -3.6009e-008   
  1.55            -2.1468e-009    0.00020357      -3.4018e-008   
  1.6             -2.5224e-009    0.00022677      -3.3115e-008   
  1.65            -2.7262e-009    0.00025013      -3.117e-008    
  1.7             -2.673e-009     0.00027351      -2.521e-008    
  1.75            -2.1504e-009    0.00029716      -2.2782e-008   
  1.8             -1.5561e-009    0.00032085      -2.0475e-008   
END_DB

