! VERSION = 6.00
BEGIN_HEADER
 ICCAP_INPUTS
  VG         V  B GROUND SMU4 0.001 LIN        2    0          1.8        6    0.36      
  VS         V  E GROUND SMU2 0.1 CON        0
  VD         V  S GROUND SMU1 0.1 LIN        1    0          1.8        37   0.05      
  VB         V  C GROUND SMU3 0.1 LIN        3    0          -0.9       2    -0.9      
 ICCAP_OUTPUTS
  ID         I  S GROUND SMU1 B
  IB         I  C GROUND SMU3 B
  IG         I  B GROUND SMU4 B
END_HEADER

BEGIN_DB
 ICCAP_VAR VG         0              
 ICCAP_VAR VS         0              
 ICCAP_VAR VB         0              

 #VD              ID              IB              IG             
  0               -1.767e-009     -5.977e-009     -1.5847e-009   
  0.05            -2.0836e-009    5.482e-009      -7.246e-010    
  0.1             -1.4959e-009    -1.5334e-008    1.9399e-009    
  0.15            2.1894e-009     -9.086e-009     5.795e-010     
  0.2             2.245e-009      8.168e-009      7.448e-010     
  0.25            7.995e-010      1.8486e-008     -1.7332e-009   
  0.3             -2.0203e-009    -4.847e-009     -1.0207e-009   
  0.35            -9.98e-010      -2.1319e-008    2.7146e-009    
  0.4             2.254e-009      -3.493e-009     8.348e-010     
  0.45            1.6433e-009     1.3808e-008     -1.5949e-009   
  0.5             -1.9657e-009    -4.661e-009     -1.1062e-009   
  0.55            -1.0707e-009    -2.1976e-008    2.6824e-009    
  0.6             8.199e-010      1.8926e-008     -1.7027e-009   
  0.65            -2.0104e-009    -4.754e-009     -1.0373e-009   
  0.7             -1.0143e-009    -2.1558e-008    2.7122e-009    
  0.75            2.2522e-009     -3.569e-009     8.47e-010      
  0.8             1.6582e-009     1.3439e-008     -1.5694e-009   
  0.85            -2.0831e-009    5.663e-009      -7.383e-010    
  0.9             -7.635e-010     -1.7181e-008    1.9172e-009    
  0.95            2.1953e-009     -9.25e-009      5.978e-010     
  1               2.2489e-009     8.1e-009        7.63e-010      
  1.05            8.157e-010      1.8845e-008     -1.7075e-009   
  1.1             -2.0133e-009    -4.792e-009     -1.0332e-009   
  1.15            -1.0099e-009    -2.1389e-008    2.7151e-009    
  1.2             2.2548e-009     -3.548e-009     8.414e-010     
  1.25            1.6536e-009     1.3734e-008     -1.5866e-009   
  1.3             -2.0847e-009    5.556e-009      -7.332e-010    
  1.35            -1.4997e-009    -1.5055e-008    1.9211e-009    
  1.4             2.1889e-009     -8.997e-009     5.925e-010     
  1.45            1.4477e-009     2.0273e-008     -1.978e-009    
  1.5             -1.1133e-009    -2.2249e-008    2.6525e-009    
  1.55            8.562e-010      2.0089e-008     -1.6179e-009   
  1.6             -1.9763e-009    -4.639e-009     -1.0902e-009   
  1.65            -1.0574e-009    -2.1834e-008    2.6909e-009    
  1.7             8.069e-010      1.8553e-008     -1.7293e-009   
  1.75            -2.0176e-009    -4.852e-009     -1.0262e-009   
  1.8             -1.0024e-009    -2.1329e-008    2.7122e-009    
END_DB

BEGIN_DB
 ICCAP_VAR VG         0.36           
 ICCAP_VAR VS         0              
 ICCAP_VAR VB         0              

 #VD              ID              IB              IG             
  0               9.893e-010      9.25e-009       1.0141e-009    
  0.05            4.0931e-009     -1.5216e-008    2.3786e-009    
  0.1             5.8305e-009     -6.505e-009     2.1058e-009    
  0.15            5.8936e-009     -7.946e-009     1.8211e-009    
  0.2             5.8601e-009     -9.576e-009     2.3595e-009    
  0.25            6.4601e-009     1.857e-008      -1.7234e-009   
  0.3             4.6583e-009     -4.899e-009     -2.4886e-009   
  0.35            4.6399e-009     -2.0278e-008    2.7221e-009    
  0.4             6.221e-009      -2.802e-009     2.6965e-009    
  0.45            6.5234e-009     1.7921e-008     -1.7688e-009   
  0.5             4.7229e-009     -4.974e-009     -2.4677e-009   
  0.55            4.09e-009       -1.3388e-008    1.7614e-009    
  0.6             5.9832e-009     -1.0043e-008    2.383e-009     
  0.65            7.6356e-009     9.434e-009      2.39e-010      
  0.7             7.7013e-009     9.356e-009      4.1e-010       
  0.75            6.4038e-009     1.2448e-008     -2.2385e-009   
  0.8             4.7098e-009     -2.1206e-008    2.7211e-009    
  0.85            6.3654e-009     -3.39e-009      2.6472e-009    
  0.9             6.7449e-009     1.9892e-008     -1.6297e-009   
  0.95            4.884e-009      -4.586e-009     -2.5203e-009   
  1               4.7978e-009     -2.0937e-008    2.7246e-009    
  1.05            6.4183e-009     -3.19e-009      2.6738e-009    
  1.1             6.7695e-009     1.9209e-008     -1.6855e-009   
  1.15            4.9189e-009     -4.784e-009     -2.5017e-009   
  1.2             4.3516e-009     -1.26e-008      2.726e-009     
  1.25            6.462e-009      -2.936e-009     2.6877e-009    
  1.3             6.7849e-009     1.8326e-008     -1.7346e-009   
  1.35            4.9608e-009     -4.865e-009     -2.4816e-009   
  1.4             4.324e-009      -1.3014e-008    1.7248e-009    
  1.45            6.2155e-009     -1.0145e-008    2.3977e-009    
  1.5             6.874e-009      1.996e-008      -1.6196e-009   
  1.55            5.6505e-009     5.422e-009      -1.4237e-009   
  1.6             5.7869e-009     7.274e-009      -2.4797e-009   
  1.65            4.3505e-009     -1.2846e-008    2.7248e-009    
  1.7             6.5692e-009     -2.676e-009     2.6976e-009    
  1.75            6.8722e-009     1.7897e-008     -1.7809e-009   
  1.8             5.0561e-009     -5.115e-009     -2.4619e-009   
END_DB

BEGIN_DB
 ICCAP_VAR VG         0.72           
 ICCAP_VAR VS         0              
 ICCAP_VAR VB         0              

 #VD              ID              IB              IG             
  0               1.8043e-009     -1.6111e-008    1.581e-010     
  0.05            2.1261e-006     9.772e-009      1.7813e-009    
  0.1             3.5173e-006     -1.3713e-008    2.7012e-009    
  0.15            4.2436e-006     -1.9564e-008    2.6964e-009    
  0.2             4.5139e-006     -1.9804e-008    2.683e-009     
  0.25            4.5906e-006     -2.0097e-008    2.6696e-009    
  0.3             4.6171e-006     -2.0433e-008    2.66e-009      
  0.35            4.6331e-006     -2.0688e-008    2.643e-009     
  0.4             4.6455e-006     -2.0829e-008    2.6319e-009    
  0.45            4.6556e-006     -2.1102e-008    2.6111e-009    
  0.5             4.6657e-006     -2.1302e-008    2.5925e-009    
  0.55            4.675e-006      -2.1512e-008    2.5689e-009    
  0.6             4.6842e-006     -2.1609e-008    2.5465e-009    
  0.65            4.6931e-006     -2.1616e-008    2.523e-009     
  0.7             4.7001e-006     -2.1689e-008    2.4993e-009    
  0.75            4.7084e-006     -2.1927e-008    2.469e-009     
  0.8             4.7165e-006     -2.2137e-008    2.4426e-009    
  0.85            4.7235e-006     -2.2231e-008    2.4145e-009    
  0.9             4.7313e-006     -2.2205e-008    2.3826e-009    
  0.95            4.7382e-006     -2.2213e-008    2.3507e-009    
  1               4.7454e-006     -2.2162e-008    2.3247e-009    
  1.05            4.7522e-006     -2.2067e-008    2.2828e-009    
  1.1             4.7587e-006     -2.1889e-008    2.2531e-009    
  1.15            4.7652e-006     -2.177e-008     2.218e-009     
  1.2             4.7715e-006     -2.1561e-008    2.1807e-009    
  1.25            4.7781e-006     -2.1357e-008    2.1448e-009    
  1.3             4.7852e-006     -2.1072e-008    2.1046e-009    
  1.35            4.7901e-006     -2.0838e-008    2.0555e-009    
  1.4             4.796e-006      -2.0524e-008    2.0248e-009    
  1.45            4.8016e-006     -2.0198e-008    1.9755e-009    
  1.5             4.8079e-006     -1.9933e-008    1.9417e-009    
  1.55            4.8125e-006     -1.9604e-008    1.9044e-009    
  1.6             4.8166e-006     -1.9368e-008    1.867e-009     
  1.65            4.8209e-006     -1.9126e-008    1.8267e-009    
  1.7             4.8259e-006     -1.8835e-008    1.7887e-009    
  1.75            4.8335e-006     -1.1249e-008    -5.119e-010    
  1.8             4.8776e-006     1.2216e-008     -1.7732e-009   
END_DB

BEGIN_DB
 ICCAP_VAR VG         1.08           
 ICCAP_VAR VS         0              
 ICCAP_VAR VB         0              

 #VD              ID              IB              IG             
  0               1.5833e-008     9.294e-009      5.462e-010     
  0.05            6.5454e-006     -1.5582e-008    -2.2723e-009   
  0.1             1.2301e-005     9.134e-009      -1.119e-010    
  0.15            1.7343e-005     1.3968e-008     -1.7497e-009   
  0.2             2.1545e-005     8.756e-009      7.985e-010     
  0.25            2.4945e-005     -2.1539e-008    2.5533e-009    
  0.3             2.7611e-005     -2.0424e-008    2.0049e-009    
  0.35            2.952e-005      -9.755e-009     -7.493e-010    
  0.4             3.071e-005      8.443e-009      -2.6249e-009   
  0.45            3.1249e-005     1.177e-008      -1.722e-010    
  0.5             3.1345e-005     -1.4212e-008    2.4539e-009    
  0.55            3.1493e-005     -1.901e-008     1.8573e-009    
  0.6             3.1507e-005     -2.0787e-008    2.6438e-009    
  0.65            3.1571e-005     -1.5171e-008    1.9811e-009    
  0.7             3.1673e-005     -9.656e-009     -7.603e-010    
  0.75            3.1766e-005     8.513e-009      -2.6287e-009   
  0.8             3.1769e-005     1.1572e-008     -1.64e-010     
  0.85            3.1658e-005     -1.4319e-008    2.437e-009     
  0.9             3.1732e-005     -1.8793e-008    1.8387e-009    
  0.95            3.1717e-005     -2.0834e-008    2.631e-009     
  1               3.1765e-005     -2.1479e-008    2.166e-009     
  1.05            3.1839e-005     -1.0095e-008    -6.646e-010    
  1.1             3.1938e-005     7.592e-009      -2.6087e-009   
  1.15            3.194e-005      1.3196e-008     -2.515e-009    
  1.2             3.1986e-005     1.2473e-008     -1.8654e-009   
  1.25            3.1937e-005     9.148e-009      7.353e-010     
  1.3             3.1865e-005     -2.1015e-008    2.619e-009     
  1.35            3.1907e-005     -2.1304e-008    2.1348e-009    
  1.4             3.1976e-005     -1.009e-008     -6.792e-010    
  1.45            3.207e-005      7.769e-009      -2.6137e-009   
  1.5             3.1904e-005     7.405e-009      1.2041e-009    
  1.55            3.1992e-005     -1.8403e-008    1.818e-009     
  1.6             3.1967e-005     -2.1022e-008    2.6262e-009    
  1.65            3.2006e-005     -2.1472e-008    2.1474e-009    
  1.7             3.2075e-005     -1.0302e-008    -6.752e-010    
  1.75            3.2166e-005     7.393e-009      -2.6107e-009   
  1.8             3.2162e-005     1.2306e-008     -2.5055e-009   
END_DB

BEGIN_DB
 ICCAP_VAR VG         1.44           
 ICCAP_VAR VS         0              
 ICCAP_VAR VB         0              

 #VD              ID              IB              IG             
  0               2.6324e-008     2.5225e-008     7.705e-010     
  0.05            1.0329e-005     -1.3679e-008    2.513e-010     
  0.1             2.0012e-005     -1.6351e-008    1.7376e-009    
  0.15            2.9049e-005     -2.1225e-008    2.5888e-009    
  0.2             3.7438e-005     -2.096e-008     2.0782e-009    
  0.25            4.5183e-005     -9.878e-009     -7.188e-010    
  0.3             5.2238e-005     8.261e-009      -2.6178e-009   
  0.35            5.8531e-005     1.226e-008      -2.4729e-009   
  0.4             6.4144e-005     1.3525e-008     -1.7845e-009   
  0.45            6.8916e-005     8.841e-009      7.822e-010     
  0.5             7.2902e-005     -2.1305e-008    2.5742e-009    
  0.55            7.6214e-005     -2.0783e-008    2.0562e-009    
  0.6             7.8792e-005     -9.79e-009      -7.293e-010    
  0.65            8.0634e-005     8.227e-009      -2.6211e-009   
  0.7             8.1677e-005     1.2036e-008     -2.4668e-009   
  0.75            8.2304e-005     1.3725e-008     -1.7683e-009   
  0.8             8.2475e-005     8.775e-009      7.91e-010      
  0.85            8.2499e-005     -2.1377e-008    2.5632e-009    
  0.9             8.2644e-005     -2.0612e-008    2.0345e-009    
  0.95            8.2799e-005     -9.811e-009     -7.369e-010    
  1               8.2957e-005     8.401e-009      -2.6222e-009   
  1.05            8.2975e-005     1.1864e-008     -2.4525e-009   
  1.1             8.3069e-005     1.3802e-008     -1.7458e-009   
  1.15            8.2994e-005     8.702e-009      8.021e-010     
  1.2             8.2915e-005     -2.1595e-008    2.5548e-009    
  1.25            8.2983e-005     -1.6178e-008    1.8124e-009    
  1.3             8.2994e-005     -2.0967e-008    2.6237e-009    
  1.35            8.3071e-005     -2.1403e-008    2.1482e-009    
  1.4             8.3191e-005     -1.0036e-008    -6.784e-010    
  1.45            8.3343e-005     7.803e-009      -2.6093e-009   
  1.5             8.3345e-005     1.2943e-008     -2.5117e-009   
  1.55            8.342e-005      1.2436e-008     -1.8491e-009   
  1.6             8.3345e-005     9.126e-009      7.444e-010     
  1.65            8.3237e-005     -2.128e-008     2.6165e-009    
  1.7             8.3299e-005     -1.5553e-008    1.9254e-009    
  1.75            8.3293e-005     -2.0287e-008    2.6667e-009    
  1.8             8.3365e-005     -1.5058e-008    2.052e-009     
END_DB

BEGIN_DB
 ICCAP_VAR VG         1.8            
 ICCAP_VAR VS         0              
 ICCAP_VAR VB         0              

 #VD              ID              IB              IG             
  0               2.7366e-008     9.491e-009      1.076e-009     
  0.05            1.3046e-005     -6.09e-009      -2.3102e-009   
  0.1             2.5627e-005     1.6004e-008     -1.5671e-009   
  0.15            3.7707e-005     8.379e-009      9.131e-010     
  0.2             4.9282e-005     -2.2168e-008    2.4156e-009    
  0.25            6.0382e-005     -1.834e-008     1.8132e-009    
  0.3             7.0913e-005     -2.0896e-008    2.6214e-009    
  0.35            8.0909e-005     -2.1298e-008    2.1457e-009    
  0.4             9.0316e-005     -1.477e-008     2.7129e-009    
  0.45            9.9119e-005     -2.2117e-008    2.4311e-009    
  0.5             0.000107326     -1.8646e-008    1.8308e-009    
  0.55            0.00011496      -2.0944e-008    -2.1828e-009   
  0.6             0.00012183      1.3386e-008     -1.77e-009     
  0.65            0.00012785      9.338e-009      1.9847e-009    
  0.7             0.0001333       -1.6429e-008    1.6913e-009    
  0.75            0.00013813      -9.861e-009     -7.126e-010    
  0.8             0.00014224      1.9451e-008     -1.4036e-009   
  0.85            0.0001455       2.3627e-008     -2.4811e-009   
  0.9             0.00014801      1.0226e-008     -2.1638e-009   
  0.95            0.00014979      1.37e-008       -1.7619e-009   
  1               0.00015096      1.8432e-008     -1.4318e-009   
  1.05            0.00015148      8.614e-009      8.13e-010      
  1.1             0.0001517       -1.9378e-008    2.7029e-009    
  1.15            0.00015194      -2.0891e-008    2.6313e-009    
  1.2             0.00015201      -2.1819e-008    2.5009e-009    
  1.25            0.00015215      -2.2123e-008    2.3203e-009    
  1.3             0.00015227      -2.0978e-008    2.0945e-009    
  1.35            0.0001524       -1.8862e-008    1.8581e-009    
  1.4             0.00015241      -1.7781e-008    2.7303e-009    
  1.45            0.00015243      -1.9799e-008    2.6973e-009    
  1.5             0.00015247      -2.1245e-008    2.6083e-009    
  1.55            0.00015259      -2.2012e-008    2.4625e-009    
  1.6             0.00015268      -1.5051e-008    2.0789e-009    
  1.65            0.00015276      -1.8785e-008    1.8374e-009    
  1.7             0.00015273      -1.7936e-008    2.7251e-009    
  1.75            0.00015279      -1.9719e-008    2.6914e-009    
  1.8             0.00015283      -2.1236e-008    2.5993e-009    
END_DB

BEGIN_DB
 ICCAP_VAR VG         0              
 ICCAP_VAR VS         0              
 ICCAP_VAR VB         -0.9           

 #VD              ID              IB              IG             
  0               -8.462e-010     -1.5128e-008    -9.522e-010    
  0.05            -2.0644e-009    8.002e-009      -9.11e-010     
  0.1             -1.5842e-009    -1.1701e-008    2.7177e-009    
  0.15            2.2512e-009     -3.381e-009     8.038e-010     
  0.2             1.6211e-009     1.4727e-008     -1.6566e-009   
  0.25            -1.9976e-009    -4.665e-009     -1.0653e-009   
  0.3             -1.0322e-009    -2.1677e-008    2.7057e-009    
  0.35            2.2579e-009     -3.78e-009      8.688e-010     
  0.4             8.915e-010      2.0958e-008     -1.5591e-009   
  0.45            -2.0854e-009    5.727e-009      -7.435e-010    
  0.5             -7.658e-010     -1.7209e-008    1.9286e-009    
  0.55            2.1978e-009     -9.212e-009     5.946e-010     
  0.6             2.2486e-009     8.08e-009       7.56e-010      
  0.65            8.087e-010      1.8442e-008     -1.7305e-009   
  0.7             -2.0187e-009    -4.928e-009     -1.0172e-009   
  0.75            -9.924e-010     -2.1231e-008    2.7141e-009    
  0.8             2.2542e-009     -3.473e-009     8.181e-010     
  0.85            1.6335e-009     1.4401e-008     -1.6311e-009   
  0.9             -1.9866e-009    -4.645e-009     -1.0796e-009   
  0.95            -1.0465e-009    -2.1833e-008    2.6998e-009    
  1               7.901e-010      1.8149e-008     -1.7647e-009   
  1.05            -2.0289e-009    -5.039e-009     -1.0011e-009   
  1.1             -9.79e-010      -2.1143e-008    2.7187e-009    
  1.15            2.2551e-009     -3.4e-009       8.021e-010     
  1.2             8.435e-010      1.9524e-008     -1.659e-009    
  1.25            -1.9936e-009    -4.736e-009     -1.0647e-009   
  1.3             -1.0298e-009    -2.1633e-008    2.7063e-009    
  1.35            7.825e-010      1.7697e-008     -1.7971e-009   
  1.4             -2.0379e-009    -5.247e-009     -9.841e-010    
  1.45            -9.629e-010     -2.0953e-008    2.7201e-009    
  1.5             2.2551e-009     -3.235e-009     7.811e-010     
  1.55            1.6062e-009     1.5312e-008     -1.6949e-009   
  1.6             -1.9969e-009    -4.755e-009     -1.0459e-009   
  1.65            -1.0111e-009    -2.1517e-008    2.7113e-009    
  1.7             2.2737e-009     -3.689e-009     8.468e-010     
  1.75            8.975e-010      2.055e-008      -1.5902e-009   
  1.8             -2.0623e-009    5.542e-009      -7.222e-010    
END_DB

BEGIN_DB
 ICCAP_VAR VG         0.36           
 ICCAP_VAR VS         0              
 ICCAP_VAR VB         -0.9           

 #VD              ID              IB              IG             
  0               5.939e-010      9.844e-009      5.102e-010     
  0.05            -1.5525e-009    -1.1812e-008    2.7229e-009    
  0.1             2.2605e-009     -3.112e-009     7.632e-010     
  0.15            1.5922e-009     1.5494e-008     -1.7129e-009   
  0.2             -2.0109e-009    -4.784e-009     -1.0258e-009   
  0.25            -9.865e-010     -2.1423e-008    2.7207e-009    
  0.3             2.2687e-009     -3.505e-009     8.189e-010     
  0.35            8.714e-010      1.986e-008      -1.619e-009    
  0.4             -1.9728e-009    -4.588e-009     -1.0814e-009   
  0.45            -1.0292e-009    -2.1793e-008    2.7023e-009    
  0.5             2.2723e-009     -3.853e-009     8.744e-010     
  0.55            1.381e-010      9.458e-009      -2.6144e-009   
