! VERSION = 6.00
BEGIN_HEADER
 ICCAP_INPUTS
  VG         V  B GROUND SMU4 0.001 LIN        2    0          1.8        6    0.36      
  VS         V  E GROUND SMU2 0.1 CON        0
  VD         V  S GROUND SMU1 0.1 LIN        1    0          1.8        37   0.05      
  VB         V  C GROUND SMU3 0.1 LIN        3    0          -0.9       2    -0.9      
 ICCAP_OUTPUTS
  ID         I  S GROUND SMU1 B
  IB         I  C GROUND SMU3 B
  IG         I  B GROUND SMU4 B
END_HEADER

BEGIN_DB
 ICCAP_VAR VG         0              
 ICCAP_VAR VS         0              
 ICCAP_VAR VB         0              

 #VD              ID              IB              IG             
  0               -1.1689e-009    -1.0087e-008    -1.2431e-009   
  0.05            3.5e-011        9.238e-009      -2.5958e-009   
  0.1             -1.1339e-009    -2.2424e-008    2.6088e-009    
  0.15            9.914e-010      2.086e-008      -1.5436e-009   
  0.2             -2.0454e-009    5.544e-009      -7.417e-010    
  0.25            -1.4758e-009    -1.4611e-008    1.9015e-009    
  0.3             1.9448e-009     -9.176e-009     1.4333e-009    
  0.35            7.877e-010      1.5462e-008     -1.9639e-009   
  0.4             -1.0922e-009    -2.2323e-008    2.649e-009     
  0.45            9.611e-010      1.9828e-008     -1.6103e-009   
  0.5             -1.8265e-009    -4.438e-009     -2.94e-011     
  0.55            -1.0236e-009    -2.1732e-008    2.6896e-009    
  0.6             8.992e-010      1.8098e-008     -1.7391e-009   
  0.65            -1.7735e-009    -4.849e-009     4.52e-011      
  0.7             -9.648e-010     -2.1162e-008    2.7058e-009    
  0.75            2.4039e-009     -3.447e-009     8.001e-010     
  0.8             9.546e-010      1.9585e-008     -1.631e-009    
  0.85            -1.8214e-009    -4.487e-009     -1.59e-011     
  0.9             -1.0197e-009    -2.1696e-008    2.6918e-009    
  0.95            8.919e-010      1.7755e-008     -1.7585e-009   
  1               -1.7671e-009    -4.959e-009     5.15e-011      
  1.05            -9.529e-010     -2.1075e-008    2.7099e-009    
  1.1             2.3999e-009     -3.424e-009     7.923e-010     
  1.15            1.7365e-009     1.4777e-008     -1.6416e-009   
  1.2             -1.8136e-009    -4.53e-009      -8.6e-012      
  1.25            -1.0084e-009    -2.1495e-008    2.6896e-009    
  1.3             2.4086e-009     -3.805e-009     8.613e-010     
  1.35            1.7992e-009     1.2985e-008     -1.5465e-009   
  1.4             -2.0424e-009    5.633e-009      -7.394e-010    
  1.45            -1.4791e-009    -1.4713e-008    1.8974e-009    
  1.5             1.9381e-009     -9.155e-009     1.4312e-009    
  1.55            7.945e-010      1.559e-008      -1.9653e-009   
  1.6             -1.0945e-009    -2.2276e-008    2.6476e-009    
  1.65            9.664e-010      1.9941e-008     -1.6115e-009   
  1.7             -2.039e-009     5.158e-009      -6.92e-010     
  1.75            -1.4518e-009    -1.5731e-008    1.9882e-009    
  1.8             2.0149e-009     -8.768e-009     1.3813e-009    
END_DB

BEGIN_DB
 ICCAP_VAR VG         0.36           
 ICCAP_VAR VS         0              
 ICCAP_VAR VB         0              

 #VD              ID              IB              IG             
  0               2.1455e-009     -2.1799e-008    2.704e-009     
  0.05            1.2473e-008     -2.1557e-008    -2.222e-009    
  0.1             4.4592e-008     1.0738e-008     -1.201e-010    
  0.15            3.4078e-008     -1.0246e-008    2.7106e-009    
  0.2             4.7866e-008     -2.0008e-008    1.944e-009     
  0.25            4.6219e-008     -2.2461e-008    2.3097e-009    
  0.3             4.5481e-008     -2.1453e-008    2.5713e-009    
  0.35            4.7277e-008     -1.2132e-008    2.6459e-009    
  0.4             4.5198e-008     -1.7826e-008    2.7202e-009    
  0.45            4.8733e-008     -1.7632e-008    1.7433e-009    
  0.5             4.855e-008      -2.1321e-008    2.1183e-009    
  0.55            4.6833e-008     -2.2453e-008    2.4424e-009    
  0.6             4.6566e-008     -2.0766e-008    2.6497e-009    
  0.65            4.8842e-008     -1.3637e-008    2.6987e-009    
  0.7             4.9062e-008     -1.5402e-008    2.7175e-009    
  0.75            4.9124e-008     -1.7409e-008    2.717e-009     
  0.8             4.9163e-008     -1.929e-008     1.8851e-009    
  0.85            4.9125e-008     -2.2293e-008    2.2658e-009    
  0.9             4.7456e-008     -2.1861e-008    2.5411e-009    
  0.95            4.6785e-008     -1.9674e-008    2.6922e-009    
  1               5.0849e-008     -1.5054e-008    2.7158e-009    
  1.05            5.0178e-008     -1.7086e-008    2.716e-009     
  1.1             5.0373e-008     -1.9139e-008    1.8503e-009    
  1.15            4.8863e-008     -2.2147e-008    2.2312e-009    
  1.2             4.7453e-008     -2.2e-008       2.5245e-009    
  1.25            4.6767e-008     -1.9849e-008    2.6857e-009    
  1.3             5.0335e-008     -1.4786e-008    2.7161e-009    
  1.35            4.9975e-008     -1.6716e-008    2.718e-009     
  1.4             5.0138e-008     -1.8718e-008    1.8304e-009    
  1.45            4.9073e-008     -2.1957e-008    2.2009e-009    
  1.5             4.7727e-008     -2.1982e-008    2.5039e-009    
  1.55            4.659e-008      -2.012e-008     2.6804e-009    
  1.6             4.7581e-008     -1.713e-008     2.7211e-009    
  1.65            5.0242e-008     -1.8875e-008    1.8494e-009    
  1.7             4.782e-008      -1.4872e-008    2.0229e-009    
  1.75            4.8041e-008     -2.2613e-008    2.3704e-009    
  1.8             4.7783e-008     -2.1368e-008    2.612e-009     
END_DB

BEGIN_DB
 ICCAP_VAR VG         0.72           
 ICCAP_VAR VS         0              
 ICCAP_VAR VB         0              

 #VD              ID              IB              IG             
  0               1.2985e-008     9.706e-009      1.1123e-009    
  0.05            2.7719e-006     2.1609e-008     2.5686e-009    
  0.1             4.6607e-006     -2.1369e-008    2.1242e-009    
  0.15            5.7633e-006     -2.112e-008     2.0839e-009    
  0.2             6.2649e-006     -2.0714e-008    2.0444e-009    
  0.25            6.4372e-006     -2.0398e-008    2.0059e-009    
  0.3             6.4873e-006     -1.9994e-008    1.9629e-009    
  0.35            6.5082e-006     -1.9544e-008    1.9236e-009    
  0.4             6.5196e-006     -1.9262e-008    1.8848e-009    
  0.45            6.5276e-006     -1.8735e-008    1.8445e-009    
  0.5             6.535e-006      -1.8266e-008    1.7984e-009    
  0.55            6.5391e-006     -1.7953e-008    1.7651e-009    
  0.6             6.5496e-006     -1.7373e-008    1.7316e-009    
  0.65            6.5542e-006     -1.704e-008     2.723e-009     
  0.7             6.529e-006      -1.7236e-008    2.7242e-009    
  0.75            6.5331e-006     -1.7483e-008    2.7241e-009    
  0.8             6.5606e-006     -1.3375e-008    2.6979e-009    
  0.85            6.5294e-006     -1.9901e-008    2.691e-009     
  0.9             6.5343e-006     -2.0105e-008    2.682e-009     
  0.95            6.5405e-006     -2.04e-008      2.668e-009     
  1               6.5436e-006     -2.0664e-008    2.6599e-009    
  1.05            6.5483e-006     -2.096e-008     2.6415e-009    
  1.1             6.5541e-006     -2.1096e-008    2.6229e-009    
  1.15            6.5575e-006     -2.1249e-008    2.6037e-009    
  1.2             6.5612e-006     -2.1603e-008    2.5888e-009    
  1.25            6.5652e-006     -2.1757e-008    2.5633e-009    
  1.3             6.5695e-006     -2.1876e-008    2.5419e-009    
  1.35            6.5723e-006     -2.1978e-008    2.5142e-009    
  1.4             6.5765e-006     -2.2163e-008    2.4861e-009    
  1.45            6.5802e-006     -2.2356e-008    2.4593e-009    
  1.5             6.5807e-006     -2.2519e-008    2.433e-009     
  1.55            6.5871e-006     -2.2656e-008    2.4005e-009    
  1.6             6.59e-006       -2.2917e-008    2.3771e-009    
  1.65            6.5944e-006     -2.3111e-008    2.3411e-009    
  1.7             6.6003e-006     -2.3257e-008    2.3047e-009    
  1.75            6.6061e-006     -2.3554e-008    2.2737e-009    
  1.8             6.6111e-006     -2.4007e-008    2.237e-009     
END_DB

BEGIN_DB
 ICCAP_VAR VG         1.08           
 ICCAP_VAR VS         0              
 ICCAP_VAR VB         0              

 #VD              ID              IB              IG             
  0               1.9309e-008     -1.729e-008     -9.27e-010     
  0.05            8.0211e-006     9.019e-009      1.6204e-009    
  0.1             1.5134e-005     -1.8539e-008    1.6893e-009    
  0.15            2.1339e-005     -1.6238e-008    1.7625e-009    
  0.2             2.6596e-005     -2.1074e-008    2.5923e-009    
  0.25            3.0975e-005     -2.1148e-008    2.094e-009     
  0.3             3.4487e-005     -9.956e-009     -7.051e-010    
  0.35            3.708e-005      8.051e-009      -2.6056e-009   
  0.4             3.8694e-005     1.2352e-008     -2.4787e-009   
  0.45            3.9627e-005     1.311e-008      -1.7948e-009   
  0.5             3.9853e-005     8.946e-009      7.661e-010     
  0.55            3.9922e-005     -2.1367e-008    2.5822e-009    
  0.6             4.0018e-005     -1.5737e-008    1.8728e-009    
  0.65            4.0002e-005     -2.0647e-008    2.6398e-009    
  0.7             4.0074e-005     -2.1781e-008    2.2024e-009    
  0.75            4.0068e-005     -1.7995e-008    2.713e-009     
  0.8             4.0077e-005     -2.196e-008     2.4698e-009    
  0.85            4.017e-005      -1.9442e-008    1.8951e-009    
  0.9             4.0096e-005     -2.0558e-008    2.6447e-009    
  0.95            4.0154e-005     -2.1858e-008    2.2198e-009    
  1               4.0143e-005     -1.7964e-008    2.7131e-009    
  1.05            4.0153e-005     -2.1943e-008    2.4902e-009    
  1.1             4.0236e-005     -1.9577e-008    1.9098e-009    
  1.15            4.0168e-005     -2.0351e-008    2.6532e-009    
  1.2             4.024e-005      -1.4934e-008    2.0386e-009    
  1.25            4.028e-005      -9.788e-009     -7.29e-010     
  1.3             4.0372e-005     8.314e-009      -2.6085e-009   
  1.35            4.0408e-005     1.1929e-008     -2.4477e-009   
  1.4             4.046e-005      1.3584e-008     -1.7481e-009   
  1.45            4.0269e-005     8.739e-009      7.942e-010     
  1.5             4.0261e-005     -2.1523e-008    2.5545e-009    
  1.55            4.0335e-005     -2.0653e-008    2.0204e-009    
  1.6             4.0361e-005     -9.81e-009      -7.392e-010    
  1.65            4.0449e-005     8.202e-009      -2.6115e-009   
  1.7             4.0481e-005     1.1491e-008     -2.4425e-009   
  1.75            4.0527e-005     1.3571e-008     -1.7305e-009   
  1.8             4.0554e-005     8.343e-009      -2.3968e-009   
END_DB

BEGIN_DB
 ICCAP_VAR VG         1.44           
 ICCAP_VAR VS         0              
 ICCAP_VAR VB         0              

 #VD              ID              IB              IG             
  0               3.2526e-008     9.333e-009      5.49e-010      
  0.05            1.2499e-005     -1.5413e-008    6.753e-010     
  0.1             2.4241e-005     -2.061e-008     2.659e-009     
  0.15            3.5228e-005     -2.2077e-008    2.222e-009     
  0.2             4.543e-005      -1.5595e-008    2.722e-009     
  0.25            5.4847e-005     -2.2019e-008    2.4996e-009    
  0.3             6.3454e-005     -1.9577e-008    1.9078e-009    
  0.35            7.1167e-005     -2.0367e-008    2.6664e-009    
  0.4             7.8092e-005     -1.4884e-008    2.0391e-009    
  0.45            8.4197e-005     -9.796e-009     -7.303e-010    
  0.5             8.9401e-005     8.185e-009      -2.6079e-009   
  0.55            9.3567e-005     1.1704e-008     -2.4571e-009   
  0.6             9.6946e-005     1.351e-008      -1.7465e-009   
  0.65            9.9273e-005     8.737e-009      7.913e-010     
  0.7             0.000100639     -2.163e-008     2.5638e-009    
  0.75            0.000101543     -2.0584e-008    2.0197e-009    
  0.8             0.00010203      -9.765e-009     -7.375e-010    
  0.85            0.000102295     8.205e-009      -2.608e-009    
  0.9             0.000102326     1.1616e-008     -2.4471e-009   
  0.95            0.000102435     1.3643e-008     -1.7227e-009   
  1               0.000102267     8.653e-009      8.024e-010     
  1.05            0.000102194     -2.1784e-008    2.5525e-009    
  1.1             0.000102309     -2.0456e-008    2.0032e-009    
  1.15            0.000102417     -9.655e-009     -7.461e-010    
  1.2             0.000102559     8.38e-009       -2.6127e-009   
  1.25            0.000102572     1.1452e-008     -2.4351e-009   
  1.3             0.00010265      1.3863e-008     -1.7129e-009   
  1.35            0.000102452     8.551e-009      8.097e-010     
  1.4             0.000102387     -2.19e-008      2.5431e-009    
  1.45            0.000102486     -2.0342e-008    1.9792e-009    
  1.5             0.000102583     -9.609e-009     -7.562e-010    
  1.55            0.000102717     8.384e-009      -2.612e-009    
  1.6             0.00010271      1.1353e-008     -1.604e-010    
  1.65            0.00010247      -1.4307e-008    2.4385e-009    
  1.7             0.00010257      -1.8639e-008    1.8275e-009    
  1.75            0.000102496     -2.1025e-008    2.6393e-009    
  1.8             0.000102578     -2.181e-008     2.1681e-009    
END_DB

BEGIN_DB
 ICCAP_VAR VG         1.8            
 ICCAP_VAR VS         0              
 ICCAP_VAR VB         0              

 #VD              ID              IB              IG             
  0               3.6891e-008     1.9475e-008     8.551e-010     
  0.05            1.5633e-005     -1.084e-008     -4.89e-011     
  0.1             3.0748e-005     -1.4422e-008    2.226e-009     
  0.15            4.5271e-005     -1.8168e-008    2.7197e-009    
  0.2             5.9224e-005     -2.1476e-008    2.482e-009     
  0.25            7.2615e-005     -1.9368e-008    1.9392e-009    
  0.3             8.533e-005      -2.0392e-008    2.6506e-009    
  0.35            9.7426e-005     -1.472e-008     2.0472e-009    
  0.4             0.000108899     -7.18e-009      -1.9617e-009   
  0.45            0.00011957      2.24e-008       8.353e-010     
  0.5             0.00012948      -2.0375e-008    2.656e-009     
  0.55            0.00013868      -2.1141e-008    2.5485e-009    
  0.6             0.00014713      -2.1751e-008    2.3867e-009    
  0.65            0.00015476      -1.4997e-008    1.9942e-009    
  0.7             0.00016153      -1.7159e-008    1.5896e-009    
  0.75            0.00016748      -1.3138e-008    2.6583e-009    
  0.8             0.00017252      -2.1242e-008    2.5483e-009    
  0.85            0.0001767       -2.1682e-008    2.392e-009     
  0.9             0.00018004      -1.4941e-008    2.0105e-009    
  0.95            0.00018254      -1.7872e-008    1.7807e-009    
  1               0.00018418      -9.994e-009     -6.303e-010    
  1.05            0.00018524      1.8503e-008     -1.4583e-009   
  1.1             0.00018545      8.707e-009      7.86e-010      
  1.15            0.00018552      -1.9498e-008    2.6963e-009    
  1.2             0.00018554      -2.0768e-008    2.6266e-009    
  1.25            0.00018566      -2.1548e-008    2.496e-009     
  1.3             0.00018567      -2.178e-008     2.3191e-009    
  1.35            0.00018577      -1.5307e-008    1.916e-009     
  1.4             0.00018581      -1.7819e-008    2.7182e-009    
  1.45            0.00018586      -1.2585e-008    2.6276e-009    
  1.5             0.00018587      -2.1602e-008    2.5025e-009    
  1.55            0.00018586      -2.1845e-008    2.3284e-009    
  1.6             0.00018596      -2.0862e-008    2.1153e-009    
  1.65            0.00018602      -1.9046e-008    1.8887e-009    
  1.7             0.000186        -1.7829e-008    2.7215e-009    
  1.75            0.00018604      -1.2434e-008    2.6219e-009    
  1.8             0.00018601      -2.1617e-008    2.4868e-009    
END_DB

BEGIN_DB
 ICCAP_VAR VG         0              
 ICCAP_VAR VS         0              
 ICCAP_VAR VB         -0.9           

 #VD              ID              IB              IG             
  0               -7.271e-010     -1.6811e-008    -9.329e-010    
  0.05            1.1697e-009     2.4457e-008     -1.3321e-009   
  0.1             -1.7881e-009    8.401e-009      1.83e-011      
  0.15            -9.788e-010     -2.1448e-008    2.6993e-009    
  0.2             2.4181e-009     -3.63e-009      8.32e-010      
  0.25            1.7851e-009     1.4056e-008     -1.5831e-009   
  0.3             -1.8334e-009    -4.617e-009     -4.22e-011     
  0.35            -1.0314e-009    -2.1544e-008    2.6702e-009    
  0.4             9.213e-010      1.9034e-008     -1.7106e-009   
  0.45            -1.775e-009     -4.867e-009     3.01e-011      
  0.5             -9.634e-010     -2.1358e-008    2.7044e-009    
  0.55            2.4217e-009     -3.478e-009     8.102e-010     
  0.6             1.7646e-009     1.4448e-008     -1.6118e-009   
  0.65            -1.8199e-009    -4.472e-009     -2.4e-011      
  0.7             -1.0143e-009    -2.1742e-008    2.6895e-009    
  0.75            2.427e-009      -3.874e-009     8.694e-010     
  0.8             1.8153e-009     1.314e-008      -1.5327e-009   
  0.85            -2.053e-009     5.558e-009      -7.457e-010    
  0.9             -7.338e-010     -1.7364e-008    1.8835e-009    
  0.95            1.9399e-009     -9.169e-009     1.4245e-009    
  1               7.986e-010      1.5365e-008     -1.9589e-009   
  1.05            -1.0823e-009    -2.2319e-008    2.6538e-009    
  1.1             9.721e-010      1.9983e-008     -1.6166e-009   
  1.15            -1.8223e-009    -4.511e-009     -1.92e-011     
  1.2             -1.0137e-009    -2.1908e-008    2.6993e-009    
  1.25            2.4309e-009     -3.894e-009     8.658e-010     
  1.3             2.306e-010      9.501e-009      -2.6151e-009   
  1.35            -1.3037e-009    -1.9659e-008    2.3316e-009    
  1.4             2.2616e-009     -6.451e-009     1.1772e-009    
  1.45            5.66e-010       1.083e-008      -2.348e-009    
  1.5             -8.766e-010     -2.0455e-008    2.721e-009     
  1.55            1.638e-009      -2.801e-009     1.6535e-009    
  1.6             2.2988e-009     9.299e-009      3.782e-010     
  1.65            2.3838e-009     8.553e-009      5.464e-010     
  1.7             8.159e-010      1.4665e-008     -2.0119e-009   
  1.75            -9.913e-010     -2.2201e-008    2.6711e-009    
  1.8             1.0421e-009     1.918e-008      -1.6685e-009   
END_DB

BEGIN_DB
 ICCAP_VAR VG         0.36           
 ICCAP_VAR VS         0              
 ICCAP_VAR VB         -0.9           

 #VD              ID              IB              IG             
  0               -1.0841e-009    -9.928e-009     -1.2007e-009   
  0.05            2.274e-010      9.523e-009      -2.6068e-009   
  0.1             -1.2688e-009    -2.0401e-008    2.3732e-009    
  0.15            2.3068e-009     -6.437e-009     1.1613e-009    
  0.2             5.594e-010      1.0728e-008     -2.381e-009    
  0.25            -1.8512e-009    1.937e-009      -1.023e-010    
  0.3             -1.0501e-009    -2.2145e-008    2.654e-009     
  0.35            9.836e-010      1.9258e-008     -1.6283e-009   
  0.4             -1.795e-009     -4.552e-009     -1.02e-011     
  0.45            -9.849e-010     -2.1712e-008    2.6951e-009    
  0.5             2.4397e-009     -4.018e-009     8.566e-010     
  0.55            1.8361e-009     1.3019e-008     -1.5361e-009   
