! VERSION = 6.00
BEGIN_HEADER
 ICCAP_INPUTS
  VG         V  B GROUND SMU4 0.001 LIN        2    0          1.8        6    0.36      
  VS         V  E GROUND SMU2 0.1 CON        0
  VD         V  S GROUND SMU1 0.1 LIN        1    0          1.8        37   0.05      
  VB         V  C GROUND SMU3 0.1 LIN        3    0          -0.9       2    -0.9      
 ICCAP_OUTPUTS
  ID         I  S GROUND SMU1 B
  IB         I  C GROUND SMU3 B
  IG         I  B GROUND SMU4 B
END_HEADER

BEGIN_DB
 ICCAP_VAR VG         0              
 ICCAP_VAR VS         0              
 ICCAP_VAR VB         0              

 #VD              ID              IB              IG             
  0               -1.1586e-009    8.96e-009       -1.249e-009    
  0.05            -1.9483e-009    9.976e-009      -1.2212e-009   
  0.1             -1.1753e-009    -2.265e-008     2.684e-009     
  0.15            8.313e-010      2.0593e-008     -1.6114e-009   
  0.2             -2.1553e-009    5.318e-009      -7.057e-010    
  0.25            -1.5245e-009    -1.565e-008     2.0307e-009    
  0.3             2.1603e-009     -8.47e-009      5.195e-010     
  0.35            5.759e-010      1.4518e-008     -2.1364e-009   
  0.4             -1.0815e-009    -2.22e-008      2.7523e-009    
  0.45            7.432e-010      1.8033e-008     -1.7967e-009   
  0.5             -2.118e-009     -5.121e-009     -9.896e-010    
  0.55            -9.915e-010     -2.1167e-008    2.7751e-009    
  0.6             2.2327e-009     -2.727e-009     7.579e-010     
  0.65            7.651e-010      1.8538e-008     -1.7404e-009   
  0.7             -2.1067e-009    -4.907e-009     -1.0208e-009   
  0.75            -1.0145e-009    -2.1427e-008    2.7699e-009    
  0.8             2.2406e-009     -3.121e-009     7.914e-010     
  0.85            1.5676e-009     1.4841e-008     -1.6968e-009   
  0.9             -2.093e-009     -4.738e-009     -1.0434e-009   
  0.95            -1.0345e-009    -2.174e-008     2.7741e-009    
  1               2.2432e-009     -3.262e-009     8.143e-010     
  1.05            1.591e-009      1.4118e-008     -1.6497e-009   
  1.1             -2.0756e-009    -4.444e-009     -1.0728e-009   
  1.15            -1.0593e-009    -2.2024e-008    2.7639e-009    
  1.2             2.2462e-009     -3.412e-009     8.452e-010     
  1.25            1.6149e-009     1.353e-008      -1.6096e-009   
  1.3             -2.1526e-009    5.084e-009      -7e-010        
  1.35            -1.518e-009     -1.5594e-008    2.042e-009     
  1.4             2.1522e-009     -8.348e-009     5.122e-010     
  1.45            5.719e-010      1.4074e-008     -2.1377e-009   
  1.5             -1.0743e-009    -2.2169e-008    2.7549e-009    
  1.55            7.334e-010      1.7739e-008     -1.8073e-009   
  1.6             -2.1213e-009    -5.227e-009     -9.838e-010    
  1.65            -9.836e-010     -2.1017e-008    1.4858e-009    
  1.7             2.2441e-009     -1.0048e-008    8.582e-010     
  1.75            1.6311e-009     1.3265e-008     -1.5981e-009   
  1.8             -2.155e-009     5.453e-009      -7.171e-010    
END_DB

BEGIN_DB
 ICCAP_VAR VG         0.36           
 ICCAP_VAR VS         0              
 ICCAP_VAR VB         0              

 #VD              ID              IB              IG             
  0               -1.0236e-009    -1.089e-008     -1.1406e-009   
  0.05            7.611e-010      1.1368e-008     -2.422e-009    
  0.1             -1.5537e-009    1.889e-009      -8.79e-011     
  0.15            -6.869e-010     -2.242e-008     2.7197e-009    
  0.2             1.2759e-009     1.9196e-008     -1.7015e-009   
  0.25            -1.4109e-009    -4.727e-009     3.66e-011      
  0.3             -5.357e-010     -2.1582e-008    2.7657e-009    
  0.35            1.8173e-009     -3.248e-009     1.8153e-009    
  0.4             2.6859e-009     9.106e-009      4.991e-010     
  0.45            1.1441e-009     1.3898e-008     -2.1734e-009   
  0.5             -4.904e-010     -2.1965e-008    2.7652e-009    
  0.55            1.8471e-009     -3.553e-009     1.8437e-009    
  0.6             2.774e-009      8.857e-009      5.332e-010     
  0.65            1.2522e-009     1.4552e-008     -2.1086e-009   
  0.7             -4.381e-010     -2.2231e-008    2.7471e-009    
  0.75            1.449e-009      1.8207e-008     -1.7626e-009   
  0.8             -1.1656e-009    -5.002e-009     7.4e-011       
  0.85            -2.91e-010      -2.1448e-008    2.7791e-009    
  0.9             2.0795e-009     -3.009e-009     1.7576e-009    
  0.95            2.8785e-009     9.29e-009       4.384e-010     
  1               1.33e-009       1.2821e-008     -2.243e-009    
  1.05            1.5351e-009     -2.1796e-008    2.7755e-009    
  1.1             2.1252e-009     -3.196e-009     1.7919e-009    
  1.15            2.983e-009      9.133e-009      4.786e-010     
  1.2             1.4504e-009     1.3492e-008     -2.1914e-009   
  1.25            1.6273e-009     -2.195e-008     2.767e-009     
  1.3             1.6265e-009     -3.43e-009      2.6883e-009    
  1.35            1.8026e-009     2.0367e-008     -1.6219e-009   
  1.4             5.996e-010      5.143e-009      -1.4305e-009   
  1.45            7.194e-010      6.685e-009      -1.3289e-009   
  1.5             8.465e-010      8.446e-009      -2.5969e-009   
  1.55            1.7892e-009     -2.172e-008     2.7705e-009    
  1.6             1.7927e-009     -3.292e-009     2.6988e-009    
  1.65            1.9909e-009     1.9797e-008     -1.6521e-009   
  1.7             1.8253e-009     -4.572e-009     2.5001e-009    
  1.75            1.822e-009      -5.811e-009     2.2718e-009    
  1.8             1.805e-009      -7.02e-009      2.0086e-009    
END_DB

BEGIN_DB
 ICCAP_VAR VG         0.72           
 ICCAP_VAR VS         0              
 ICCAP_VAR VB         0              

 #VD              ID              IB              IG             
  0               -3.1744e-010    -2.0402e-008    2.7511e-009    
  0.05            7.3013e-007     -6.067e-009     -1.775e-009    
  0.1             1.04574e-006    9.457e-009      2.0233e-009    
  0.15            1.2168e-006     2.4709e-008     2.7411e-009    
  0.2             1.3329e-006     -1.7685e-008    1.7679e-009    
  0.25            1.4125e-006     -1.7222e-008    1.7374e-009    
  0.3             1.4796e-006     -1.701e-008     1.7096e-009    
  0.35            1.5403e-006     -1.651e-008     1.6788e-009    
  0.4             1.5957e-006     -1.7977e-008    2.765e-009     
  0.45            1.6424e-006     -1.3593e-008    2.737e-009     
  0.5             1.7107e-006     -1.183e-008     2.6559e-009    
  0.55            1.7581e-006     -2.1288e-008    2.6405e-009    
  0.6             1.8264e-006     -2.1434e-008    2.6241e-009    
  0.65            1.8854e-006     -2.1508e-008    2.6057e-009    
  0.7             1.9437e-006     -2.1604e-008    2.5902e-009    
  0.75            1.9938e-006     -2.169e-008     2.5745e-009    
  0.8             2.0703e-006     -2.1837e-008    2.5537e-009    
  0.85            2.1319e-006     -2.2009e-008    2.5365e-009    
  0.9             2.1827e-006     -2.2079e-008    2.5148e-009    
  0.95            2.2634e-006     -2.2195e-008    2.4916e-009    
  1               2.3197e-006     -2.23e-008      2.47e-009      
  1.05            2.398e-006      -2.2297e-008    2.4448e-009    
  1.1             2.4708e-006     -2.2256e-008    2.4209e-009    
  1.15            2.5401e-006     -2.2441e-008    2.3952e-009    
  1.2             2.5971e-006     -2.2327e-008    2.3699e-009    
  1.25            2.6829e-006     -2.2309e-008    2.3417e-009    
  1.3             2.7637e-006     -2.2259e-008    2.3168e-009    
  1.35            2.8304e-006     -2.2144e-008    2.2899e-009    
  1.4             2.9059e-006     -2.2023e-008    2.2616e-009    
  1.45            2.9975e-006     -2.1977e-008    2.2408e-009    
  1.5             3.0558e-006     -2.1862e-008    2.21e-009      
  1.55            3.1553e-006     -2.1848e-008    2.1697e-009    
  1.6             3.2508e-006     -2.196e-008     2.1504e-009    
  1.65            3.335e-006      -2.2046e-008    2.12e-009      
  1.7             3.4591e-006     -2.2293e-008    2.0881e-009    
  1.75            3.5794e-006     -1.2353e-008    -3.225e-010    
  1.8             3.7148e-006     8.679e-009      -2.0705e-009   
END_DB

BEGIN_DB
 ICCAP_VAR VG         1.08           
 ICCAP_VAR VS         0              
 ICCAP_VAR VB         0              

 #VD              ID              IB              IG             
  0               2.1655e-008     1.0582e-008     9.743e-010     
  0.05            9.302e-006      -9.925e-009     -1.2452e-009   
  0.1             1.6656e-005     8.413e-009      2.7237e-009    
  0.15            2.2252e-005     -2.2362e-008    2.2983e-009    
  0.2             2.6311e-005     -1.6049e-008    1.6623e-009    
  0.25            2.9125e-005     -2.2105e-008    2.5837e-009    
  0.3             3.1187e-005     -2.0082e-008    2.0039e-009    
  0.35            3.2612e-005     -1.2939e-008    2.7429e-009    
  0.4             3.3722e-005     -2.2572e-008    2.3537e-009    
  0.45            3.4656e-005     -1.6864e-008    1.711e-009     
  0.5             3.5359e-005     -2.1895e-008    2.6178e-009    
  0.55            3.6068e-005     -2.0691e-008    2.0606e-009    
  0.6             3.6751e-005     -9.905e-009     -7.38e-010     
  0.65            3.7425e-005     8.26e-009       -2.6649e-009   
  0.7             3.7936e-005     1.1817e-008     -1.3221e-009   
  0.75            3.8507e-005     1.3201e-008     -1.7942e-009   
  0.8             3.8907e-005     8.917e-009      7.826e-010     
  0.85            3.9284e-005     -2.1991e-008    2.6328e-009    
  0.9             3.981e-005      -2.099e-008     2.0904e-009    
  0.95            4.0365e-005     -9.951e-009     -7.256e-010    
  1               4.0939e-005     7.986e-009      -2.6611e-009   
  1.05            4.137e-005      1.211e-008      -1.3292e-009   
  1.1             4.1851e-005     1.3012e-008     -1.8113e-009   
  1.15            4.2202e-005     8.938e-009      7.686e-010     
  1.2             4.2511e-005     -2.1816e-008    2.6454e-009    
  1.25            4.3023e-005     -2.1173e-008    2.1104e-009    
  1.3             4.3539e-005     -1.0053e-008    -7.076e-010    
  1.35            4.4088e-005     7.617e-009      -2.6585e-009   
  1.4             4.449e-005      1.2008e-008     -1.3353e-009   
  1.45            4.4975e-005     1.2154e-008     -1.8322e-009   
  1.5             4.5282e-005     7.975e-009      7.564e-010     
  1.55            4.558e-005      -2.339e-008     2.6588e-009    
  1.6             4.6054e-005     -1.3336e-008    -2.66e-010     
  1.65            4.6664e-005     1.1967e-008     -1.5819e-009   
  1.7             4.7323e-005     3.08e-009       -2.3013e-009   
  1.75            4.7519e-005     -1.61e-010      -2.6658e-009   
  1.8             4.8096e-005     -3.505e-009     -2.2484e-009   
END_DB

BEGIN_DB
 ICCAP_VAR VG         1.44           
 ICCAP_VAR VS         0              
 ICCAP_VAR VB         0              

 #VD              ID              IB              IG             
  0               3.921e-008      8.595e-009      5.166e-010     
  0.05            1.6967e-005     -1.6154e-008    7.656e-010     
  0.1             3.2439e-005     -2.1814e-008    2.6405e-009    
  0.15            4.6127e-005     -2.0845e-008    2.1069e-009    
  0.2             5.7809e-005     -1.9466e-008    2.7637e-009    
  0.25            6.7524e-005     -2.2551e-008    2.4302e-009    
  0.3             7.5371e-005     -1.7876e-008    1.8026e-009    
  0.35            8.1489e-005     -2.1554e-008    2.6654e-009    
  0.4             8.6298e-005     -2.1177e-008    2.1461e-009    
  0.45            9.0032e-005     -1.002e-008     -6.816e-010    
  0.5             9.3009e-005     7.536e-009      -2.6524e-009   
  0.55            9.5239e-005     1.2747e-008     -1.3469e-009   
  0.6             9.7101e-005     1.2353e-008     -1.86e-009     
  0.65            9.8494e-005     9.079e-009      7.363e-010     
  0.7             9.9623e-005     -2.1565e-008    2.6716e-009    
  0.75            0.000100795     -1.522e-008     1.9458e-009    
  0.8             0.000101753     -2.0675e-008    2.7261e-009    
  0.85            0.000102744     -2.2237e-008    2.3026e-009    
  0.9             0.000103628     -1.6051e-008    1.6667e-009    
  0.95            0.000104424     -2.2087e-008    2.5761e-009    
  1               0.000105274     -1.6005e-008    1.7977e-009    
  1.05            0.000106014     -2.1604e-008    2.6582e-009    
  1.1             0.000106814     -2.1244e-008    2.1391e-009    
  1.15            0.000107629     -1.0024e-008    -6.9e-010      
  1.2             0.000108455     7.655e-009      -2.6475e-009   
  1.25            0.000109176     9.541e-009      -2.5576e-009   
  1.3             0.000109834     1.2202e-008     -1.8578e-009   
  1.35            0.000110518     9.14e-009       -2.5183e-009   
  1.4             0.00011115      1.276e-008      -1.7941e-009   
  1.45            0.000111853     8.727e-009      -2.4827e-009   
  1.5             0.000112425     1.3013e-008     -1.7348e-009   
  1.55            0.000113113     7.78e-009       -2.4367e-009   
  1.6             0.000113699     1.2367e-008     -1.6846e-009   
  1.65            0.00011405      5.425e-009      2.6118e-009    
  1.7             0.00011479      -1.5203e-008    -8.601e-010    
  1.75            0.00011549      -1.757e-009     -2.6412e-009   
  1.8             0.00011598      -1.7351e-008    -2.6782e-009   
END_DB

BEGIN_DB
 ICCAP_VAR VG         1.8            
 ICCAP_VAR VS         0              
 ICCAP_VAR VB         0              

 #VD              ID              IB              IG             
  0               4.4861e-008     8.065e-009      3.57e-010      
  0.05            2.1557e-005     -1.7887e-008    9.72e-010      
  0.1             4.2074e-005     -2.2363e-008    2.3784e-009    
  0.15            6.1179e-005     -1.7294e-008    1.7429e-009    
  0.2             7.8669e-005     -2.1642e-008    2.6252e-009    
  0.25            9.4379e-005     -1.591e-008     1.8757e-009    
  0.3             0.000108142     -2.0831e-008    2.69e-009      
  0.35            0.00012017      -2.2353e-008    -1.1773e-009   
  0.4             0.00013027      9.721e-009      -2.6309e-009   
  0.45            0.00013873      9.097e-009      -2.4535e-009   
  0.5             0.0001456       9.648e-009      8.39e-011      
  0.55            0.0001511       -1.4577e-008    2.4465e-009    
  0.6             0.00015571      -2.1931e-008    2.2363e-009    
  0.65            0.00015946      -2.0093e-008    1.9855e-009    
  0.7             0.0001625       -1.7504e-008    1.7574e-009    
  0.75            0.00016498      -1.467e-008     2.7628e-009    
  0.8             0.00016709      -2.0618e-008    2.7061e-009    
  0.85            0.00016886      -2.177e-008     2.5942e-009    
  0.9             0.00017052      -2.2539e-008    2.4258e-009    
  0.95            0.00017195      -2.1762e-008    2.198e-009     
  1               0.00017325      -1.9827e-008    1.9696e-009    
  1.05            0.00017445      -1.7253e-008    1.7317e-009    
  1.1             0.00017551      -1.9036e-008    2.7583e-009    
  1.15            0.00017657      -2.0696e-008    2.6978e-009    
  1.2             0.00017754      -2.1822e-008    2.5765e-009    
  1.25            0.00017855      -2.2535e-008    2.3995e-009    
  1.3             0.00017948      -1.5591e-008    1.9706e-009    
  1.35            0.0001804       -1.7421e-008    1.738e-009     
  1.4             0.00018131      -1.0195e-008    -6.972e-010    
  1.45            0.0001823       1.8673e-008     -1.4408e-009   
  1.5             0.000183        8.184e-009      8.346e-010     
  1.55            0.00018363      -2.0511e-008    2.7503e-009    
  1.6             0.00018443      -1.2411e-008    1.28e-010      
  1.65            0.00018551      6.668e-009      -2.5116e-009   
  1.7             0.00018627      6.61e-009       -2.1928e-009   
  1.75            0.000187        8.04e-009       -1.7732e-009   
  1.8             0.00018776      5.99e-010       -2.6264e-009   
END_DB

BEGIN_DB
 ICCAP_VAR VG         0              
 ICCAP_VAR VS         0              
 ICCAP_VAR VB         -0.9           

 #VD              ID              IB              IG             
  0               -1.2716e-009    9.298e-009      -1.2872e-009   
  0.05            -2.0697e-009    9.319e-009      -1.0741e-009   
  0.1             -1.0593e-009    -2.2015e-008    2.7713e-009    
  0.15            2.2528e-009     -3.493e-009     8.511e-010     
  0.2             8.375e-010      2.1026e-008     -1.5859e-009   
  0.25            -2.0356e-009    -4.413e-009     -1.1143e-009   
  0.3             -1.0955e-009    -2.2207e-008    2.7504e-009    
  0.35            7.645e-010      1.8769e-008     -1.7452e-009   
  0.4             -2.1025e-009    -4.85e-009      -1.0182e-009   
  0.45            -1.015e-009     -2.1624e-008    2.7784e-009    
  0.5             2.2479e-009     -3.138e-009     8.016e-010     
  0.55            7.957e-010      1.9658e-008     -1.6738e-009   
  0.6             -2.0764e-009    -4.572e-009     -1.0583e-009   
  0.65            -1.0513e-009    -2.187e-008     2.7708e-009    
  0.7             2.2535e-009     -3.342e-009     8.382e-010     
  0.75            8.289e-010      2.0655e-008     -1.616e-009    
  0.8             -2.0466e-009    -4.423e-009     -1.0971e-009   
  0.85            -1.0855e-009    -2.2202e-008    2.7594e-009    
  0.9             7.498e-010      1.8163e-008     -1.7711e-009   
  0.95            -2.1068e-009    -5.088e-009     -1.0048e-009   
  1               -1.0034e-009    -2.1461e-008    2.7871e-009    
  1.05            2.2436e-009     -2.998e-009     7.771e-010     
  1.1             1.5562e-009     1.5005e-008     -1.7112e-009   
  1.15            -2.0936e-009    -4.725e-009     -1.0367e-009   
  1.2             -1.0346e-009    -2.1747e-008    2.7779e-009    
  1.25            2.2486e-009     -3.268e-009     8.209e-010     
  1.3             1.5893e-009     1.4005e-008     -1.6447e-009   
  1.35            -2.0672e-009    -4.56e-009      -1.0773e-009   
  1.4             -1.0618e-009    -2.2051e-008    2.7659e-009    
  1.45            2.2532e-009     -3.568e-009     8.563e-010     
  1.5             6e-011          9.84e-009       -2.6769e-009   
  1.55            -1.3489e-009    -2.0486e-008    2.445e-009     
  1.6             2.041e-009      -6.081e-009     2.503e-010     
  1.65            3.596e-010      1.0525e-008     -2.4723e-009   
  1.7             -2.1062e-009    1.775e-009      -1.0197e-009   
  1.75            -1.0188e-009    -2.1594e-008    2.7836e-009    
  1.8             2.2475e-009     -3.164e-009     7.971e-010     
END_DB

BEGIN_DB
 ICCAP_VAR VG         0.36           
 ICCAP_VAR VS         0              
 ICCAP_VAR VB         -0.9           

 #VD              ID              IB              IG             
  0               7.989e-010      1.5871e-008     8.923e-010     
  0.05            -9.88e-010      -2.1051e-008    2.7703e-009    
  0.1             2.2343e-009     -2.833e-009     7.626e-010     
  0.15            7.718e-010      1.8551e-008     -1.7462e-009   
  0.2             -2.0858e-009    -4.849e-009     -1.0259e-009   
  0.25            -1.0157e-009    -2.1358e-008    2.7652e-009    
  0.3             2.2419e-009     -3.057e-009     8.063e-010     
  0.35            1.5843e-009     1.4663e-008     -1.6799e-009   
  0.4             -2.0671e-009    -4.671e-009     -1.0628e-009   
  0.45            -1.0466e-009    -2.163e-008     2.7596e-009    
  0.5             2.2468e-009     -3.358e-009     8.454e-010     
  0.55            1.6234e-009     1.3672e-008     -1.6202e-009   
