! VERSION = 6.00
BEGIN_HEADER
 ICCAP_INPUTS
  VG         V  B GROUND SMU4 0.001 LIN        2    0          1.8        6    0.36      
  VS         V  E GROUND SMU2 0.1 CON        0
  VD         V  S GROUND SMU1 0.1 LIN        1    0          1.8        37   0.05      
  VB         V  C GROUND SMU3 0.1 CON        0
 ICCAP_OUTPUTS
  ID         I  S GROUND SMU1 B
  IG         I  B GROUND SMU4 B
END_HEADER

BEGIN_DB
 ICCAP_VAR VG         0              
 ICCAP_VAR VS         0              
 ICCAP_VAR VB         0              

 #VD              ID              IG             
  0               9.779e-011      -2.7068e-010   
  0.05            1.8092e-010     -3.3116e-010   
  0.1             2.3956e-010     -1.9501e-010   
  0.15            4.2689e-010     3.3949e-010    
  0.2             6.744e-010      2.474e-010     
  0.25            7.0987e-010     -3.2716e-010   
  0.3             6.1104e-010     -3.0016e-010   
  0.35            7.1361e-010     2.916e-010     
  0.4             9.6667e-010     3.2775e-010    
  0.45            7.801e-010      -1.2644e-010   
  0.5             1.0916e-009     2.3258e-010    
  0.55            1.2577e-009     2.744e-010     
  0.6             1.4799e-009     3.2027e-010    
  0.65            1.7093e-009     3.3969e-010    
  0.7             2.0264e-009     3.2849e-010    
  0.75            2.3817e-009     2.9314e-010    
  0.8             2.7948e-009     -3.3045e-010   
  0.85            3.1473e-009     -3.3911e-010   
  0.9             3.6717e-009     -3.2253e-010   
  0.95            4.3701e-009     -2.7692e-010   
  1               5.3491e-009     3.3667e-010    
  1.05            6.4614e-009     3.3521e-010    
  1.1             7.6465e-009     3.1033e-010    
  1.15            8.9769e-009     2.5575e-010    
  1.2             1.06466e-008    -2.4696e-010   
  1.25            1.2016e-008     -6.354e-011    
  1.3             1.4561e-008     -3.1787e-010   
  1.35            1.6739e-008     -3.3968e-010   
  1.4             1.9569e-008     -2.9821e-010   
  1.45            2.231e-008      -2.3293e-010   
  1.5             2.5626e-008     -2.7775e-010   
  1.55            2.9195e-008     -3.2532e-010   
  1.6             3.3203e-008     -2.5832e-010   
  1.65            3.8106e-008     -3.0779e-010   
  1.7             4.3264e-008     -2.411e-010    
  1.75            4.8841e-008     -2.8919e-010   
  1.8             5.5049e-008     -2.2739e-010   
END_DB

BEGIN_DB
 ICCAP_VAR VG         0.36           
 ICCAP_VAR VS         0              
 ICCAP_VAR VB         0              

 #VD              ID              IG             
  0               -4.6771e-008    2.491e-011     
  0.05            3.1342e-007     -8.58e-011     
  0.1             4.2486e-007     -3.3909e-010   
  0.15            4.8667e-007     -2.4855e-010   
  0.2             5.3684e-007     -2.5888e-010   
  0.25            5.9552e-007     -2.6873e-010   
  0.3             6.4386e-007     -2.7788e-010   
  0.35            7.0214e-007     -2.8938e-010   
  0.4             7.6289e-007     -2.9829e-010   
  0.45            8.2538e-007     -3.0891e-010   
  0.5             8.7746e-007     -3.1762e-010   
  0.55            9.5906e-007     -3.2548e-010   
  0.6             1.01492e-006    -2.2777e-010   
  0.65            1.08534e-006    -2.3601e-010   
  0.7             1.1616e-006     6.247e-011     
  0.75            1.2371e-006     3.2763e-010    
  0.8             1.3317e-006     3.2012e-010    
  0.85            1.4169e-006     2.3202e-010    
  0.9             1.479e-006      2.5024e-010    
  0.95            1.5816e-006     2.7339e-010    
  1               1.6789e-006     2.9636e-010    
  1.05            1.7471e-006     3.1811e-010    
  1.1             1.8725e-006     2.3076e-010    
  1.15            1.9434e-006     2.502e-010     
  1.2             2.0714e-006     2.7066e-010    
  1.25            2.1491e-006     2.9499e-010    
  1.3             2.2507e-006     3.1665e-010    
  1.35            2.3393e-006     2.2895e-010    
  1.4             2.4475e-006     2.4824e-010    
  1.45            2.5698e-006     2.6963e-010    
  1.5             2.6733e-006     2.9281e-010    
  1.55            2.783e-006      3.1488e-010    
  1.6             2.9531e-006     2.2745e-010    
  1.65            3.0662e-006     2.4582e-010    
  1.7             3.1909e-006     2.6836e-010    
  1.75            3.2759e-006     2.9106e-010    
  1.8             3.3953e-006     3.1382e-010    
END_DB

BEGIN_DB
 ICCAP_VAR VG         0.72           
 ICCAP_VAR VS         0              
 ICCAP_VAR VB         0              

 #VD              ID              IG             
  0               -3.1223e-006    2.4591e-010    
  0.05            0.00064966      -1.3238e-010   
  0.1             0.00098988      -2.7875e-010   
  0.15            0.0011533       -2.7058e-010   
  0.2             0.0012405       -2.8202e-010   
  0.25            0.0012964       -2.9125e-010   
  0.3             0.0013233       -3.0177e-010   
  0.35            0.0013477       -3.1081e-010   
  0.4             0.0013728       -3.2064e-010   
  0.45            0.0013971       -3.2725e-010   
  0.5             0.001422        -2.3027e-010   
  0.55            0.0014476       -2.3755e-010   
  0.6             0.0014747       -2.4503e-010   
  0.65            0.0015031       -2.5479e-010   
  0.7             0.0015323       -2.6409e-010   
  0.75            0.0015634       -2.7433e-010   
  0.8             0.0015956       -2.8464e-010   
  0.85            0.001629        -2.9459e-010   
  0.9             0.0016638       -3.0502e-010   
  0.95            0.0016997       -3.1391e-010   
  1               0.0017378       -3.2282e-010   
  1.05            0.001776        -2.2509e-010   
  1.1             0.0018159       -2.3257e-010   
  1.15            0.0018576       -2.4005e-010   
  1.2             0.0019014       -2.4786e-010   
  1.25            0.0019476       -2.5742e-010   
  1.3             0.0019955       -2.671e-010    
  1.35            0.0020464       -2.7704e-010   
  1.4             0.0021005       -2.8795e-010   
  1.45            0.0021576       -2.9777e-010   
  1.5             0.0022179       -3.0674e-010   
  1.55            0.0022815       -3.1648e-010   
  1.6             0.0023492       -3.2391e-010   
  1.65            0.0024196       -2.2654e-010   
  1.7             0.0024931       -2.3426e-010   
  1.75            0.0025702       -2.4313e-010   
  1.8             0.0026506       -2.5282e-010   
END_DB

BEGIN_DB
 ICCAP_VAR VG         1.08           
 ICCAP_VAR VS         0              
 ICCAP_VAR VB         0              

 #VD              ID              IG             
  0               -5.9738e-006    -1.3985e-010   
  0.05            0.0016711       2.8636e-010    
  0.1             0.0032899       2.9618e-010    
  0.15            0.004823        3.0653e-010    
  0.2             0.0062458       3.1623e-010    
  0.25            0.007525        3.2455e-010    
  0.3             0.0086143       2.2668e-010    
  0.35            0.0094834       2.3314e-010    
  0.4             0.0101142       2.4066e-010    
  0.45            0.0105438       2.4996e-010    
  0.5             0.0108303       2.5859e-010    
  0.55            0.0110296       2.6791e-010    
  0.6             0.011181        2.7962e-010    
  0.65            0.0112208       2.8904e-010    
  0.7             0.0112459       2.989e-010     
  0.75            0.0112629       3.0884e-010    
  0.8             0.0112786       3.1802e-010    
  0.85            0.0112889       3.2688e-010    
  0.9             0.0112983       2.2839e-010    
  0.95            0.0113038       2.3538e-010    
  1               0.0113093       2.4298e-010    
  1.05            0.0113149       2.526e-010     
  1.1             0.0113187       2.6168e-010    
  1.15            0.0113223       2.7152e-010    
  1.2             0.0113255       2.8154e-010    
  1.25            0.0113304       2.927e-010     
  1.3             0.011337        3.0198e-010    
  1.35            0.0113459       3.1246e-010    
  1.4             0.0113578       3.2086e-010    
  1.45            0.0113734       3.2871e-010    
  1.5             0.0113968       2.2983e-010    
  1.55            0.011338        -3.3367e-010   
  1.6             0.011374        -2.9356e-010   
  1.65            0.011423        -3.0336e-010   
  1.7             0.011477        -3.1303e-010   
  1.75            0.011546        -3.2207e-010   
  1.8             0.011619        -3.2756e-010   
END_DB

BEGIN_DB
 ICCAP_VAR VG         1.44           
 ICCAP_VAR VS         0              
 ICCAP_VAR VB         0              

 #VD              ID              IG             
  0               -6.509e-006     7.958e-011     
  0.05            0.0018148       -3.3649e-010   
  0.1             0.0036227       -2.8553e-010   
  0.15            0.0054061       -2.9652e-010   
  0.2             0.0071658       -3.0526e-010   
  0.25            0.0088983       -3.1495e-010   
  0.3             0.0105914       -3.2331e-010   
  0.35            0.012255        3.3655e-010    
  0.4             0.013855        2.4438e-010    
  0.45            0.015393        2.53e-010      
  0.5             0.016855        2.6213e-010    
  0.55            0.018234        2.7141e-010    
  0.6             0.019498        2.8184e-010    
  0.65            0.02063         2.9158e-010    
  0.7             0.021605        3.0239e-010    
  0.75            0.0224          3.1195e-010    
  0.8             0.023016        3.2106e-010    
  0.85            0.023472        3.2862e-010    
  0.9             0.023803        2.3038e-010    
  0.95            0.024049        2.3876e-010    
  1               0.024236        2.463e-010     
  1.05            0.02439         2.5473e-010    
  1.1             0.024422        2.6562e-010    
  1.15            0.024452        2.7524e-010    
  1.2             0.024469        2.8465e-010    
  1.25            0.024485        2.9538e-010    
  1.3             0.024493        3.059e-010     
  1.35            0.024504        3.1541e-010    
  1.4             0.024506        3.2347e-010    
  1.45            0.024508        2.2587e-010    
  1.5             0.024505        2.3285e-010    
  1.55            0.024505        2.4074e-010    
  1.6             0.024507        2.4876e-010    
  1.65            0.024509        2.5722e-010    
  1.7             0.024508        2.6799e-010    
  1.75            0.024509        2.7755e-010    
  1.8             0.024516        2.8817e-010    
END_DB

BEGIN_DB
 ICCAP_VAR VG         1.8            
 ICCAP_VAR VS         0              
 ICCAP_VAR VB         0              

 #VD              ID              IG             
  0               -6.6997e-006    -3.3024e-010   
  0.05            0.0018634       2.6619e-010    
  0.1             0.0037286       2.7548e-010    
  0.15            0.0055804       2.8495e-010    
  0.2             0.0074193       2.9463e-010    
  0.25            0.0092455       3.0429e-010    
  0.3             0.0110527       3.1382e-010    
  0.35            0.012853        -3.2417e-010   
  0.4             0.014613        -2.2791e-010   
  0.45            0.016346        -2.3523e-010   
  0.5             0.018051        -2.4395e-010   
  0.55            0.019718        -2.5244e-010   
  0.6             0.021346        -2.6157e-010   
  0.65            0.022926        -2.714e-010    
  0.7             0.024468        -2.8147e-010   
  0.75            0.025957        -2.9217e-010   
  0.8             0.027385        -3.0265e-010   
  0.85            0.028743        -3.1151e-010   
  0.9             0.030036        -3.211e-010    
  0.95            0.031237        -3.2806e-010   
  1               0.032352        -2.3081e-010   
  1.05            0.03336         -2.389e-010    
  1.1             0.034236        -2.4701e-010   
  1.15            0.034992        -2.5592e-010   
  1.2             0.035594        -2.6512e-010   
  1.25            0.036061        -2.7527e-010   
  1.3             0.03642         -2.8504e-010   
  1.35            0.036689        -2.9587e-010   
  1.4             0.036907        -3.0549e-010   
  1.45            0.037083        -3.1478e-010   
  1.5             0.037225        -3.2368e-010   
  1.55            0.037305        -2.2642e-010   
  1.6             0.037342        -2.3326e-010   
  1.65            0.037369        -2.4061e-010   
  1.7             0.037387        -2.4869e-010   
  1.75            0.037409        -2.5744e-010   
  1.8             0.03743         -2.6737e-010   
END_DB

