! VERSION = 6.00
BEGIN_HEADER
 ICCAP_INPUTS
  VG         V  B GROUND SMU4 0.001 LIN        2    0          1.8        6    0.36      
  VS         V  E GROUND SMU2 0.1 CON        0
  VD         V  S GROUND SMU1 0.1 LIN        1    0          1.8        37   0.05      
  VB         V  C GROUND SMU3 0.1 LIN        3    0          -0.9       2    -0.9      
 ICCAP_OUTPUTS
  ID         I  S GROUND SMU1 B
  IB         I  C GROUND SMU3 B
  IG         I  B GROUND SMU4 B
END_HEADER

BEGIN_DB
 ICCAP_VAR VG         0              
 ICCAP_VAR VS         0              
 ICCAP_VAR VB         0              

 #VD              ID              IB              IG             
  0               4.757e-010      9.08e-009       3.532e-010     
  0.05            -8.098e-010     -1.8876e-008    1.8117e-009    
  0.1             1.6947e-009     -9.773e-009     1.5537e-009    
  0.15            1.9728e-009     1.1093e-008     -6.83e-011     
  0.2             9.699e-010      2.6013e-008     -1.4425e-009   
  0.25            -2.2127e-009    8.043e-009      -8.804e-010    
  0.3             -1.6681e-009    -1.2022e-008    1.602e-009     
  0.35            2.3159e-009     -9.845e-009     7.973e-010     
  0.4             2.3112e-009     8.414e-009      9.388e-010     
  0.45            1.7577e-009     1.1414e-008     -1.5096e-009   
  0.5             -1.3914e-009    6.864e-009      -1.7499e-009   
  0.55            -2.1634e-009    -1.1122e-008    -3.544e-010    
  0.6             -1.3597e-009    -2.1105e-008    1.2665e-009    
  0.65            5.28e-011       -1.1893e-008    2.8496e-009    
  0.7             2.291e-009      -1.97e-009      6.82e-010      
  0.75            2.321e-009      8.432e-009      8.351e-010     
  0.8             2.302e-009      8.6e-009        9.705e-010     
  0.85            1.7885e-009     1.1147e-008     -1.4755e-009   
  0.9             -2.2282e-009    7.421e-009      -8.303e-010    
  0.95            -1.642e-009     -1.2567e-008    1.6699e-009    
  1               2.3089e-009     -9.857e-009     7.428e-010     
  1.05            2.321e-009      8.41e-009       8.905e-010     
  1.1             2.273e-009      9.079e-009      1.0275e-009    
  1.15            2.1534e-009     1.0485e-008     1.1794e-009    
  1.2             1.9231e-009     1.0412e-008     -1.986e-010    
  1.25            8.779e-010      2.4415e-008     -1.5351e-009   
  1.3             -1.4214e-009    6.428e-009      -1.7222e-009   
  1.35            -2.1492e-009    -1.1172e-008    -3.084e-010    
  1.4             -1.333e-009     -2.1336e-008    1.2766e-009    
  1.45            2.0839e-009     -1.1487e-008    1.2441e-009    
  1.5             1.9526e-009     1.0521e-008     -1.362e-010    
  1.55            9.213e-010      2.5543e-008     -1.4823e-009   
  1.6             -2.2313e-009    7.419e-009      -8.237e-010    
  1.65            -1.6386e-009    -1.2609e-008    1.6854e-009    
  1.7             2.3127e-009     -9.889e-009     7.344e-010     
  1.75            2.3281e-009     8.546e-009      8.861e-010     
  1.8             2.2809e-009     8.667e-009      1.0244e-009    
END_DB

BEGIN_DB
 ICCAP_VAR VG         0.36           
 ICCAP_VAR VS         0              
 ICCAP_VAR VB         0              

 #VD              ID              IB              IG             
  0               -1.0718e-009    -1.484e-008     -1.1525e-009   
  0.05            7.53e-010       1.7855e-008     -1.9216e-009   
  0.1             -2.1177e-009    -6.491e-009     -9.187e-010    
  0.15            -8.438e-010     -2.1831e-008    1.5389e-009    
  0.2             1.5394e-009     -9.676e-009     1.7539e-009    
  0.25            2.2904e-009     1.0313e-008     3.895e-010     
  0.3             2.3703e-009     9.543e-009      5.74e-010      
  0.35            2.4226e-009     8.97e-009       7.454e-010     
  0.4             2.4396e-009     8.268e-009      8.941e-010     
  0.45            2.4016e-009     9.134e-009      1.0325e-009    
  0.5             2.2885e-009     1.0556e-008     1.1745e-009    
  0.55            2.0603e-009     1.0326e-008     -2.045e-010    
  0.6             1.0295e-009     2.382e-008      -1.5389e-009   
  0.65            -2.072e-009     6.228e-009      -7.597e-010    
  0.7             -1.4363e-009    -1.3394e-008    1.8095e-009    
  0.75            1.8732e-009     -9.74e-009      1.5523e-009    
  0.8             1.6449e-009     1.0986e-008     1.7262e-009    
  0.85            2.3631e-009     1.0504e-008     3.582e-010     
  0.9             2.4487e-009     9.568e-009      5.417e-010     
  0.95            2.5145e-009     8.983e-009      7.219e-010     
  1               1.794e-009      1.5788e-008     -1.2793e-009   
  1.05            4.938e-010      1.0232e-008     -2.6167e-009   
  1.1             -1.7098e-009    3.48e-010       9.48e-011      
  1.15            -1.8063e-009    -1.1273e-008    -9.78e-011     
  1.2             -1.858e-009     -1.1275e-008    -2.92e-010     
  1.25            -1.0216e-009    -2.1813e-008    1.277e-009     
  1.3             1.4408e-009     -1.144e-008     2.1974e-009    
  1.35            2.6497e-009     8.594e-009      8.556e-010     
  1.4             2.6444e-009     8.422e-009      9.925e-010     
  1.45            2.563e-009      9.102e-009      1.1331e-009    
  1.5             2.2962e-009     1.0345e-008     -1.3939e-009   
  1.55            1.892e-010      8.686e-009      -1.3587e-009   
  1.6             3.363e-010      9.748e-009      -1.3324e-009   
  1.65            5.006e-010      9.067e-009      -1.2991e-009   
  1.7             6.809e-010      9.208e-009      -2.6921e-009   
  1.75            -1.3548e-009    2.81e-010       1.803e-010     
  1.8             -3.937e-010     -2.1982e-008    1.5222e-009    
END_DB

BEGIN_DB
 ICCAP_VAR VG         0.72           
 ICCAP_VAR VS         0              
 ICCAP_VAR VB         0              

 #VD              ID              IB              IG             
  0               1.2836e-009     6.126e-009      -4.956e-010    
  0.05            7.7152e-007     -2.2033e-008    1.4964e-009    
  0.1             1.08347e-006    -1.7382e-008    1.7899e-009    
  0.15            1.2148e-006     1.1479e-008     1.4131e-009    
  0.2             1.2995e-006     -2.2381e-008    1.3339e-009    
  0.25            1.3869e-006     -9.864e-009     -9.214e-010    
  0.3             1.4604e-006     2.4782e-008     -1.4004e-009   
  0.35            1.4824e-006     9.122e-009      8.848e-010     
  0.4             1.5266e-006     -2.0502e-008    1.4332e-009    
  0.45            1.5828e-006     -1.2528e-008    1.417e-009     
  0.5             1.6315e-006     -2.2343e-008    1.3359e-009    
  0.55            1.6873e-006     -2.3419e-008    1.2865e-009    
  0.6             1.739e-006      -2.326e-008     1.2557e-009    
  0.65            1.8004e-006     -2.1503e-008    2.1306e-009    
  0.7             1.8587e-006     -2.1087e-008    2.083e-009     
  0.75            1.9126e-006     -2.0722e-008    2.0524e-009    
  0.8             1.9695e-006     -2.0317e-008    2.0126e-009    
  0.85            2.028e-006      -1.9943e-008    1.9744e-009    
  0.9             2.0837e-006     -1.1283e-008    -3.524e-010    
  0.95            2.1857e-006     1.2241e-008     -1.9762e-009   
  1               2.2372e-006     1.0387e-008     2.834e-010     
  1.05            2.2744e-006     -1.4758e-008    2.2836e-009    
  1.1             2.3278e-006     -2.2444e-008    1.2401e-009    
  1.15            2.3964e-006     -2.0206e-008    1.9943e-009    
  1.2             2.4565e-006     -1.9846e-008    1.9597e-009    
  1.25            2.5233e-006     -1.1297e-008    -3.714e-010    
  1.3             2.6356e-006     1.2379e-008     -1.9561e-009   
  1.35            2.6861e-006     1.0381e-008     2.95e-010      
  1.4             2.7208e-006     -1.4863e-008    2.2658e-009    
  1.45            2.7878e-006     -2.2454e-008    2.229e-009     
  1.5             2.8569e-006     -2.227e-008     2.1906e-009    
  1.55            2.9301e-006     -2.2075e-008    2.1483e-009    
  1.6             2.9986e-006     -2.1922e-008    2.1207e-009    
  1.65            3.0703e-006     -1.2281e-008    -2.625e-010    
  1.7             3.2001e-006     9.923e-009      -2.1016e-009   
  1.75            3.2709e-006     1.1623e-008     -1.8662e-009   
  1.8             3.3465e-006     1.3676e-008     -1.6716e-009   
END_DB

BEGIN_DB
 ICCAP_VAR VG         1.08           
 ICCAP_VAR VS         0              
 ICCAP_VAR VB         0              

 #VD              ID              IB              IG             
  0               2.4131e-008     -1.4512e-008    -1.1668e-009   
  0.05            1.0094e-005     -5.675e-009     2.6726e-009    
  0.1             1.8236e-005     -2.1266e-008    2.0961e-009    
  0.15            2.4451e-005     -1.097e-008     -6.852e-010    
  0.2             2.8987e-005     2.5481e-008     -1.3812e-009   
  0.25            3.1848e-005     8.671e-009      1.2608e-009    
  0.3             3.4039e-005     -1.7417e-008    1.7786e-009    
  0.35            3.5449e-005     -2.2625e-008    1.3156e-009    
  0.4             3.6546e-005     -1.9248e-008    1.9039e-009    
  0.45            3.7316e-005     -1.2642e-008    1.4172e-009    
  0.5             3.801e-005      -2.2389e-008    2.2478e-009    
  0.55            3.8676e-005     -1.125e-008     -5.947e-010    
  0.6             3.9346e-005     7.113e-009      -1.3505e-009   
  0.65            3.9505e-005     9.301e-009      1.4129e-009    
  0.7             4.0092e-005     -1.4497e-008    1.574e-009     
  0.75            4.0535e-005     -2.3462e-008    1.2715e-009    
  0.8             4.105e-005      -1.1228e-008    -4.148e-010    
  0.85            4.1653e-005     2.0975e-008     -1.4768e-009   
  0.9             4.1827e-005     8.828e-009      1.0442e-009    
  0.95            4.228e-005      -2.2025e-008    2.1949e-009    
  1               4.2775e-005     -1.1186e-008    -6.264e-010    
  1.05            4.3338e-005     2.488e-008      -1.3949e-009   
  1.1             4.3389e-005     8.481e-009      1.2073e-009    
  1.15            4.3914e-005     -1.8793e-008    1.8766e-009    
  1.2             4.4248e-005     -2.2204e-008    1.3389e-009    
  1.25            4.4705e-005     -2.035e-008     2.0035e-009    
  1.3             4.504e-005      -1.3229e-008    1.4651e-009    
  1.35            4.5438e-005     -2.3298e-008    2.3442e-009    
  1.4             4.5922e-005     -1.1594e-008    -5.299e-010    
  1.45            4.6468e-005     2.2695e-008     -1.4247e-009   
  1.5             4.6855e-005     1.2203e-008     -1.8919e-009   
  1.55            4.7261e-005     7.322e-009      -2.5795e-009   
  1.6             4.7617e-005     1.1626e-008     -1.8259e-009   
  1.65            4.8031e-005     4.765e-009      -2.5334e-009   
  1.7             4.8385e-005     8.814e-009      -1.7604e-009   
  1.75            4.88e-005       8e-012          -2.4764e-009   
  1.8             4.9047e-005     -1.8559e-008    -2.7206e-009   
END_DB

BEGIN_DB
 ICCAP_VAR VG         1.44           
 ICCAP_VAR VS         0              
 ICCAP_VAR VB         0              

 #VD              ID              IB              IG             
  0               4.2102e-008     9.152e-009      4.852e-010     
  0.05            1.8913e-005     -1.8604e-008    9.323e-010     
  0.1             3.6074e-005     -2.3396e-008    1.2652e-009    
  0.15            5.1117e-005     -1.1204e-008    -4.801e-010    
  0.2             6.3934e-005     2.2377e-008     -1.4481e-009   
  0.25            7.4285e-005     8.389e-009      1.0894e-009    
  0.3             8.2726e-005     -2.0976e-008    2.0873e-009    
  0.35            8.9399e-005     -1.0819e-008    -6.848e-010    
  0.4             9.4628e-005     2.5668e-008     -1.3848e-009   
  0.45            9.8216e-005     9.031e-009      1.2601e-009    
  0.5             0.000101322     -1.7307e-008    1.7782e-009    
  0.55            0.000103577     -2.2684e-008    1.3208e-009    
  0.6             0.000105495     -1.1483e-008    -2.426e-010    
  0.65            0.000107194     1.7757e-008     -1.6028e-009   
  0.7             0.000108484     2.6503e-008     -1.3647e-009   
  0.75            0.00010958      2.0216e-008     -1.6859e-009   
  0.8             0.000110368     9.189e-009      8.609e-010     
  0.85            0.000111148     -2.348e-008     1.2871e-009    
  0.9             0.000112095     -1.1272e-008    -3.759e-010    
  0.95            0.000113096     2.0351e-008     -1.4947e-009   
  1               0.000113576     8.8e-009        1.017e-009     
  1.05            0.00011458      -2.2297e-008    -1.6949e-009   
  1.1             0.00011522      1.0386e-008     6.189e-010     
  1.15            0.00011568      -1.7889e-008    1.5924e-009    
  1.2             0.00011637      -1.2852e-008    1.4528e-009    
  1.25            0.00011723      -1.0108e-008    -8.637e-010    
  1.3             0.00011793      2.5378e-008     -1.3887e-009   
  1.35            0.00011828      8.674e-009      1.0321e-009    
  1.4             0.00011891      -2.3724e-008    1.295e-009     
  1.45            0.00011954      -2.2481e-008    2.1756e-009    
  1.5             0.00012018      -1.2226e-008    -3.574e-010    
  1.55            0.00012102      1.3204e-008     -1.7739e-009   
  1.6             0.00012159      1.7614e-008     -1.4918e-009   
  1.65            0.00012225      4.844e-009      -2.4559e-009   
  1.7             0.00012279      5.058e-009      -2.0435e-009   
  1.75            0.00012339      -4.82e-010      -1.3074e-009   
  1.8             0.00012373      -5.526e-009     2.7167e-009    
END_DB

BEGIN_DB
 ICCAP_VAR VG         1.8            
 ICCAP_VAR VS         0              
 ICCAP_VAR VB         0              

 #VD              ID              IB              IG             
  0               5.7458e-008     1.8892e-008     6.052e-010     
  0.05            2.4812e-005     -1.6814e-008    7.843e-010     
  0.1             4.8221e-005     -2.255e-008     1.2993e-009    
  0.15            6.975e-005      -1.875e-008     1.8533e-009    
  0.2             8.9114e-005     -2.2076e-008    1.3262e-009    
  0.25            0.00010622      -2.0136e-008    1.9739e-009    
  0.3             0.00012105      -1.109e-008     -2.5908e-009   
  0.35            0.00013361      1.0225e-008     7.182e-010     
  0.4             0.00014404      -1.9084e-008    1.4908e-009    
  0.45            0.00015291      -1.0278e-008    -8.211e-010    
  0.5             0.00016013      7.602e-009      -1.3416e-009   
  0.55            0.00016568      8.445e-009      1.203e-009     
  0.6             0.00017042      -2.2834e-008    2.316e-009     
  0.65            0.00017433      -2.1043e-008    2.0623e-009    
  0.7             0.00017743      -1.8198e-008    1.8161e-009    
  0.75            0.00018011      -1.1235e-008    -6.135e-010    
  0.8             0.00018239      1.917e-008      -1.5243e-009   
  0.85            0.00018409      9.988e-009      7.85e-010      
  0.9             0.00018556      -2.0158e-008    1.4238e-009    
  0.95            0.00018722      -1.0056e-008    -8.787e-010    
  1               0.00018857      2.5217e-008     -1.3728e-009   
  1.05            0.00018944      8.652e-009      1.0515e-009    
  1.1             0.00019055      -2.3408e-008    1.2799e-009    
  1.15            0.00019162      -2.1828e-008    2.1424e-009    
  1.2             0.00019266      -1.128e-008     -3.967e-010    
  1.25            0.00019383      1.5646e-008     -1.7409e-009   
  1.3             0.00019466      1.0467e-008     6.025e-010     
  1.35            0.00019529      -1.7529e-008    1.6351e-009    
  1.4             0.00019631      -1.1179e-008    -7.25e-010     
  1.45            0.00019726      2.1523e-008     -1.4361e-009   
  1.5             0.00019787      8.787e-009      8.95e-010      
  1.55            0.00019848      -2.2806e-008    1.3482e-009    
  1.6             0.00019959      -1.1539e-008    -9.91e-010     
  1.65            0.00020038      5.679e-009      -1.3066e-009   
  1.7             0.00020109      1.3759e-008     -1.5416e-009   
  1.75            0.00020187      1.213e-009      -2.5364e-009   
  1.8             0.00020258      -3.95e-010      -2.1679e-009   
END_DB

BEGIN_DB
 ICCAP_VAR VG         0              
 ICCAP_VAR VS         0              
 ICCAP_VAR VB         -0.9           

 #VD              ID              IB              IG             
  0               1.0375e-009     8.644e-009      1.1266e-009    
  0.05            -5.884e-010     -1.6561e-008    2.3466e-009    
  0.1             2.0894e-009     -6.708e-009     1.2433e-009    
  0.15            1.8748e-009     1.1254e-008     1.4158e-009    
  0.2             2.0203e-009     1.0176e-008     3.77e-011      
  0.25            2.1119e-009     1.0361e-008     2.227e-010     
  0.3             2.1981e-009     1.0385e-008     4.196e-010     
  0.35            2.2706e-009     9.712e-009      6.095e-010     
  0.4             2.3074e-009     8.99e-009       7.771e-010     
  0.45            2.3001e-009     8.328e-009      9.279e-010     
  0.5             1.7525e-009     1.1716e-008     -1.5227e-009   
  0.55            -1.4111e-009    6.932e-009      -1.7443e-009   
  0.6             -2.1601e-009    -1.1212e-008    -3.456e-010    
  0.65            -1.3629e-009    -2.1047e-008    2.4658e-009    
  0.7             2.1649e-009     -5.867e-009     1.1641e-009    
  0.75            1.9141e-009     1.0232e-008     -2.043e-010    
  0.8             8.74e-010       2.3471e-008     -1.5484e-009   
  0.85            -1.4368e-009    6.545e-009      -1.7223e-009   
  0.9             -2.1491e-009    -1.1317e-008    -3.082e-010    
  0.95            -1.3422e-009    -2.1414e-008    2.5047e-009    
  1               2.1813e-009     -5.509e-009     1.1388e-009    
  1.05            1.8988e-009     1.0224e-008     -2.312e-010    
  1.1             8.531e-010      2.3132e-008     -1.5837e-009   
  1.15            -1.47e-009      6.314e-009      -1.6997e-009   
  1.2             -2.1412e-009    -1.1363e-008    -2.767e-010    
  1.25            -1.3203e-009    -2.1716e-008    1.271e-009     
  1.3             2.1026e-009     -1.1348e-008    1.2236e-009    
  1.35            1.9405e-009     1.028e-008      -1.49e-010     
  1.4             9.155e-010      2.4537e-008     -1.4916e-009   
  1.45            -2.2152e-009    7.466e-009      -8.197e-010    
  1.5             -1.6338e-009    -1.2896e-008    1.7029e-009    
  1.55            2.2983e-009     -9.975e-009     7.414e-010     
  1.6             2.3091e-009     8.414e-009      8.938e-010     
  1.65            2.2504e-009     8.609e-009      1.0349e-009    
  1.7             2.1285e-009     9.394e-009      1.1832e-009    
  1.75            1.9222e-009     1.0232e-008     -1.883e-010    
  1.8             8.861e-010      2.3961e-008     -1.5293e-009   
END_DB

BEGIN_DB
 ICCAP_VAR VG         0.36           
 ICCAP_VAR VS         0              
 ICCAP_VAR VB         -0.9           

 #VD              ID              IB              IG             
  0               4.971e-010      9.429e-009      2.4e-012       
  0.05            1.0275e-009     2.6198e-008     -1.4054e-009   
  0.1             -2.1731e-009    8.408e-009      -9.577e-010    
  0.15            -9.76e-010      -2.2028e-008    1.4946e-009    
  0.2             2.3117e-009     -9.749e-009     8.845e-010     
  0.25            2.2627e-009     8.939e-009      1.0276e-009    
  0.3             2.1402e-009     1.0305e-008     1.185e-009     
  0.35            1.9239e-009     1.0212e-008     -1.881e-010    
  0.4             8.882e-010      2.3822e-008     -1.5336e-009   
  0.45            -1.418e-009     6.859e-009      -1.7449e-009   
  0.5             -2.1578e-009    -1.1261e-008    -3.421e-010    
  0.55            -1.3625e-009    -2.1163e-008    2.4779e-009    
