! VERSION = 6.00
BEGIN_HEADER
 ICCAP_INPUTS
  VG         V  B GROUND SMU4 0.001 LIN        1    0          1.8        37   0.05      
  VS         V  E GROUND SMU3 0.1 CON        0
  VB         V  C GROUND SMU1 0.1 LIN        3    0          -1.8       3    -0.9      
  VD         V  S GROUND SMU2 0.1 LIN        2    0.1        1.8        2    1.7       
 ICCAP_OUTPUTS
  IG         I  B GROUND SMU4 B
  ID         I  S GROUND SMU2 B
  IB         I  C GROUND SMU1 B
END_HEADER

BEGIN_DB
 ICCAP_VAR VS         0              
 ICCAP_VAR VB         0              
 ICCAP_VAR VD         0.1            

 #VG              IG              ID              IB             
  0               3.071e-010      6.274e-010      8.28e-010      
  0.05            -2.4999e-009    7.657e-010      1.5489e-008    
  0.1             1.89e-010       -3.7183e-009    -1.0026e-008   
  0.15            1.3072e-009     5.18e-011       -9.211e-009    
  0.2             -1.3804e-009    2.7589e-009     2.4243e-008    
  0.25            1.3136e-009     -2.7723e-009    -2.2241e-008   
  0.3             -2.2222e-009    1.2004e-009     1.7619e-008    
  0.35            1.3152e-009     -2.2311e-009    -2.3731e-008   
  0.4             -1.3818e-009    4.2462e-009     2.6288e-008    
  0.45            1.784e-010      1.0796e-008     1.526e-008     
  0.5             1.8789e-009     3.0402e-008     -1.9582e-008   
  0.55            -1.3861e-009    1.2768e-007     1.0348e-008    
  0.6             2.159e-009      4.2733e-007     -2.2936e-008   
  0.65            -1.9919e-009    1.2547e-006     -1.017e-008    
  0.7             -7.727e-010     3.037e-006      -1.1753e-008   
  0.75            1.3148e-009     6.2918e-006     -8.431e-009    
  0.8             1.6632e-009     1.1521e-005     7.085e-009     
  0.85            9.408e-010      1.8706e-005     1.0645e-008    
  0.9             -1.3843e-009    2.7631e-005     2.5031e-008    
  0.95            1.9708e-009     3.7095e-005     -2.0813e-008   
  1               7.903e-010      4.7182e-005     1.1038e-008    
  1.05            -1.384e-009     5.7218e-005     8.136e-009     
  1.1             1.8169e-009     6.6453e-005     -1.8278e-008   
  1.15            8.603e-010      7.546e-005      1.0727e-008    
  1.2             -1.3814e-009    8.396e-005      8.458e-009     
  1.25            -5.732e-010     9.1595e-005     -1.1817e-008   
  1.3             1.5957e-009     9.8642e-005     -1.8938e-008   
  1.35            -2.3445e-009    0.000105412     1.3941e-008    
  1.4             1.9904e-009     0.000111372     -2.1024e-008   
  1.45            -2.7833e-009    0.00011706      -1.1167e-008   
  1.5             1.6303e-009     0.00012214      -1.5399e-008   
  1.55            9.614e-010      0.00012686      1.0543e-008    
  1.6             -1.383e-009     0.0001313       2.5154e-008    
  1.65            1.9252e-009     0.00013521      -2.012e-008    
  1.7             8.101e-010      0.00013899      1.1017e-008    
  1.75            -1.3838e-009    0.00014244      8.222e-009     
  1.8             -5.042e-010     0.00014554      -1.1569e-008   
END_DB

BEGIN_DB
 ICCAP_VAR VS         0              
 ICCAP_VAR VB         0              
 ICCAP_VAR VD         1.8            

 #VG              IG              ID              IB             
  0               4.295e-010      -9.38e-010      -5.309e-009    
  0.05            1.3175e-009     4.666e-010      -7.446e-009    
  0.1             8.988e-010      4.5164e-009     9.289e-009     
  0.15            -2.5431e-009    -2.1401e-009    5.052e-009     
  0.2             2.8786e-009     -2.133e-010     -1.2223e-008   
  0.25            -1.6456e-009    3.4729e-009     1.219e-008     
  0.3             -4.921e-010     -3.9758e-009    -1.1733e-008   
  0.35            2.5611e-009     6.16e-010       -1.777e-008    
  0.4             5.881e-010      1.151e-008      -1.1825e-008   
  0.45            2.429e-010      2.979e-008      -1.0981e-008   
  0.5             -2.1325e-009    1.3044e-007     2.3142e-008    
  0.55            1.415e-009      4.8891e-007     -2.1136e-008   
  0.6             -1.3846e-009    1.6277e-006     -1.381e-008    
  0.65            -1.4585e-009    4.3956e-006     -1.3606e-008   
  0.7             1.9503e-009     9.778e-006      -2.8475e-008   
  0.75            2.4777e-009     1.9018e-005     -1.7158e-008   
  0.8             5.089e-010      3.3034e-005     -8.902e-009    
  0.85            -1.5691e-009    5.1546e-005     -8.298e-009    
  0.9             -2.4309e-009    7.3439e-005     -4.2121e-008   
  0.95            -6.249e-010     9.9094e-005     -5.1114e-008   
  1               -1.7479e-009    0.00012797      -6.0656e-008   
  1.05            1.4786e-009     0.00015741      -5.8727e-008   
  1.1             2.5725e-009     0.00018997      -3.9622e-008   
  1.15            6.592e-010      0.00022376      -3.7123e-008   
  1.2             -1.4494e-009    0.00025891      -2.7448e-008   
  1.25            -2.5881e-009    0.00029386      -5.5578e-008   
  1.3             -8.035e-010     0.00033         -5.7752e-008   
  1.35            1.3909e-009     0.00036599      -6.5092e-008   
  1.4             2.6446e-009     0.00040327      -3.401e-008    
  1.45            7.705e-010      0.00044058      -2.8138e-008   
  1.5             -1.406e-009     0.00047865      -1.4365e-008   
  1.55            -2.6744e-009    0.00051553      -4.2598e-008   
  1.6             -8.996e-010     0.00055311      -4.3285e-008   
  1.65            1.3378e-009     0.00058987      -5.1691e-008   
  1.7             2.7149e-009     0.00062768      -1.8552e-008   
  1.75            8.687e-010      0.0006653       -1.4025e-008   
  1.8             -1.3854e-009    0.00070353      1.338e-009     
END_DB

BEGIN_DB
 ICCAP_VAR VS         0              
 ICCAP_VAR VB         -0.9           
 ICCAP_VAR VD         0.1            

 #VG              IG              ID              IB             
  0               9.755e-010      1.648e-009      -1.8956e-007   
  0.05            2.4174e-009     2.0647e-009     -1.9272e-007   
  0.1             1.915e-010      4.26e-009       -1.7729e-007   
  0.15            -2.3571e-009    9.628e-010      -1.5766e-007   
  0.2             -1.8282e-009    -2.6507e-009    -2.0771e-007   
  0.25            1.68e-009       -3.2731e-009    -1.9531e-007   
  0.3             2.2354e-009     2.0733e-009     -1.9075e-007   
  0.35            -3.19e-011      4.0498e-009     -1.7687e-007   
  0.4             -2.5835e-009    6.615e-010      -1.5879e-007   
  0.45            -1.655e-009     -3.0324e-009    -2.0678e-007   
  0.5             2.0651e-009     -2.4745e-009    -1.9817e-007   
  0.55            2.0401e-009     5.0779e-009     -1.8921e-007   
  0.6             -1.565e-010     1.6227e-008     -2.0797e-007   
  0.65            -2.4644e-009    5.9921e-008     -1.5944e-007   
  0.7             -2.203e-010     2.2634e-007     -1.6287e-007   
  0.75            -2.0919e-009    7.3091e-007     -2.0639e-007   
  0.8             2.1984e-009     1.9473e-006     -1.7421e-007   
  0.85            2.1914e-009     4.4302e-006     -1.8912e-007   
  0.9             1.861e-010      8.7183e-006     -1.769e-007    
  0.95            2.6721e-009     1.4885e-005     -1.9932e-007   
  1               8.058e-010      2.3015e-005     -1.7964e-007   
  1.05            -1.3976e-009    3.2563e-005     -1.5555e-007   
  1.1             -2.6943e-009    4.2518e-005     -2.0842e-007   
  1.15            -9.265e-010     5.2578e-005     -2.0226e-007   
  1.2             1.33e-009       6.211e-005      -2.0169e-007   
  1.25            2.7362e-009     7.1451e-005     -1.9247e-007   
  1.3             8.884e-010      8.0003e-005     -1.8082e-007   
  1.35            -1.3857e-009    8.8155e-005     -1.5473e-007   
  1.4             -2.736e-009     9.5394e-005     -2.0861e-007   
  1.45            -1.0122e-009    0.000102169     -2.0215e-007   
  1.5             1.3183e-009     0.000108214     -2.035e-007    
  1.55            2.7913e-009     0.000113948     -1.9298e-007   
  1.6             2.1737e-009     0.00011914      -1.8683e-007   
  1.65            2.2086e-009     0.00012393      -1.8945e-007   
  1.7             2.008e-010      0.00012838      -1.7708e-007   
  1.75            -1.9715e-009    0.00013235      -1.5805e-007   
  1.8             -2.1587e-009    0.00013603      -2.0705e-007   
END_DB

BEGIN_DB
 ICCAP_VAR VS         0              
 ICCAP_VAR VB         -0.9           
 ICCAP_VAR VD         1.8            

 #VG              IG              ID              IB             
  0               3.779e-010      -1.0732e-009    -1.7961e-007   
  0.05            2.903e-009      1.3e-011        -1.8153e-007   
  0.1             1.1657e-009     4.2771e-009     -1.8497e-007   
  0.15            -1.3874e-009    2.4712e-009     -1.5458e-007   
  0.2             -2.6329e-009    -2.1171e-009    -2.0826e-007   
  0.25            -5.756e-010     -4.3532e-009    -2.02e-007     
  0.3             2.0262e-009     -1.522e-009     -1.9528e-007   
  0.35            2.0583e-009     2.2527e-009     -1.9011e-007   
  0.4             -2.154e-010     4.109e-009      -1.7709e-007   
  0.45            -2.7002e-009    1.814e-009      -1.5996e-007   
  0.5             -1.4529e-009    3.513e-009      -2.0614e-007   
  0.55            2.4665e-009     3.4415e-008     -1.6008e-007   
  0.6             1.3141e-009     1.3895e-007     -1.9358e-007   
  0.65            1.8568e-009     5.3954e-007     -2.0215e-007   
  0.7             -1.3664e-009    1.8218e-006     -2.0438e-007   
  0.75            -2.7709e-009    4.8546e-006     -2.1039e-007   
  0.8             -1.3944e-009    1.10875e-005    -2.1167e-007   
  0.85            -2.7415e-009    2.1259e-005     -1.916e-007    
  0.9             -1.0205e-009    3.6261e-005     -2.2281e-007   
  0.95            1.3202e-009     5.5191e-005     -2.3061e-007   
  1               2.7932e-009     7.8802e-005     -2.2557e-007   
  1.05            9.784e-010      0.000105407     -2.1988e-007   
  1.1             5.482e-010      0.00013534      -1.9953e-007   
  1.15            -1.5362e-009    0.00016703      -2.0159e-007   
  1.2             -2.467e-009     0.00019976      -2.5324e-007   
  1.25            -6.585e-010     0.00023403      -2.4708e-007   
  1.3             1.5023e-009     0.00026888      -2.4158e-007   
  1.35            2.5534e-009     0.00030543      -2.3552e-007   
  1.4             6.302e-010      0.00034213      -2.2097e-007   
  1.45            -1.4715e-009    0.00037954      -1.9786e-007   
  1.5             -2.5444e-009    0.00041641      -2.466e-007    
  1.55            -7.504e-010     0.00045386      -2.3804e-007   
  1.6             1.4245e-009     0.0004908       -2.3172e-007   
  1.65            2.616e-009      0.00052893      -2.2302e-007   
  1.7             7.078e-010      0.0005668       -2.0795e-007   
  1.75            -1.4253e-009    0.00060496      -1.8291e-007   
  1.8             -2.6232e-009    0.00064187      -2.3325e-007   
END_DB

BEGIN_DB
 ICCAP_VAR VS         0              
 ICCAP_VAR VB         -1.8           
 ICCAP_VAR VD         0.1            

 #VG              IG              ID              IB             
  0               -2.7378e-009    -3.8792e-009    -2.0222e-007   
  0.05            -7.906e-010     -4.3313e-009    -2.054e-007    
  0.1             1.6776e-009     -1.8164e-009    -2.014e-007    
  0.15            2.2414e-009     2.0679e-009     -1.9423e-007   
  0.2             -3.09e-011      4.0402e-009     -1.8035e-007   
  0.25            -2.5825e-009    6.334e-010      -1.6187e-007   
  0.3             -1.6523e-009    -3.161e-009     -2.1083e-007   
  0.35            2.0848e-009     -3.0685e-009    -2.0167e-007   
  0.4             2.0306e-009     2.2284e-009     -1.9213e-007   
  0.45            -2.35e-010      3.7812e-009     -1.7924e-007   
  0.5             -2.7123e-009    3.382e-010      -1.6207e-007   
  0.55            -1.419e-009     -3.2957e-009    -2.0868e-007   
  0.6             1.3173e-009     -9.263e-010     -2.0609e-007   
  0.65            1.4089e-009     1.5677e-008     -1.8685e-007   
  0.7             -1.7726e-009    4.5846e-008     -1.6394e-007   
  0.75            -8.86e-010      1.6998e-007     -1.6163e-007   
  0.8             -2.7116e-009    5.8027e-007     -2.1109e-007   
  0.85            1.3732e-009     1.5691e-006     -1.8046e-007   
  0.9             2.6532e-009     3.6631e-006     -1.9552e-007   
  0.95            7.67e-010       7.3786e-006     -1.8268e-007   
  1               2.3462e-009     1.306e-005      -1.9797e-007   
  1.05            3.739e-010      2.0702e-005     -1.8066e-007   
  1.1             -1.7431e-009    2.9858e-005     -1.6077e-007   
  1.15            -2.2885e-009    3.9617e-005     -2.1053e-007   
  1.2             -4.55e-010      4.9681e-005     -2.0296e-007   
  1.25            1.7666e-009     5.9378e-005     -1.9679e-007   
  1.3             2.4079e-009     6.889e-005      -1.939e-007    
  1.35            4.465e-010      7.7648e-005     -1.8084e-007   
  1.4             -1.6425e-009    8.5789e-005     -1.6095e-007   
  1.45            -2.3626e-009    9.3147e-005     -2.105e-007    
  1.5             -5.427e-010     9.9966e-005     -2.0374e-007   
  1.55            1.6507e-009     0.000106103     -1.9742e-007   
  1.6             2.4722e-009     0.000111942     -1.9454e-007   
  1.65            -1.1171e-009    0.00011728      -2.0469e-007   
  1.7             1.3194e-009     0.00012193      -2.0777e-007   
  1.75            2.8454e-009     0.00012641      -1.9729e-007   
  1.8             1.0662e-009     0.00013045      -1.863e-007    
END_DB

BEGIN_DB
 ICCAP_VAR VS         0              
 ICCAP_VAR VB         -1.8           
 ICCAP_VAR VD         1.8            

 #VG              IG              ID              IB             
  0               -7.776e-010     4.259e-010      -2.0114e-007   
  0.05            -1.4262e-009    -7.27e-010      -1.7005e-007   
  0.1             -2.3633e-009    -2.1696e-009    -2.1076e-007   
  0.15            -2.486e-010     -4.2585e-009    -2.0379e-007   
  0.2             2.5034e-009     -1.132e-009     -1.9553e-007   
  0.25            1.7854e-009     2.722e-009      -1.8991e-007   
  0.3             -1.6227e-009    3.4206e-009     -1.7663e-007   
  0.35            -2.1494e-009    -2.1535e-009    -2.1053e-007   
  0.4             3.22e-011       -3.9139e-009    -2.0164e-007   
  0.45            2.7702e-009     -3.401e-010     -1.9253e-007   
  0.5             1.5449e-009     5.2583e-009     -1.8848e-007   
  0.55            2.5319e-009     1.1185e-008     -2.0467e-007   
  0.6             1.9979e-009     4.5369e-008     -1.8928e-007   
  0.65            1.5645e-009     1.7771e-007     -1.8235e-007   
  0.7             1.4236e-009     6.79e-007       -2.0146e-007   
  0.75            -1.3875e-009    2.1794e-006     -2.0607e-007   
  0.8             -2.7209e-009    5.6124e-006     -2.164e-007    
  0.85            -1.7784e-009    1.2378e-005     -1.9785e-007   
  0.9             -2.247e-009     2.3194e-005     -2.2509e-007   
  0.95            -4.024e-010     3.8816e-005     -2.2377e-007   
  1               1.8569e-009     5.8728e-005     -2.2396e-007   
  1.05            2.3615e-009     8.3143e-005     -2.2637e-007   
  1.1             3.857e-010      0.000110462     -2.1791e-007   
  1.15            4.024e-010      0.00014031      -2.0158e-007   
  1.2             -1.7039e-009    0.00017244      -2.0386e-007   
  1.25            -2.3098e-009    0.0002054       -2.5467e-007   
  1.3             -4.773e-010     0.00023992      -2.4758e-007   
  1.35            1.742e-009      0.00027513      -2.4081e-007   
  1.4             2.4201e-009     0.0003117       -2.3665e-007   
  1.45            4.537e-010      0.00034877      -2.219e-007    
  1.5             -1.6443e-009    0.00038605      -1.9997e-007   
  1.55            -2.3627e-009    0.00042291      -2.479e-007    
  1.6             -5.332e-010     0.00046034      -2.3859e-007   
  1.65            1.6694e-009     0.00049752      -2.3043e-007   
  1.7             2.4502e-009     0.00053562      -2.2421e-007   
  1.75            5.023e-010      0.00057351      -2.0879e-007   
  1.8             -1.591e-009     0.0006115       -1.8617e-007   
END_DB

