! VERSION = 6.00
BEGIN_HEADER
 ICCAP_INPUTS
  VG         V  B GROUND SMU4 0.001 LIN        1    0          1.8        37   0.05      
  VS         V  E GROUND SMU2 0.1 CON        0
  VB         V  C GROUND SMU3 0.1 LIN        3    0          -1.8       3    -0.9      
  VD         V  S GROUND SMU1 0.1 LIN        2    0.1        1.8        2    1.7       
 ICCAP_OUTPUTS
  IG         I  B GROUND SMU4 B
  ID         I  S GROUND SMU1 B
  IB         I  C GROUND SMU3 B
END_HEADER

BEGIN_DB
 ICCAP_VAR VS         0              
 ICCAP_VAR VB         0              
 ICCAP_VAR VD         0.1            

 #VG              IG              ID              IB             
  0               -7.929e-010     -8.157e-010     -2.6597e-008   
  0.05            -1.3115e-009    1.5731e-009     1.7191e-008    
  0.1             -2.6462e-009    2.369e-010      1.2141e-008    
  0.15            -1.0275e-009    -2.2847e-009    6.43e-010      
  0.2             -1.1861e-009    -2.1656e-009    -9.837e-009    
  0.25            2.797e-010      -1.8005e-009    -1.1881e-008   
  0.3             1.747e-009      -6.786e-010     -2.3931e-008   
  0.35            2.539e-009      2.0935e-009     -8.856e-009    
  0.4             2.981e-010      6.5114e-009     1.1444e-008    
  0.45            -1.8531e-009    1.5112e-008     -1.6354e-008   
  0.5             -1.4696e-009    5.1206e-008     4.181e-009     
  0.55            1.0458e-009     1.3949e-007     -1.6693e-008   
  0.6             1.4257e-009     3.151e-007      9.647e-009     
  0.65            3.36e-010       6.3704e-007     1.1535e-008    
  0.7             7.836e-010      1.10283e-006    1.0515e-008    
  0.75            -2.7626e-009    1.7306e-006     -2.6076e-008   
  0.8             1.2482e-009     2.487e-006      -2.0561e-008   
  0.85            2.5391e-009     3.3336e-006     -1.3882e-008   
  0.9             1.8026e-009     4.2456e-006     -3.318e-009    
  0.95            1.4007e-009     5.1758e-006     -8.83e-009     
  1               1.2788e-009     6.1156e-006     -8.626e-009    
  1.05            2.7215e-009     7.0554e-006     -1.2946e-008   
  1.1             6.287e-010      8.0078e-006     1.1259e-008    
  1.15            1.0098e-009     8.9024e-006     9.208e-009     
  1.2             -1.514e-010     9.8097e-006     1.2177e-008    
  1.25            -1.4333e-009    1.06874e-005    2.6785e-008    
  1.3             1.737e-009      1.1509e-005     6.356e-009     
  1.35            1.3751e-009     1.2329e-005     -8.801e-009    
  1.4             2.9233e-009     1.3106e-005     -8.9e-009      
  1.45            2.6235e-009     1.3874e-005     -5.28e-010     
  1.5             2.5017e-009     1.4593e-005     7.938e-009     
  1.55            5.006e-010      1.53e-005       1.153e-008     
  1.6             9.073e-010      1.595e-005      9.887e-009     
  1.65            -1.4474e-009    1.6582e-005     1.3051e-008    
  1.7             -1.3534e-009    1.7189e-005     1.0165e-008    
  1.75            -2.5932e-009    1.7763e-005     1.163e-008     
  1.8             -1.9688e-009    1.829e-005      1.17e-009      
END_DB

BEGIN_DB
 ICCAP_VAR VS         0              
 ICCAP_VAR VB         0              
 ICCAP_VAR VD         1.8            

 #VG              IG              ID              IB             
  0               1.0233e-009     9.308e-010      1.7543e-008    
  0.05            1.4776e-009     -1.0919e-009    -2.626e-008    
  0.1             9.624e-010      2.4008e-009     -8.343e-009    
  0.15            -1.5377e-009    1.8276e-009     1.229e-008     
  0.2             -1.8248e-009    -1.4102e-009    8.192e-009     
  0.25            -4.984e-010     -2.1549e-009    -1.1696e-008   
  0.3             1.3654e-009     -8.735e-010     -1.0363e-008   
  0.35            2.8466e-009     2.5978e-009     -8.747e-009    
  0.4             1.8027e-009     8.2949e-009     1.0238e-008    
  0.45            -1.321e-009     2.477e-008      -1.2122e-008   
  0.5             -2.4345e-009    7.8777e-008     1.2162e-008    
  0.55            1.523e-010      2.1086e-007     -8.521e-009    
  0.6             6.305e-010      4.8435e-007     1.103e-008     
  0.65            -1.6557e-009    9.9325e-007     1.9613e-008    
  0.7             -2.2105e-009    1.7781e-006     -1.5682e-008   
  0.75            -1.2766e-009    2.9552e-006     -1.0354e-008   
  0.8             -1.6942e-009    4.5022e-006     -1.2996e-008   
  0.85            -5.937e-010     6.3992e-006     -1.3544e-008   
  0.9             -9.957e-010     8.7759e-006     -1.1521e-008   
  0.95            2.7853e-009     1.1498e-005     -1.3276e-008   
  1               1.9432e-009     1.4589e-005     9.473e-009     
  1.05            -2.4768e-009    1.8174e-005     1.0485e-008    
  1.1             -1.8395e-009    2.1933e-005     2.09e-010      
  1.15            -1.446e-009     2.6047e-005     3.54e-009      
  1.2             -1.3548e-009    3.0431e-005     8.798e-009     
  1.25            -2.6185e-009    3.5073e-005     1.0562e-008    
  1.3             -2.0227e-009    3.988e-005      -1.72e-010     
  1.35            -1.5152e-009    4.4926e-005     2.873e-009     
  1.4             -1.3788e-009    5.0161e-005     7.963e-009     
  1.45            -2.7065e-009    5.5561e-005     1.1464e-008    
  1.5             -2.235e-009     6.1006e-005     2.2e-010       
  1.55            -1.6332e-009    6.6646e-005     2.054e-009     
  1.6             -1.4014e-009    7.2376e-005     6.499e-009     
  1.65            -1.3226e-009    7.8194e-005     1.1106e-008    
  1.7             -2.4362e-009    8.4068e-005     1.2008e-008    
  1.75            -1.7875e-009    8.9953e-005     1.807e-009     
  1.8             -1.4344e-009    9.5924e-005     5.207e-009     
END_DB

BEGIN_DB
 ICCAP_VAR VS         0              
 ICCAP_VAR VB         -0.9           
 ICCAP_VAR VD         0.1            

 #VG              IG              ID              IB             
  0               -7.486e-010     2.425e-010      1.0045e-008    
  0.05            -1.3074e-009    1.5926e-009     1.6742e-008    
  0.1             -2.6423e-009    2.457e-010      1.2349e-008    
  0.15            -1.0377e-009    -2.2847e-009    7.3e-010       
  0.2             -1.2017e-009    -2.171e-009     -1.0598e-008   
  0.25            1.4287e-009     -1.1513e-009    -2.6981e-008   
  0.3             1.0209e-009     2.39e-009       -8.494e-009    
  0.35            1.1668e-009     2.2636e-009     1.0592e-008    
  0.4             -1.425e-009     1.163e-009      2.8723e-008    
  0.45            -1.389e-009     7.1e-012        1.0898e-008    
  0.5             -1.3568e-009    1.0267e-009     1.2152e-008    
  0.55            -2.7536e-009    5.013e-009      1.1605e-008    
  0.6             2.3589e-009     1.8622e-008     9.193e-009     
  0.65            1.6521e-009     5.8334e-008     -4.746e-009    
  0.7             -9.51e-010      1.4927e-007     1.3163e-008    
  0.75            3.148e-010      3.2816e-007     -1.2116e-008   
  0.8             1.5091e-009     6.3386e-007     -2.2977e-008   
  0.85            1.3189e-009     1.09257e-006    -8.37e-009     
  0.9             2.9229e-009     1.7127e-006     2.7617e-008    
  0.95            2.5716e-009     2.4491e-006     -6.15e-010     
  1               1.8636e-009     3.2733e-006     -2.643e-009    
  1.05            1.4234e-009     4.1515e-006     -8.456e-009    
  1.1             1.2933e-009     5.0546e-006     -8.438e-009    
  1.15            2.7733e-009     5.963e-006      -1.2212e-008   
  1.2             5.767e-010      6.8966e-006     1.144e-008     
  1.25            -1.6913e-009    7.7993e-006     2.0456e-008    
  1.3             -1.4237e-009    8.6741e-006     5.531e-009     
  1.35            -1.3398e-009    9.5327e-006     1.0697e-008    
  1.4             -2.5249e-009    1.03677e-005    1.1772e-008    
  1.45            -1.8691e-009    1.11576e-005    1.248e-009     
  1.5             2.7712e-009     1.193e-005      -9.719e-009    
  1.55            5.601e-010      1.2677e-005     1.1484e-008    
  1.6             9.545e-010      1.3376e-005     9.629e-009     
  1.65            -2.169e-010     1.4057e-005     1.2482e-008    
  1.7             -1.4492e-009    1.4714e-005     2.5342e-008    
  1.75            -1.3592e-009    1.5324e-005     1.0258e-008    
  1.8             -2.614e-009     1.5912e-005     1.1901e-008    
END_DB

BEGIN_DB
 ICCAP_VAR VS         0              
 ICCAP_VAR VB         -0.9           
 ICCAP_VAR VD         1.8            

 #VG              IG              ID              IB             
  0               8.369e-010      8.406e-010      -1.1819e-008   
  0.05            1.2747e-009     -1.5528e-009    -1.8187e-008   
  0.1             2.8854e-009     -1.305e-010     -1.302e-008    
  0.15            -1.3342e-009    1.4948e-009     2.1557e-008    
  0.2             -2.7108e-009    1.325e-010      1.1682e-008    
  0.25            -1.9075e-009    -1.3406e-009    6.2e-010       
  0.3             -6.451e-010     -2.2691e-009    -1.1318e-008   
  0.35            -8.253e-010     -2.2812e-009    -1.029e-008    
  0.4             1.9623e-009     -1.5739e-009    -1.4487e-008   
  0.45            2.4792e-009     1.4437e-009     -8.483e-009    
  0.5             1.573e-010      3.852e-009      1.1285e-008    
  0.55            3.522e-010      9.7433e-009     1.1277e-008    
  0.6             -2.6388e-009    2.6859e-008     -2.6162e-008   
  0.65            -2.106e-009     8.5023e-008     5.35e-010      
  0.7             3.843e-010      2.2925e-007     -9.984e-009    
  0.75            8.227e-010      5.1381e-007     1.0054e-008    
  0.8             -1.4985e-009    1.03482e-006    1.4648e-008    
  0.85            -2.3877e-009    1.8409e-006     -1.7245e-008   
  0.9             -1.47e-009      3.0412e-006     -1.0503e-008   
  0.95            1.2738e-009     4.58e-006       -2.4466e-008   
  1               2.685e-009      6.5653e-006     -1.4231e-008   
  1.05            2e-009          8.9916e-006     -3.133e-009    
  1.1             -1.7084e-009    1.1885e-005     -9.91e-010     
  1.15            -1.4171e-009    1.508e-005      5.196e-009     
  1.2             -1.3356e-009    1.8644e-005     1.0036e-008    
  1.25            -2.5026e-009    2.2547e-005     1.1017e-008    
  1.3             -1.8824e-009    2.6682e-005     6.43e-010      
  1.35            -1.4687e-009    3.1139e-005     3.737e-009     
  1.4             -1.3625e-009    3.5824e-005     9.147e-009     
  1.45            -2.6441e-009    4.0731e-005     1.1143e-008    
  1.5             -2.1041e-009    4.5747e-005     1.4e-010       
  1.55            -1.5612e-009    5.1006e-005     2.578e-009     
  1.6             -1.3881e-009    5.6395e-005     7.614e-009     
  1.65            -2.7197e-009    6.192e-005      1.1473e-008    
  1.7             -1.3383e-009    6.7531e-005     -9.857e-009    
  1.75            -1.091e-010     7.3046e-005     -1.1916e-008   
  1.8             -6.518e-010     7.8837e-005     -1.2056e-008   
END_DB

BEGIN_DB
 ICCAP_VAR VS         0              
 ICCAP_VAR VB         -1.8           
 ICCAP_VAR VD         0.1            

 #VG              IG              ID              IB             
  0               -1.3635e-009    -1.2641e-009    1.0793e-008    
  0.05            -1.3305e-009    9.9e-012        1.1583e-008    
  0.1             -2.6806e-009    1.671e-010      1.2052e-008    
  0.15            -1.9339e-009    -1.3084e-009    5.59e-010      
  0.2             -6.968e-010     -2.2819e-009    -1.1297e-008   
  0.25            -8.566e-010     -2.2926e-009    -1.0106e-008   
  0.3             1.8789e-009     -1.6542e-009    -1.36e-008     
  0.35            1.5709e-009     1.7735e-009     -8.73e-009     
  0.4             1.7627e-009     1.5197e-009     1.0738e-008    
  0.45            3.898e-010      2.2575e-009     1.1472e-008    
  0.5             5.913e-010      2.3799e-009     1.0858e-008    
  0.55            7.675e-010      2.6129e-009     9.813e-009     
  0.6             -1.7837e-009    2.8239e-009     1.6073e-008    
  0.65            -1.5718e-009    5.0425e-009     5.132e-009     
  0.7             2.7144e-009     2.1583e-008     1.074e-008     
  0.75            6.328e-010      6.6529e-008     1.1541e-008    
  0.8             2.7249e-009     1.6082e-007     -1.0647e-008   
  0.85            6.083e-010      3.4022e-007     1.1501e-008    
  0.9             -1.6801e-009    6.3632e-007     2.0474e-008    
  0.95            -1.4116e-009    1.07037e-006    5.964e-009     
  1               -2.757e-009     1.6499e-006     -2.6352e-008   
  1.05            1.302e-009      2.3575e-006     -2.5742e-008   
  1.1             2.7951e-009     3.1503e-006     -1.1524e-008   
  1.15            5.407e-010      4.0264e-006     1.1604e-008    
  1.2             9.41e-010       4.8959e-006     9.992e-009     
  1.25            -2.349e-010     5.7992e-006     1.2458e-008    
  1.3             -1.4523e-009    6.6937e-006     2.4305e-008    
  1.35            -1.3616e-009    7.5641e-006     9.906e-009     
  1.4             -2.6369e-009    8.4217e-006     1.172e-008     
  1.45            -2.0626e-009    9.2426e-006     7.21e-010      
  1.5             -1.5311e-009    1.0048e-005     3.153e-009     
  1.55            -1.3854e-009    1.08258e-005    7.746e-009     
  1.6             3.071e-010      1.155e-005      1.0195e-008    
  1.65            1.4907e-009     1.227e-005      -2.2875e-008   
  1.7             1.3124e-009     1.2951e-005     -8.308e-009    
  1.75            2.8636e-009     1.3598e-005     -1.0193e-008   
  1.8             -1.6242e-009    1.4235e-005     1.9007e-008    
END_DB

BEGIN_DB
 ICCAP_VAR VS         0              
 ICCAP_VAR VB         -1.8           
 ICCAP_VAR VD         1.8            

 #VG              IG              ID              IB             
  0               1.252e-010      3.327e-010      1.0863e-008    
  0.05            1.5169e-009     -1.0504e-009    -2.555e-008    
  0.1             9.167e-010      2.4064e-009     -8.495e-009    
  0.15            -1.5877e-009    1.7859e-009     1.294e-008     
  0.2             -1.7747e-009    -1.4891e-009    7.106e-009     
  0.25            -3.922e-010     -2.214e-009     -1.2138e-008   
  0.3             -6.167e-010     -2.2655e-009    -1.1386e-008   
  0.35            1.288e-009      -1.5202e-009    -1.9118e-008   
  0.4             2.8998e-009     -8.77e-011      -1.2505e-008   
  0.45            -1.3486e-009    1.4676e-009     2.2368e-008    
  0.5             -2.7306e-009    1.486e-010      1.1625e-008    
  0.55            -3.68e-011      -1.7582e-009    -1.2017e-008   
  0.6             1.9824e-009     2.3245e-009     -1.2329e-008   
  0.65            1.7115e-009     8.1035e-009     -7.831e-009    
  0.7             -1.3172e-009    2.8775e-008     -1.2335e-008   
  0.75            -2.3786e-009    9.1168e-008     1.2347e-008    
  0.8             1.68e-010       2.369e-007      -8.605e-009    
  0.85            6.415e-010      5.2047e-007     1.1254e-008    
  0.9             -1.6395e-009    1.02763e-006    1.9246e-008    
  0.95            -2.1025e-009    1.8048e-006     -1.4269e-008   
  1               -1.1489e-009    2.9745e-006     -9.889e-009    
  1.05            1.23e-010       4.4846e-006     -1.1937e-008   
  1.1             -3.994e-010     6.4789e-006     -1.2647e-008   
  1.15            -8.637e-010     8.8996e-006     -1.1979e-008   
  1.2             1.9641e-009     1.1676e-005     -1.5459e-008   
  1.25            -1.4062e-009    1.4963e-005     2.5908e-008    
  1.3             -1.3355e-009    1.8505e-005     1.0368e-008    
  1.35            -2.4983e-009    2.2403e-005     1.1356e-008    
  1.4             -1.8551e-009    2.6533e-005     9.51e-010      
  1.45            -1.448e-009     3.096e-005      3.98e-009      
  1.5             -1.363e-009     3.564e-005      9.395e-009     
  1.55            -2.6523e-009    4.0535e-005     1.156e-008     
  1.6             -2.1054e-009    4.5538e-005     6.57e-010      
  1.65            -1.5436e-009    5.0751e-005     2.537e-009     
  1.7             -1.3863e-009    5.6108e-005     7.473e-009     
  1.75            -2.7352e-009    6.158e-005      1.1552e-008    
  1.8             -3.376e-010     6.6999e-005     -1.2078e-008   
END_DB

