! VERSION = 6.00
BEGIN_HEADER
 ICCAP_INPUTS
  VG         V  B GROUND SMU4 0.001 LIN        1    0          1.8        37   0.05      
  VS         V  E GROUND SMU2 0.1 CON        0
  VB         V  C GROUND SMU3 0.1 LIN        3    0          -1.8       3    -0.9      
  VD         V  S GROUND SMU1 0.1 LIN        2    0.1        1.8        2    1.7       
 ICCAP_OUTPUTS
  IG         I  B GROUND SMU4 B
  ID         I  S GROUND SMU1 B
  IB         I  C GROUND SMU3 B
END_HEADER

BEGIN_DB
 ICCAP_VAR VS         0              
 ICCAP_VAR VB         0              
 ICCAP_VAR VD         0.1            

 #VG              IG              ID              IB             
  0               -2.0103e-009    -2.172e-009     1.4058e-008    
  0.05            -1.4577e-009    -1.8519e-009    3.8e-009       
  0.1             2.33e-011       -1.9713e-009    -1.0871e-008   
  0.15            -1.846e-010     -2.0722e-009    -1.0881e-008   
  0.2             -4.122e-010     -2.1181e-009    -1.1124e-008   
  0.25            -6.283e-010     -2.0634e-009    -1.0973e-008   
  0.3             1.2356e-009     -9.051e-010     -1.8985e-008   
  0.35            2.8392e-009     2.3769e-009     -1.2552e-008   
  0.4             2.1749e-009     1.1731e-008     1.0928e-008    
  0.45            1.0848e-009     4.6699e-008     9.594e-009     
  0.5             2.7528e-009     1.8654e-007     -1.0915e-008   
  0.55            -1.3312e-009    7.818e-007      2.7533e-008    
  0.6             -2.7048e-009    2.5833e-006     -2.6022e-008   
  0.65            -2.07e-010      7.631e-006      -1.0906e-008   
  0.7             2.5881e-009     1.8715e-005     -1.0946e-008   
  0.75            6.396e-010      3.869e-005      1.0637e-008    
  0.8             1.0115e-009     6.7337e-005     9.873e-009     
  0.85            -1.23e-010      0.000104882     1.1904e-008    
  0.9             8.372e-010      0.00014731      2.3874e-008    
  0.95            1.2002e-009     0.0001918       9.795e-009     
  1               -1.3128e-009    0.00023954      2.775e-008     
  1.05            -2.6036e-009    0.0002852       1.0966e-008    
  1.1             -2.0966e-009    0.00032931      5.6e-010       
  1.15            -1.5497e-009    0.00037193      3.176e-009     
  1.2             -1.3401e-009    0.00041279      7.607e-009     
  1.25            -2.6778e-009    0.00045111      1.0857e-008    
  1.3             -3.314e-010     0.00048661      -1.085e-008    
  1.35            -8.097e-010     0.00052107      -1.1323e-008   
  1.4             -1.176e-009     0.00055342      -1.0197e-008   
  1.45            6.03e-011       0.00058223      -1.1484e-008   
  1.5             -4.443e-010     0.00061063      -1.0875e-008   
  1.55            -8.926e-010     0.00063695      -1.1264e-008   
  1.6             1.4797e-009     0.00066052      -1.3538e-008   
  1.65            1.2591e-009     0.00068352      -8.29e-009     
  1.7             2.8053e-009     0.00070463      -1.0052e-008   
  1.75            4.462e-010      0.00072469      1.0321e-008    
  1.8             -1.2672e-009    0.00074309      2.4888e-008    
END_DB

BEGIN_DB
 ICCAP_VAR VS         0              
 ICCAP_VAR VB         0              
 ICCAP_VAR VD         1.8            

 #VG              IG              ID              IB             
  0               -3.409e-010     -5.534e-010     -1.8052e-008   
  0.05            -1.8058e-009    7.669e-010      2.1078e-008    
  0.1             -1.5903e-009    -1.6669e-009    5.253e-009     
  0.15            -1.491e-010     -2.0385e-009    -1.0905e-008   
  0.2             -3.628e-010     -2.0656e-009    -1.1106e-008   
  0.25            -5.748e-010     -1.8912e-009    -1.1291e-008   
  0.3             2.7373e-009     2.116e-009      -1.1028e-008   
  0.35            2.354e-010      7.6377e-009     1.0448e-008    
  0.4             -2.7156e-009    2.2962e-008     -2.2328e-008   
  0.45            -1.1158e-009    1.05946e-007    -1.0391e-008   
  0.5             -1.7191e-009    4.5175e-007     2.6246e-008    
  0.55            2.5456e-009     1.7242e-006     1.795e-008     
  0.6             -2.5482e-009    6.1156e-006     5.199e-009     
  0.65            2.8147e-009     1.6773e-005     -2.359e-008    
  0.7             2.3834e-009     3.9715e-005     -2.6874e-008   
  0.75            1.7177e-009     7.98e-005       -4.8659e-008   
  0.8             1.4688e-009     0.00014         -6.7926e-008   
  0.85            1.5816e-009     0.00022085      -9.7572e-008   
  0.9             7e-012          0.00031901      -1.06134e-007  
  0.95            4.518e-010      0.0004331       -1.1275e-007   
  1               8.557e-010      0.00055631      -1.2601e-007   
  1.05            1.2158e-009     0.00068829      -1.3594e-007   
  1.1             1.6321e-009     0.00082972      -1.4144e-007   
  1.15            2.0337e-009     0.00097842      -1.4423e-007   
  1.2             -2.5002e-009    0.0011327       -1.465e-007    
  1.25            -2.6987e-009    0.0012873       -1.6048e-007   
  1.3             -2.635e-009     0.0014442       -1.5191e-007   
  1.35            -2.1912e-009    0.0016033       -1.4543e-007   
  1.4             -1.6237e-009    0.0017634       -1.3781e-007   
  1.45            -1.3654e-009    0.0019235       -1.2769e-007   
  1.5             -2.6991e-009    0.0020844       -1.1672e-007   
  1.55            -2.3991e-009    0.0022433       -1.2027e-007   
  1.6             -1.8181e-009    0.0024042       -1.1186e-007   
  1.65            -2.6795e-009    0.0025629       -1.091e-007    
  1.7             -2.5815e-009    0.0027241       -8.855e-008    
  1.75            2.722e-009      0.0028793       -1.0046e-007   
  1.8             -1.8124e-009    0.0030396       -6.9234e-008   
END_DB

BEGIN_DB
 ICCAP_VAR VS         0              
 ICCAP_VAR VB         -0.9           
 ICCAP_VAR VD         0.1            

 #VG              IG              ID              IB             
  0               -4.475e-010     -5.81e-010      -3.837e-009    
  0.05            -1.458e-009     1.8324e-009     1.1532e-008    
  0.1             -9.972e-010     -2.1943e-009    9.486e-009     
  0.15            1.6266e-009     -1.6537e-009    -1.2475e-008   
  0.2             1.7279e-009     1.5448e-009     -8.543e-009    
  0.25            3.826e-010      2.2014e-009     1.0603e-008    
  0.3             5.604e-010      2.2879e-009     1.0307e-008    
  0.35            -1.2896e-009    1.4689e-009     2.2297e-008    
  0.4             -2.6659e-009    1.811e-010      1.1279e-008    
  0.45            1.586e-010      -1.6033e-009    3.92e-010      
  0.5             1.9865e-009     3.924e-010      -1.094e-008    
  0.55            1.6977e-009     6.2582e-009     -8.405e-009    
  0.6             -2.3952e-009    2.875e-008      -1.1004e-008   
  0.65            7.717e-010      1.3281e-007     -1.442e-008    
  0.7             -1.5061e-009    5.9e-007        1.6863e-008    
  0.75            -2.5808e-009    2.1456e-006     -2.0723e-008   
  0.8             -7.277e-010     6.6941e-006     -1.1271e-008   
  0.85            2.8333e-009     1.6997e-005     -1.121e-008    
  0.9             2.7619e-009     3.6003e-005     3.33e-010      
  0.95            4.971e-010      6.5013e-005     1.0385e-008    
  1               8.881e-010      0.000101424     1.0494e-008    
  1.05            2.8601e-009     0.00014434      9.601e-009     
  1.1             2.6487e-009     0.00018957      2e-012         
  1.15            2.4367e-009     0.00023567      8.29e-009      
  1.2             4.227e-010      0.00028159      1.0262e-008    
  1.25            -1.8992e-009    0.00032558      1.5983e-008    
  1.3             -1.4464e-009    0.00036737      4.708e-009     
  1.35            -1.3134e-009    0.00040694      9.415e-009     
  1.4             -2.6204e-009    0.00044438      1.0978e-008    
  1.45            -2.1287e-009    0.00047898      5.52e-010      
  1.5             -1.5719e-009    0.00051179      2.981e-009     
  1.55            -1.3469e-009    0.00054243      7.132e-009     
  1.6             -2.6918e-009    0.00057086      1.0869e-008    
  1.65            -2.842e-010     0.00059681      -1.0887e-008   
  1.7             -7.805e-010     0.0006216       -1.1342e-008   
  1.75            1.6428e-009     0.00064393      -1.5866e-008   
  1.8             1.2977e-009     0.00066542      -8.762e-009    
END_DB

BEGIN_DB
 ICCAP_VAR VS         0              
 ICCAP_VAR VB         -0.9           
 ICCAP_VAR VD         1.8            

 #VG              IG              ID              IB             
  0               1.2474e-009     1.2049e-009     9.225e-009     
  0.05            2.8566e-009     -1.3e-011       -1.0862e-008   
  0.1             -1.4e-012       1.9945e-009     1.0412e-008    
  0.15            1.65e-010       2.0924e-009     1.0273e-008    
  0.2             3.466e-010      2.1891e-009     1.0648e-008    
  0.25            5.325e-010      2.2754e-009     1.0306e-008    
  0.3             7.003e-010      2.34e-009       1.0387e-008    
  0.35            -1.8768e-009    1.6091e-009     1.861e-008     
  0.4             -6.294e-010     -1.969e-009     4.698e-009     
  0.45            1.2841e-009     -1.726e-010     -1.0838e-008   
  0.5             1.2451e-009     5.6957e-009     -8.623e-009    
  0.55            2.8595e-009     2.8483e-008     1.046e-008     
  0.6             1.7574e-009     1.3259e-007     -2.6538e-008   
  0.65            6.582e-010      6.0693e-007     9.956e-009     
  0.7             -1.3178e-009    2.4812e-006     -1.3562e-008   
  0.75            -2.6435e-009    8.3847e-006     4.509e-009     
  0.8             1.8802e-009     2.2335e-005     -2.597e-008    
  0.85            1.3837e-009     5.1123e-005     -3.6098e-008   
  0.9             1.2422e-009     9.9162e-005     -5.2006e-008   
  0.95            1.2506e-009     0.00016909      -7.1431e-008   
  1               2.7692e-009     0.00025774      -9.1301e-008   
  1.05            1.2291e-009     0.00036672      -9.6303e-008   
  1.1             2.6665e-009     0.00048523      -1.2224e-007   
  1.15            2.0332e-009     0.00061752      -1.2135e-007   
  1.2             1.4507e-009     0.0007572       -1.3365e-007   
  1.25            1.2556e-009     0.00090307      -1.3757e-007   
  1.3             2.8056e-009     0.00105275      -1.4053e-007   
  1.35            -2.4315e-009    0.0012133       -1.3921e-007   
  1.4             -1.8285e-009    0.0013689       -1.2622e-007   
  1.45            -1.4195e-009    0.0015265       -1.1945e-007   
  1.5             -1.3044e-009    0.0016864       -1.1071e-007   
  1.55            1.4279e-009     0.0018415       -1.3822e-007   
  1.6             1.25e-009       0.0020014       -1.1786e-007   
  1.65            2.7845e-009     0.0021605       -1.1424e-007   
  1.7             2.271e-009      0.0023213       -9.918e-008    
  1.75            1.5899e-009     0.0024796       -9.805e-008    
  1.8             1.2894e-009     0.0026377       -9.467e-008    
END_DB

BEGIN_DB
 ICCAP_VAR VS         0              
 ICCAP_VAR VB         -1.8           
 ICCAP_VAR VD         0.1            

 #VG              IG              ID              IB             
  0               4.557e-010      5.775e-010      -1.0941e-008   
  0.05            2.1675e-009     -7.068e-010     -1.9169e-008   
  0.1             1.3827e-009     1.9974e-009     -6.899e-009    
  0.15            8e-012          2.0066e-009     1.0243e-008    
  0.2             1.806e-010      2.1028e-009     1.0412e-008    
  0.25            3.647e-010      2.2009e-009     1.0702e-008    
  0.3             5.515e-010      2.2873e-009     1.0528e-008    
  0.35            -1.2932e-009    1.4513e-009     2.2597e-008    
  0.4             -2.6683e-009    1.209e-010      1.1161e-008    
  0.45            -8.884e-010     -2.2002e-009    5.28e-010      
  0.5             1.7995e-009     -1.5451e-009    -1.3643e-008   
  0.55            2.4936e-009     1.3065e-009     -8.948e-009    
  0.6             2.364e-010      3.4556e-009     1.053e-008     
  0.65            4.194e-010      9.0169e-009     1.0812e-008    
  0.7             -1.7511e-009    3.398e-008      -1.5506e-008   
  0.75            1.0322e-009     1.636e-007      -1.8328e-008   
  0.8             1.4247e-009     6.8568e-007     1.0957e-008    
  0.85            -1.3222e-009    2.6338e-006     -1.1311e-008   
  0.9             -2.6506e-009    7.9743e-006     1.1015e-008    
  0.95            2.4066e-009     1.9252e-005     -1.0922e-008   
  1               -1.7054e-009    4.0036e-005     2.2102e-008    
  1.05            -1.378e-009     6.9984e-005     5.823e-009     
  1.1             -1.293e-009     0.000107856     1.0332e-008    
  1.15            -1.688e-010     0.00015053      1.0875e-008    
  1.2             2.305e-010      0.00019589      1.0233e-008    
  1.25            6.694e-010      0.00024109      1.0736e-008    
  1.3             -1.5962e-009    0.00028596      1.9323e-008    
  1.35            -1.3505e-009    0.00032896      7.179e-009     
  1.4             -2.695e-009     0.00036964      1.0794e-008    
  1.45            -2.572e-010     0.00040722      -1.0857e-008   
  1.5             -7.617e-010     0.00044366      -1.1301e-008   
  1.55            1.6619e-009     0.00047683      -1.6249e-008   
  1.6             1.2966e-009     0.00050847      -8.536e-009    
  1.65            2.8572e-009     0.00053757      -8.096e-009    
  1.7             -1.6729e-009    0.00056563      1.8411e-008    
  1.75            -1.3658e-009    0.00059089      6.106e-009     
  1.8             -2.7028e-009    0.00061451      1.0473e-008    
END_DB

BEGIN_DB
 ICCAP_VAR VS         0              
 ICCAP_VAR VB         -1.8           
 ICCAP_VAR VD         1.8            

 #VG              IG              ID              IB             
  0               -1.3364e-009    -1.2936e-009    1.0692e-008    
  0.05            -1.2735e-009    -2.033e-009     1.0897e-008    
  0.1             1.3422e-009     -1.1792e-009    -2.6174e-008   
  0.15            1.0705e-009     2.2881e-009     -8.105e-009    
  0.2             -1.4229e-009    1.0336e-009     2.6903e-008    
  0.25            -1.0337e-009    -2.1813e-009    9.46e-009      
  0.3             1.5552e-009     -1.6721e-009    -1.2055e-008   
  0.35            8.599e-010      2.3518e-009     -8.503e-009    
  0.4             -1.6284e-009    1.7182e-009     1.4331e-008    
  0.45            -8.216e-010     -2.1302e-009    6.821e-009     
  0.5             1.2428e-009     -1.0139e-009    -1.0179e-008   
  0.55            2.8516e-009     2.1482e-009     -1.1461e-008   
  0.6             2.1323e-009     1.2821e-008     1.076e-008     
  0.65            1.0265e-009     5.875e-008      9.698e-009     
  0.7             2.8528e-009     2.753e-007      -1.1585e-008   
  0.75            1.2874e-009     1.1661e-006     5.09e-009      
  0.8             -1.9603e-009    4.5765e-006     1.1772e-008    
  0.85            2.5122e-009     1.3551e-005     -1.9867e-008   
  0.9             1.8284e-009     3.3926e-005     -2.2562e-008   
  0.95            1.3552e-009     7.1562e-005     -4.1817e-008   
  1               1.2479e-009     0.00013038      -5.8381e-008   
  1.05            2.7611e-009     0.00020962      -7.7705e-008   
  1.1             1.6466e-009     0.00030988      -9.3973e-008   
  1.15            5.292e-010      0.00042434      -8.9926e-008   
  1.2             2.0845e-009     0.00055119      -1.1772e-007   
  1.25            1.4617e-009     0.00068619      -1.2171e-007   
  1.3             1.2592e-009     0.00082916      -1.2668e-007   
  1.35            2.8084e-009     0.00097678      -1.3054e-007   
  1.4             -1.766e-009     0.0011341       -1.2178e-007   
  1.45            -1.3935e-009    0.0012894       -1.1406e-007   
  1.5             1.6883e-009     0.0014419       -1.3639e-007   
  1.55            1.3082e-009     0.0016007       -1.2209e-007   
  1.6             2.8569e-009     0.001758        -1.1695e-007   
  1.65            2.5868e-009     0.001919        -1.0429e-007   
  1.7             1.9183e-009     0.0020766       -1.0184e-007   
  1.75            1.3919e-009     0.0022351       -1.0201e-007   
  1.8             1.2463e-009     0.0023938       -9.606e-008    
END_DB

