! VERSION = 6.00
BEGIN_HEADER
 ICCAP_INPUTS
  VG         V  B GROUND SMU4 0.001 LIN        1    0          1.8        37   0.05      
  VS         V  E GROUND SMU2 0.1 CON        0
  VB         V  C GROUND SMU3 0.1 LIN        3    0          -1.8       3    -0.9      
  VD         V  S GROUND SMU1 0.1 LIN        2    0.1        1.8        2    1.7       
 ICCAP_OUTPUTS
  IG         I  B GROUND SMU4 B
  ID         I  S GROUND SMU1 B
  IB         I  C GROUND SMU3 B
END_HEADER

BEGIN_DB
 ICCAP_VAR VS         0              
 ICCAP_VAR VB         0              
 ICCAP_VAR VD         0.1            

 #VG              IG              ID              IB             
  0               -1.0181e-009    -9.351e-010     -1.8856e-008   
  0.05            -1.3595e-009    1.1333e-009     2.7698e-008    
  0.1             -1.1924e-009    -2.0859e-009    1.0694e-008    
  0.15            1.3699e-009     -1.1409e-009    -2.5829e-008   
  0.2             1.0335e-009     2.2717e-009     -8.147e-009    
  0.25            -1.4265e-009    1.0096e-009     2.6635e-008    
  0.3             -1.0387e-009    -2.1478e-009    9.529e-009     
  0.35            1.5139e-009     -1.5977e-009    -1.1791e-008   
  0.4             2.6459e-009     1.3853e-009     -8.252e-009    
  0.45            5.053e-010      3.8078e-009     1.0567e-008    
  0.5             -1.2899e-009    8.2561e-009     2.3067e-008    
  0.55            2.8052e-009     2.8103e-008     1.0713e-008    
  0.6             -2.6874e-009    1.0349e-007     1.0221e-008    
  0.65            4.25e-011       3.7383e-007     -1.1219e-008   
  0.7             -1.175e-009     1.1425e-006     -7.024e-009    
  0.75            1.2738e-009     2.7878e-006     -2.5751e-008   
  0.8             2.8047e-009     5.7054e-006     -9.083e-009    
  0.85            4.102e-010      1.01633e-005    1.0267e-008    
  0.9             -2.6654e-009    1.5689e-005     1.066e-008     
  0.95            1.267e-009      2.2008e-005     -2.5937e-008   
  1               2.7979e-009     2.8847e-005     -9.364e-009    
  1.05            4.368e-010      3.6141e-005     1.0369e-008    
  1.1             -1.8342e-009    4.3199e-005     2.4642e-008    
  1.15            -1.4083e-009    5.0058e-005     5.251e-009     
  1.2             -1.2965e-009    5.6668e-005     9.915e-009     
  1.25            -2.5221e-009    6.3037e-005     1.1056e-008    
  1.3             -1.9366e-009    6.8989e-005     9.61e-010      
  1.35            -1.4514e-009    7.473e-005      4.282e-009     
  1.4             -1.3112e-009    8.0133e-005     9.126e-009     
  1.45            -2.5815e-009    8.5281e-005     1.0981e-008    
  1.5             -2.0615e-009    9.003e-005      6.01e-010      
  1.55            -1.5085e-009    9.4554e-005     3.603e-009     
  1.6             -1.322e-009     9.8812e-005     8.392e-009     
  1.65            -2.633e-009     0.000102822     1.0992e-008    
  1.7             -2.1759e-009    0.000106508     6.3e-010       
  1.75            -1.5768e-009    0.000110015     2.748e-009     
  1.8             -1.3385e-009    0.000113317     7.185e-009     
END_DB

BEGIN_DB
 ICCAP_VAR VS         0              
 ICCAP_VAR VB         0              
 ICCAP_VAR VD         1.8            

 #VG              IG              ID              IB             
  0               -1.2904e-009    -1.1852e-009    1.0514e-008    
  0.05            -2.6331e-009    1.332e-010      1.1347e-008    
  0.1             -9.319e-010     -2.1944e-009    6.49e-010      
  0.15            1.6741e-009     -1.636e-009     -1.2847e-008   
  0.2             1.7021e-009     1.5552e-009     -8.618e-009    
  0.25            3.787e-010      2.2049e-009     1.0809e-008    
  0.3             -2.2619e-009    5.811e-010      1.585e-008     
  0.35            -6.276e-010     -1.8311e-009    -1.1081e-008   
  0.4             2.1799e-009     2.2582e-009     -1.8928e-008   
  0.45            1.8674e-009     7.3057e-009     -6.648e-009    
  0.5             -1.4457e-009    2.6482e-008     -4.922e-009    
  0.55            -2.675e-009     1.1563e-007     1.0547e-008    
  0.6             -2.659e-010     4.3254e-007     -1.1358e-008   
  0.65            1.5426e-009     1.3824e-006     9.236e-009     
  0.7             1.2651e-009     3.6363e-006     -1.1942e-008   
  0.75            2.7915e-009     8.0322e-006     -1.5532e-008   
  0.8             -4.423e-010     1.5306e-005     2.844e-009     
  0.85            -8.967e-010     2.566e-005      -2.521e-008    
  0.9             -1.2947e-009    3.9037e-005     -2.8919e-008   
  0.95            -1.7079e-009    5.4774e-005     -3.4504e-008   
  1               -1.9663e-009    7.2363e-005     -3.6101e-008   
  1.05            -2.3285e-009    9.1819e-005     -3.7997e-008   
  1.1             -2.6359e-009    0.000112694     -3.9653e-008   
  1.15            -1.4644e-009    0.00013476      -4.2871e-008   
  1.2             -1.3143e-009    0.0001575       -2.5997e-008   
  1.25            -2.5841e-009    0.00018094      -2.4914e-008   
  1.3             -2.0718e-009    0.00020437      -3.5427e-008   
  1.35            -1.5184e-009    0.00022859      -3.2679e-008   
  1.4             -1.3238e-009    0.000253        -2.7509e-008   
  1.45            -2.6349e-009    0.00027761      -2.4039e-008   
  1.5             -2.1918e-009    0.000302        -3.3901e-008   
  1.55            -1.5954e-009    0.00032673      -3.0737e-008   
  1.6             -1.3409e-009    0.0003515       -2.4949e-008   
  1.65            -2.5098e-009    0.00037603      -3.1401e-008   
  1.7             -1.9378e-009    0.0004008       -2.89e-008     
  1.75            -1.4533e-009    0.00042541      -2.462e-008    
  1.8             -1.3077e-009    0.00044994      -1.8252e-008   
END_DB

BEGIN_DB
 ICCAP_VAR VS         0              
 ICCAP_VAR VB         -0.9           
 ICCAP_VAR VD         0.1            

 #VG              IG              ID              IB             
  0               1.2229e-009     1.1438e-009     -1.0939e-008   
  0.05            2.7997e-009     -1.74e-010      -1.3323e-008   
  0.1             -1.2749e-009    1.5071e-009     2.0558e-008    
  0.15            -2.5922e-009    2.136e-010      1.2006e-008    
  0.2             -1.0055e-009    -2.1856e-009    7.38e-010      
  0.25            1.5656e-009     -1.6793e-009    -1.2212e-008   
  0.3             8.689e-010      2.3229e-009     -8.463e-009    
  0.35            -1.5928e-009    1.7113e-009     1.3863e-008    
  0.4             -1.7629e-009    -1.4586e-009    7.329e-009     
  0.45            -4.214e-010     -2.1442e-009    -1.1212e-008   
  0.5             -6.572e-010     -2.154e-009     -1.0902e-008   
  0.55            1.2212e-009     -1.2661e-009    -1.832e-008    
  0.6             2.7849e-009     2.0551e-009     -1.3495e-008   
  0.65            1.899e-010      7.7896e-009     1.0303e-008    
  0.7             -1.9462e-009    2.5275e-008     -1.9782e-008   
  0.75            -1.4526e-009    1.10623e-007    4.146e-009     
  0.8             1.3647e-009     3.9599e-007     -2.1894e-008   
  0.85            -2.5825e-009    1.2667e-006     -1.0516e-008   
  0.9             -2.0494e-009    3.077e-006      6.94e-010      
  0.95            -1.5088e-009    6.2402e-006     3.557e-009     
  1               -1.318e-009     1.07741e-005    8.615e-009     
  1.05            2.094e-010      1.6294e-005     1.0246e-008    
  1.1             1.3855e-009     2.2837e-005     -2.3578e-008   
  1.15            2.8356e-009     2.98e-005       -8.272e-009    
  1.2             2.6729e-009     3.6964e-005     -4.5e-011      
  1.25            6.123e-010      4.403e-005      1.0628e-008    
  1.3             9.945e-010      5.0744e-005     1.0055e-008    
  1.35            -1.129e-010     5.7348e-005     1.1602e-008    
  1.4             3.235e-010      6.3565e-005     1.0056e-008    
  1.45            7.728e-010      6.935e-005      1.0478e-008    
  1.5             -1.4766e-009    7.4899e-005     1.6347e-008    
  1.55            -1.3096e-009    8.0165e-005     8.91e-009      
  1.6             -2.6019e-009    8.5073e-005     1.0788e-008    
  1.65            -2.1078e-009    8.9634e-005     5.67e-010      
  1.7             1.2578e-009     9.3825e-005     -2.584e-008    
  1.75            2.7916e-009     9.783e-005      -9.492e-009    
  1.8             4.603e-010      0.000101681     1.0234e-008    
END_DB

BEGIN_DB
 ICCAP_VAR VS         0              
 ICCAP_VAR VB         -0.9           
 ICCAP_VAR VD         1.8            

 #VG              IG              ID              IB             
  0               -1.1791e-009    -1.0739e-009    -1.2683e-008   
  0.05            -1.9928e-009    6.627e-010      1.9032e-008    
  0.1             -1.5023e-009    -1.8141e-009    4.057e-009     
  0.15            -4.51e-011      -2.0077e-009    -1.0695e-008   
  0.2             -2.749e-010     -2.1122e-009    -1.1034e-008   
  0.25            -5.138e-010     -2.1788e-009    -1.1329e-008   
  0.3             -7.364e-010     -2.2152e-009    -1.1188e-008   
  0.35            2.0538e-009     -1.5487e-009    -1.6681e-008   
  0.4             1.4561e-009     1.9123e-009     -8.247e-009    
  0.45            1.6495e-009     1.7507e-009     1.0789e-008    
  0.5             3.226e-010      2.8792e-009     1.0537e-008    
  0.55            5.236e-010      5.737e-009      1.0797e-008    
  0.6             -2.3844e-009    1.5719e-008     -2.5382e-008   
  0.65            -1.7792e-009    7.5855e-008     1.74e-009      
  0.7             -1.3871e-009    3.2248e-007     2.8e-011       
  0.75            -1.2855e-009    1.10079e-006    8.749e-009     
  0.8             2.1288e-009     3.0206e-006     8.956e-009     
  0.85            1.0487e-009     6.9445e-006     4.749e-009     
  0.9             1.208e-010      1.3573e-005     2.333e-009     
  0.95            -3.666e-010     2.3347e-005     -2.2919e-008   
  1               -8.472e-010     3.6207e-005     -2.7746e-008   
  1.05            -1.2383e-009    5.1956e-005     -3.0387e-008   
  1.1             -1.6581e-009    6.9782e-005     -3.4396e-008   
  1.15            -1.9231e-009    8.8969e-005     -3.6874e-008   
  1.2             -2.2467e-009    0.000109861     -3.8022e-008   
  1.25            -2.558e-009     0.00013188      -4.2125e-008   
  1.3             -2.016e-009     0.00015482      -3.09e-008     
  1.35            -1.4832e-009    0.00017816      -2.8505e-008   
  1.4             -1.3111e-009    0.00020211      -2.4237e-008   
  1.45            -2.4076e-009    0.00022601      -3.2476e-008   
  1.5             -1.7959e-009    0.00025046      -3.0581e-008   
  1.55            -1.3924e-009    0.00027502      -2.6444e-008   
  1.6             -1.2856e-009    0.00029968      -2.1492e-008   
  1.65            -2.205e-009     0.00032416      -3.0041e-008   
  1.7             -1.6081e-009    0.00034887      -2.6537e-008   
  1.75            -1.3404e-009    0.00037363      -2.1618e-008   
  1.8             -2.5347e-009    0.00039783      -2.7929e-008   
END_DB

BEGIN_DB
 ICCAP_VAR VS         0              
 ICCAP_VAR VB         -1.8           
 ICCAP_VAR VD         0.1            

 #VG              IG              ID              IB             
  0               -8.79e-010      -8.664e-010     -2.4288e-008   
  0.05            -2.6471e-009    1.016e-010      1.1016e-008    
  0.1             -1.8544e-009    -1.3048e-009    4.92e-010      
  0.15            -6.115e-010     -2.2071e-009    -1.1131e-008   
  0.2             1.2375e-009     -1.4959e-009    -1.875e-008    
  0.25            2.7984e-009     -1.488e-010     -1.2829e-008   
  0.3             1.361e-010      2.0569e-009     1.0407e-008    
  0.35            3.381e-010      2.1654e-009     1.0847e-008    
  0.4             5.398e-010      2.2559e-009     1.0623e-008    
  0.45            -1.2916e-009    1.4381e-009     2.199e-008     
  0.5             -2.6276e-009    1.399e-010      1.1453e-008    
  0.55            -9.292e-010     -2.1796e-009    5.18e-010      
  0.6             1.6766e-009     -1.5427e-009    -1.2562e-008   
  0.65            2.559e-009      1.5069e-009     -8.803e-009    
  0.7             3.583e-010      4.5306e-009     1.0904e-008    
  0.75            -2.0693e-009    1.0208e-008     -2.138e-008    
  0.8             -1.5227e-009    5.0442e-008     3.222e-009     
  0.85            1.2504e-009     2.0112e-007     -2.0624e-008   
  0.9             -1.9489e-009    7.0974e-007     1.5235e-008    
  0.95            -2.4162e-009    1.914e-006      -1.8624e-008   
  1               -4.896e-010     4.2553e-006     -1.1114e-008   
  1.05            -9.24e-010      7.9904e-006     -1.087e-008    
  1.1             2.0331e-009     1.2905e-005     -1.3828e-008   
  1.15            9.401e-010      1.8908e-005     1.0164e-008    
  1.2             -1.769e-010     2.5707e-005     1.2471e-008    
  1.25            -1.3928e-009    3.2759e-005     2.4553e-008    
  1.3             -1.2957e-009    3.9808e-005     1.0163e-008    
  1.35            -2.4743e-009    4.6677e-005     1.1237e-008    
  1.4             -1.872e-009     5.3227e-005     1.159e-009     
  1.45            -1.4282e-009    5.9541e-005     4.582e-009     
  1.5             -1.3067e-009    6.5542e-005     9.6e-009       
  1.55            -2.5527e-009    7.1192e-005     1.1116e-008    
  1.6             -2.0003e-009    7.6447e-005     5.76e-010      
  1.65            -1.4882e-009    8.1449e-005     3.594e-009     
  1.7             -1.3209e-009    8.6099e-005     8.609e-009     
  1.75            -2.62e-009      9.0497e-005     1.1024e-008    
  1.8             -2.1408e-009    9.4522e-005     4.7e-010       
END_DB

BEGIN_DB
 ICCAP_VAR VS         0              
 ICCAP_VAR VB         -1.8           
 ICCAP_VAR VD         1.8            

 #VG              IG              ID              IB             
  0               2.313e-010      5.054e-010      -1.1024e-008   
  0.05            1.6655e-009     -9.201e-010     -2.3395e-008   
  0.1             1.7089e-009     1.5529e-009     -8.845e-009    
  0.15            3.707e-010      2.1942e-009     1.0754e-008    
  0.2             -1.3141e-009    1.3188e-009     2.5652e-008    
  0.25            -1.284e-009     2.01e-011       1.0836e-008    
  0.3             -2.6064e-009    1.81e-010       1.1914e-008    
  0.35            -9.79e-010      -2.1906e-009    5.59e-010      
  0.4             1.6001e-009     -1.6578e-009    -1.2203e-008   
  0.45            1.7596e-009     1.5031e-009     -8.383e-009    
  0.5             4.281e-010      2.3197e-009     1.0937e-008    
  0.55            6.392e-010      2.8061e-009     1.0885e-008    
  0.6             8.173e-010      4.8686e-009     9.85e-009      
  0.65            -2.7075e-009    1.1436e-008     -2.0028e-008   
  0.7             9.1e-012        5.7852e-008     -1.1314e-008   
  0.75            -1.7962e-009    2.5353e-007     2.7255e-008    
  0.8             -7.687e-010     9.1201e-007     -1.2297e-008   
  0.85            2.0298e-009     2.6175e-006     8.563e-009     
  0.9             -2.2409e-009    6.3406e-006     8.302e-009     
  0.95            1.4592e-009     1.2366e-005     -1.8021e-008   
  1               1.255e-009      2.1517e-005     -1.9598e-008   
  1.05            2.7629e-009     3.3693e-005     -2.531e-008    
  1.1             2.2216e-009     4.8881e-005     -2.0118e-008   
  1.15            1.5337e-009     6.6205e-005     -2.8617e-008   
  1.2             1.2698e-009     8.5431e-005     -3.3712e-008   
  1.25            2.8031e-009     0.00010603      -3.6554e-008   
  1.3             2.8353e-009     0.00012786      -2.1373e-008   
  1.35            2.4792e-009     0.00015081      -3.1121e-008   
  1.4             1.7895e-009     0.00017399      -3.5156e-008   
  1.45            1.329e-009      0.00019757      -4.065e-008    
  1.5             2.8416e-009     0.00022158      -3.988e-008    
  1.55            2.572e-009      0.00024615      -3.1819e-008   
  1.6             1.9085e-009     0.00027042      -3.3766e-008   
  1.65            1.3704e-009     0.00029487      -3.9321e-008   
  1.7             1.2407e-009     0.00031945      -3.78e-008     
  1.75            2.6761e-009     0.00034386      -4.0685e-008   
  1.8             2.0311e-009     0.00036849      -2.9782e-008   
END_DB

