! VERSION = 6.00
BEGIN_HEADER
 ICCAP_INPUTS
  VG         V  B GROUND SMU4 0.001 LIN        1    0          1.8        37   0.05      
  VS         V  E GROUND SMU2 0.1 CON        0
  VD         V  S GROUND SMU1 0.1 LIN        2    0.1        1.8        2    1.7       
  VB         V  C GROUND SMU3 0.1 CON        0
 ICCAP_OUTPUTS
  IG         I  B GROUND SMU4 B
  ID         I  S GROUND SMU1 B
END_HEADER

BEGIN_DB
 ICCAP_VAR VS         0              
 ICCAP_VAR VD         0.1            
 ICCAP_VAR VB         0              

 #VG              IG              ID             
  0               -3.2014e-010    7.2151e-007    
  0.05            1.9884e-010     8.4036e-007    
  0.1             -2.7988e-010    9.7418e-007    
  0.15            2.4938e-010     1.12627e-006   
  0.2             -1.2917e-010    1.3041e-006    
  0.25            2.5632e-010     1.5208e-006    
  0.3             -2.3846e-010    1.7935e-006    
  0.35            2.1634e-010     2.212e-006     
  0.4             -3.0474e-010    3.0962e-006    
  0.45            3.3648e-010     5.8016e-006    
  0.5             3.3385e-010     1.5449e-005    
  0.55            -3.2039e-010    4.65e-005      
  0.6             3.364e-010      0.00013406     
  0.65            -2.7582e-010    0.00032686     
  0.7             2.4567e-010     0.00065457     
  0.75            -2.2115e-010    0.00109216     
  0.8             2.3539e-010     0.0015649      
  0.85            -2.1133e-010    0.0019874      
  0.9             2.9862e-010     0.0023134      
  0.95            -3.3968e-010    0.0025459      
  1               2.7407e-010     0.0027079      
  1.05            -2.4257e-010    0.0028221      
  1.1             2.1018e-010     0.0029055      
  1.15            -2.9488e-010    0.0029675      
  1.2             3.3981e-010     0.0030151      
  1.25            -2.6935e-010    0.0030527      
  1.3             2.4133e-010     0.0030832      
  1.35            -2.0795e-010    0.0031078      
  1.4             2.9328e-010     0.0031283      
  1.45            -3.4053e-010    0.0031455      
  1.5             2.6917e-010     0.0031604      
  1.55            -2.3602e-010    0.0031727      
  1.6             2.0746e-010     0.0031839      
  1.65            -2.8725e-010    0.0031937      
  1.7             2.4811e-010     0.0032018      
  1.75            -2.1783e-010    0.0032093      
  1.8             1.9073e-010     0.0032161      
END_DB

BEGIN_DB
 ICCAP_VAR VS         0              
 ICCAP_VAR VD         1.8            
 ICCAP_VAR VB         0              

 #VG              IG              ID             
  0               -2.3494e-010    4.5593e-006    
  0.05            2.0206e-010     5.4226e-006    
  0.1             -2.8372e-010    6.3782e-006    
  0.15            2.4105e-010     7.4332e-006    
  0.2             -2.1755e-010    8.6042e-006    
  0.25            3.0725e-010     9.9066e-006    
  0.3             3.2982e-010     1.1431e-005    
  0.35            -2.9403e-010    1.3512e-005    
  0.4             2.5124e-010     1.7505e-005    
  0.45            -2.2514e-010    2.8606e-005    
  0.5             2.0351e-010     6.3836e-005    
  0.55            -2.4338e-010    0.00016591     
  0.6             -3.3617e-010    0.0012366      
  0.65            2.826e-010      0.0015854      
  0.7             -2.4968e-010    0.002077       
  0.75            2.2421e-010     0.0027229      
  0.8             -2.0486e-010    0.0034941      
  0.85            2.8854e-010     0.0043627      
  0.9             -2.4371e-010    0.0053136      
  0.95            2.2205e-010     0.0063461      
  1               -1.9631e-010    0.0074369      
  1.05            2.8485e-010     0.0085738      
  1.1             -2.4773e-010    0.0097604      
  1.15            2.2774e-010     0.0109907      
  1.2             -2.8855e-010    0.012194       
  1.25            2.6008e-010     0.013498       
  1.3             -2.3102e-010    0.014826       
  1.35            2.0117e-010     0.016175       
  1.4             -2.8118e-010    0.017527       
  1.45            2.4189e-010     0.018889       
  1.5             -2.1709e-010    0.020247       
  1.55            1.9515e-010     0.021602       
  1.6             -2.7529e-010    0.022943       
  1.65            2.478e-010      0.024287       
  1.7             -2.2243e-010    0.025607       
  1.75            2.0024e-010     0.026918       
  1.8             -2.8114e-010    0.028215       
END_DB

