! VERSION = 6.00
BEGIN_HEADER
 ICCAP_INPUTS
  VG         V  B GROUND SMU4 0.001 LIN        2    0          1.8        6    0.36      
  VS         V  E GROUND SMU2 0.1 CON        0
  VD         V  S GROUND SMU1 0.1 LIN        1    0          1.8        37   0.05      
  VB         V  C GROUND SMU3 0.1 CON        0
 ICCAP_OUTPUTS
  ID         I  S GROUND SMU1 B
  IG         I  B GROUND SMU4 B
END_HEADER

BEGIN_DB
 ICCAP_VAR VG         0              
 ICCAP_VAR VS         0              
 ICCAP_VAR VB         0              

 #VD              ID              IG             
  0               2.2014e-010     -3.2487e-010   
  0.05            -1.9104e-010    -8.37e-011     
  0.1             2.4484e-010     1.1389e-010    
  0.15            9.384e-011      -3.4095e-010   
  0.2             -1.8491e-010    -7.151e-011    
  0.25            2.5047e-010     1.0079e-010    
  0.3             8.622e-011      -3.3938e-010   
  0.35            -1.7853e-010    -6.026e-011    
  0.4             2.0173e-010     1.6043e-010    
  0.45            1.2545e-010     -2.8837e-010   
  0.5             -1.6693e-010    -4.907e-011    
  0.55            2.1881e-010     1.4399e-010    
  0.6             1.1871e-010     -3.1111e-010   
  0.65            -1.8431e-010    -1.0125e-010   
  0.7             2.3525e-010     1.3044e-010    
  0.75            1.1135e-010     -3.2987e-010   
  0.8             -1.8371e-010    -8.747e-011    
  0.85            2.4929e-010     1.1742e-010    
  0.9             1.036e-010      -3.3971e-010   
  0.95            -1.7908e-010    -7.506e-011    
  1               1.8963e-010     1.8875e-010    
  1.05            1.4424e-010     -2.583e-010    
  1.1             -1.7255e-010    -6.464e-011    
  1.15            2.0474e-010     1.6751e-010    
  1.2             1.3615e-010     -2.8134e-010   
  1.25            -1.618e-010     -5.342e-011    
  1.3             2.2197e-010     1.4941e-010    
  1.35            1.3122e-010     -3.0554e-010   
  1.4             -1.4431e-010    -4.373e-011    
  1.45            -5.404e-011     2.689e-010     
  1.5             2.5243e-010     1.2979e-010    
  1.55            1.3476e-010     -3.311e-010    
  1.6             -9.443e-011     -2.651e-011    
  1.65            2.368e-010      1.9718e-010    
  1.7             1.8353e-010     -3.4103e-010   
  1.75            4.965e-011      -2.4587e-010   
  1.8             1.9308e-010     3.3161e-010    
END_DB

BEGIN_DB
 ICCAP_VAR VG         0.36           
 ICCAP_VAR VS         0              
 ICCAP_VAR VB         0              

 #VD              ID              IG             
  0               -2.5205e-008    3.1269e-010    
  0.05            1.3398e-007     -3.4016e-010   
  0.1             1.6768e-007     -2.703e-010    
  0.15            1.8139e-007     -2.8123e-010   
  0.2             1.9211e-007     -2.9277e-010   
  0.25            2.0248e-007     -3.0401e-010   
  0.3             2.1326e-007     -3.1455e-010   
  0.35            2.2374e-007     -3.2432e-010   
  0.4             2.3514e-007     -3.3237e-010   
  0.45            2.4631e-007     -2.3201e-010   
  0.5             2.5778e-007     -2.4098e-010   
  0.55            2.6949e-007     -2.4971e-010   
  0.6             2.8168e-007     -2.6001e-010   
  0.65            2.943e-007      -2.7175e-010   
  0.7             3.0703e-007     -2.8236e-010   
  0.75            3.2016e-007     -2.9459e-010   
  0.8             3.3366e-007     -3.0567e-010   
  0.85            3.4764e-007     -3.1516e-010   
  0.9             3.628e-007      -3.2425e-010   
  0.95            3.7736e-007     -3.3167e-010   
  1               3.925e-007      -2.3224e-010   
  1.05            4.0829e-007     -2.4116e-010   
  1.1             4.2438e-007     -2.5113e-010   
  1.15            4.4101e-007     -2.6154e-010   
  1.2             4.5826e-007     -2.7232e-010   
  1.25            4.7609e-007     -2.8376e-010   
  1.3             4.9405e-007     -2.9504e-010   
  1.35            5.1344e-007     -3.0613e-010   
  1.4             5.3251e-007     -3.1604e-010   
  1.45            5.5399e-007     -3.2641e-010   
  1.5             5.7468e-007     -3.3283e-010   
  1.55            5.9596e-007     -2.3353e-010   
  1.6             6.1807e-007     -2.4198e-010   
  1.65            6.4116e-007     -2.5155e-010   
  1.7             6.6499e-007     -2.6231e-010   
  1.75            6.8976e-007     -2.7329e-010   
  1.8             7.1517e-007     -2.8572e-010   
END_DB

BEGIN_DB
 ICCAP_VAR VG         0.72           
 ICCAP_VAR VS         0              
 ICCAP_VAR VB         0              

 #VD              ID              IG             
  0               -2.232e-006     -2.597e-010    
  0.05            0.00043987      7.119e-011     
  0.1             0.00064034      3.3722e-010    
  0.15            0.00072262      2.7901e-010    
  0.2             0.00076418      2.9004e-010    
  0.25            0.00079233      3.0113e-010    
  0.3             0.00081713      3.1164e-010    
  0.35            0.00084207      3.2114e-010    
  0.4             0.00086712      3.2969e-010    
  0.45            0.00089268      2.2896e-010    
  0.5             0.00091965      2.3815e-010    
  0.55            0.0009476       2.4726e-010    
  0.6             0.00097665      2.5758e-010    
  0.65            0.00100682      2.684e-010     
  0.7             0.00103814      2.792e-010     
  0.75            0.00107036      2.9082e-010    
  0.8             0.00110362      3.0163e-010    
  0.85            0.00113763      3.122e-010     
  0.9             0.0011731       3.3904e-010    
  0.95            0.0012088       2.5236e-010    
  1               0.0012453       2.6271e-010    
  1.05            0.0012827       2.7417e-010    
  1.1             0.0013207       2.8503e-010    
  1.15            0.0013598       2.9637e-010    
  1.2             0.0013999       3.0765e-010    
  1.25            0.001441        3.1732e-010    
  1.3             0.0014831       3.2681e-010    
  1.35            0.0015263       2.2556e-010    
  1.4             0.0015715       2.3441e-010    
  1.45            0.001618        2.4259e-010    
  1.5             0.0016662       2.5294e-010    
  1.55            0.0017159       2.6377e-010    
  1.6             0.0017672       2.7468e-010    
  1.65            0.0018201       2.8606e-010    
  1.7             0.0018747       2.9698e-010    
  1.75            0.001931        3.0815e-010    
  1.8             0.0019893       3.1812e-010    
END_DB

BEGIN_DB
 ICCAP_VAR VG         1.08           
 ICCAP_VAR VS         0              
 ICCAP_VAR VB         0              

 #VD              ID              IG             
  0               -3.631e-006     2.4376e-010    
  0.05            0.00097709      -8.374e-011    
  0.1             0.0019327       2.8231e-010    
  0.15            0.0028435       2.9362e-010    
  0.2             0.0036891       3.0522e-010    
  0.25            0.004433        3.1515e-010    
  0.3             0.0050266       3.236e-010     
  0.35            0.0054349       3.3153e-010    
  0.4             0.0056778       2.3221e-010    
  0.45            0.0058161       2.4039e-010    
  0.5             0.0059033       2.5008e-010    
  0.55            0.005949        2.6073e-010    
  0.6             0.0059659       2.7087e-010    
  0.65            0.005982        2.8278e-010    
  0.7             0.0059968       2.9428e-010    
  0.75            0.0060119       3.051e-010     
  0.8             0.0060263       3.1523e-010    
  0.85            0.0060417       3.2456e-010    
  0.9             0.0060573       3.313e-010     
  0.95            0.0060729       2.3176e-010    
  1               0.0060912       2.4089e-010    
  1.05            0.0061102       2.5103e-010    
  1.1             0.0061305       2.6079e-010    
  1.15            0.0061526       2.7197e-010    
  1.2             0.0061758       2.8299e-010    
  1.25            0.0062018       2.9428e-010    
  1.3             0.0062297       3.0569e-010    
  1.35            0.0062594       3.1588e-010    
  1.4             0.0062922       3.2502e-010    
  1.45            0.0063275       3.3148e-010    
  1.5             0.006367        3.3674e-010    
  1.55            0.0064096       2.4053e-010    
  1.6             0.0064556       2.5041e-010    
  1.65            0.0065058       2.6077e-010    
  1.7             0.0065595       2.7234e-010    
  1.75            0.0066165       2.8436e-010    
  1.8             0.0066769       2.9556e-010    
END_DB

BEGIN_DB
 ICCAP_VAR VG         1.44           
 ICCAP_VAR VS         0              
 ICCAP_VAR VB         0              

 #VD              ID              IG             
  0               -3.5737e-006    -1.8342e-010   
  0.05            0.0010211       2.4402e-010    
  0.1             0.0020417       2.532e-010     
  0.15            0.0030538       2.6355e-010    
  0.2             0.004056        2.7445e-010    
  0.25            0.0050486       2.8512e-010    
  0.3             0.0060241       2.9625e-010    
  0.35            0.0069813       3.0669e-010    
  0.4             0.0079094       3.1665e-010    
  0.45            0.008801        3.2527e-010    
  0.5             0.0096388       2.2516e-010    
  0.55            0.0104003       2.3483e-010    
  0.6             0.0110587       2.4215e-010    
  0.65            0.011591        -2.4776e-010   
  0.7             0.011959        -2.5904e-010   
  0.75            0.012195        -2.6859e-010   
  0.8             0.012346        -2.8064e-010   
  0.85            0.012444        -2.9062e-010   
  0.9             0.012506        -3.0201e-010   
  0.95            0.01252         -3.1241e-010   
  1               0.012531        -3.2242e-010   
  1.05            0.012541        -3.2946e-010   
  1.1             0.01255         -2.3108e-010   
  1.15            0.012555        -2.3907e-010   
  1.2             0.012561        -2.4993e-010   
  1.25            0.012567        -2.5796e-010   
  1.3             0.012573        -2.6989e-010   
  1.35            0.012576        -2.8084e-010   
  1.4             0.012583        -2.9098e-010   
  1.45            0.01259         -3.0205e-010   
  1.5             0.012597        -3.1176e-010   
  1.55            0.012605        -3.2183e-010   
  1.6             0.012619        -3.2892e-010   
  1.65            0.012628        -3.3452e-010   
  1.7             0.012642        -2.3849e-010   
  1.75            0.012658        -2.4809e-010   
  1.8             0.012678        -2.5739e-010   
END_DB

BEGIN_DB
 ICCAP_VAR VG         1.8            
 ICCAP_VAR VS         0              
 ICCAP_VAR VB         0              

 #VD              ID              IG             
  0               -3.8187e-006    2.0771e-010    
  0.05            0.0010334       -3.2485e-010   
  0.1             0.0020691       -2.2831e-010   
  0.15            0.0031009       -2.3715e-010   
  0.2             0.0041281       -2.4639e-010   
  0.25            0.0051541       -2.5738e-010   
  0.3             0.0061734       -2.6828e-010   
  0.35            0.0071886       -2.7872e-010   
  0.4             0.0081941       -2.9052e-010   
  0.45            0.0091928       -3.0125e-010   
  0.5             0.0101819       -3.118e-010    
  0.55            0.0111552       -3.2171e-010   
  0.6             0.012129        3.3791e-010    
  0.65            0.013069        2.4569e-010    
  0.7             0.013983        2.5543e-010    
  0.75            0.014869        2.659e-010     
  0.8             0.015717        2.7638e-010    
  0.85            0.016505        2.8659e-010    
  0.9             0.017225        2.9809e-010    
  0.95            0.017842        3.0805e-010    
  1               0.018346        3.1754e-010    
  1.05            0.018717        3.2647e-010    
  1.1             0.018966        2.2749e-010    
  1.15            0.019131        2.3552e-010    
  1.2             0.019246        2.4511e-010    
  1.25            0.019329        2.5546e-010    
  1.3             0.019366        2.6422e-010    
  1.35            0.019376        2.7558e-010    
  1.4             0.01939         2.8526e-010    
  1.45            0.019395        2.9666e-010    
  1.5             0.019403        3.0754e-010    
  1.55            0.019406        3.1784e-010    
  1.6             0.019411        3.2659e-010    
  1.65            0.019414        2.2647e-010    
  1.7             0.019418        2.3473e-010    
  1.75            0.019422        2.44e-010      
  1.8             0.019421        2.5375e-010    
END_DB

