! VERSION = 6.00
BEGIN_HEADER
 ICCAP_INPUTS
  VG         V  B GROUND SMU4 0.001 LIN        2    0          1.8        6    0.36      
  VS         V  E GROUND SMU3 0.1 CON        0
  VD         V  S GROUND SMU2 0.1 LIN        1    0          1.8        37   0.05      
  VB         V  C GROUND SMU1 0.1 LIN        3    0          -0.9       2    -0.9      
 ICCAP_OUTPUTS
  ID         I  S GROUND SMU2 B
  IB         I  C GROUND SMU1 B
  IG         I  B GROUND SMU4 B
END_HEADER

BEGIN_DB
 ICCAP_VAR VG         0              
 ICCAP_VAR VS         0              
 ICCAP_VAR VB         0              

 #VD              ID              IB              IG             
  0               -1.002e-009     -6.492e-009     4.175e-010     
  0.05            4.575e-010      -7.544e-009     1.3217e-009    
  0.1             4.5254e-009     9.45e-009       8.789e-010     
  0.15            -2.1489e-009    4.914e-009      -2.4994e-009   
  0.2             -1.9776e-009    -2.2149e-008    1.5308e-009    
  0.25            4.5098e-009     1.1298e-008     5.538e-010     
  0.3             -2.1694e-009    1.633e-009      -2.1787e-009   
  0.35            -3.6415e-009    -9.886e-009     2.324e-010     
  0.4             1.439e-010      -8.762e-009     2.9e-009       
  0.45            3.0118e-009     1.8629e-008     -1.3647e-009   
  0.5             -2.9744e-009    -1.8151e-008    2.2715e-009    
  0.55            2.6061e-009     2.6063e-008     -1.3877e-009   
  0.6             -2.6567e-009    -2.3789e-008    1.3188e-009    
  0.65            2.3816e-009     2.639e-008      -1.3885e-009   
  0.7             -4.2597e-009    -9.776e-009     -9.646e-010    
  0.75            2.0407e-009     -7.278e-009     2.5538e-009    
  0.8             1.397e-010      1.1872e-008     -1.3624e-009   
  0.85            -2.979e-009     -1.8359e-008    1.3073e-009    
  0.9             2.8019e-009     2.3216e-008     -1.3806e-009   
  0.95            -2.8223e-009    -2.202e-008     1.3159e-009    
  1               2.5861e-009     2.6108e-008     -1.3855e-009   
  1.05            -2.6305e-009    -2.3701e-008    1.3197e-009    
  1.1             2.3609e-009     2.6434e-008     -1.3883e-009   
  1.15            -4.2622e-009    -9.981e-009     -9.494e-010    
  1.2             2.0456e-009     -7.323e-009     2.5414e-009    
  1.25            1.8138e-009     2.2881e-008     -1.5295e-009   
  1.3             -4.351e-009     -1.1423e-008    -6.119e-010    
  1.35            4.4745e-009     1.1185e-008     4.727e-010     
  1.4             9.79e-010       1.6859e-008     -2.3449e-009   
  1.45            -2.5073e-009    -2.3856e-008    1.3283e-009    
  1.5             4.5328e-009     9.307e-009      8.625e-010     
  1.55            -2.1494e-009    4.81e-009       -2.4799e-009   
  1.6             -1.9547e-009    -2.1897e-008    1.5588e-009    
  1.65            4.5054e-009     1.1076e-008     5.322e-010     
  1.7             1.0681e-009     1.7407e-008     -2.2591e-009   
  1.75            -2.5959e-009    -2.372e-008     1.3211e-009    
  1.8             4.5151e-009     9.271e-009      9.155e-010     
END_DB

BEGIN_DB
 ICCAP_VAR VG         0.36           
 ICCAP_VAR VS         0              
 ICCAP_VAR VB         0              

 #VD              ID              IB              IG             
  0               -9.914e-010     1.119e-008      4.466e-010     
  0.05            4.491e-009      -7.718e-009     1.3243e-009    
  0.1             8.478e-009      -1.9278e-008    4.787e-010     
  0.15            9.08e-009       1.1401e-008     5.024e-010     
  0.2             9.461e-009      1.1372e-008     5.274e-010     
  0.25            9.854e-009      1.1422e-008     5.501e-010     
  0.3             1.0287e-008     1.1445e-008     5.76e-010      
  0.35            1.0748e-008     1.1449e-008     5.961e-010     
  0.4             1.1221e-008     1.1443e-008     6.204e-010     
  0.45            1.166e-008      1.1379e-008     6.438e-010     
  0.5             1.2116e-008     1.1448e-008     6.664e-010     
  0.55            1.0147e-008     1.27e-008       1.6296e-009    
  0.6             1.0998e-008     -1.6302e-008    2.0126e-009    
  0.65            1.116e-008      -2.0703e-008    1.559e-009     
  0.7             1.1538e-008     -1.3548e-008    2.6945e-009    
  0.75            1.2366e-008     -2.3372e-008    2.3291e-009    
  0.8             1.2356e-008     -2.3677e-008    2.8453e-009    
  0.85            1.299e-008      -7.914e-009     1.3169e-009    
  0.9             1.3724e-008     -1.8812e-008    1.3547e-009    
  0.95            1.2404e-008     -1.8145e-008    1.9551e-009    
  1               1.426e-008      -1.9666e-008    2.6878e-009    
  1.05            1.296e-008      -2.3626e-008    1.3177e-009    
  1.1             1.4342e-008     -1.8399e-008    1.6234e-009    
  1.15            1.3378e-008     -1.4241e-008    1.59e-009      
  1.2             1.4315e-008     -1.3753e-008    1.5584e-009    
  1.25            1.5155e-008     -1.3357e-008    1.5317e-009    
  1.3             1.6136e-008     -1.2913e-008    1.5e-009       
  1.35            1.7079e-008     -1.2496e-008    3.19e-010      
  1.4             1.7915e-008     -9.552e-009     8.18e-011      
  1.45            1.9247e-008     -2.3445e-008    2.2101e-009    
  1.5             2.0329e-008     -2.2748e-008    2.1673e-009    
  1.55            2.1452e-008     -2.2513e-008    2.1341e-009    
  1.6             2.2734e-008     -2.2023e-008    2.0893e-009    
  1.65            2.4047e-008     -2.1523e-008    2.0347e-009    
  1.7             2.5424e-008     -2.0806e-008    1.9984e-009    
  1.75            2.695e-008      -2.0215e-008    1.9433e-009    
  1.8             2.8447e-008     -1.9466e-008    1.9102e-009    
END_DB

BEGIN_DB
 ICCAP_VAR VG         0.72           
 ICCAP_VAR VS         0              
 ICCAP_VAR VB         0              

 #VD              ID              IB              IG             
  0               6.67e-009       2.6463e-008     -2.1703e-009   
  0.05            2.3789e-005     -2.4712e-008    1.4938e-009    
  0.1             3.4063e-005     -7.633e-009     1.3214e-009    
  0.15            3.9346e-005     -1.1837e-008    -8.033e-010    
  0.2             4.2624e-005     9.88e-010       -2.0143e-009   
  0.25            4.5266e-005     1.7544e-008     -1.7911e-009   
  0.3             4.7485e-005     1.8145e-008     -1.5937e-009   
  0.35            4.9602e-005     2.0237e-008     -1.4624e-009   
  0.4             5.1712e-005     2.2245e-008     -1.402e-009    
  0.45            5.3704e-005     1.2944e-008     -2.5364e-009   
  0.5             5.566e-005      1.8132e-008     -1.6241e-009   
  0.55            5.7746e-005     1.9798e-008     -1.4812e-009   
  0.6             5.9838e-005     2.1956e-008     -1.4072e-009   
  0.65            6.1845e-005     1.2689e-008     -2.5587e-009   
  0.7             6.3853e-005     1.8987e-008     -1.6593e-009   
  0.75            6.5992e-005     1.9467e-008     -1.5061e-009   
  0.8             6.8161e-005     2.1619e-008     -1.4174e-009   
  0.85            7.0292e-005     2.3809e-008     -1.3873e-009   
  0.9             7.2451e-005     2.593e-008      -1.3873e-009   
  0.95            7.3682e-005     1.1476e-008     7.156e-010     
  1               7.5774e-005     8.38e-009       2.5848e-009    
  1.05            7.7513e-005     -1.7906e-008    1.8858e-009    
  1.1             7.9726e-005     -1.8103e-008    1.6327e-009    
  1.15            8.1982e-005     -1.9705e-008    1.4494e-009    
  1.2             8.4311e-005     -2.1713e-008    1.3529e-009    
  1.25            8.7487e-005     -1.2506e-008    -5.422e-010    
  1.3             8.9779e-005     -1.2496e-008    -4.267e-010    
  1.35            9.2104e-005     -1.2922e-008    -3.087e-010    
  1.4             9.5661e-005     -1.2652e-008    -1.219e-009    
  1.45            9.735e-005      -1.6307e-008    -1.9901e-009   
  1.5             0.000100669     3.058e-009      -2.6389e-009   
  1.55            0.000103188     -1.013e-009     -2.5193e-009   
  1.6             0.000105711     -6.55e-009      -2.3446e-009   
  1.65            0.000108282     -1.7875e-008    -1.4656e-009   
  1.7             0.000110382     -3.3573e-008    3.162e-010     
  1.75            0.000112275     -6.2076e-008    2.733e-009     
  1.8             0.00011587      -6.7884e-008    5.484e-010     
END_DB

BEGIN_DB
 ICCAP_VAR VG         1.08           
 ICCAP_VAR VS         0              
 ICCAP_VAR VB         0              

 #VD              ID              IB              IG             
  0               2.1603e-007     1.8319e-008     -1.9303e-009   
  0.05            0.00017658      -8.853e-009     1.3098e-009    
  0.1             0.00032854      -1.1799e-008    -7.87e-010     
  0.15            0.00045117      -2.0825e-008    1.9625e-009    
  0.2             0.00054367      -1.1075e-008    2.545e-010     
  0.25            0.00060993      -1.9262e-008    1.8668e-009    
  0.3             0.00065407      -1.8041e-008    2.0565e-009    
  0.35            0.000684        -1.187e-008     2.924e-010     
  0.4             0.00070653      -2.0746e-008    1.9596e-009    
  0.45            0.00072219      -1.1108e-008    2.534e-010     
  0.5             0.00073676      -1.9496e-008    1.8727e-009    
  0.55            0.00074827      -1.8042e-008    2.0519e-009    
  0.6             0.0007583       -1.1751e-008    2.972e-010     
  0.65            0.00076957      -2.0776e-008    1.9664e-009    
  0.7             0.0007787       -1.7926e-008    2.1534e-009    
  0.75            0.00078801      -1.2687e-008    1.4962e-009    
  0.8             0.00079679      -1.8638e-008    1.6101e-009    
  0.85            0.00080563      -1.8081e-008    1.7785e-009    
  0.9             0.0008145       -9.683e-009     1.636e-010     
  0.95            0.00082486      -1.1884e-008    -5.642e-010    
  1               0.00083206      -2.3796e-008    1.3112e-009    
  1.05            0.00084199      -1.1727e-008    -7.607e-010    
  1.1             0.00084863      -2.1271e-008    2.0032e-009    
  1.15            0.0008557       -1.1446e-008    2.691e-010     
  1.2             0.00086476      -2.0203e-008    1.9188e-009    
  1.25            0.00087247      -1.0947e-008    2.302e-010     
  1.3             0.00088194      -1.2168e-008    -4.807e-010    
  1.35            0.00089126      -1.1388e-008    -1.1159e-009   
  1.4             0.00090121      -1.3682e-008    -1.7572e-009   
  1.45            0.00090788      2.194e-009      -1.3851e-009   
  1.5             0.00091589      2.447e-009      -2.599e-009    
  1.55            0.00092164      -1.9978e-008    -2.7476e-009   
  1.6             0.00093156      -4.762e-009     -1.3879e-009   
  1.65            0.00093763      -3.6193e-008    3.386e-010     
  1.7             0.00094334      -7.3682e-008    2.8625e-009    
  1.75            0.00095172      -1.232e-007     4.913e-010     
  1.8             0.00095917      -1.6831e-007    2.7789e-009    
END_DB

BEGIN_DB
 ICCAP_VAR VG         1.44           
 ICCAP_VAR VS         0              
 ICCAP_VAR VB         0              

 #VD              ID              IB              IG             
  0               1.5215e-007     1.1902e-008     -2.6493e-009   
  0.05            0.00023463      1.1236e-008     2.7196e-009    
  0.1             0.00045962      -1.8164e-008    1.9672e-009    
  0.15            0.00067439      -1.1054e-008    2.57e-010      
  0.2             0.0008751       -1.9245e-008    1.8682e-009    
  0.25            0.00105977      -1.8051e-008    2.0576e-009    
  0.3             0.0012276       -9.25e-009      -2.491e-009    
  0.35            0.0013718       2.4995e-008     -1.3585e-009   
  0.4             0.0014902       1.0964e-008     8.039e-010     
  0.45            0.001588        1.9823e-008     -1.676e-009    
  0.5             0.0016629       1.7683e-008     -1.817e-009    
  0.55            0.0017191       1.6846e-008     -1.9702e-009   
  0.6             0.0017625       1.3787e-008     -1.4773e-009   
  0.65            0.0017954       1.9063e-008     -1.5568e-009   
  0.7             0.0018217       1.8091e-008     -1.6786e-009   
  0.75            0.0018435       1.7658e-008     -1.8089e-009   
  0.8             0.0018625       1.7109e-008     -1.9649e-009   
  0.85            0.0018797       1.3676e-008     -1.4773e-009   
  0.9             0.0018959       1.9146e-008     -1.5593e-009   
  0.95            0.0019101       1.8084e-008     -1.6648e-009   
  1               0.0019244       1.7755e-008     -1.813e-009    
  1.05            0.0019377       1.689e-008      -1.9679e-009   
  1.1             0.0019503       1.3539e-008     -1.4734e-009   
  1.15            0.0019629       1.9118e-008     -1.556e-009    
  1.2             0.0019753       1.8209e-008     -1.6642e-009   
  1.25            0.0019872       1.7729e-008     -1.8082e-009   
  1.3             0.001999        1.6884e-008     -1.9599e-009   
  1.35            0.0020105       1.3337e-008     -1.4728e-009   
  1.4             0.0020222       1.8768e-008     -1.5505e-009   
  1.45            0.0020339       1.7292e-008     -1.6608e-009   
  1.5             0.0020449       1.6116e-008     -1.7976e-009   
  1.55            0.0020563       1.3733e-008     -1.9572e-009   
  1.6             0.0020668       9.463e-009      -2.1142e-009   
  1.65            0.0020778       2.835e-009      -2.2611e-009   
  1.7             0.0020891       -7.274e-009     -2.3896e-009   
  1.75            0.0020984       -1.3882e-008    -1.7966e-009   
  1.8             0.0021091       -4.8383e-008    -2.249e-010    
END_DB

BEGIN_DB
 ICCAP_VAR VG         1.8            
 ICCAP_VAR VS         0              
 ICCAP_VAR VB         0              

 #VD              ID              IB              IG             
  0               1.5791e-007     -7.861e-009     2.8932e-009    
  0.05            0.00025673      -2.3018e-008    -1.5534e-009   
  0.1             0.00050904      5.159e-009      -1.4159e-009   
  0.15            0.00075715      2.0446e-008     -1.4695e-009   
  0.2             0.0010005       1.9178e-008     -1.5471e-009   
  0.25            0.0012384       1.3139e-008     2.2894e-009    
  0.3             0.0014666       -1.4348e-008    1.59e-009      
  0.35            0.0016845       -9.427e-009     5.27e-011      
  0.4             0.001892        -1.185e-008     -6.986e-010    
  0.45            0.0020835       -2.259e-008     2.1189e-009    
  0.5             0.0022591       -1.2308e-008    3.125e-010     
  0.55            0.0024167       -2.1509e-008    2.0209e-009    
  0.6             0.0025536       -1.1505e-008    2.729e-010     
  0.65            0.0026711       -1.9976e-008    1.9237e-009    
  0.7             0.0027673       -1.7885e-008    2.1114e-009    
  0.75            0.0028466       -1.2329e-008    3.158e-010     
  0.8             0.0029095       -2.1407e-008    2.015e-009     
  0.85            0.0029575       -1.1533e-008    2.748e-010     
  0.9             0.0029998       -2.0096e-008    1.9191e-009    
  0.95            0.0030317       -1.0752e-008    2.365e-010     
  1               0.0030607       -1.8655e-008    1.8248e-009    
  1.05            0.0030846       -9.995e-009     1.923e-010     
  1.1             0.0031066       -1.1679e-008    -5.348e-010    
  1.15            0.0031227       -2.3869e-008    1.3125e-009    
  1.2             0.0031443       -1.1757e-008    -7.253e-010    
  1.25            0.0031623       -2.1924e-008    2.0481e-009    
  1.3             0.003178        -1.1832e-008    2.901e-010     
  1.35            0.003196        -2.0829e-008    1.9631e-009    
  1.4             0.0032094       -1.1101e-008    2.454e-010     
  1.45            0.0032282       -1.9183e-008    1.8646e-009    
  1.5             0.0032461       -1.0453e-008    2.035e-010     
  1.55            0.003263        -1.196e-008     -5.149e-010    
  1.6             0.0032854       -1.0873e-008    -1.1399e-009   
  1.65            0.003303        -1.2819e-008    -1.7794e-009   
  1.7             0.0033139       4.322e-009      -1.3809e-009   
  1.75            0.0033284       5.937e-009      -2.5777e-009   
  1.8             0.0033395       -1.9802e-008    -2.3825e-009   
END_DB

BEGIN_DB
 ICCAP_VAR VG         0              
 ICCAP_VAR VS         0              
 ICCAP_VAR VB         -0.9           

 #VD              ID              IB              IG             
  0               8.95e-011       -2.0553e-007    1.4487e-009    
  0.05            2.0647e-009     -1.9035e-007    2.3921e-009    
  0.1             4.2259e-009     -1.7656e-007    1.542e-010     
  0.15            9.152e-010      -1.5705e-007    -2.3939e-009   
  0.2             -2.7171e-009    -2.0609e-007    -1.8055e-009   
  0.25            -3.2368e-009    -1.9486e-007    1.7462e-009    
  0.3             2.0826e-009     -1.8962e-007    2.198e-009     
  0.35            3.9843e-009     -1.7593e-007    -7.35e-011     
  0.4             5.659e-010      -1.5842e-007    -2.606e-009    
  0.45            -3.2593e-009    -2.0604e-007    -1.6043e-009   
  0.5             -3.0351e-009    -1.9839e-007    2.16e-009      
  0.55            2.28e-009       -1.8848e-007    1.9905e-009    
  0.6             3.706e-009      -1.7597e-007    -1.4424e-009   
  0.65            -2.1691e-009    -2.0702e-007    -2.3464e-009   
  0.7             -4.2468e-009    -1.9969e-007    -2.265e-010    
  0.75            -1.1111e-009    -1.9195e-007    2.5268e-009    
  0.8             2.7419e-009     -1.8575e-007    1.7731e-009    
  0.85            3.4014e-009     -1.725e-007     -1.6193e-009   
  0.9             -2.1663e-009    -2.0635e-007    -2.1495e-009   
  0.95            -3.9786e-009    -1.9752e-007    2.53e-011      
  1               -7.196e-010     -1.8874e-007    2.7649e-009    
  1.05            3.3934e-009     -1.8403e-007    1.5548e-009    
  1.1             3.0642e-009     -1.6531e-007    -1.3585e-009   
  1.15            -1.9366e-009    -2.0359e-007    -2.7767e-009   
  1.2             -4.2571e-009    -2.0092e-007    -9.608e-010    
  1.25            -2.0979e-009    -2.0109e-007    1.4431e-009    
  1.3             2.0655e-009     -1.9045e-007    2.3976e-009    
  1.35            4.2365e-009     -1.7649e-007    1.685e-010     
  1.4             9.301e-010      -1.5702e-007    -2.3794e-009   
  1.45            -2.7001e-009    -2.0699e-007    -1.8125e-009   
  1.5             -3.2376e-009    -1.9472e-007    1.7263e-009    
  1.55            2.0788e-009     -1.8968e-007    2.2046e-009    
  1.6             4.0001e-009     -1.7621e-007    -6.1e-011      
  1.65            5.809e-010      -1.5831e-007    -2.6043e-009   
  1.7             -3.2294e-009    -2.0601e-007    -1.6126e-009   
  1.75            -3.0398e-009    -1.9801e-007    2.1411e-009    
  1.8             2.2721e-009     -1.8852e-007    1.993e-009     
END_DB

BEGIN_DB
 ICCAP_VAR VG         0.36           
 ICCAP_VAR VS         0              
 ICCAP_VAR VB         -0.9           

 #VD              ID              IB              IG             
  0               -3.967e-010     -1.8331e-007    6.586e-010     
  0.05            6.134e-010      -1.7925e-007    1.3356e-009    
  0.1             2.1194e-009     -1.9121e-007    2.5544e-009    
  0.15            4.484e-009      -1.7743e-007    3.803e-010     
  0.2             1.294e-009      -1.5726e-007    -2.114e-009    
  0.25            -2.2713e-009    -2.0579e-007    -1.9418e-009   
  0.3             -3.3557e-009    -1.9391e-007    1.4845e-009    
  0.35            2.1881e-009     -1.905e-007     2.3634e-009    
  0.4             4.3102e-009     -1.7637e-007    1.168e-010     
  0.45            9.937e-010      -1.5776e-007    -2.4603e-009   
  0.5             -2.6772e-009    -2.0664e-007    -1.7633e-009   
  0.55            -3.0114e-009    -1.9529e-007    1.8399e-009    
