! VERSION = 6.00
BEGIN_HEADER
 ICCAP_INPUTS
  VG         V  B GROUND SMU4 0.001 LIN        1    0          1.8        37   0.05      
  VS         V  E GROUND SMU2 0.1 CON        0
  VB         V  C GROUND SMU3 0.1 LIN        3    0          -1.8       3    -0.9      
  VD         V  S GROUND SMU1 0.1 LIN        2    0.1        1.8        2    1.7       
 ICCAP_OUTPUTS
  IG         I  B GROUND SMU4 B
  ID         I  S GROUND SMU1 B
  IB         I  C GROUND SMU3 B
END_HEADER

BEGIN_DB
 ICCAP_VAR VS         0              
 ICCAP_VAR VB         0              
 ICCAP_VAR VD         0.1            

 #VG              IG              ID              IB             
  0               1.213e-010      3.119e-010      1.0754e-008    
  0.05            -6.37e-011      -2.0558e-009    -1.206e-008    
  0.1             -2.77e-010      -2.1335e-009    -1.2204e-008   
  0.15            -4.905e-010     -2.1893e-009    -1.1831e-008   
  0.2             -6.878e-010     -2.2307e-009    -1.1098e-008   
  0.25            -8.436e-010     -2.2436e-009    -1.0146e-008   
  0.3             1.9017e-009     -1.5815e-009    -1.3702e-008   
  0.35            1.5082e-009     1.9221e-009     -8.323e-009    
  0.4             1.6823e-009     2.0873e-009     1.1407e-008    
  0.45            3.154e-010      4.4719e-009     1.1407e-008    
  0.5             -2.7155e-009    9.47e-009       -1.2135e-008   
  0.55            1.994e-009      4.0653e-008     -2.1039e-008   
  0.6             -2.802e-010     1.4828e-007     1.132e-008     
  0.65            -7.82e-010      4.6294e-007     -1.1652e-008   
  0.7             2.6964e-009     1.1931e-006     8.799e-009     
  0.75            6.064e-010      2.6838e-006     1.1456e-008    
  0.8             9.695e-010      5.1589e-006     9.56e-009      
  0.85            -1.949e-010     9.012e-006      1.2246e-008    
  0.9             -1.0504e-009    1.3985e-005     2.2812e-008    
  0.95            1.976e-010      1.9726e-005     -1.1587e-008   
  1               1.4172e-009     2.6236e-005     -2.4552e-008   
  1.05            1.2858e-009     3.3076e-005     -8.417e-009    
  1.1             2.772e-009      3.9942e-005     -1.1527e-008   
  1.15            5.159e-010      4.6947e-005     1.1536e-008    
  1.2             -1.7834e-009    5.3626e-005     2.2896e-008    
  1.25            -1.4319e-009    6.0003e-005     4.806e-009     
  1.3             -1.349e-009     6.6144e-005     9.915e-009     
  1.35            -2.6046e-009    7.1985e-005     1.1565e-008    
  1.4             -2.0464e-009    7.7437e-005     9.41e-010      
  1.45            -1.5387e-009    8.2669e-005     2.91e-009      
  1.5             -1.3804e-009    8.7622e-005     7.505e-009     
  1.55            -1.3019e-009    9.2294e-005     1.1486e-008    
  1.6             -2.3722e-009    9.6689e-005     1.2239e-008    
  1.65            -1.7471e-009    0.000100767     1.843e-009     
  1.7             -1.427e-009     0.000104654     4.896e-009     
  1.75            -1.3435e-009    0.000108312     9.95e-009      
  1.8             -2.5971e-009    0.000111783     1.1592e-008    
END_DB

BEGIN_DB
 ICCAP_VAR VS         0              
 ICCAP_VAR VB         0              
 ICCAP_VAR VD         1.8            

 #VG              IG              ID              IB             
  0               1.3628e-009     1.4269e-009     -1.2152e-008   
  0.05            1.0814e-009     2.2903e-009     -8.773e-009    
  0.1             1.2273e-009     2.1282e-009     1.0974e-008    
  0.15            -1.3945e-009    1.1561e-009     2.8063e-008    
  0.2             -1.1717e-009    -2.132e-009     1.125e-008     
  0.25            1.426e-009      -1.087e-009     -2.6621e-008   
  0.3             9.785e-010      2.4351e-009     -8.399e-009    
  0.35            -1.5027e-009    1.3575e-009     2.6711e-008    
  0.4             -1.421e-009     1.5282e-009     8.179e-009     
  0.45            -1.387e-009     8.1534e-009     1.0228e-008    
  0.5             2.781e-009      3.5329e-008     2.7984e-008    
  0.55            -1.8597e-009    1.3492e-007     2.7619e-008    
  0.6             -8.261e-010     4.5971e-007     -1.1849e-008   
  0.65            2.7851e-009     1.2837e-006     2.5715e-008    
  0.7             1.9559e-009     3.0732e-006     7.982e-009     
  0.75            -2.4345e-009    6.6483e-006     7.299e-009     
  0.8             2.8245e-009     1.225e-005      -1.8417e-008   
  0.85            2.8253e-009     2.0802e-005     -1.0463e-008   
  0.9             2.3322e-009     3.217e-005      -1.5338e-008   
  0.95            1.6739e-009     4.6347e-005     -2.27e-008     
  1               1.3537e-009     6.2938e-005     -3.0526e-008   
  1.05            1.2618e-009     8.1409e-005     -3.375e-008    
  1.1             2.6387e-009     0.000101617     -4.0922e-008   
  1.15            2.7987e-009     0.00012302      -2.3652e-008   
  1.2             2.2398e-009     0.00014572      -3.2011e-008   
  1.25            1.6015e-009     0.00016877      -3.7312e-008   
  1.3             1.3332e-009     0.00019249      -4.1549e-008   
  1.35            2.8784e-009     0.00021635      -4.2109e-008   
  1.4             2.5409e-009     0.00024109      -3.3709e-008   
  1.45            1.873e-009      0.00026559      -3.5834e-008   
  1.5             1.4105e-009     0.00029028      -4.0865e-008   
  1.55            1.2873e-009     0.00031499      -4.0472e-008   
  1.6             2.7831e-009     0.00033973      -4.2779e-008   
  1.65            2.195e-009      0.00036473      -3.1399e-008   
  1.7             1.5678e-009     0.00038939      -3.4915e-008   
  1.75            1.3301e-009     0.00041402      -3.7115e-008   
  1.8             2.8767e-009     0.00043856      -3.6479e-008   
END_DB

BEGIN_DB
 ICCAP_VAR VS         0              
 ICCAP_VAR VB         -0.9           
 ICCAP_VAR VD         0.1            

 #VG              IG              ID              IB             
  0               5.381e-010      6.257e-010      2.2173e-008    
  0.05            2.3447e-009     -6.511e-010     -1.7136e-008   
  0.1             1.253e-009      2.1311e-009     -4.454e-009    
  0.15            -1.3881e-009    1.1786e-009     2.8119e-008    
  0.2             -1.1945e-009    -2.126e-009     1.1126e-008    
  0.25            -1.3569e-009    -1.9527e-009    -1.0594e-008   
  0.3             1.32e-010       -1.9264e-009    -1.1925e-008   
  0.35            1.5472e-009     -1.0009e-009    -2.5515e-008   
  0.4             8.6e-010        2.3746e-009     -8.405e-009    
  0.45            9.93e-010       2.369e-009      9.025e-009     
  0.5             -1.4913e-009    1.0522e-009     2.688e-008     
  0.55            -1.4164e-009    1.704e-010      8.17e-009      
  0.6             -1.3835e-009    2.325e-009      1.0039e-008    
  0.65            1.7143e-009     1.1683e-008     1.0601e-008    
  0.7             1.3585e-009     5.1163e-008     -8.744e-009    
  0.75            -1.6942e-009    1.8495e-007     2.7984e-008    
  0.8             -5.857e-010     5.4394e-007     -1.2145e-008   
  0.85            2.8813e-009     1.3404e-006     9.825e-009     
  0.9             -1.7732e-009    2.9503e-006     2.2853e-008    
  0.95            -1.4292e-009    5.53e-006       4.854e-009     
  1               -1.3482e-009    9.381e-006      9.591e-009     
  1.05            -6.47e-011      1.4281e-005     1.1629e-008    
  1.1             -5.894e-010     2.0268e-005     -1.214e-008    
  1.15            -9.639e-010     2.6903e-005     -1.0235e-008   
  1.2             2.908e-010      3.3585e-005     -1.1991e-008   
  1.25            1.4876e-009     4.0501e-005     -2.2368e-008   
  1.3             1.3031e-009     4.7287e-005     -8.408e-009    
  1.35            2.8495e-009     5.3796e-005     -9.985e-009    
  1.4             -1.6557e-009    6.0249e-005     2.0348e-008    
  1.45            -1.4016e-009    6.6205e-005     5.69e-009      
  1.5             -1.3292e-009    7.185e-005      1.0656e-008    
  1.55            -2.5246e-009    7.7196e-005     1.1841e-008    
  1.6             -1.9179e-009    8.2145e-005     1.09e-009      
  1.65            -1.4753e-009    8.6859e-005     3.738e-009     
  1.7             -1.3646e-009    9.129e-005      8.344e-009     
  1.75            -2.6851e-009    9.5466e-005     1.1681e-008    
  1.8             -2.2426e-009    9.9303e-005     7.68e-010      
END_DB

BEGIN_DB
 ICCAP_VAR VS         0              
 ICCAP_VAR VB         -0.9           
 ICCAP_VAR VD         1.8            

 #VG              IG              ID              IB             
  0               2.845e-009      -6.533e-010     -1.9299e-008   
  0.05            -1.3163e-009    1.4781e-009     1.9952e-008    
  0.1             -2.6814e-009    1.436e-010      1.1872e-008    
  0.15            -9.173e-010     -2.2478e-009    9.5e-010       
  0.2             1.7423e-009     -1.6455e-009    -1.2334e-008   
  0.25            1.6058e-009     1.6596e-009     -8.807e-009    
  0.3             -1.27e-011      2.0068e-009     9.93e-009      
  0.35            1.539e-010      2.0947e-009     1.1399e-008    
  0.4             3.413e-010      2.2145e-009     1.1388e-008    
  0.45            5.216e-010      2.4401e-009     1.0551e-008    
  0.5             -1.3355e-009    2.3316e-009     2.3011e-008    
  0.55            -2.7114e-009    4.7724e-009     1.1536e-008    
  0.6             2.8452e-009     2.2538e-008     1.1226e-008    
  0.65            -1.6341e-009    9.8318e-008     1.9629e-008    
  0.7             -1.4038e-009    3.4973e-007     1.0632e-008    
  0.75            -1.3294e-009    1.04289e-006    9.324e-009     
  0.8             2.654e-009      2.5376e-006     1.7251e-008    
  0.85            1.9937e-009     5.4632e-006     -5.529e-009    
  0.9             1.4533e-009     1.0513e-005     -1.3521e-008   
  0.95            -1.4709e-009    1.856e-005      -9.512e-009    
  1               -2.1789e-009    2.9229e-005     -2.1802e-008   
  1.05            -2.5497e-009    4.2947e-005     -2.3894e-008   
  1.1             -2.7355e-009    5.9263e-005     -2.5762e-008   
  1.15            -2.6832e-009    7.7612e-005     -2.3601e-008   
  1.2             -2.2669e-009    9.776e-005      -2.3921e-008   
  1.25            -1.3901e-009    0.00011932      -3.4971e-008   
  1.3             -2.6567e-009    0.0001415       -2.9157e-008   
  1.35            -2.1998e-009    0.00016474      -2.85e-008     
  1.4             -1.6251e-009    0.00018843      -2.68e-008     
  1.45            -1.3757e-009    0.00021245      -2.3255e-008   
  1.5             -2.6201e-009    0.0002366       -3.0832e-008   
  1.55            -2.121e-009     0.00026123      -2.9458e-008   
  1.6             -1.5782e-009    0.00028594      -2.6568e-008   
  1.65            -1.3628e-009    0.00031071      -2.1993e-008   
  1.7             -2.5848e-009    0.00033512      -2.8749e-008   
  1.75            -2.055e-009     0.00035988      -2.6848e-008   
  1.8             -1.5387e-009    0.00038458      -2.3347e-008   
END_DB

BEGIN_DB
 ICCAP_VAR VS         0              
 ICCAP_VAR VB         -1.8           
 ICCAP_VAR VD         0.1            

 #VG              IG              ID              IB             
  0               -1.3122e-009    -1.2087e-009    1.0719e-008    
  0.05            -2.7209e-009    3.79e-011       1.0856e-008    
  0.1             2.2735e-009     -6.926e-010     -1.8893e-008   
  0.15            1.3302e-009     2.0852e-009     -5.883e-009    
  0.2             -2.3149e-009    4.972e-010      1.5938e-008    
  0.25            -1.2728e-009    -2.0794e-009    2.545e-009     
  0.3             2.104e-010      -1.865e-009     -1.1195e-008   
  0.35            6.73e-011       -1.9841e-009    -1.0847e-008   
  0.4             -1.064e-010     -2.0979e-009    -1.0888e-008   
  0.45            -3.15e-010      -2.176e-009     -1.1204e-008   
  0.5             -5.208e-010     -2.216e-009     -1.1371e-008   
  0.55            -7.154e-010     -2.2204e-009    -1.1097e-008   
  0.6             -8.706e-010     -2.0558e-009    -1.0733e-008   
  0.65            1.877e-009      -6.38e-010      -1.4173e-008   
  0.7             1.6145e-009     5.3793e-009     -9.014e-009    
  0.75            -2.6361e-009    2.3066e-008     -1.1366e-008   
  0.8             -2.1463e-009    9.3803e-008     4.5e-010       
  0.85            8.138e-010      3.0762e-007     -1.5303e-008   
  0.9             -1.4885e-009    8.2943e-007     1.585e-008     
  0.95            -2.67e-009      1.8687e-006     -2.3053e-008   
  1               -8.343e-010     3.7416e-006     -1.1465e-008   
  1.05            1.5765e-009     6.6439e-006     -1.4835e-008   
  1.1             1.2898e-009     1.07875e-005    -8.577e-009    
  1.15            -1.4388e-009    1.6177e-005     -8.324e-009    
  1.2             -1.3189e-009    2.2335e-005     9.348e-009     
  1.25            -2.636e-009     2.8993e-005     1.1051e-008    
  1.3             -2.1561e-009    3.5765e-005     7.01e-010      
  1.35            -1.5917e-009    4.2574e-005     2.853e-009     
  1.4             -1.3589e-009    4.9233e-005     7.046e-009     
  1.45            -1.2892e-009    5.561e-005      1.074e-008     
  1.5             -2.4532e-009    6.1702e-005     1.2032e-008    
  1.55            -7.324e-010     6.7364e-005     -1.1277e-008   
  1.6             -1.0889e-009    7.285e-005      -1.0749e-008   
  1.65            1.659e-010      7.7783e-005     -1.1792e-008   
  1.7             -2.681e-010     8.2654e-005     -1.0663e-008   
  1.75            -7.666e-010     8.7197e-005     -1.1247e-008   
  1.8             -1.1223e-009    9.1471e-005     -1.0233e-008   
END_DB

BEGIN_DB
 ICCAP_VAR VS         0              
 ICCAP_VAR VB         -1.8           
 ICCAP_VAR VD         1.8            

 #VG              IG              ID              IB             
  0               1.0257e-009     9.216e-010      2.1694e-008    
  0.05            1.3707e-009     -1.1907e-009    -2.6331e-008   
  0.1             1.0493e-009     2.3307e-009     -8.155e-009    
  0.15            -1.4743e-009    1.0025e-009     2.6479e-008    
  0.2             -1.8709e-009    -1.3684e-009    9.02e-009      
  0.25            -5.406e-010     -2.2443e-009    -1.1256e-008   
  0.3             -7.408e-010     -2.272e-009     -1.102e-008    
  0.35            -8.819e-010     -2.2611e-009    -1.0738e-008   
  0.4             1.8628e-009     -1.6338e-009    -1.4246e-008   
  0.45            1.5927e-009     1.7992e-009     -9.128e-009    
  0.5             1.7539e-009     1.6621e-009     1.0773e-008    
  0.55            3.748e-010      2.9252e-009     1.0735e-008    
  0.6             5.542e-010      5.7963e-009     1.0684e-008    
  0.65            -2.5068e-009    1.6352e-008     -2.6166e-008   
  0.7             -1.9401e-009    7.8485e-008     1.267e-009     
  0.75            -1.4321e-009    3.0143e-007     -9.303e-009    
  0.8             -1.3162e-009    8.9213e-007     8.932e-009     
  0.85            2.8391e-009     2.1675e-006     8.636e-009     
  0.9             -1.5369e-009    4.8262e-006     1.8435e-008    
  0.95            -1.345e-009     9.3217e-006     2.985e-009     
  1               -1.5156e-009    1.6421e-005     -1.6174e-008   
  1.05            -2.1376e-009    2.6342e-005     -2.0349e-008   
  1.1             -2.5137e-009    3.9298e-005     -2.2868e-008   
  1.15            -2.731e-009     5.4945e-005     -2.4487e-008   
  1.2             -2.7164e-009    7.2807e-005     -2.2831e-008   
  1.25            -2.3598e-009    9.2561e-005     -2.2593e-008   
  1.3             -1.7671e-009    0.000113697     -2.2904e-008   
  1.35            -1.9996e-009    0.00013586      -3.7645e-008   
  1.4             -1.5043e-009    0.00015875      -2.3787e-008   
  1.45            -1.3408e-009    0.00018221      -2.0278e-008   
  1.5             -2.5061e-009    0.00020597      -2.889e-008    
  1.55            -1.9337e-009    0.00023022      -2.7675e-008   
  1.6             -1.4757e-009    0.00025462      -2.4667e-008   
  1.65            -1.3325e-009    0.00027921      -1.9715e-008   
  1.7             -2.4666e-009    0.00030353      -2.7956e-008   
  1.75            -1.8815e-009    0.00032819      -2.5817e-008   
  1.8             -1.4532e-009    0.00035283      -2.2169e-008   
END_DB

