! VERSION = 6.00
BEGIN_HEADER
 ICCAP_INPUTS
  VG         V  B GROUND SMU4 0.001 LIN        2    0          1.8        6    0.36      
  VS         V  E GROUND SMU2 0.1 CON        0
  VD         V  S GROUND SMU1 0.1 LIN        1    0          1.8        37   0.05      
  VB         V  C GROUND SMU3 0.1 LIN        3    0          -0.9       2    -0.9      
 ICCAP_OUTPUTS
  ID         I  S GROUND SMU1 B
  IB         I  C GROUND SMU3 B
  IG         I  B GROUND SMU4 B
END_HEADER

BEGIN_DB
 ICCAP_VAR VG         0              
 ICCAP_VAR VS         0              
 ICCAP_VAR VB         0              

 #VD              ID              IB              IG             
  0               -1.2021e-009    -2.817e-009     -1.2561e-009   
  0.05            -1.8976e-009    4.84e-009       -5.578e-010    
  0.1             -1.7401e-009    -9.934e-009     -7.608e-010    
  0.15            -1.4999e-009    -9.042e-009     1.183e-009     
  0.2             9.899e-010      -3.122e-009     1.9419e-009    
  0.25            1.1722e-009     9.489e-009      -1.199e-009    
  0.3             -1.1668e-009    8.809e-009      -1.3837e-009   
  0.35            -1.8687e-009    -9.685e-009     1.06e-011      
  0.4             -1.939e-009     -9.172e-009     -1.68e-010     
  0.45            -1.0906e-009    -1.2411e-008    1.1389e-009    
  0.5             9.587e-010      -8.575e-009     1.8356e-009    
  0.55            1.0561e-009     9.518e-009      -1.2137e-009   
  0.6             -1.2819e-009    7.239e-009      -1.2586e-009   
  0.65            -1.801e-009     -9.628e-009     1.892e-010     
  0.7             -1.8835e-009    -9.782e-009     8e-013         
  0.75            -1.9439e-009    -9.423e-009     -1.827e-010    
  0.8             -1.9732e-009    -9.005e-009     -3.07e-010     
  0.85            -1.9461e-009    -8.982e-009     -4.532e-010    
  0.9             -1.8439e-009    -9.561e-009     -6.306e-010    
  0.95            -1.6817e-009    -1.0063e-008    -8.322e-010    
  1               -1.5521e-009    -9.024e-009     1.1851e-009    
  1.05            1.0002e-009     -2.998e-009     1.9835e-009    
  1.1             1.2072e-009     9.771e-009      -1.1931e-009   
  1.15            -1.1376e-009    9.672e-009      -1.4179e-009   
  1.2             9.431e-010      -7.255e-009     1.7773e-009    
  1.25            9.853e-010      8.507e-009      -1.221e-009    
  1.3             -1.371e-009     6.516e-009      -1.1649e-009   
  1.35            -1.7506e-009    -9.499e-009     1.1188e-009    
  1.4             9.403e-010      -7.335e-009     1.7691e-009    
  1.45            9.712e-010      8.523e-009      -1.2227e-009   
  1.5             -1.3855e-009    6.443e-009      -1.1492e-009   
  1.55            -1.7404e-009    -9.315e-009     1.116e-009     
  1.6             9.369e-010      -6.971e-009     1.7574e-009    
  1.65            9.579e-010      8.712e-009      -1.223e-009    
  1.7             -1.4075e-009    6.198e-009      -1.1338e-009   
  1.75            -1.7327e-009    -9.272e-009     1.1142e-009    
  1.8             9.34e-010       -6.849e-009     1.7488e-009    
END_DB

BEGIN_DB
 ICCAP_VAR VG         0.36           
 ICCAP_VAR VS         0              
 ICCAP_VAR VB         0              

 #VD              ID              IB              IG             
  0               -1.1079e-009    8.322e-009      -1.2354e-009   
  0.05            4.271e-010      5.535e-009      -1.2282e-009   
  0.1             6.812e-010      5.396e-009      -1.2204e-009   
  0.15            8.619e-010      6.783e-009      -1.2073e-009   
  0.2             1.0283e-009     8.197e-009      -2.1752e-009   
  0.25            1.966e-009      -9.874e-009     1.3464e-009    
  0.3             1.9831e-009     -2.971e-009     1.9773e-009    
  0.35            2.5571e-009     9.612e-009      7.896e-010     
  0.4             2.4027e-009     1.1015e-008     9.531e-010     
  0.45            2.2499e-009     1.2057e-008     1.1276e-009    
  0.5             2.1119e-009     1.3211e-008     1.3107e-009    
  0.55            2.7818e-009     8.638e-009      1.553e-010     
  0.6             2.868e-009      8.712e-009      2.989e-010     
  0.65            2.9107e-009     8.297e-009      4.232e-010     
  0.7             2.9041e-009     8.287e-009      5.264e-010     
  0.75            2.8311e-009     9.046e-009      6.414e-010     
  0.8             2.7233e-009     9.615e-009      7.789e-010     
  0.85            2.5672e-009     1.0547e-008     9.41e-010      
  0.9             2.42e-009       1.1983e-008     1.1214e-009    
  0.95            2.2618e-009     1.306e-008      1.3071e-009    
  1               2.9107e-009     8.575e-009      1.412e-010     
  1.05            2.9864e-009     8.816e-009      2.903e-010     
  1.1             3.0284e-009     8.338e-009      4.204e-010     
  1.15            3.0218e-009     8.235e-009      5.178e-010     
  1.2             2.9584e-009     8.867e-009      6.318e-010     
  1.25            2.8452e-009     9.633e-009      7.666e-010     
  1.3             2.6892e-009     1.115e-008      9.296e-010     
  1.35            2.5348e-009     1.1915e-008     1.101e-009     
  1.4             2.3873e-009     1.2513e-008     1.2831e-009    
  1.45            3.0104e-009     8.316e-009      1.299e-010     
  1.5             3.0773e-009     8.414e-009      2.817e-010     
  1.55            3.124e-009      7.944e-009      4.042e-010     
  1.6             3.1151e-009     8.239e-009      5.151e-010     
  1.65            3.0557e-009     9.431e-009      6.254e-010     
  1.7             2.9435e-009     1.0491e-008     7.552e-010     
  1.75            2.788e-009      1.1111e-008     9.124e-010     
  1.8             2.6226e-009     1.19e-008       1.0979e-009    
END_DB

BEGIN_DB
 ICCAP_VAR VG         0.72           
 ICCAP_VAR VS         0              
 ICCAP_VAR VB         0              

 #VD              ID              IB              IG             
  0               1.4724e-009     5.473e-009      1.2078e-009    
  0.05            8.2684e-007     -1.3149e-008    1.6701e-009    
  0.1             1.275e-006      1.1111e-008     1.4284e-009    
  0.15            1.4959e-006     -1.0514e-008    -1.5156e-009   
  0.2             1.6082e-006     1.0592e-008     -1.6024e-009   
  0.25            1.6444e-006     1.2121e-008     1.41e-009      
  0.3             1.6752e-006     -9.734e-009     1.1877e-009    
  0.35            1.7116e-006     -9.401e-009     -3.054e-010    
  0.4             1.7482e-006     1.265e-009      -1.246e-009    
  0.45            1.7503e-006     8.251e-009      5.169e-010     
  0.5             1.7672e-006     -2.392e-009     1.0854e-009    
  0.55            1.8135e-006     -8.592e-009     -6.01e-010     
  0.6             1.8307e-006     4.294e-009      -1.2238e-009   
  0.65            1.8158e-006     8.654e-009      7.38e-010      
  0.7             1.8372e-006     -3.222e-009     1.1437e-009    
  0.75            1.885e-006      -1.0522e-008    -9.927e-010    
  0.8             1.9008e-006     5.243e-009      -1.2083e-009   
  0.85            1.875e-006      1.0681e-008     1.043e-009     
  0.9             1.9004e-006     -7.757e-009     1.1848e-009    
  0.95            1.9216e-006     -9.873e-009     -2.182e-010    
  1               1.9534e-006     1.438e-008      -1.3958e-009   
  1.05            1.9565e-006     8.204e-009      2.731e-010     
  1.1             1.954e-006      -1.5069e-008    1.389e-009     
  1.15            1.9762e-006     -1.0983e-008    -1.5461e-009   
  1.2             2.0044e-006     1.1495e-008     -1.5536e-009   
  1.25            1.9942e-006     1.2534e-008     1.4511e-009    
  1.3             2.0047e-006     -1.2024e-008    1.1867e-009    
  1.35            2.0379e-006     -9.02e-009      -5.595e-010    
  1.4             2.0497e-006     3.831e-009      -1.229e-009    
  1.45            2.0275e-006     8.179e-009      7.075e-010     
  1.5             2.0413e-006     -2.903e-009     1.1373e-009    
  1.55            2.0889e-006     -9.563e-009     -9.411e-010    
  1.6             2.0992e-006     5.29e-009       -1.2108e-009   
  1.65            2.0681e-006     1.0225e-008     9.99e-010      
  1.7             2.0871e-006     -7.513e-009     1.1852e-009    
  1.75            2.1073e-006     -1.0334e-008    -1.872e-010    
  1.8             2.1383e-006     1.2703e-008     -1.4237e-009   
END_DB

BEGIN_DB
 ICCAP_VAR VG         1.08           
 ICCAP_VAR VS         0              
 ICCAP_VAR VB         0              

 #VD              ID              IB              IG             
  0               -1.196e-008     -1.5211e-008    2.294e-009     
  0.05            4.1629e-006     8.402e-009      1.1456e-009    
  0.1             7.7607e-006     -1.0628e-008    -1.0032e-009   
  0.15            1.07342e-005    5.23e-009       -1.2069e-009   
  0.2             1.3089e-005     9.571e-009      -2.1271e-009   
  0.25            1.4859e-005     1.1983e-008     1.3819e-009    
  0.3             1.6118e-005     -1.6902e-008    1.2455e-009    
  0.35            1.7004e-005     -1.0198e-008    1.1925e-009    
  0.4             1.7676e-005     -9.169e-009     -7.809e-010    
  0.45            1.8051e-005     5.989e-009      -2.1638e-009   
  0.5             1.8243e-005     1.1886e-008     1.3669e-009    
  0.55            1.844e-005      -1.6692e-008    1.2577e-009    
  0.6             1.871e-005      -9.01e-009      -4.574e-010    
  0.65            1.8876e-005     5.557e-009      -1.2132e-009   
  0.7             1.895e-005      8.425e-009      4.123e-010     
  0.75            1.904e-005      -2.514e-009     1.12e-009      
  0.8             1.9186e-005     -9.674e-009     -1.356e-010    
  0.85            1.9355e-005     2.922e-009      -1.2351e-009   
  0.9             1.9343e-005     9.979e-009      9.122e-010     
  0.95            1.9467e-005     -1.1204e-008    1.1862e-009    
  1               1.967e-005      -8.837e-009     -5.07e-010     
  1.05            1.9774e-005     5.215e-009      -1.2115e-009   
  1.1             1.9768e-005     1.1882e-008     1.3624e-009    
  1.15            1.9842e-005     -1.6561e-008    1.2623e-009    
  1.2             1.9941e-005     -9.87e-009      1.1945e-009    
  1.25            2.0136e-005     -9.269e-009     -7.588e-010    
  1.3             2.0207e-005     5.789e-009      -2.1811e-009   
  1.35            2.0185e-005     1.1857e-008     1.3505e-009    
  1.4             2.0247e-005     -1.6309e-008    1.2733e-009    
  1.45            2.0341e-005     -9.873e-009     1.1925e-009    
  1.5             2.0531e-005     -9.047e-009     -7.423e-010    
  1.55            2.0596e-005     5.678e-009      -2.1986e-009   
  1.6             2.0551e-005     1.1705e-008     1.3319e-009    
  1.65            2.0611e-005     -1.6319e-008    1.2912e-009    
  1.7             2.0779e-005     -9.673e-009     -4.445e-010    
  1.75            2.0862e-005     4.407e-009      -1.2159e-009   
  1.8             2.0932e-005     5.153e-009      -2.0694e-009   
END_DB

BEGIN_DB
 ICCAP_VAR VG         1.44           
 ICCAP_VAR VS         0              
 ICCAP_VAR VB         0              

 #VD              ID              IB              IG             
  0               -2.0138e-008    1.1717e-008     2.98e-011      
  0.05            7.2008e-006     -1.3977e-008    -2.1927e-009   
  0.1             1.3917e-005     9.831e-009      -2.0943e-009   
  0.15            2.008e-005      1.2096e-008     1.4189e-009    
  0.2             2.5649e-005     -1.7869e-008    1.2055e-009    
  0.25            3.069e-005      -8.856e-009     -5.14e-010     
  0.3             3.5077e-005     5.291e-009      -1.2129e-009   
  0.35            3.8771e-005     1.1897e-008     1.3814e-009    
  0.4             4.1889e-005     -1.7145e-008    1.2444e-009    
  0.45            4.4545e-005     -9.201e-009     -4.748e-010    
  0.5             4.6586e-005     5.457e-009      -1.2157e-009   
  0.55            4.8028e-005     1.1917e-008     1.3524e-009    
  0.6             4.9163e-005     -1.5972e-008    1.2808e-009    
  0.65            5.0132e-005     -9.304e-009     -4.414e-010    
  0.7             5.0804e-005     5.383e-009      -1.2178e-009   
  0.75            5.1164e-005     1.1639e-008     1.3054e-009    
  0.8             5.1552e-005     -1.5618e-008    1.3263e-009    
  0.85            5.2005e-005     -9.408e-009     -4.072e-010    
  0.9             5.2338e-005     5.368e-009      -1.2197e-009   
  0.95            5.2446e-005     1.1567e-008     1.2686e-009    
  1               5.2694e-005     -1.5091e-008    1.3686e-009    
  1.05            5.3026e-005     -9.581e-009     -3.755e-010    
  1.1             5.3275e-005     5.117e-009      -1.2203e-009   
  1.15            5.3325e-005     1.1186e-008     1.2271e-009    
  1.2             5.3532e-005     -1.407e-008     1.4185e-009    
  1.25            5.3816e-005     -9.349e-009     -3.436e-010    
  1.3             5.4032e-005     4.815e-009      -1.223e-009    
  1.35            5.4047e-005     1.1177e-008     1.1808e-009    
  1.4             5.4245e-005     -1.3986e-008    1.4628e-009    
  1.45            5.4486e-005     -9.475e-009     -3.226e-010    
  1.5             5.4696e-005     4.65e-009       -1.2246e-009   
  1.55            5.4685e-005     1.095e-008      1.1404e-009    
  1.6             5.4871e-005     -1.3135e-008    1.5197e-009    
  1.65            5.5101e-005     -9.592e-009     -2.898e-010    
  1.7             5.5292e-005     4.265e-009      -1.2273e-009   
  1.75            5.5262e-005     1.0557e-008     1.1067e-009    
  1.8             5.5437e-005     -1.2853e-008    1.5702e-009    
END_DB

BEGIN_DB
 ICCAP_VAR VG         1.8            
 ICCAP_VAR VS         0              
 ICCAP_VAR VB         0              

 #VD              ID              IB              IG             
  0               -2.3333e-008    -4.503e-009     -1.2159e-009   
  0.05            9.4379e-006     -9.682e-009     -1.2273e-009   
  0.1             1.8494e-005     8.01e-009       -2.4212e-009   
  0.15            2.7109e-005     1.0614e-008     1.0085e-009    
  0.2             3.5239e-005     -9.806e-009     1.192e-009     
  0.25            4.2917e-005     -8.795e-009     -6.066e-010    
  0.3             4.9992e-005     5.301e-009      -1.2044e-009   
  0.35            5.6459e-005     1.215e-008      1.4591e-009    
  0.4             6.2338e-005     -1.8469e-008    1.1782e-009    
  0.45            6.7725e-005     -8.952e-009     -5.617e-010    
  0.5             7.2437e-005     5.359e-009      -1.2072e-009   
  0.55            7.6464e-005     1.2332e-008     1.426e-009     
  0.6             7.9961e-005     -1.762e-008     1.208e-009     
  0.65            8.3047e-005     -8.993e-009     -5.282e-010    
  0.7             8.5515e-005     5.476e-009      -1.2106e-009   
  0.75            8.7395e-005     1.2029e-008     1.3899e-009    
  0.8             8.8945e-005     -1.6889e-008    1.2392e-009    
  0.85            9.0332e-005     -9.159e-009     -4.917e-010    
  0.9             9.1344e-005     5.486e-009      -1.213e-009    
  0.95            9.199e-005      1.1926e-008     1.3488e-009    
  1               9.2591e-005     -1.6152e-008    1.275e-009     
  1.05            9.3272e-005     -9.32e-009      -4.532e-010    
  1.1             9.3769e-005     5.585e-009      -1.2158e-009   
  1.15            9.401e-005      1.1741e-008     1.301e-009     
  1.2             9.4315e-005     -1.5922e-008    1.3113e-009    
  1.25            9.4817e-005     -9.113e-009     -4.21e-010     
  1.3             9.5157e-005     5.525e-009      -1.2188e-009   
  1.35            9.5292e-005     1.1629e-008     1.2686e-009    
  1.4             9.556e-005      -1.5023e-008    1.3648e-009    
  1.45            9.594e-005      -9.248e-009     -3.853e-010    
  1.5             9.623e-005      5.327e-009      -1.2204e-009   
  1.55            9.6267e-005     1.1376e-008     1.2315e-009    
  1.6             9.6546e-005     -1.4182e-008    1.4127e-009    
  1.65            9.6881e-005     -9.235e-009     -3.497e-010    
  1.7             9.7136e-005     5.1e-009        -1.2226e-009   
  1.75            9.7168e-005     1.1115e-008     1.1899e-009    
  1.8             9.7409e-005     -1.3717e-008    1.4592e-009    
END_DB

BEGIN_DB
 ICCAP_VAR VG         0              
 ICCAP_VAR VS         0              
 ICCAP_VAR VB         -0.9           

 #VD              ID              IB              IG             
  0               -1.927e-010     -3.456e-009     1.1086e-009    
  0.05            1.0365e-009     -2.399e-009     2.2145e-009    
  0.1             1.208e-009      1.1976e-008     1.1309e-009    
  0.15            1.6195e-009     7.822e-009      -1.2189e-009   
  0.2             -1.4208e-009    6.533e-009      -1.1418e-009   
  0.25            -1.7469e-009    -9.371e-009     1.1128e-009    
  0.3             9.327e-010      -7.16e-009      1.7682e-009    
  0.35            9.683e-010      8.374e-009      -1.2207e-009   
  0.4             -1.4067e-009    6.694e-009      -1.1568e-009   
  0.45            -1.753e-009     -9.429e-009     1.1138e-009    
  0.5             9.35e-010       -7.124e-009     1.7723e-009    
  0.55            9.823e-010      8.509e-009      -1.2183e-009   
  0.6             -1.3922e-009    6.734e-009      -1.1702e-009   
  0.65            -1.7637e-009    -9.346e-009     1.1163e-009    
  0.7             9.378e-010      -7.534e-009     1.7868e-009    
  0.75            9.924e-010      8.789e-009      -1.2189e-009   
  0.8             -1.3797e-009    6.872e-009      -1.1803e-009   
  0.85            -1.7683e-009    -9.373e-009     2.717e-010     
  0.9             -1.8563e-009    -9.814e-009     6.55e-011      
  0.95            -1.9226e-009    -9.737e-009     -1.271e-010    
  1               -1.9544e-009    -9.152e-009     -2.77e-010     
  1.05            -1.9439e-009    -8.973e-009     -4.169e-010    
  1.1             -1.8674e-009    -9.272e-009     -5.867e-010    
  1.15            -1.723e-009     -9.871e-009     -7.952e-010    
  1.2             -1.5317e-009    -8.812e-009     1.195e-009     
  1.25            9.937e-010      -2.984e-009     1.9814e-009    
  1.3             1.2034e-009     1.0635e-008     -1.3589e-009   
  1.35            -1.2291e-009    2.518e-009      -1.3346e-009   
  1.4             -1.8476e-009    -9.734e-009     7.54e-011      
  1.45            -1.9168e-009    -9.402e-009     -1.208e-010    
  1.5             -1.0652e-009    -1.4044e-008    1.1281e-009    
  1.55            9.483e-010      -8.037e-009     1.8178e-009    
  1.6             1.0271e-009     8.682e-009      -1.2143e-009   
  1.65            -1.3259e-009    7.412e-009      -1.2358e-009   
  1.7             -1.1733e-009    -1.1051e-008    -1.381e-009    
  1.75            -1.8805e-009    -9.966e-009     9.1e-012       
  1.8             -1.933e-009     -9.596e-009     -1.852e-010    
END_DB

BEGIN_DB
 ICCAP_VAR VG         0.36           
 ICCAP_VAR VS         0              
 ICCAP_VAR VB         -0.9           

 #VD              ID              IB              IG             
  0               9.16e-010       4.181e-009      1.1322e-009    
  0.05            9.562e-010      -8.446e-009     1.8284e-009    
  0.1             1.054e-009      8.782e-009      -1.2133e-009   
  0.15            -1.3116e-009    7.587e-009      -1.2486e-009   
  0.2             -1.7937e-009    -9.609e-009     1.986e-010     
  0.25            -1.8756e-009    -9.812e-009     2.2e-012       
  0.3             -1.9308e-009    -9.608e-009     -1.858e-010    
  0.35            -1.9549e-009    -9.09e-009      -3.113e-010    
  0.4             -1.9227e-009    -9.06e-009      -4.69e-010     
  0.45            -1.8305e-009    -9.403e-009     -6.404e-010    
  0.5             -1.6697e-009    -1.0003e-008    -8.533e-010    
  0.55            -1.5653e-009    -8.853e-009     1.1871e-009    
