! VERSION = 6.00
BEGIN_HEADER
 ICCAP_INPUTS
  VG         V  B GROUND SMU4 0.001 LIN        1    0          1.8        37   0.05      
  VS         V  E GROUND SMU2 0.1 CON        0
  VB         V  C GROUND SMU3 0.1 LIN        3    0          -1.8       3    -0.9      
  VD         V  S GROUND SMU1 0.1 LIN        2    0.1        1.8        2    1.7       
 ICCAP_OUTPUTS
  IG         I  B GROUND SMU4 B
  ID         I  S GROUND SMU1 B
  IB         I  C GROUND SMU3 B
END_HEADER

BEGIN_DB
 ICCAP_VAR VS         0              
 ICCAP_VAR VB         0              
 ICCAP_VAR VD         0.1            

 #VG              IG              ID              IB             
  0               4.33e-010       5.546e-010      2.001e-008     
  0.05            2.851e-010      -1.7709e-009    -1.1617e-008   
  0.1             1.324e-010      -1.8876e-009    -1.1136e-008   
  0.15            1.5696e-009     -9.891e-010     -2.4935e-008   
  0.2             8.647e-010      2.3476e-009     -8.585e-009    
  0.25            1.0087e-009     2.3175e-009     9.672e-009     
  0.3             -1.4785e-009    1.8636e-009     1.2058e-008    
  0.35            9.77e-011       -1.6748e-009    8.928e-009     
  0.4             1.8397e-009     2.014e-010      -1.0855e-008   
  0.45            1.5674e-009     4.9263e-009     -9.015e-009    
  0.5             -1.3138e-009    1.7925e-008     -1.0883e-008   
  0.55            -2.6094e-009    7.0495e-008     1.115e-008     
  0.6             4.405e-010      2.244e-007      -9.914e-009    
  0.65            8.548e-010      6.1321e-007     1.0698e-008    
  0.7             -2.677e-009     1.5151e-006     -2.4628e-008   
  0.75            1.8975e-009     3.3109e-006     -1.9983e-008   
  0.8             1.3762e-009     6.2704e-006     -8.863e-009    
  0.85            1.2414e-009     1.07325e-005    -8.184e-009    
  0.9             -6.75e-011      1.6472e-005     -8.567e-009    
  0.95            3.627e-010      2.293e-005      1.0305e-008    
  1               7.939e-010      2.9798e-005     1.0461e-008    
  1.05            -1.4846e-009    3.6965e-005     1.5945e-008    
  1.1             -1.3264e-009    4.4146e-005     8.8e-009       
  1.15            -2.6459e-009    5.1176e-005     1.1129e-008    
  1.2             -2.1865e-009    5.7894e-005     7.03e-010      
  1.25            -8.912e-010     6.4422e-005     -1.1375e-008   
  1.3             1.4772e-009     7.0517e-005     -1.3539e-008   
  1.35            1.2611e-009     7.6502e-005     -8.205e-009    
  1.4             2.805e-009      8.2112e-005     -1.0039e-008   
  1.45            4.492e-010      8.7566e-005     1.0449e-008    
  1.5             8.627e-010      9.2519e-005     1.0706e-008    
  1.55            1.2237e-009     9.7172e-005     9.831e-009     
  1.6             9.96e-011       0.000101772     1.0534e-008    
  1.65            5.53e-010       0.000105932     1.0617e-008    
  1.7             -1.7296e-009    0.000109858     2.241e-008     
  1.75            -1.3845e-009    0.000113549     5.743e-009     
  1.8             -1.3281e-009    0.00011714      4.139e-009     
END_DB

BEGIN_DB
 ICCAP_VAR VS         0              
 ICCAP_VAR VB         0              
 ICCAP_VAR VD         1.8            

 #VG              IG              ID              IB             
  0               -1.312e-009     -1.2256e-009    1.0718e-008    
  0.05            -2.7006e-009    4.48e-011       1.0938e-008    
  0.1             2.2137e-009     -6.974e-010     -1.8937e-008   
  0.15            1.3484e-009     2.0167e-009     -6.387e-009    
  0.2             -5.3e-012       1.9951e-009     1.0542e-008    
  0.25            -1.4466e-009    1.0472e-009     2.6907e-008    
  0.3             -1.025e-009     -2.0473e-009    9.478e-009     
  0.35            1.9332e-009     -9.43e-010      -1.0173e-008   
  0.4             1.6546e-009     3.3175e-009     -8.793e-009    
  0.45            2.806e-009      1.3135e-008     1.9694e-008    
  0.5             1.9811e-009     5.0771e-008     1.0621e-008    
  0.55            2.8391e-009     1.8696e-007     -1.1192e-008   
  0.6             2.7606e-009     6.1694e-007     -6.72e-010     
  0.65            1.593e-009      1.7342e-006     7.952e-009     
  0.7             -1.5636e-009    4.4339e-006     1.6758e-008    
  0.75            -2.0634e-009    9.1618e-006     -1.7279e-008   
  0.8             2.4846e-009     1.6719e-005     -2.2439e-008   
  0.85            1.8129e-009     2.725e-005      -1.8698e-008   
  0.9             1.3606e-009     4.0696e-005     -2.8784e-008   
  0.95            1.2361e-009     5.6704e-005     -3.2809e-008   
  1               2.6865e-009     7.4811e-005     -4.0758e-008   
  1.05            2.0665e-009     9.4807e-005     -3.395e-008    
  1.1             1.3585e-009     0.00011592      -3.8843e-008   
  1.15            2.8609e-009     0.00013824      -4.5048e-008   
  1.2             2.6466e-009     0.00016158      -3.837e-008    
  1.25            2.0285e-009     0.00018522      -4.1566e-008   
  1.3             1.4569e-009     0.00020942      -4.7757e-008   
  1.35            1.2599e-009     0.00023382      -4.8505e-008   
  1.4             2.7951e-009     0.00025856      -5.0107e-008   
  1.45            2.2892e-009     0.00028376      -4.045e-008    
  1.5             1.6233e-009     0.00030872      -4.4335e-008   
  1.55            1.2994e-009     0.00033382      -4.6397e-008   
  1.6             2.8551e-009     0.00035879      -4.5312e-008   
  1.65            2.5185e-009     0.00038422      -3.6051e-008   
  1.7             1.8464e-009     0.00040909      -3.8006e-008   
  1.75            1.3692e-009     0.000434        -4.2237e-008   
  1.8             1.2401e-009     0.00045887      -4.0363e-008   
END_DB

BEGIN_DB
 ICCAP_VAR VS         0              
 ICCAP_VAR VB         -0.9           
 ICCAP_VAR VD         0.1            

 #VG              IG              ID              IB             
  0               7.779e-010      8.024e-010      2.7725e-008    
  0.05            1.2273e-009     -1.5389e-009    -1.7167e-008   
  0.1             2.8071e-009     -1.969e-010     -1.3452e-008   
  0.15            1.626e-010      2.0837e-009     1.0299e-008    
  0.2             3.514e-010      2.1879e-009     1.0673e-008    
  0.25            5.448e-010      2.2725e-009     1.0419e-008    
  0.3             -1.2933e-009    1.4373e-009     2.2872e-008    
  0.35            -2.6745e-009    1.144e-010      1.1097e-008    
  0.4             -1.1095e-009    -2.1493e-009    -1.0596e-008   
  0.45            1.4736e-009     -1.6892e-009    -1.1684e-008   
  0.5             1.8668e-009     1.6295e-009     -8.26e-009     
  0.55            5.265e-010      3.4958e-009     1.0484e-008    
  0.6             -1.2968e-009    7.4456e-009     2.3148e-008    
  0.65            2.8472e-009     2.5876e-008     1.0602e-008    
  0.7             3.19e-010       9.2569e-008     1.029e-008     
  0.75            2.8536e-009     2.6472e-007     -1.1142e-008   
  0.8             2.682e-009      6.743e-007      -4.3e-011      
  0.85            2.1491e-009     1.5737e-006     1.2136e-008    
  0.9             1.0473e-009     3.306e-006      9.651e-009     
  0.95            -1.3527e-009    6.4751e-006     2.6761e-008    
  1               -2.6907e-009    1.09768e-005    1.0949e-008    
  1.05            2.8549e-009     1.6607e-005     -1.0334e-008   
  1.1             -1.6635e-009    2.3268e-005     1.8665e-008    
  1.15            -1.3685e-009    3.0246e-005     6.471e-009     
  1.2             -1.285e-009     3.7435e-005     1.0712e-008    
  1.25            -2.4537e-009    4.4623e-005     1.1533e-008    
  1.3             -1.8512e-009    5.1498e-005     1.835e-009     
  1.35            -1.4308e-009    5.8238e-005     4.791e-009     
  1.4             -1.3113e-009    6.4671e-005     9.526e-009     
  1.45            -2.595e-009     7.0781e-005     1.0939e-008    
  1.5             -2.0719e-009    7.6481e-005     5.66e-010      
  1.55            -1.5349e-009    8.1928e-005     3.434e-009     
  1.6             -1.3405e-009    8.7061e-005     7.976e-009     
  1.65            -2.6817e-009    9.1884e-005     1.108e-008     
  1.7             -3.632e-010     9.6277e-005     -1.0836e-008   
  1.75            -8.312e-010     0.000100545     -1.1391e-008   
  1.8             1.567e-009      0.000104391     -1.4772e-008   
END_DB

BEGIN_DB
 ICCAP_VAR VS         0              
 ICCAP_VAR VB         -0.9           
 ICCAP_VAR VD         1.8            

 #VG              IG              ID              IB             
  0               -8.844e-010     -8.815e-010     -1.1468e-008   
  0.05            -2.6748e-009    1.019e-010      1.0994e-008    
  0.1             -4.64e-011      -2.0246e-009    -1.0725e-008   
  0.15            -2.658e-010     -2.1243e-009    -1.0999e-008   
  0.2             -4.907e-010     -2.1849e-009    -1.1173e-008   
  0.25            -6.997e-010     -2.222e-009     -1.0888e-008   
  0.3             1.2243e-009     -1.5373e-009    -1.8217e-008   
  0.35            2.8134e-009     -1.659e-010     -1.3338e-008   
  0.4             1.581e-010      2.1428e-009     1.025e-008     
  0.45            3.45e-010       2.4748e-009     1.062e-008     
  0.5             5.381e-010      3.6936e-009     1.0818e-008    
  0.55            7.105e-010      9.0677e-009     1.0415e-008    
  0.6             2.4233e-009     3.1354e-008     9.794e-009     
  0.65            -2.6935e-009    1.2247e-007     1.055e-008     
  0.7             -2.651e-010     4.1874e-007     -1.1213e-008   
  0.75            1.4833e-009     1.2253e-006     9.282e-009     
  0.8             1.257e-009      3.1114e-006     -1.0949e-008   
  0.85            2.8101e-009     6.9508e-006     -1.4835e-008   
  0.9             -5.757e-010     1.3573e-005     6.149e-009     
  0.95            -9.76e-010      2.3425e-005     -2.3462e-008   
  1               -1.3733e-009    3.6547e-005     -2.6799e-008   
  1.05            -1.7581e-009    5.2186e-005     -3.2322e-008   
  1.1             -1.9975e-009    6.9951e-005     -3.4591e-008   
  1.15            -2.35e-009      8.9702e-005     -3.636e-008    
  1.2             -2.6415e-009    0.00011097      -3.851e-008    
  1.25            -1.5196e-009    0.00013352      -4.2031e-008   
  1.3             -1.3297e-009    0.00015677      -2.5876e-008   
  1.35            -2.6608e-009    0.0001807       -2.436e-008    
  1.4             -2.2628e-009    0.00020467      -3.5547e-008   
  1.45            -1.6718e-009    0.00022934      -3.3898e-008   
  1.5             -1.3719e-009    0.00025422      -2.9836e-008   
  1.55            -1.286e-009     0.00027924      -2.5298e-008   
  1.6             -2.1393e-009    0.00030402      -3.4452e-008   
  1.65            -1.5827e-009    0.00032922      -3.1381e-008   
  1.7             -1.3478e-009    0.00035431      -2.5981e-008   
  1.75            -2.6815e-009    0.00037928      -2.1537e-008   
  1.8             -2.3569e-009    0.00040406      -3.0932e-008   
END_DB

BEGIN_DB
 ICCAP_VAR VS         0              
 ICCAP_VAR VB         -1.8           
 ICCAP_VAR VD         0.1            

 #VG              IG              ID              IB             
  0               -1.3426e-009    -1.3073e-009    -9.052e-009    
  0.05            -1.2836e-009    -2.0391e-009    1.1063e-008    
  0.1             1.762e-010      -1.8493e-009    -1.1198e-008   
  0.15            2.33e-011       -1.9815e-009    -1.0904e-008   
  0.2             -1.789e-010     -2.0893e-009    -1.1001e-008   
  0.25            -4.022e-010     -2.1584e-009    -1.1294e-008   
  0.3             -6.191e-010     -2.2096e-009    -1.1376e-008   
  0.35            -7.979e-010     -2.2312e-009    -1.0983e-008   
  0.4             -9.396e-010     -2.2162e-009    -1.0232e-008   
  0.45            1.7064e-009     -1.6429e-009    -1.2876e-008   
  0.5             1.6707e-009     1.6253e-009     -8.73e-009     
  0.55            3.188e-010      2.2699e-009     1.0667e-008    
  0.6             5.021e-010      2.7637e-009     1.0863e-008    
  0.65            6.902e-010      4.8184e-009     1.0513e-008    
  0.7             -1.9095e-009    1.0436e-008     -1.8061e-008   
  0.75            -1.4514e-009    4.5791e-008     4.484e-009     
  0.8             1.4537e-009     1.494e-007      -2.3918e-008   
  0.85            -1.7249e-009    4.0695e-007     1.8015e-008    
  0.9             -1.3899e-009    9.634e-007      5.953e-009     
  0.95            -2.6767e-009    2.1175e-006     -2.4047e-008   
  1               -9.128e-010     4.2419e-006     -1.0943e-008   
  1.05            1.4596e-009     7.6968e-006     -1.3336e-008   
  1.1             -1.453e-009     1.2714e-005     -8.438e-009    
  1.15            -1.3119e-009    1.8751e-005     9.405e-009     
  1.2             -2.6122e-009    2.5454e-005     1.0971e-008    
  1.25            -2.1293e-009    3.2452e-005     6.21e-010      
  1.3             -1.5668e-009    3.9599e-005     2.959e-009     
  1.35            -1.3454e-009    4.6657e-005     7.512e-009     
  1.4             -2.6813e-009    5.349e-005      1.0834e-008    
  1.45            -3.154e-010     5.9881e-005     -1.0864e-008   
  1.5             -7.984e-010     6.6177e-005     -1.1277e-008   
  1.55            -1.1595e-009    7.2151e-005     -1.0248e-008   
  1.6             7.29e-011       7.753e-005      -1.1542e-008   
  1.65            1.3187e-009     8.2772e-005     -2.5305e-008   
  1.7             2.8626e-009     8.7656e-005     -8.298e-009    
  1.75            2.586e-009      9.2324e-005     -2.77e-010     
  1.8             2.4846e-009     9.6587e-005     7.506e-009     
END_DB

BEGIN_DB
 ICCAP_VAR VS         0              
 ICCAP_VAR VB         -1.8           
 ICCAP_VAR VD         1.8            

 #VG              IG              ID              IB             
  0               1.0194e-009     9.31e-010       1.8641e-008    
  0.05            1.4373e-009     -1.0862e-009    -2.5721e-008   
  0.1             9.629e-010      2.3245e-009     -8.291e-009    
  0.15            -1.5207e-009    1.7743e-009     1.2549e-008    
  0.2             -1.8014e-009    -1.4032e-009    8.461e-009     
  0.25            -4.756e-010     -2.1778e-009    -1.1359e-008   
  0.3             -6.839e-010     -2.2192e-009    -1.1251e-008   
  0.35            -8.474e-010     -2.2186e-009    -1.0731e-008   
  0.4             1.9024e-009     -1.5879e-009    -1.4686e-008   
  0.45            1.5537e-009     1.8197e-009     -8.885e-009    
  0.5             1.7281e-009     1.7323e-009     1.0473e-008    
  0.55            3.731e-010      3.2128e-009     1.0673e-008    
  0.6             5.613e-010      7.2648e-009     1.0448e-008    
  0.65            -2.5491e-009    2.2226e-008     -2.5961e-008   
  0.7             -2.0313e-009    9.4675e-008     5.43e-010      
  0.75            -1.3889e-009    3.438e-007      -3.91e-010     
  0.8             -1.294e-009     1.00304e-006    9.341e-009     
  0.85            2.3627e-009     2.5556e-006     1.3764e-008    
  0.9             -1.6536e-009    5.9329e-006     1.4874e-008    
  0.95            2.1499e-009     1.1583e-005     -1.8801e-008   
  1               1.5147e-009     2.0452e-005     -1.7923e-008   
  1.05            1.2699e-009     3.2503e-005     -2.3302e-008   
  1.1             2.8219e-009     4.7464e-005     -2.8448e-008   
  1.15            2.4081e-009     6.5098e-005     -2.3476e-008   
  1.2             1.7252e-009     8.4495e-005     -3.0663e-008   
  1.25            1.3245e-009     0.000105476     -3.7874e-008   
  1.3             1.2385e-009     0.00012767      -4.0415e-008   
  1.35            2.7026e-009     0.00015054      -4.5168e-008   
  1.4             2.0977e-009     0.00017445      -3.5668e-008   
  1.45            1.4911e-009     0.00019847      -4.2096e-008   
  1.5             1.2644e-009     0.00022287      -4.3409e-008   
  1.55            2.811e-009      0.0002475       -4.4546e-008   
  1.6             2.3687e-009     0.00027261      -3.5461e-008   
  1.65            1.6891e-009     0.0002975       -3.8742e-008   
  1.7             1.313e-009      0.00032236      -4.2462e-008   
  1.75            2.8487e-009     0.00034717      -4.0827e-008   
  1.8             2.587e-009      0.00037239      -3.2128e-008   
END_DB

