! VERSION = 6.00
BEGIN_HEADER
 ICCAP_INPUTS
  VG         V  B GROUND SMU4 0.001 LIN        1    0          1.8        37   0.05      
  VS         V  E GROUND SMU2 0.1 CON        0
  VB         V  C GROUND SMU3 0.1 LIN        3    0          -1.8       3    -0.9      
  VD         V  S GROUND SMU1 0.1 LIN        2    0.1        1.8        2    1.7       
 ICCAP_OUTPUTS
  IG         I  B GROUND SMU4 B
  ID         I  S GROUND SMU1 B
  IB         I  C GROUND SMU3 B
END_HEADER

BEGIN_DB
 ICCAP_VAR VS         0              
 ICCAP_VAR VB         0              
 ICCAP_VAR VD         0.1            

 #VG              IG              ID              IB             
  0               1.37e-009       1.5437e-009     5.622e-009     
  0.05            1.0406e-009     2.3319e-009     -8.204e-009    
  0.1             -1.4789e-009    1.8401e-009     1.1663e-008    
  0.15            -1.8451e-009    -1.3641e-009    9.021e-009     
  0.2             -5.342e-010     -2.183e-009     -1.1317e-008   
  0.25            -7.296e-010     -2.0894e-009    -1.0981e-008   
  0.3             1.2681e-009     -7.484e-010     -1.0571e-008   
  0.35            1.2411e-009     2.7261e-009     -9.65e-009     
  0.4             2.1977e-009     1.0394e-008     1.081e-008     
  0.45            1.0924e-009     4.142e-008      9.777e-009     
  0.5             2.7525e-009     1.5662e-007     -1.0794e-008   
  0.55            8.155e-010      6.3406e-007     1.0713e-008    
  0.6             -2.6711e-009    2.4469e-006     -1.0829e-008   
  0.65            -2.2819e-009    6.8475e-006     5.88e-010      
  0.7             1.3612e-009     1.76e-005       1.112e-009     
  0.75            1.2442e-009     3.6363e-005     -8.148e-009    
  0.8             2.7233e-009     6.5531e-005     -1.209e-008    
  0.85            5.777e-010      0.000106697     1.0541e-008    
  0.9             2.632e-010      0.00015552      1.4629e-008    
  0.95            7.052e-010      0.00020686      1.0739e-008    
  1               -1.5983e-009    0.0002608       1.9155e-008    
  1.05            -1.3526e-009    0.00031526      7.167e-009     
  1.1             -1.2808e-009    0.00036753      1.0724e-008    
  1.15            -2.4263e-009    0.00041829      1.195e-008     
  1.2             -1.8397e-009    0.00046662      1.763e-009     
  1.25            -1.4319e-009    0.0005123       5.147e-009     
  1.3             -1.308e-009     0.00055513      9.467e-009     
  1.35            -2.6101e-009    0.00059549      1.0764e-008    
  1.4             -2.1313e-009    0.00063296      6.71e-010      
  1.45            -1.5832e-009    0.00066824      3.211e-009     
  1.5             -1.3537e-009    0.00070134      7.492e-009     
  1.55            -2.6986e-009    0.00073204      1.0749e-008    
  1.6             -2.645e-010     0.0007601       -1.0765e-008   
  1.65            -7.583e-010     0.0007872       -1.1306e-008   
  1.7             1.7101e-009     0.0008111       -1.6938e-008   
  1.75            1.3185e-009     0.00083441      -8.868e-009    
  1.8             1.2335e-009     0.00085576      -8.126e-009    
END_DB

BEGIN_DB
 ICCAP_VAR VS         0              
 ICCAP_VAR VB         0              
 ICCAP_VAR VD         1.8            

 #VG              IG              ID              IB             
  0               1.0792e-009     9.814e-010      1.7024e-008    
  0.05            1.6584e-009     -9.561e-010     -2.4136e-008   
  0.1             1.7048e-009     1.6014e-009     -8.674e-009    
  0.15            3.314e-010      2.2363e-009     1.0533e-008    
  0.2             5.146e-010      2.4051e-009     1.0334e-008    
  0.25            -1.3059e-009    2.0466e-009     2.3423e-008    
  0.3             -2.7019e-009    2.9957e-009     1.0887e-008    
  0.35            2.7394e-009     1.3421e-008     1.0213e-008    
  0.4             5.396e-010      5.0089e-008     1.038e-008     
  0.45            2.8186e-009     1.9061e-007     -1.1114e-008   
  0.5             2.8348e-009     7.7187e-007     -5.66e-010     
  0.55            1.3347e-009     2.7102e-006     3.155e-009     
  0.6             -1.9114e-009    9.5918e-006     6.873e-009     
  0.65            2.3043e-009     2.3137e-005     -3.2049e-008   
  0.7             1.6727e-009     5.191e-005      -4.343e-008    
  0.75            1.3249e-009     0.000100651     -7.1872e-008   
  0.8             2.683e-010      0.00017396      -1.0272e-007   
  0.85            7.015e-010      0.00026598      -1.1536e-007   
  0.9             1.0556e-009     0.00037653      -1.4678e-007   
  0.95            1.4367e-009     0.00050521      -1.7292e-007   
  1               1.8539e-009     0.00064884      -1.9668e-007   
  1.05            2.201e-009      0.00080239      -2.1698e-007   
  1.1             2.4707e-009     0.00096222      -2.3361e-007   
  1.15            4.05e-011       0.001129        -2.6219e-007   
  1.2             -4.574e-010     0.0012968       -2.6863e-007   
  1.25            -8.941e-010     0.001471        -2.7171e-007   
  1.3             -1.2563e-009    0.001647        -2.7149e-007   
  1.35            -1.6554e-009    0.0018221       -2.7092e-007   
  1.4             -1.9163e-009    0.0019956       -2.6656e-007   
  1.45            -2.2067e-009    0.0021714       -2.6049e-007   
  1.5             -2.5611e-009    0.0023465       -2.5186e-007   
  1.55            -2.7234e-009    0.0025224       -2.4329e-007   
  1.6             -2.631e-009     0.0026973       -2.3023e-007   
  1.65            -2.1761e-009    0.0028717       -2.1972e-007   
  1.7             -1.6298e-009    0.0030465       -2.0883e-007   
  1.75            -1.3772e-009    0.0032182       -1.9564e-007   
  1.8             -1.2878e-009    0.0033892       -1.8214e-007   
END_DB

BEGIN_DB
 ICCAP_VAR VS         0              
 ICCAP_VAR VB         -0.9           
 ICCAP_VAR VD         0.1            

 #VG              IG              ID              IB             
  0               -1.2504e-009    -1.137e-009     -9.295e-009    
  0.05            -2.459e-009     3.622e-010      1.3424e-008    
  0.1             -1.126e-009     -2.1668e-009    1.585e-009     
  0.15            1.5032e-009     -1.7601e-009    -1.2038e-008   
  0.2             9.33e-010       2.3597e-009     -8.344e-009    
  0.25            -1.587e-009     1.7682e-009     1.3954e-008    
  0.3             -1.7603e-009    -1.4836e-009    7.488e-009     
  0.35            -3.864e-010     -2.1576e-009    -1.1047e-008   
  0.4             -5.832e-010     -2.1546e-009    -1.118e-008    
  0.45            1.3215e-009     -8.572e-010     -1.0586e-008   
  0.5             1.2682e-009     2.1901e-009     -8.45e-009     
  0.55            1.2364e-009     9.8685e-009     -1.0213e-008   
  0.6             -1.4058e-009    4.1731e-008     -1.1692e-008   
  0.65            -1.4694e-009    2.1058e-007     -8.748e-009    
  0.7             -1.3258e-009    7.8735e-007     9.551e-009     
  0.75            -2.6995e-009    2.6264e-006     -2.4584e-008   
  0.8             1.8435e-009     8.1912e-006     -1.9079e-008   
  0.85            -1.3012e-009    2.0454e-005     -6.433e-009    
  0.9             -2.511e-009     4.1663e-005     1.0998e-008    
  0.95            -1.9497e-009    7.371e-005      1.131e-009     
  1               1.2374e-009     0.0001158       -8.729e-009    
  1.05            2.648e-009      0.00016377      -1.2995e-008   
  1.1             6.294e-010      0.0002179       1.0394e-008    
  1.15            9.958e-010      0.00027122      9.81e-009      
  1.2             -1.391e-009     0.00032561      2.5814e-008    
  1.25            -1.2925e-009    0.00037741      1.0592e-008    
  1.3             -2.4691e-009    0.00042676      1.1182e-008    
  1.35            -1.9027e-009    0.00047352      1.372e-009     
  1.4             -1.4763e-009    0.00051722      4.192e-009     
  1.45            -1.3319e-009    0.00055845      9.155e-009     
  1.5             -2.645e-009     0.00059699      1.0951e-008    
  1.55            -2.1895e-009    0.00063242      4.65e-010      
  1.6             -8.829e-010     0.00066559      -1.0823e-008   
  1.65            1.5393e-009     0.00069536      -1.4169e-008   
  1.7             1.2869e-009     0.00072462      -8.25e-009     
  1.75            2.8416e-009     0.00075131      -9.17e-009     
  1.8             -1.5943e-009    0.00077691      2.0382e-008    
END_DB

BEGIN_DB
 ICCAP_VAR VS         0              
 ICCAP_VAR VB         -0.9           
 ICCAP_VAR VD         1.8            

 #VG              IG              ID              IB             
  0               1.2742e-009     1.2691e-009     -1.0951e-008   
  0.05            2.8708e-009     3.49e-011       -9.658e-009    
  0.1             1.7038e-009     1.6093e-009     -2e-010        
  0.15            3.26e-010       2.2039e-009     1.0576e-008    
  0.2             5.101e-010      2.2917e-009     1.0569e-008    
  0.25            6.854e-010      2.3598e-009     1.0347e-008    
  0.3             -1.2816e-009    1.6168e-009     1.9208e-008    
  0.35            -2.6158e-009    5.095e-010      1.2005e-008    
  0.4             -2.4508e-009    5.169e-010      8.36e-010      
  0.45            -2.238e-009     5.7964e-009     1.501e-009     
  0.5             2.6474e-009     2.9295e-008     1.5218e-008    
  0.55            1.2648e-009     1.5393e-007     3.62e-010      
  0.6             2.7825e-009     6.2963e-007     -1.1415e-008   
  0.65            1.5709e-009     2.1155e-006     6.832e-009     
  0.7             -1.6206e-009    7.7787e-006     1.2597e-008    
  0.75            2.3226e-009     1.9945e-005     -2.8193e-008   
  0.8             1.6716e-009     4.663e-005      -3.7585e-008   
  0.85            1.3255e-009     9.2921e-005     -6.3195e-008   
  0.9             2.0633e-009     0.00016271      -8.2986e-008   
  0.95            -2.2444e-009    0.00025497      -1.022e-007    
  1               -1.6707e-009    0.0003697       -1.3881e-007   
  1.05            -1.392e-009     0.00050012      -1.608e-007    
  1.1             -1.2975e-009    0.00064328      -1.7845e-007   
  1.15            -2.4986e-009    0.00079702      -1.9546e-007   
  1.2             -1.9263e-009    0.00095712      -2.1883e-007   
  1.25            2.746e-010      0.001122        -2.4027e-007   
  1.3             -1.214e-010     0.0012912       -2.4625e-007   
  1.35            -6.264e-010     0.001465        -2.4917e-007   
  1.4             -1.0135e-009    0.0016407       -2.4918e-007   
  1.45            -1.3994e-009    0.0018169       -2.4694e-007   
  1.5             -1.7655e-009    0.0019913       -2.4449e-007   
  1.55            -2.0003e-009    0.0021654       -2.3856e-007   
  1.6             -2.3477e-009    0.0023396       -2.3114e-007   
  1.65            -2.6472e-009    0.0025142       -2.2362e-007   
  1.7             -2.7244e-009    0.0026885       -2.1295e-007   
  1.75            -2.4993e-009    0.0028613       -2.0079e-007   
  1.8             -1.9448e-009    0.0030342       -1.9104e-007   
END_DB

BEGIN_DB
 ICCAP_VAR VS         0              
 ICCAP_VAR VB         -1.8           
 ICCAP_VAR VD         0.1            

 #VG              IG              ID              IB             
  0               1.0855e-009     1.0099e-009     1.477e-008     
  0.05            1.7962e-009     -8.92e-010      -2.2545e-008   
  0.1             1.6198e-009     1.7161e-009     -9.154e-009    
  0.15            1.7925e-009     1.4736e-009     1.0704e-008    
  0.2             4.347e-010      2.2573e-009     1.0701e-008    
  0.25            6.126e-010      2.3349e-009     1.0618e-008    
  0.3             7.759e-010      2.37e-009       1.0178e-008    
  0.35            -1.7773e-009    1.6384e-009     1.6705e-008    
  0.4             -1.6303e-009    -1.6726e-009    5.374e-009     
  0.45            1.2544e-009     -1.4569e-009    -2.0368e-008   
  0.5             2.2852e-009     1.2602e-009     -1.1571e-008   
  0.55            9.972e-010      3.0756e-009     9.578e-009     
  0.6             -1.5052e-009    5.725e-009      1.2011e-008    
  0.65            -7.1e-010       1.6044e-008     3.65e-010      
  0.7             1.7628e-009     9.3046e-008     -1.7675e-008   
  0.75            -7.758e-010     3.6739e-007     1.2e-008       
  0.8             2.8502e-009     1.4325e-006     1.0096e-008    
  0.85            -1.7133e-009    4.9185e-006     2.1935e-008    
  0.9             2.4513e-009     1.2535e-005     -1.0997e-008   
  0.95            4.228e-010      2.8929e-005     1.029e-008     
  1               -1.2801e-009    5.5368e-005     2.5374e-008    
  1.05            -2.3804e-009    9.193e-005      1.2132e-008    
  1.1             -1.4791e-009    0.00013843      1.285e-009     
  1.15            -1.3276e-009    0.00018923      9.066e-009     
  1.2             -2.6538e-009    0.00024241      1.0987e-008    
  1.25            -2.1901e-009    0.00029582      3.48e-010      
  1.3             -1.6236e-009    0.00034813      2.772e-009     
  1.35            -1.3694e-009    0.00039843      6.797e-009     
  1.4             -1.2859e-009    0.00044581      1.0602e-008    
  1.45            -2.4452e-009    0.00049032      1.1539e-008    
  1.5             -7.362e-010     0.00053176      -1.1124e-008   
  1.55            1.7179e-009     0.00056979      -1.6784e-008   
  1.6             1.3298e-009     0.0006066       -8.98e-009     
  1.65            1.2368e-009     0.00064011      -8.234e-009    
  1.7             2.6358e-009     0.0006715       -1.328e-008    
  1.75            6.659e-010      0.00070133      1.0545e-008    
  1.8             -1.6138e-009    0.00072827      1.9379e-008    
END_DB

BEGIN_DB
 ICCAP_VAR VS         0              
 ICCAP_VAR VB         -1.8           
 ICCAP_VAR VD         1.8            

 #VG              IG              ID              IB             
  0               8.574e-010      8.516e-010      2.6713e-008    
  0.05            1.2489e-009     -1.4971e-009    -1.8956e-008   
  0.1             2.861e-009      -9.62e-011      -1.1969e-008   
  0.15            -1.3046e-009    1.4535e-009     2.2694e-008    
  0.2             -2.6874e-009    1.111e-010      1.0852e-008    
  0.25            -5.4e-011       -2.0419e-009    -1.089e-008    
  0.3             -2.614e-010     -2.1342e-009    -1.0943e-008   
  0.35            -4.792e-010     -2.1701e-009    -1.1029e-008   
  0.4             -6.904e-010     -2.0634e-009    -1.0648e-008   
  0.45            1.2359e-009     -5.051e-010     -1.7591e-008   
  0.5             2.826e-009      5.1019e-009     -1.312e-008    
  0.55            -1.6773e-009    2.1975e-008     -1.4438e-008   
  0.6             -2.716e-009     1.0598e-007     1.0299e-008    
  0.65            -2.434e-010     5.031e-007      -1.1699e-008   
  0.7             2.4598e-009     1.8799e-006     1.5653e-008    
  0.75            -1.5225e-009    6.804e-006      1.5397e-008    
  0.8             1.9099e-009     1.7827e-005     -2.6069e-008   
  0.85            1.4101e-009     4.2628e-005     -3.8071e-008   
  0.9             1.2553e-009     8.6383e-005     -5.8623e-008   
  0.95            1.799e-009      0.0001535       -8.5402e-008   
  1               2.434e-009      0.0002434       -1.2417e-007   
  1.05            1.7597e-009     0.0003528       -1.3756e-007   
  1.1             1.3488e-009     0.00048007      -1.6746e-007   
  1.15            2.8801e-009     0.00062153      -1.8855e-007   
  1.2             2.6345e-009     0.00077578      -1.9834e-007   
  1.25            2.0066e-009     0.00093502      -2.1419e-007   
  1.3             5.57e-010       0.0011029       -2.1066e-007   
  1.35            9.47e-010       0.0012702       -2.1698e-007   
  1.4             1.3257e-009     0.0014395       -2.1959e-007   
  1.45            1.7454e-009     0.0016139       -2.1966e-007   
  1.5             2.1354e-009     0.0017903       -2.1988e-007   
  1.55            2.4129e-009     0.001966        -2.1785e-007   
  1.6             2.7272e-009     0.0021396       -2.1367e-007   
  1.65            2.8763e-009     0.0023145       -2.1423e-007   
  1.7             2.6106e-009     0.0024876       -2.1031e-007   
  1.75            1.9751e-009     0.0026602       -2.055e-007    
  1.8             1.4375e-009     0.0028317       -2.0342e-007   
END_DB

