! VERSION = 6.00
BEGIN_HEADER
 ICCAP_INPUTS
  VG         V  B GROUND SMU4 0.001 LIN        1    0          1.8        37   0.05      
  VS         V  E GROUND SMU3 0.1 CON        0
  VB         V  C GROUND SMU1 0.1 LIN        3    0          -1.8       3    -0.9      
  VD         V  S GROUND SMU2 0.1 LIN        2    0.1        1.8        2    1.7       
 ICCAP_OUTPUTS
  IG         I  B GROUND SMU4 B
  ID         I  S GROUND SMU2 B
  IB         I  C GROUND SMU1 B
END_HEADER

BEGIN_DB
 ICCAP_VAR VS         0              
 ICCAP_VAR VB         0              
 ICCAP_VAR VD         0.1            

 #VG              IG              ID              IB             
  0               -1.311e-010     1.4015e-009     7.174e-009     
  0.05            -1.3668e-009    3.63e-011       1.1417e-008    
  0.1             1.31e-009       -2.8909e-009    -2.0053e-008   
  0.15            -1.3798e-009    2.6972e-009     2.507e-008     
  0.2             1.3156e-009     -2.6594e-009    -2.3216e-008   
  0.25            -1.3833e-009    2.6469e-009     2.6341e-008    
  0.3             1.3254e-009     -1.615e-009     -2.3962e-008   
  0.35            8.48e-010       8.16e-009       9.447e-009     
  0.4             2.8778e-009     1.6792e-008     1.1303e-008    
  0.45            -3.09e-011      6.6295e-008     9.336e-009     
  0.5             -1.4669e-009    2.5727e-007     -8.08e-009     
  0.55            3.19e-011       9.3976e-007     -9.648e-009    
  0.6             1.7253e-009     3.1857e-006     8.925e-009     
  0.65            -1.4629e-009    1.01698e-005    1.2821e-008    
  0.7             -1.3676e-009    2.545e-005      -7.169e-009    
  0.75            -7.205e-010     5.1997e-005     -1.1852e-008   
  0.8             1.3263e-009     8.9514e-005     -8.765e-009    
  0.85            1.318e-009      0.00013481      -6.691e-009    
  0.9             -1.8418e-009    0.00018347      2.349e-008     
  0.95            -8.526e-010     0.00022781      -1.1653e-008   
  1               1.3155e-009     0.00026715      -7.802e-009    
  1.05            -1.8261e-009    0.0003026       2.3081e-008    
  1.1             -8.667e-010     0.0003315       -1.1676e-008   
  1.15            1.3153e-009     0.00035575      -7.968e-009    
  1.2             -1.8011e-009    0.00037723      2.2647e-008    
  1.25            -8.764e-010     0.00039481      -1.1418e-008   
  1.3             1.315e-009      0.00040952      -8.068e-009    
  1.35            -1.779e-009     0.00042284      2.2241e-008    
  1.4             -8.915e-010     0.00043375      -1.1385e-008   
  1.45            1.3137e-009     0.00044326      -7.59e-009     
  1.5             -1.7605e-009    0.00045208      2.1493e-008    
  1.55            -8.981e-010     0.00045915      -1.135e-008    
  1.6             1.3162e-009     0.00046578      -7.625e-009    
  1.65            -1.7467e-009    0.00047172      2.1151e-008    
  1.7             -9.123e-010     0.00047676      -1.1748e-008   
  1.75            2.8944e-009     0.00048122      -7.781e-009    
  1.8             -1.4723e-009    0.0004859       1.3682e-008    
END_DB

BEGIN_DB
 ICCAP_VAR VS         0              
 ICCAP_VAR VB         0              
 ICCAP_VAR VD         1.8            

 #VG              IG              ID              IB             
  0               1.4861e-009     4.36e-011       1.0945e-008    
  0.05            5.793e-010      4.5188e-009     1.086e-008     
  0.1             -5.715e-010     -4.313e-009     -1.1597e-008   
  0.15            2.4743e-009     -1.0275e-009    -1.7868e-008   
  0.2             -1.3818e-009    3.0148e-009     2.6191e-008    
  0.25            1.3286e-009     2.718e-010      -2.4174e-008   
  0.3             2.8319e-009     1.3045e-008     -7.853e-009    
  0.35            -1.382e-009     4.8479e-008     2.5435e-008    
  0.4             -1.3448e-009    1.7643e-007     1.838e-008     
  0.45            2.1613e-009     6.1461e-007     -2.3743e-008   
  0.5             -1.3863e-009    2.1416e-006     -1.502e-008    
  0.55            -1.3841e-009    6.849e-006      -1.8131e-008   
  0.6             -2.7287e-009    1.9083e-005     -9.653e-009    
  0.65            -9.894e-010     4.6157e-005     -5.4029e-008   
  0.7             1.3206e-009     9.1798e-005     -9.7049e-008   
  0.75            1.422e-009      0.00016068      -1.1641e-007   
  0.8             -1.4852e-009    0.00024924      -1.3128e-007   
  0.85            -2.5104e-009    0.00035221      -1.6631e-007   
  0.9             -7.116e-010     0.00046837      -1.8298e-007   
  0.95            1.4704e-009     0.00059288      -1.9535e-007   
  1               2.5657e-009     0.00072946      -1.6415e-007   
  1.05            6.463e-010      0.00087111      -1.5173e-007   
  1.1             -1.4646e-009    0.00101992      -1.2905e-007   
  1.15            -1.7581e-009    0.0011715       -1.5678e-007   
  1.2             -2.2655e-009    0.0013233       -1.2489e-007   
  1.25            -4.203e-010     0.0014802       -1.1114e-007   
  1.3             1.8286e-009     0.0016385       -1.0192e-007   
  1.35            -1.8138e-009    0.0018042       -6.7474e-008   
  1.4             -2.2213e-009    0.0019655       -6.5013e-008   
  1.45            -3.552e-010     0.0021291       -5.6634e-008   
  1.5             1.9167e-009     0.0022933       -5.4186e-008   
  1.55            2.3246e-009     0.0024624       -1.9862e-008   
  1.6             3.417e-010      0.0026308       -1.1281e-008   
  1.65            -2.4502e-009    0.002797        -2.5236e-008   
  1.7             -6.429e-010     0.0029652       -2.4695e-008   
  1.75            1.5407e-009     0.0031342       -2.8916e-008   
  1.8             -2.3015e-009    0.0033074       6.893e-009     
END_DB

BEGIN_DB
 ICCAP_VAR VS         0              
 ICCAP_VAR VB         -0.9           
 ICCAP_VAR VD         0.1            

 #VG              IG              ID              IB             
  0               -1.4176e-009    -3.157e-010     -1.9388e-007   
  0.05            -2.3911e-009    -2.1585e-009    -2.0719e-007   
  0.1             -2.743e-010     -4.2694e-009    -1.9966e-007   
  0.15            2.4667e-009     -1.1692e-009    -1.92e-007     
  0.2             1.7938e-009     2.6898e-009     -1.8539e-007   
  0.25            -1.6142e-009    3.4285e-009     -1.7242e-007   
  0.3             -2.1527e-009    -2.1552e-009    -2.0594e-007   
  0.35            3.17e-011       -3.9132e-009    -1.9702e-007   
  0.4             2.7567e-009     -4.216e-010     -1.8825e-007   
  0.45            1.5321e-009     4.7303e-009     -1.8405e-007   
  0.5             -1.359e-009     9.1857e-009     -1.6405e-007   
  0.55            1.3362e-009     2.6503e-008     -1.8434e-007   
  0.6             2.8764e-009     1.1836e-007     -2.0044e-007   
  0.65            2.3155e-009     4.6246e-007     -1.899e-007    
  0.7             -1.3804e-009    1.768e-006      -2.0052e-007   
  0.75            -2.7676e-009    5.7396e-006     -2.069e-007    
  0.8             -2.5799e-009    1.631e-005      -1.9363e-007   
  0.85            -1.832e-009     3.744e-005      -2.0585e-007   
  0.9             2.552e-010      6.9632e-005     -1.9432e-007   
  0.95            2.7535e-009     0.000112635     -1.8372e-007   
  1               2.833e-009      0.00016024      -1.9548e-007   
  1.05            1.664e-009      0.00020675      -1.8428e-007   
  1.1             -1.5028e-009    0.00025143      -1.6866e-007   
  1.15            -2.4866e-009    0.0002881       -2.0566e-007   
  1.2             -6.903e-010     0.00031955      -2.0018e-007   
  1.25            1.4975e-009     0.00034575      -1.9587e-007   
  1.3             2.5467e-009     0.0003686       -1.9037e-007   
  1.35            6.224e-010      0.00038737      -1.7759e-007   
  1.4             -1.4816e-009    0.00040326      -1.5587e-007   
  1.45            -2.5184e-009    0.00041678      -2.065e-007    
  1.5             -7.181e-010     0.00042834      -2.005e-007    
  1.55            1.4717e-009     0.00043826      -1.9638e-007   
  1.6             2.5667e-009     0.00044715      -1.9044e-007   
  1.65            6.518e-010      0.00045495      -1.7743e-007   
  1.7             -1.467e-009     0.00046166      -1.5571e-007   
  1.75            -2.5417e-009    0.00046746      -2.0678e-007   
  1.8             -7.478e-010     0.0004727       -2.0056e-007   
END_DB

BEGIN_DB
 ICCAP_VAR VS         0              
 ICCAP_VAR VB         -0.9           
 ICCAP_VAR VD         1.8            

 #VG              IG              ID              IB             
  0               1.3063e-009     2.1424e-009     -1.7992e-007   
  0.05            2.7814e-009     1.912e-009      -1.9414e-007   
  0.1             7.343e-010      4.539e-009      -1.8034e-007   
  0.15            -1.6066e-009    1.7045e-009     -1.5517e-007   
  0.2             -2.1524e-009    -2.1412e-009    -2.064e-007    
  0.25            2.33e-011       -3.853e-009     -1.9708e-007   
  0.3             2.7607e-009     -9.12e-011      -1.8843e-007   
  0.35            1.5337e-009     6.3133e-009     -1.8441e-007   
  0.4             4.535e-010      1.2379e-008     -2.002e-007    
  0.45            2.8786e-009     5.7523e-008     -1.7868e-007   
  0.5             -7.87e-010      2.1722e-007     -1.5911e-007   
  0.55            -2.7613e-009    7.8632e-007     -2.05e-007     
  0.6             1.3352e-009     2.6451e-006     -1.8042e-007   
  0.65            2.7001e-009     8.4698e-006     -2.0159e-007   
  0.7             1.4416e-009     2.3484e-005     -2.2992e-007   
  0.75            2.5792e-009     5.5325e-005     -2.3722e-007   
  0.8             6.725e-010      0.000108644     -2.5529e-007   
  0.85            5.49e-010       0.00018438      -2.6497e-007   
  0.9             -1.545e-009     0.00028035      -2.9136e-007   
  0.95            -2.4459e-009    0.0003893       -3.6133e-007   
  1               -6.332e-010     0.00051271      -3.6485e-007   
  1.05            1.549e-009      0.00064342      -3.6096e-007   
  1.1             2.5184e-009     0.0007859       -3.5095e-007   
  1.15            5.825e-010      0.00093232      -3.2663e-007   
  1.2             -1.5137e-009    0.00108618      -2.9166e-007   
  1.25            -1.6578e-009    0.0012423       -3.1062e-007   
  1.3             -2.3394e-009    0.0013983       -3.0939e-007   
  1.35            -5.123e-010     0.0015597       -2.8679e-007   
  1.4             1.7044e-009     0.0017214       -2.6607e-007   
  1.45            2.4351e-009     0.0018895       -2.4992e-007   
  1.5             4.688e-010      0.002057        -2.2491e-007   
  1.55            -1.6208e-009    0.0022263       -1.9541e-007   
  1.6             -2.3686e-009    0.0023938       -2.368e-007    
  1.65            -5.476e-010     0.0025638       -2.2364e-007   
  1.7             1.6509e-009     0.0027303       -2.1255e-007   
  1.75            2.4601e-009     0.0029037       -2.0435e-007   
  1.8             4.978e-010      0.0030759       -1.8758e-007   
END_DB

BEGIN_DB
 ICCAP_VAR VS         0              
 ICCAP_VAR VB         -1.8           
 ICCAP_VAR VD         0.1            

 #VG              IG              ID              IB             
  0               1.21e-010       -1.5334e-009    -1.958e-007    
  0.05            2.8183e-009     -5.388e-010     -1.897e-007    
  0.1             1.4417e-009     3.6626e-009     -1.8792e-007   
  0.15            -1.373e-009     2.9051e-009     -1.6418e-007   
  0.2             -2.7583e-009    -1.992e-009     -2.0803e-007   
  0.25            -8.614e-010     -4.2986e-009    -2.0455e-007   
  0.3             1.5797e-009     -1.9025e-009    -2.0147e-007   
  0.35            2.2913e-009     2.0628e-009     -1.9331e-007   
  0.4             3.34e-011       4.1215e-009     -1.7946e-007   
  0.45            -2.5186e-009    8.929e-010      -1.6024e-007   
  0.5             -1.6901e-009    -2.1808e-009    -2.0947e-007   
  0.55            2.8697e-009     3.6549e-009     -1.9969e-007   
  0.6             1.5351e-009     1.7999e-008     -1.8706e-007   
  0.65            -7.246e-010     7.8353e-008     -1.8502e-007   
  0.7             1.2271e-009     3.2913e-007     -1.9586e-007   
  0.75            -1.9216e-009    1.2765e-006     -1.9703e-007   
  0.8             -3.102e-010     4.2673e-006     -2.0079e-007   
  0.85            -2.499e-009     1.2538e-005     -1.7929e-007   
  0.9             -7.002e-010     3.0356e-005     -2.0358e-007   
  0.95            1.4834e-009     5.9813e-005     -1.9903e-007   
  1               2.5572e-009     0.000101472     -1.9378e-007   
  1.05            1.5401e-009     0.00014817      -1.9262e-007   
  1.1             2.5145e-009     0.00019641      -1.939e-007    
  1.15            5.763e-010      0.00024083      -1.7922e-007   
  1.2             -1.515e-009     0.00028017      -1.5886e-007   
  1.25            -2.4798e-009    0.00031305      -2.1007e-007   
  1.3             -6.782e-010     0.00034109      -2.033e-007    
  1.35            1.4995e-009     0.0003642       -1.9829e-007   
  1.4             2.5445e-009     0.00038424      -1.9372e-007   
  1.45            6.24e-010       0.0004011       -1.8078e-007   
  1.5             -1.4791e-009    0.00041534      -1.5891e-007   
  1.55            -2.53e-009      0.00042751      -2.0996e-007   
  1.6             -7.279e-010     0.0004379       -2.0368e-007   
  1.65            1.4531e-009     0.00044669      -1.9946e-007   
  1.7             2.5779e-009     0.00045501      -1.938e-007    
  1.75            6.72e-010       0.00046198      -1.8098e-007   
  1.8             -1.4484e-009    0.0004683       -1.5844e-007   
END_DB

BEGIN_DB
 ICCAP_VAR VS         0              
 ICCAP_VAR VB         -1.8           
 ICCAP_VAR VD         1.8            

 #VG              IG              ID              IB             
  0               -2.543e-010     1.1897e-009     -1.5955e-007   
  0.05            -2.7089e-009    2.345e-010      -1.6199e-007   
  0.1             -1.3898e-009    -3.7074e-009    -2.0744e-007   
  0.15            1.3129e-009     -2.7954e-009    -2.0549e-007   
  0.2             2.7264e-009     1.9597e-009     -1.9597e-007   
  0.25            6.474e-010      4.5568e-009     -1.8275e-007   
  0.3             -1.7154e-009    1.7124e-009     -1.586e-007    
  0.35            -2.0906e-009    -1.5201e-009    -2.0892e-007   
  0.4             2.2809e-009     1.791e-009      -1.9975e-007   
  0.45            -2.6389e-009    1.3602e-008     -2.0407e-007   
  0.5             -1.7776e-009    5.9559e-008     -2.0884e-007   
  0.55            2.6582e-009     2.4493e-007     -2.1052e-007   
  0.6             2.6386e-009     8.878e-007      -1.9066e-007   
  0.65            -1.3842e-009    3.1516e-006     -2.0746e-007   
  0.7             -2.7461e-009    9.8228e-006     -2.2201e-007   
  0.75            -1.5383e-009    2.701e-005      -2.1635e-007   
  0.8             -2.4424e-009    6.1234e-005     -2.6067e-007   
  0.85            -2.6632e-009    0.00011768      -2.873e-007    
  0.9             -1.7326e-009    0.00019805      -3.2032e-007   
  0.95            1.5185e-009     0.0002924       -3.366e-007    
  1               2.5325e-009     0.00040674      -3.4785e-007   
  1.05            6.103e-010      0.00053328      -3.4381e-007   
  1.1             -1.483e-009     0.00067014      -3.2226e-007   
  1.15            -2.5193e-009    0.00081059      -3.6658e-007   
  1.2             -7.263e-010     0.00095956      -3.4891e-007   
  1.25            1.4551e-009     0.00111027      -3.3068e-007   
  1.3             2.0238e-009     0.0012691       -2.7227e-007   
  1.35            2.2793e-009     0.0014312       -2.9173e-007   
  1.4             2.834e-010      0.001595        -2.635e-007    
  1.45            -1.854e-009     0.0017599       -2.2966e-007   
  1.5             -2.2067e-009    0.001925        -2.6599e-007   
  1.55            -3.559e-010     0.0020918       -2.474e-007    
  1.6             1.9264e-009     0.0022597       -2.3228e-007   
  1.65            2.3299e-009     0.0024325       -2.211e-007    
  1.7             3.471e-010      0.0026034       -2.0241e-007   
  1.75            -1.7671e-009    0.0027765       -1.7754e-007   
  1.8             -2.2624e-009    0.0029437       -2.2264e-007   
END_DB

