! VERSION = 6.00
BEGIN_HEADER
 ICCAP_INPUTS
  VG         V  B GROUND SMU4 0.001 LIN        2    0          1.8        6    0.36      
  VS         V  E GROUND SMU2 0.1 CON        0
  VD         V  S GROUND SMU1 0.1 LIN        1    0          1.8        37   0.05      
  VB         V  C GROUND SMU3 0.1 LIN        3    0          -0.9       2    -0.9      
 ICCAP_OUTPUTS
  ID         I  S GROUND SMU1 B
  IB         I  C GROUND SMU3 B
  IG         I  B GROUND SMU4 B
END_HEADER

BEGIN_DB
 ICCAP_VAR VG         0              
 ICCAP_VAR VS         0              
 ICCAP_VAR VB         0              

 #VD              ID              IB              IG             
  0               9.623e-010      1.5467e-008     1.05e-009      
  0.05            -9.589e-010     -2.4782e-008    1.6137e-009    
  0.1             2.3551e-009     -8.748e-009     8.292e-010     
  0.15            2.3341e-009     8.946e-009      9.741e-010     
  0.2             9.422e-010      2.6198e-008     -1.4963e-009   
  0.25            -2.232e-009     8.671e-009      -9.465e-010    
  0.3             -1.669e-009     -1.2257e-008    1.6672e-009    
  0.35            2.3535e-009     -8.804e-009     7.898e-010     
  0.4             1.6462e-009     1.5212e-008     -1.7046e-009   
  0.45            -1.5964e-009    5.676e-009      -1.6557e-009   
  0.5             -1.5142e-009    -1.8245e-008    2.2271e-009    
  0.55            2.0251e-009     -5.818e-009     1.3278e-009    
  0.6             1.9949e-009     1.1243e-008     -2.7e-011      
  0.65            1.0085e-009     2.7213e-008     -1.4419e-009   
  0.7             -2.209e-009     9.47e-009       -1.0282e-009   
  0.75            -1.7182e-009    -1.1716e-008    1.544e-009     
  0.8             2.3604e-009     -8.482e-009     8.714e-010     
  0.85            1.7167e-009     1.3494e-008     -1.6013e-009   
  0.9             -1.4853e-009    6.843e-009      -1.7433e-009   
  0.95            -2.1558e-009    -1.1853e-008    -3.795e-010    
  1               -2.2119e-009    -1.111e-008     -6.003e-010    
  1.05            -1.4966e-009    -1.9137e-008    1.2683e-009    
  1.1             -9.45e-011      -1.2462e-008    2.8567e-009    
  1.15            1.4394e-009     2.1906e-008     -1.3254e-009   
  1.2             1.097e-010      1.1387e-008     -2.6755e-009   
  1.25            -1.5051e-009    -1.8448e-008    2.2291e-009    
  1.3             2.0342e-009     -5.751e-009     1.3271e-009    
  1.35            1.2497e-009     2.6732e-008     -1.3642e-009   
  1.4             -2.011e-009     1.1612e-008     -1.3133e-009   
  1.45            -1.9034e-009    -1.1611e-008    1.507e-010     
  1.5             -2.029e-009     -1.1756e-008    -2.56e-011     
  1.55            -2.1251e-009    -1.1915e-008    -2.587e-010    
  1.6             -2.1864e-009    -1.157e-008     -4.872e-010    
  1.65            -2.23e-009      -1.0668e-008    -7.127e-010    
  1.7             -1.5495e-009    -1.6851e-008    1.2525e-009    
  1.75            -1.9e-010       -1.3574e-008    2.8237e-009    
  1.8             2.097e-009      1.134e-008      1.659e-010     
END_DB

BEGIN_DB
 ICCAP_VAR VG         0.36           
 ICCAP_VAR VS         0              
 ICCAP_VAR VB         0              

 #VD              ID              IB              IG             
  0               -9.318e-010     -1.9192e-008    -1.0116e-009   
  0.05            1.309e-009      2.7901e-008     -1.3808e-009   
  0.1             2.8e-011        1.1095e-008     -1.3462e-009   
  0.15            1.779e-010      1.1421e-008     -1.3121e-009   
  0.2             3.33e-010       1.1754e-008     -2.6636e-009   
  0.25            -2.0471e-009    5.42e-010       -9.373e-010    
  0.3             -1.4633e-009    -1.2107e-008    1.6783e-009    
  0.35            1.7798e-009     -8.82e-009      1.6746e-009    
  0.4             2.3833e-009     1.1301e-008     3.393e-010     
  0.45            2.4832e-009     1.051e-008      5.314e-010     
  0.5             1.6607e-009     2.2366e-008     -1.3249e-009   
  0.55            3.463e-010      1.1523e-008     -2.6899e-009   
  0.6             -1.7951e-009    -1.1725e-008    -6.55e-011     
  0.65            -1.8735e-009    -1.2003e-008    -2.984e-010    
  0.7             -1.9276e-009    -1.1422e-008    -5.218e-010    
  0.75            -1.9586e-009    -1.04e-008      -7.405e-010    
  0.8             -1.2729e-009    -1.6013e-008    1.247e-009     
  0.85            1.3848e-009     -1.3856e-008    2.3856e-009    
  0.9             2.3483e-009     1.1292e-008     6.53e-011      
  0.95            2.4538e-009     1.1364e-008     2.628e-010     
  1               2.5594e-009     1.0913e-008     4.654e-010     
  1.05            1.7229e-009     2.4214e-008     -1.3392e-009   
  1.1             4.099e-010      1.1444e-008     -1.3003e-009   
  1.15            5.851e-010      1.1989e-008     -2.6314e-009   
  1.2             -1.5753e-009    6.33e-010       9.4e-011       
  1.25            -1.6874e-009    -1.1853e-008    -1.174e-010    
  1.3             -1.7488e-009    -1.1862e-008    -3.554e-010    
  1.35            -1.7932e-009    -1.1222e-008    -5.817e-010    
  1.4             -8.559e-010     -1.0282e-008    1.3228e-009    
  1.45            1.6033e-009     -9.053e-009     2.1361e-009    
  1.5             2.7964e-009     9.001e-009      8.175e-010     
  1.55            2.7997e-009     8.857e-009      9.63e-010      
  1.6             2.28e-009       1.195e-008      -1.505e-009    
  1.65            1.67e-010       8.252e-009      -1.4102e-009   
  1.7             2.999e-010      1.0128e-008     -1.3693e-009   
  1.75            4.412e-010      1.1461e-008     -1.3392e-009   
  1.8             5.97e-010       1.1467e-008     -1.3042e-009   
END_DB

BEGIN_DB
 ICCAP_VAR VG         0.72           
 ICCAP_VAR VS         0              
 ICCAP_VAR VB         0              

 #VD              ID              IB              IG             
  0               -4.459e-011     1.365e-008      -5.344e-010    
  0.05            1.211e-006      -1.2172e-008    -1.3712e-009   
  0.1             1.6617e-006     9.15e-009       1.0371e-009    
  0.15            1.8881e-006     -2.5672e-008    1.3534e-009    
  0.2             2.0085e-006     -2.6441e-008    1.3085e-009    
  0.25            2.0941e-006     -2.5029e-008    1.2788e-009    
  0.3             2.1725e-006     -2.2231e-008    2.0717e-009    
  0.35            2.2375e-006     -2.1262e-008    2.0259e-009    
  0.4             2.3016e-006     -2.0773e-008    1.9789e-009    
  0.45            2.3503e-006     -1.2029e-008    -4.692e-010    
  0.5             2.4677e-006     1.5098e-008     -1.945e-009    
  0.55            2.5415e-006     2.502e-008      -1.3089e-009   
  0.6             2.5964e-006     2.1416e-008     -1.6986e-009   
  0.65            2.6241e-006     1.1495e-008     5.247e-010     
  0.7             2.6614e-006     -1.7961e-008    1.9429e-009    
  0.75            2.7202e-006     -1.2124e-008    -4.846e-010    
  0.8             2.8463e-006     1.5094e-008     -1.9166e-009   
  0.85            2.8228e-006     1.075e-008      1.8827e-009    
  0.9             2.9148e-006     -1.2877e-008    1.5036e-009    
  0.95            2.9951e-006     -1.1433e-008    -8.347e-010    
  1               3.1118e-006     2.1165e-008     -1.53e-009     
  1.05            3.1312e-006     1.1165e-008     6.951e-010     
  1.1             3.1807e-006     -1.9665e-008    1.6896e-009    
  1.15            3.2562e-006     -1.2107e-008    -6.933e-010    
  1.2             3.3875e-006     1.8215e-008     -1.6983e-009   
  1.25            3.4265e-006     1.1513e-008     5.274e-010     
  1.3             3.4644e-006     -1.8021e-008    1.9429e-009    
  1.35            3.5327e-006     -1.2135e-008    -4.892e-010    
  1.4             3.6822e-006     1.5261e-008     -1.9085e-009   
  1.45            3.6513e-006     1.0525e-008     1.8895e-009    
  1.5             3.7538e-006     -1.3148e-008    1.4997e-009    
  1.55            3.8528e-006     -1.1968e-008    -8.356e-010    
  1.6             3.9882e-006     2.051e-008      -1.5291e-009   
  1.65            4.0107e-006     1.0026e-008     7.026e-010     
  1.7             4.0633e-006     -2.134e-008     1.6887e-009    
  1.75            4.1572e-006     -1.4418e-008    -7.003e-010    
  1.8             4.3101e-006     1.5037e-008     -1.6909e-009   
END_DB

BEGIN_DB
 ICCAP_VAR VG         1.08           
 ICCAP_VAR VS         0              
 ICCAP_VAR VB         0              

 #VD              ID              IB              IG             
  0               -4.5336e-008    -1.158e-008     -5.912e-010    
  0.05            2.1007e-005     1.7582e-008     -8.247e-010    
  0.1             3.7419e-005     2.7223e-008     -1.3816e-009   
  0.15            4.9283e-005     2.3372e-008     -1.7903e-009   
  0.2             5.7218e-005     1.043e-008      8.236e-010     
  0.25            6.2424e-005     -2.6411e-008    1.3164e-009    
  0.3             6.6097e-005     -1.1939e-008    -4.065e-010    
  0.35            6.89e-005       2.0391e-008     -1.557e-009    
  0.4             7.0295e-005     9.343e-009      9.856e-010     
  0.45            7.1754e-005     -2.5241e-008    1.2796e-009    
  0.5             7.3505e-005     -1.1758e-008    -1.6756e-009   
  0.55            7.4441e-005     1.3002e-008     -1.4292e-009   
  0.6             7.5589e-005     2.6975e-008     -1.3253e-009   
  0.65            7.6277e-005     1.1282e-008     6.62e-010      
  0.7             7.6845e-005     -2.5216e-008    1.386e-009     
  0.75            7.7833e-005     -2.2949e-008    1.257e-009     
  0.8             7.8818e-005     -1.1651e-008    -7.946e-010    
  0.85            7.9962e-005     2.69e-008       -1.3901e-009   
  0.9             8.0782e-005     2.4589e-008     -1.2955e-009   
  0.95            8.1587e-005     2.7212e-008     -1.3803e-009   
  1               8.2347e-005     2.3149e-008     -1.7701e-009   
  1.05            8.2751e-005     1.0274e-008     8.375e-010     
  1.1             8.3313e-005     -2.6345e-008    1.3176e-009    
  1.15            8.4212e-005     -1.1935e-008    -4.257e-010    
  1.2             8.5352e-005     2.064e-008      -1.5461e-009   
  1.25            8.5588e-005     9.266e-009      9.964e-010     
  1.3             8.6363e-005     -2.5309e-008    1.2784e-009    
  1.35            8.7241e-005     -1.2345e-008    -6.821e-010    
  1.4             8.8269e-005     7.304e-009      -1.3664e-009   
  1.45            8.9031e-005     1.995e-008      -1.6884e-009   
  1.5             8.9824e-005     1.034e-008      -2.3563e-009   
  1.55            8.9933e-005     6.913e-009      1.9726e-009    
  1.6             9.0666e-005     -1.6953e-008    -4.46e-011     
  1.65            9.1889e-005     7.107e-009      -1.9037e-009   
  1.7             9.2227e-005     -3.306e-009     2.2234e-009    
  1.75            9.2898e-005     -3.0526e-008    -4.299e-010    
  1.8             9.4019e-005     -5.92e-009      -1.5427e-009   
END_DB

BEGIN_DB
 ICCAP_VAR VG         1.44           
 ICCAP_VAR VS         0              
 ICCAP_VAR VB         0              

 #VD              ID              IB              IG             
  0               -7.7073e-008    1.1787e-008     1.1813e-009    
  0.05            4.3052e-005     -5.823e-009     -1.3325e-009   
  0.1             8.1618e-005     1.1376e-008     6.223e-010     
  0.15            0.00011505      -2.4666e-008    -2.3908e-009   
  0.2             0.00014255      2.7882e-008     -1.344e-009    
  0.25            0.00016454      2.3144e-008     -1.7733e-009   
  0.3             0.00018145      1.1418e-008     6.04e-010      
  0.35            0.00019418      -1.9653e-008    1.6697e-009    
  0.4             0.00020412      -1.1582e-008    -8.289e-010    
  0.45            0.00021165      2.3207e-008     -1.4706e-009   
  0.5             0.00021677      1.0217e-008     8.943e-010     
  0.55            0.00022079      -2.5162e-008    1.3794e-009    
  0.6             0.00022478      -9.674e-009     -1.0959e-009   
  0.65            0.00022758      2.7816e-008     -1.373e-009    
  0.7             0.00022925      8.781e-009      1.1618e-009    
  0.75            0.00023151      -2.6003e-008    1.2878e-009    
  0.8             0.00023355      -1.1963e-008    -3.077e-010    
  0.85            0.00023593      1.4903e-008     -1.9747e-009   
  0.9             0.000237        1.0364e-008     1.9877e-009    
  0.95            0.00023862      -1.8196e-008    1.8672e-009    
  1               0.00024035      -1.1925e-008    -7.052e-010    
  1.05            0.00024215      2.0161e-008     -1.5641e-009   
  1.1             0.00024334      1.0675e-008     7.833e-010     
  1.15            0.00024436      -2.3218e-008    1.4642e-009    
  1.2             0.00024629      -1.0355e-008    -9.798e-010    
  1.25            0.00024795      2.6439e-008     -1.3983e-009   
  1.3             0.00024847      8.747e-009      1.0476e-009    
  1.35            0.00024968      -2.7008e-008    1.3151e-009    
  1.4             0.0002511       -1.2431e-008    -1.338e-010    
  1.45            0.00025306      1.2294e-008     -2.184e-009    
  1.5             0.00025412      1.4661e-008     -1.7764e-009   
  1.55            0.00025549      8.105e-009      -2.6723e-009   
  1.6             0.0002567       6.16e-009       -2.4203e-009   
  1.65            0.00025776      4.717e-009      -2.0233e-009   
  1.7             0.00025872      -2.1367e-008    -2.7189e-009   
  1.75            0.00025949      -1.331e-008     1.022e-009     
  1.8             0.00026064      -5.9564e-008    1.3246e-009    
END_DB

BEGIN_DB
 ICCAP_VAR VG         1.8            
 ICCAP_VAR VS         0              
 ICCAP_VAR VB         0              

 #VD              ID              IB              IG             
  0               -8.9182e-008    2.7979e-008     9.34e-010      
  0.05            5.7622e-005     -1.3097e-008    1.926e-010     
  0.1             0.000111643     -1.8268e-008    1.8573e-009    
  0.15            0.00016122      -1.1912e-008    -2.5698e-009   
  0.2             0.00020489      1.1207e-008     7.083e-010     
  0.25            0.00024269      -2.1515e-008    1.5481e-009    
  0.3             0.00027492      -1.1042e-008    -9.054e-010    
  0.35            0.00030189      2.5348e-008     -1.4255e-009   
  0.4             0.00032362      9.255e-009      9.785e-010     
  0.45            0.00034133      -2.6401e-008    1.3427e-009    
  0.5             0.00035617      -9.249e-009     -1.1849e-009   
  0.55            0.00036749      2.8509e-008     -1.3601e-009   
  0.6             0.00037666      2.5361e-008     -1.3044e-009   
  0.65            0.00038381      1.1442e-008     5.062e-010     
  0.7             0.00038929      -1.8701e-008    1.8036e-009    
  0.75            0.00039441      -1.1794e-008    -7.52e-010     
  0.8             0.00039879      2.1296e-008     -1.5303e-009   
  0.85            0.00040209      1.0422e-008     8.222e-010     
  0.9             0.0004049       -2.4102e-008    1.4336e-009    
  0.95            0.00040812      -1.0018e-008    -1.0104e-009   
  1               0.00041084      2.7108e-008     -1.3924e-009   
  1.05            0.00041331      2.836e-008      -1.3432e-009   
  1.1             0.00041532      1.1306e-008     2.934e-010     
  1.15            0.0004169       -1.6194e-008    2.1266e-009    
  1.2             0.00041902      -1.203e-008     -5.242e-010    
  1.25            0.00042137      1.7548e-008     -1.7302e-009   
  1.3             0.00042308      1.1168e-008     6.472e-010     
  1.35            0.00042444      -2.0601e-008    1.6157e-009    
  1.4             0.00042647      -1.1649e-008    -8.561e-010    
  1.45            0.00042844      2.3181e-008     -1.4488e-009   
  1.5             0.00043019      2.6338e-008     -1.3773e-009   
  1.55            0.00043175      1.2865e-008     -1.8958e-009   
  1.6             0.00043322      1.5442e-008     -1.5634e-009   
  1.65            0.00043499      4.09e-009       -2.5318e-009   
  1.7             0.00043643      1.577e-009      -2.1569e-009   
  1.75            0.00043764      -2.5278e-008    -2.7001e-009   
  1.8             0.00043884      -1.7703e-008    9.536e-010     
END_DB

BEGIN_DB
 ICCAP_VAR VG         0              
 ICCAP_VAR VS         0              
 ICCAP_VAR VB         -0.9           

 #VD              ID              IB              IG             
  0               1.3051e-009     -1.1748e-008    1.3149e-009    
  0.05            9.19e-011       -9.416e-009     1.2816e-009    
  0.1             -4.02e-011      -1.1842e-008    2.893e-009     
  0.15            2.3641e-009     -3.26e-010      7.841e-010     
  0.2             1.6361e-009     1.5858e-008     -1.7612e-009   
  0.25            -1.6607e-009    5.178e-009      -1.6286e-009   
  0.3             -2.1108e-009    -1.2037e-008    -1.702e-010    
  0.35            -2.1778e-009    -1.193e-008     -3.942e-010    
  0.4             -2.2253e-009    -1.1145e-008    -6.026e-010    
  0.45            -1.5e-009       -1.9734e-008    1.2803e-009    
  0.5             -6.8e-011       -1.2229e-008    2.8882e-009    
  0.55            2.0469e-009     1.1355e-008     2.79e-011      
  0.6             2.1343e-009     1.1467e-008     2.139e-010     
  0.65            2.2244e-009     1.1259e-008     4.04e-010      
  0.7             2.3085e-009     1.0546e-008     5.912e-010     
  0.75            2.3611e-009     9.757e-009      7.591e-010     
  0.8             1.6139e-009     1.6759e-008     -1.8061e-009   
  0.85            -1.702e-009     4.915e-009      -1.6016e-009   
  0.9             -2.0972e-009    -1.1977e-008    -1.352e-010    
  0.95            -2.1641e-009    -1.1992e-008    -3.609e-010    
  1               -2.2191e-009    -1.1379e-008    -5.708e-010    
  1.05            -2.2565e-009    -1.0284e-008    -7.582e-010    
  1.1             -1.5832e-009    -1.5866e-008    1.2514e-009    
  1.15            -2.173e-010     -1.4158e-008    2.84e-009      
  1.2             2.266e-009      1.0113e-008     1.1243e-009    
  1.25            1.0654e-009     2.8255e-008     -1.4272e-009   
  1.3             -2.2214e-009    1.0014e-008     -1.0777e-009   
  1.35            -1.7522e-009    -1.162e-008     1.5201e-009    
  1.4             2.3754e-009     -8.591e-009     8.961e-010     
  1.45            1.7391e-009     1.3326e-008     -1.6015e-009   
  1.5             -1.5096e-009    6.614e-009      -1.7427e-009   
  1.55            -2.1618e-009    -1.2086e-008    -3.412e-010    
  1.6             -2.2116e-009    -1.1635e-008    -5.521e-010    
  1.65            -2.249e-009     -1.0688e-008    -7.513e-010    
  1.7             -2.2595e-009    -9.701e-009     -8.905e-010    
  1.75            -1.6455e-009    -1.3008e-008    1.8039e-009    
  1.8             1.7244e-009     -8.739e-009     1.593e-009     
END_DB

BEGIN_DB
 ICCAP_VAR VG         0.36           
 ICCAP_VAR VS         0              
 ICCAP_VAR VB         -0.9           

 #VD              ID              IB              IG             
  0               -2.717e-010     -9.262e-009     8.304e-010     
  0.05            -1.5307e-009    -1.7689e-008    2.199e-009     
  0.1             2.0378e-009     -5.755e-009     1.3396e-009    
  0.15            2.012e-009      1.1335e-008     -4.73e-011     
  0.2             9.934e-010      2.7386e-008     -1.4636e-009   
  0.25            -2.2492e-009    9.189e-009      -9.837e-010    
  0.3             -1.6952e-009    -1.1822e-008    1.6436e-009    
  0.35            1.5639e-009     -8.748e-009     1.7167e-009    
  0.4             2.1936e-009     1.1581e-008     3.262e-010     
  0.45            2.2823e-009     1.089e-008      5.173e-010     
  0.5             1.4149e-009     2.3018e-008     -1.3459e-009   
  0.55            4.88e-011       1.1555e-008     -1.3133e-009   
