! VERSION = 6.00
BEGIN_HEADER
 ICCAP_INPUTS
  VG         V  B GROUND SMU4 0.001 LIN        1    0          1.8        37   0.05      
  VS         V  E GROUND SMU2 0.1 CON        0
  VB         V  C GROUND SMU3 0.1 LIN        3    0          -1.8       3    -0.9      
  VD         V  S GROUND SMU1 0.1 LIN        2    0.1        1.8        2    1.7       
 ICCAP_OUTPUTS
  IG         I  B GROUND SMU4 B
  ID         I  S GROUND SMU1 B
  IB         I  C GROUND SMU3 B
END_HEADER

BEGIN_DB
 ICCAP_VAR VS         0              
 ICCAP_VAR VB         0              
 ICCAP_VAR VD         0.1            

 #VG              IG              ID              IB             
  0               9.656e-010      1.0079e-009     -8.944e-009    
  0.05            1.1954e-009     -1.239e-010     -1.4332e-008   
  0.1             1.9924e-009     1.0037e-009     -3.153e-009    
  0.15            -1.2151e-009    1.2099e-009     9.61e-009      
  0.2             -1.4142e-009    -1.1861e-009    9.592e-009     
  0.25            -1.38e-011      -1.9163e-009    -9.771e-009    
  0.3             -2.019e-010     -1.9575e-009    -9.308e-009    
  0.35            -3.353e-010     -1.929e-009     -8.95e-009     
  0.4             1.1396e-009     -8.042e-010     -9.204e-009    
  0.45            2.2897e-009     2.238e-009      -8.462e-009    
  0.5             6.273e-010      6.5655e-009     9.316e-009     
  0.55            -2.4464e-009    1.8321e-008     -2.0991e-008   
  0.6             -7.307e-010     7.3487e-008     -9.09e-009     
  0.65            -1.5682e-009    2.4062e-007     9.106e-009     
  0.7             -5.69e-010      6.5138e-007     -9.077e-009    
  0.75            1.2012e-009     1.4039e-006     9.627e-009     
  0.8             1.3516e-009     2.6033e-006     -1.5785e-008   
  0.85            1.0959e-009     4.2575e-006     -2.928e-009    
  0.9             1.1453e-009     6.2764e-006     -2.776e-009    
  0.95            1.199e-009      8.6003e-006     -8.721e-009    
  1               1.5432e-009     1.10942e-005    -1.3368e-008   
  1.05            -1.4544e-009    1.37e-005       1.1868e-008    
  1.1             -6.843e-010     1.624e-005      -9.018e-009    
  1.15            -1.1838e-009    1.8686e-005     -1.0061e-008   
  1.2             1.27e-011       2.0977e-005     -9.223e-009    
  1.25            -3.654e-010     2.3251e-005     -9.622e-009    
  1.3             -7.964e-010     2.5413e-005     -9.169e-009    
  1.35            1.1155e-009     2.7371e-005     -8.753e-009    
  1.4             1.1899e-009     2.9285e-005     -6.222e-009    
  1.45            1.2065e-009     3.1105e-005     -1.1173e-008   
  1.5             1.1049e-009     3.2814e-005     -3.1e-009      
  1.55            1.1323e-009     3.4431e-005     -2.662e-009    
  1.6             1.1994e-009     3.5963e-005     -7.852e-009    
  1.65            1.6298e-009     3.7401e-005     -1.2397e-008   
  1.7             1.4359e-009     3.8773e-005     1.1935e-008    
  1.75            4.35e-010       4.0058e-005     8.565e-009     
  1.8             7.102e-010      4.1243e-005     8.245e-009     
END_DB

BEGIN_DB
 ICCAP_VAR VS         0              
 ICCAP_VAR VB         0              
 ICCAP_VAR VD         1.8            

 #VG              IG              ID              IB             
  0               -1.2393e-009    3.11e-011       1.7025e-008    
  0.05            -9.788e-010     -1.6299e-009    5.571e-009     
  0.1             1.1007e-009     -1.6804e-009    -8.895e-009    
  0.15            1.6842e-009     9.362e-010      -4.665e-009    
  0.2             -1.2401e-009    8.56e-010       8.314e-009     
  0.25            -9.779e-010     -1.6175e-009    5.393e-009     
  0.3             1.2041e-009     0               -1.3197e-008   
  0.35            2.2504e-009     1.3514e-009     -1.6495e-008   
  0.4             1.1686e-009     2.4813e-009     1.2027e-008    
  0.45            1.26e-011       7.2088e-009     8.019e-009     
  0.5             -1.7565e-009    2.1605e-008     -4.141e-009    
  0.55            -6.462e-010     8.6503e-008     -9.021e-009    
  0.6             -2.3003e-009    2.9016e-007     8.459e-009     
  0.65            -1.0542e-009    8.3744e-007     -1.0742e-008   
  0.7             1.2004e-009     1.9328e-006     7.077e-009     
  0.75            1.4468e-009     3.8559e-006     -1.7006e-008   
  0.8             1.1114e-009     6.7585e-006     -7.022e-009    
  0.85            1.1342e-009     1.07453e-005    -7.859e-009    
  0.9             -1.2422e-009    1.5964e-005     -4.404e-009    
  0.95            -1.2208e-009    2.1988e-005     -2.888e-009    
  1               -1.8835e-009    2.8806e-005     -6.31e-010     
  1.05            -2.3109e-009    3.6172e-005     -1.9688e-008   
  1.1             -2.4649e-009    4.4104e-005     -1.6818e-008   
  1.15            -2.285e-009     5.2402e-005     -1.384e-008    
  1.2             -2.0618e-009    6.0969e-005     -2.194e-008    
  1.25            -2.3681e-009    6.9791e-005     -2.1223e-008   
  1.3             -2.4576e-009    7.8748e-005     -1.7347e-008   
  1.35            -1.7296e-009    8.7813e-005     -2.3571e-008   
  1.4             -2.1495e-009    9.6988e-005     -2.2203e-008   
  1.45            -2.3993e-009    0.000106216     -2.0148e-008   
  1.5             -1.2431e-009    0.00011566      -2.1133e-008   
  1.55            -2.2203e-009    0.00012486      -2.0977e-008   
  1.6             -2.4359e-009    0.00013418      -1.8825e-008   
  1.65            -2.3831e-009    0.00014348      -1.3436e-008   
  1.7             -1.9177e-009    0.00015276      -2.1379e-008   
  1.75            -2.291e-009     0.00016202      -1.9557e-008   
  1.8             -2.4531e-009    0.00017126      -1.5817e-008   
END_DB

BEGIN_DB
 ICCAP_VAR VS         0              
 ICCAP_VAR VB         -0.9           
 ICCAP_VAR VD         0.1            

 #VG              IG              ID              IB             
  0               1.1975e-009     1.0419e-009     -1.1065e-008   
  0.05            1.5947e-009     -1.965e-010     -1.7063e-008   
  0.1             1.2157e-009     1.1778e-009     1.2392e-008    
  0.15            5.75e-011       1.6968e-009     8.402e-009     
  0.2             2.168e-010      1.777e-009      8.955e-009     
  0.25            -1.2507e-009    7.248e-010      8.584e-009     
  0.3             -7.807e-010     -1.785e-009     5.453e-009     
  0.35            1.1964e-009     -1.5493e-009    -8.848e-009    
  0.4             1.9959e-009     1.0141e-009     -3.028e-009    
  0.45            -1.2136e-009    1.2341e-009     9.647e-009     
  0.5             -2.0824e-009    2.009e-010      9.767e-009     
  0.55            1.1256e-009     -1.875e-010     -1.0021e-008   
  0.6             1.0995e-009     2.5763e-009     -2.357e-009    
  0.65            1.1198e-009     9.005e-009      -3.392e-009    
  0.7             -1.9081e-009    3.6586e-008     -9.125e-009    
  0.75            1.496e-010      1.3649e-007     -5.505e-009    
  0.8             4.676e-010      4.0862e-007     8.449e-009     
  0.85            7.631e-010      9.8348e-007     8.812e-009     
  0.9             -1.6637e-009    2.0074e-006     -1.1058e-008   
  0.95            1.2072e-009     3.4177e-006     -1.0602e-008   
  1               1.2935e-009     5.2582e-006     -1.6504e-008   
  1.05            1.0995e-009     7.4597e-006     -2.645e-009    
  1.1             1.1638e-009     9.8743e-006     -3.233e-009    
  1.15            4.19e-011       1.2487e-005     -9.388e-009    
  1.2             3.98e-010       1.501e-005      8.68e-009      
  1.25            6.709e-010      1.7465e-005     8.225e-009     
  1.3             1.0494e-009     1.985e-005      1.0742e-008    
  1.35            1.4822e-009     2.2161e-005     1.2177e-008    
  1.4             4.645e-010      2.4322e-005     8.534e-009     
  1.45            7.48e-010       2.6333e-005     8.763e-009     
  1.5             1.1557e-009     2.8264e-005     1.102e-008     
  1.55            1.5649e-009     3.0108e-005     1.2613e-008    
  1.6             5.233e-010      3.1802e-005     8.412e-009     
  1.65            8.431e-010      3.3401e-005     9.521e-009     
  1.7             1.258e-009      3.4931e-005     1.1468e-008    
  1.75            3.041e-010      3.6385e-005     8.615e-009     
  1.8             5.899e-010      3.771e-005      8.346e-009     
END_DB

BEGIN_DB
 ICCAP_VAR VS         0              
 ICCAP_VAR VB         -0.9           
 ICCAP_VAR VD         1.8            

 #VG              IG              ID              IB             
  0               -1.2013e-009    -1.065e-009     8.444e-009     
  0.05            -1.4834e-009    -1.1372e-009    1.1438e-008    
  0.1             -1.356e-010     -1.9602e-009    -9.495e-009    
  0.15            1.1408e-009     -1.0957e-009    -1.4002e-008   
  0.2             1.8491e-009     9.642e-010      -8.38e-009     
  0.25            -1.228e-009     1.0672e-009     9.268e-009     
  0.3             -1.2559e-009    -1.3481e-009    7.711e-009     
  0.35            2.107e-010      -1.829e-009     -9.603e-009    
  0.4             9.9e-012        -1.871e-009     -9.731e-009    
  0.45            1.0961e-009     -5.508e-010     -9.235e-009    
  0.5             2.3127e-009     2.0358e-009     -3.117e-009    
  0.55            1.3113e-009     5.6928e-009     1.2406e-008    
  0.6             -2.3567e-009    1.9698e-008     -1.3046e-008   
  0.65            -2.856e-010     8.4377e-008     -9.735e-009    
  0.7             -2.4489e-009    3.0609e-007     7.915e-009     
  0.75            -7.255e-010     9.1794e-007     -9.879e-009    
  0.8             1.1953e-009     2.124e-006      6.734e-009     
  0.85            1.6259e-009     4.235e-006      -1.5064e-008   
  0.9             1.159e-009      7.3532e-006     -6.016e-009    
  0.95            -1.2187e-009    1.1706e-005     -8.133e-009    
  1               -1.8645e-009    1.7052e-005     2.261e-009     
  1.05            -1.4042e-009    2.3309e-005     -1.8909e-008   
  1.1             -1.7197e-009    3.0287e-005     -1.9582e-008   
  1.15            -2.1381e-009    3.7913e-005     -1.9642e-008   
  1.2             -2.3989e-009    4.6002e-005     -1.8457e-008   
  1.25            -2.4284e-009    5.4422e-005     -1.4555e-008   
  1.3             -1.8166e-009    6.3113e-005     -2.1781e-008   
  1.35            -2.2217e-009    7.1994e-005     -2.0688e-008   
  1.4             -2.4319e-009    8.1007e-005     -1.883e-008    
  1.45            -2.3753e-009    9.0108e-005     -1.4157e-008   
  1.5             -1.9284e-009    9.9309e-005     -2.2062e-008   
  1.55            -2.288e-009     0.000108549     -2.0517e-008   
  1.6             -1.3247e-009    0.00011798      -2.1455e-008   
  1.65            -2.4561e-009    0.00012718      -1.5783e-008   
  1.7             -1.7123e-009    0.00013648      -2.1071e-008   
  1.75            -2.1486e-009    0.00014573      -1.9894e-008   
  1.8             -2.3943e-009    0.000155        -1.7697e-008   
END_DB

BEGIN_DB
 ICCAP_VAR VS         0              
 ICCAP_VAR VB         -1.8           
 ICCAP_VAR VD         0.1            

 #VG              IG              ID              IB             
  0               -1.1929e-009    -1.0666e-009    9.336e-009     
  0.05            -1.9077e-009    1.974e-010      1.1218e-008    
  0.1             -1.1347e-009    -1.4337e-009    -1.1221e-008   
  0.15            1.1281e-009     -1.7756e-009    -9.279e-009    
  0.2             1.7895e-009     9.519e-010      -7.106e-009    
  0.25            -1.2347e-009    9.752e-010      8.354e-009     
  0.3             -1.1497e-009    -1.4474e-009    6.688e-009     
  0.35            1.1279e-009     -1.7824e-009    -9.216e-009    
  0.4             1.794e-009      9.541e-010      -7.237e-009    
  0.45            -1.2344e-009    9.847e-010      8.657e-009     
  0.5             -1.1589e-009    -1.4323e-009    6.648e-009     
  0.55            1.1303e-009     -1.7375e-009    -9.369e-009    
  0.6             2.3384e-009     1.2924e-009     -7.266e-009    
  0.65            5.701e-010      2.919e-009      8.625e-009     
  0.7             6.938e-010      6.9706e-009     1.0178e-008    
  0.75            -1.9314e-009    2.2577e-008     -6.88e-009     
  0.8             -8.431e-010     9.3714e-008     -9.316e-009    
  0.85            -1.4435e-009    3.0863e-007     9.613e-009     
  0.9             -6.718e-010     8.0161e-007     -9.002e-009    
  0.95            1.2037e-009     1.6515e-006     1.0542e-008    
  1               1.1078e-009     2.9454e-006     -3.101e-009    
  1.05            1.1393e-009     4.6562e-006     -2.695e-009    
  1.1             1.1923e-009     6.7416e-006     -7.888e-009    
  1.15            1.2105e-009     9.1027e-006     -1.1955e-008   
  1.2             -1.2123e-009    1.1671e-005     -2.687e-009    
  1.25            -1.7571e-009    1.4224e-005     9.206e-009     
  1.3             -4.275e-010     1.6724e-005     -9.444e-009    
  1.35            -8.821e-010     1.9167e-005     -9.441e-009    
  1.4             3.018e-010      2.1393e-005     -8.967e-009    
  1.45            -1.746e-010     2.3585e-005     -9.813e-009    
  1.5             -5.065e-010     2.5675e-005     -9.099e-009    
  1.55            -1.0047e-009    2.7629e-005     -1.0871e-008   
  1.6             1.89e-010       2.9407e-005     -9.019e-009    
  1.65            -2.523e-010     3.1131e-005     -9.536e-009    
  1.7             -6.158e-010     3.2773e-005     -8.85e-009     
  1.75            1.2015e-009     3.4264e-005     -9.789e-009    
  1.8             1.3733e-009     3.5681e-005     -1.5225e-008   
END_DB

BEGIN_DB
 ICCAP_VAR VS         0              
 ICCAP_VAR VB         -1.8           
 ICCAP_VAR VD         1.8            

 #VG              IG              ID              IB             
  0               -1.2388e-009    -1.0964e-009    8.432e-009     
  0.05            -9.787e-010     -1.6216e-009    5.42e-009      
  0.1             -1.1839e-009    -1.4076e-009    -1.0966e-008   
  0.15            2.983e-010      -1.7968e-009    -9.311e-009    
  0.2             9e-011          -1.8823e-009    -9.861e-009    
  0.25            -1.08e-010      -1.948e-009     -9.228e-009    
  0.3             1.137e-009      -1.0795e-009    -1.4303e-008   
  0.35            1.8351e-009     9.641e-010      -8.137e-009    
  0.4             -1.228e-009     1.0515e-009     9.199e-009     
  0.45            -1.2309e-009    -1.3172e-009    7.264e-009     
  0.5             1.1017e-009     -1.4283e-009    -1.0403e-008   
  0.55            2.3453e-009     2.127e-009      -4.482e-009    
  0.6             4.641e-010      6.914e-009      8.272e-009     
  0.65            -1.422e-009     2.2634e-008     -1.0221e-008   
  0.7             -7.051e-010     9.8088e-008     -9.185e-009    
  0.75            -1.9144e-009    3.4879e-007     7.99e-009      
  0.8             -1.3604e-009    1.01364e-006    -1.188e-008    
  0.85            1.4175e-009     2.3249e-006     9.395e-009     
  0.9             1.1097e-009     4.5381e-006     -5.843e-009    
  0.95            1.1385e-009     7.792e-006      -6.394e-009    
  1               -1.227e-009     1.2306e-005     -8.025e-009    
  1.05            -2.0864e-009    1.7778e-005     5.81e-010      
  1.1             -1.2642e-009    2.417e-005      -1.8094e-008   
  1.15            -1.5714e-009    3.1185e-005     -1.9707e-008   
  1.2             -1.9654e-009    3.8899e-005     -2.0031e-008   
  1.25            -2.3117e-009    4.702e-005      -1.967e-008    
  1.3             -2.461e-009     5.551e-005      -1.6371e-008   
  1.35            -2.2594e-009    6.4229e-005     -1.3276e-008   
  1.4             -2.0712e-009    7.3071e-005     -2.112e-008    
  1.45            -2.3608e-009    8.2085e-005     -1.9829e-008   
  1.5             -2.4579e-009    9.121e-005      -1.6025e-008   
  1.55            -1.744e-009     0.000100386     -2.1587e-008   
  1.6             -2.1638e-009    0.000109594     -2.0703e-008   
  1.65            -1.4486e-009    0.00011904      -2.1302e-008   
  1.7             -2.4442e-009    0.00012818      -1.7518e-008   
  1.75            -2.3692e-009    0.00013747      -1.2448e-008   
  1.8             -1.9546e-009    0.00014669      -2.0396e-008   
END_DB

