! VERSION = 6.00
BEGIN_HEADER
 ICCAP_INPUTS
  VG         V  B GROUND SMU4 0.001 LIN        2    0          1.8        6    0.36      
  VS         V  E GROUND SMU2 0.1 CON        0
  VD         V  S GROUND SMU1 0.1 LIN        1    0          1.8        37   0.05      
  VB         V  C GROUND SMU3 0.1 LIN        3    0          -0.9       2    -0.9      
 ICCAP_OUTPUTS
  ID         I  S GROUND SMU1 B
  IB         I  C GROUND SMU3 B
  IG         I  B GROUND SMU4 B
END_HEADER

BEGIN_DB
 ICCAP_VAR VG         0              
 ICCAP_VAR VS         0              
 ICCAP_VAR VB         0              

 #VD              ID              IB              IG             
  0               1.5281e-009     4.881e-009      1.2858e-009    
  0.05            2.2586e-009     -7.533e-009     9.698e-010     
  0.1             1.7255e-009     1.0071e-008     -1.4078e-009   
  0.15            -2.1272e-009    6.269e-009      -9.139e-010    
  0.2             -1.6071e-009    -1.1231e-008    1.6942e-009    
  0.25            2.211e-009      -8.272e-009     7.128e-010     
  0.3             1.4963e-009     1.7557e-008     -1.8344e-009   
  0.35            -1.7397e-009    4.96e-009       -1.503e-009    
  0.4             -1.377e-009     -2.2964e-008    2.471e-009     
  0.45            2.1705e-009     -3.749e-009     1.1801e-009    
  0.5             3.938e-010      1.4331e-008     -2.4474e-009   
  0.55            -2.105e-009     2.116e-009      -1.1252e-009   
  0.6             -1.0641e-009    -2.419e-008     2.7654e-009    
  0.65            1.397e-009      2.3295e-008     -2.0851e-009   
  0.7             -1.9148e-009    3.885e-009      -1.3622e-009   
  0.75            -1.2595e-009    -2.5288e-008    2.6462e-009    
  0.8             1.5875e-009     1.3663e-008     -1.6325e-009   
  0.85            -2.1194e-009    4.887e-009      -7.638e-010    
  0.9             -1.527e-009     -1.5721e-008    2.0464e-009    
  0.95            2.165e-009      -6.613e-009     5.404e-010     
  1               1.3685e-009     2.4112e-008     -2.1311e-009   
  1.05            -1.9479e-009    3.63e-009       -1.3316e-009   
  1.1             -1.2376e-009    -2.572e-008     2.6682e-009    
  1.15            2.1197e-009     1.077e-008      3.581e-010     
  1.2             2.1636e-009     1.0043e-008     5.296e-010     
  1.25            2.21e-009       8.778e-009      6.851e-010     
  1.3             1.4755e-009     1.8598e-008     -1.8827e-009   
  1.35            -1.7765e-009    4.818e-009      -1.4753e-009   
  1.4             -1.3552e-009    -2.3366e-008    2.5023e-009    
  1.45            2.1629e-009     1.0286e-008     5.15e-010      
  1.5             1.3498e-009     2.4775e-008     -2.1743e-009   
  1.55            -1.9712e-009    3.372e-009      -1.3069e-009   
  1.6             -1.221e-009     -2.5747e-008    2.6926e-009    
  1.65            2.1099e-009     1.088e-008      3.278e-010     
  1.7             2.1586e-009     1.0139e-008     5.02e-010      
  1.75            5.658e-010      1.5083e-008     -2.1958e-009   
  1.8             -1.9849e-009    3.292e-009      -1.2991e-009   
END_DB

BEGIN_DB
 ICCAP_VAR VG         0.36           
 ICCAP_VAR VS         0              
 ICCAP_VAR VB         0              

 #VD              ID              IB              IG             
  0               -1.091e-009     9.349e-009      -1.2432e-009   
  0.05            1.858e-010      1.2704e-008     -2.6034e-009   
  0.1             -1.2214e-009    -2.2886e-008    2.4759e-009    
  0.15            2.3319e-009     -3.821e-009     1.1797e-009    
  0.2             1.2627e-009     2.8421e-008     -2.5626e-009   
  0.25            -1.3668e-009    -1.4344e-008    1.9821e-009    
  0.3             2.0344e-009     -6.371e-009     1.4033e-009    
  0.35            1.4609e-009     2.5895e-008     -2.2886e-009   
  0.4             -1.8859e-009    3.106e-009      -2.873e-010    
  0.45            -1.9084e-009    -1.0817e-008    -4.828e-010    
  0.5             -1.1697e-009    -2.2408e-008    2.4549e-009    
  0.55            2.3627e-009     -3.799e-009     1.1707e-009    
  0.6             1.3008e-009     2.8017e-008     -2.5634e-009   
  0.65            -1.7179e-009    1.846e-009      -2.1e-012      
  0.7             2.0742e-009     -1.2523e-008    1.3921e-009    
  0.75            1.4985e-009     2.5748e-008     -2.2875e-009   
  0.8             -1.8348e-009    2.852e-009      -2.8e-010      
  0.85            -1.0002e-009    -2.5677e-008    2.681e-009     
  0.9             1.7993e-009     1.4143e-008     -1.6626e-009   
  0.95            -1.4588e-009    4.538e-009      2.7687e-009    
  1               1.7014e-009     1.8723e-008     -1.8889e-009   
  1.05            -1.8291e-009    4.539e-009      -5.569e-010    
  1.1             -1.1346e-009    -2.0829e-008    2.36e-009      
  1.15            2.4046e-009     -4.124e-009     1.2195e-009    
  1.2             1.429e-009      2.8477e-008     -2.5313e-009   
  1.25            -1.6626e-009    2.062e-009      -4.36e-011     
  1.3             1.3096e-009     -1.3662e-008    2.3308e-009    
  1.35            1.6433e-009     2.5469e-008     -2.2324e-009   
  1.4             -1.7548e-009    3.235e-009      -3.359e-010    
  1.45            -1.7614e-009    -1.0893e-008    -5.271e-010    
  1.5             -1.0347e-009    -2.2518e-008    2.4384e-009    
  1.55            1.3648e-009     -4.024e-009     2.1954e-009    
  1.6             1.5843e-009     2.7621e-008     -2.4442e-009   
  1.65            -1.6328e-009    2.092e-009      -1.405e-010    
  1.7             -7.497e-010     -2.5732e-008    2.7458e-009    
  1.75            1.8923e-009     1.8469e-008     -1.8721e-009   
  1.8             -1.2138e-009    4.629e-009      2.7676e-009    
END_DB

BEGIN_DB
 ICCAP_VAR VG         0.72           
 ICCAP_VAR VS         0              
 ICCAP_VAR VB         0              

 #VD              ID              IB              IG             
  0               8.205e-010      2.554e-008      4.55e-010      
  0.05            7.1103e-007     6.171e-009      7.67e-011      
  0.1             1.05777e-006    1.2942e-008     -2.4838e-009   
  0.15            1.1972e-006     -1.2211e-008    -2.2231e-009   
  0.2             1.3198e-006     2.8187e-008     -2.2208e-009   
  0.25            1.3861e-006     2.818e-008      -2.1858e-009   
  0.3             1.4539e-006     2.8065e-008     -2.1557e-009   
  0.35            1.5047e-006     2.781e-008      -2.123e-009    
  0.4             1.5517e-006     1.4577e-008     -1.8804e-009   
  0.45            1.5768e-006     2.5934e-008     -1.8452e-009   
  0.5             1.6307e-006     2.5359e-008     -1.8118e-009   
  0.55            1.6869e-006     2.506e-008      -1.7808e-009   
  0.6             1.7122e-006     2.4462e-008     -1.7423e-009   
  0.65            1.7076e-006     9.28e-009       1.8853e-009    
  0.7             1.7925e-006     -1.0265e-008    2.43e-010      
  0.75            1.847e-006      9.916e-009      -2.5998e-009   
  0.8             1.9251e-006     1.389e-008      -2.5813e-009   
  0.85            1.9638e-006     1.075e-008      -2.5123e-009   
  0.9             1.9906e-006     1.3569e-008     -2.3801e-009   
  0.95            2.0529e-006     1.4292e-008     -2.1753e-009   
  1               2.1229e-006     2.8115e-008     -2.1491e-009   
  1.05            2.1638e-006     2.789e-008      -2.1309e-009   
  1.1             2.2391e-006     1.4778e-008     -1.889e-009    
  1.15            2.245e-006      2.6296e-008     -1.8615e-009   
  1.2             2.3454e-006     2.5815e-008     -1.8314e-009   
  1.25            2.3769e-006     2.5299e-008     -1.802e-009    
  1.3             2.38e-006       9.44e-009       1.8699e-009    
  1.35            2.4097e-006     -1.0843e-008    2.7259e-009    
  1.4             2.5027e-006     -9.334e-009     1.459e-010     
  1.45            2.6022e-006     1.1275e-008     -2.5743e-009   
  1.5             2.6355e-006     1.1189e-008     -2.5167e-009   
  1.55            2.7114e-006     1.2739e-008     -2.3901e-009   
  1.6             2.8053e-006     1.3633e-008     -2.2052e-009   
  1.65            2.8564e-006     1.3946e-008     -1.9868e-009   
  1.7             2.9269e-006     1.4585e-008     -1.753e-009    
  1.75            2.887e-006      7.819e-009      1.8974e-009    
  1.8             2.9571e-006     -1.2869e-008    2.302e-010     
END_DB

BEGIN_DB
 ICCAP_VAR VG         1.08           
 ICCAP_VAR VS         0              
 ICCAP_VAR VB         0              

 #VD              ID              IB              IG             
  0               -2.3552e-008    -1.2884e-008    -1.1018e-009   
  0.05            8.9579e-006     4.415e-009      1.0598e-009    
  0.1             1.6202e-005     -8.731e-009     -1.5532e-009   
  0.15            2.1554e-005     8.86e-009       9.293e-010     
  0.2             2.5353e-005     -2.5335e-008    2.4697e-009    
  0.25            2.8009e-005     -1.9551e-008    1.7919e-009    
  0.3             2.99e-005       -9.928e-009     -9.343e-010    
  0.35            3.133e-005      8.849e-009      -2.5884e-009   
  0.4             3.2346e-005     1.3272e-008     -2.3375e-009   
  0.45            3.2922e-005     9.414e-009      1.8728e-009    
  0.5             3.3608e-005     -1.7835e-008    1.4509e-009    
  0.55            3.4199e-005     -2.5263e-008    2.4816e-009    
  0.6             3.4776e-005     -1.9755e-008    1.816e-009     
  0.65            3.5229e-005     -1.4348e-008    2.58e-009      
  0.7             3.5743e-005     -2.205e-008     1.9761e-009    
  0.75            3.6291e-005     -1.0382e-008    -8.543e-010    
  0.8             3.685e-005      8.191e-009      -2.5884e-009   
  0.85            3.7261e-005     9.931e-009      -1.41e-010     
  0.9             3.7503e-005     -1.5345e-008    2.4891e-009    
  0.95            3.7995e-005     -1.9969e-008    1.8311e-009    
  1               3.8474e-005     -9.826e-009     -9.184e-010    
  1.05            3.8995e-005     8.662e-009      -2.5906e-009   
  1.1             3.9417e-005     1.3089e-008     -2.3608e-009   
  1.15            3.9818e-005     2.5035e-008     -1.7833e-009   
  1.2             4.0098e-005     9.805e-009      7.998e-010     
  1.25            4.0378e-005     -7.51e-009      2.7234e-009    
  1.3             4.075e-005      -1.3775e-008    2.6172e-009    
  1.35            4.1219e-005     -2.3007e-008    2.0395e-009    
  1.4             4.1662e-005     -1.0923e-008    -8.27e-010     
  1.45            4.215e-005      7.434e-009      -2.5882e-009   
  1.5             4.2573e-005     1.1482e-008     -2.4705e-009   
  1.55            4.2926e-005     1.4156e-008     -1.7645e-009   
  1.6             4.3346e-005     1.0055e-008     -2.4376e-009   
  1.65            4.3676e-005     1.2194e-008     -1.7038e-009   
  1.7             4.4112e-005     7.216e-009      -2.4017e-009   
  1.75            4.4448e-005     7.888e-009      -1.6505e-009   
  1.8             4.4725e-005     -4.221e-009     2.2748e-009    
END_DB

BEGIN_DB
 ICCAP_VAR VG         1.44           
 ICCAP_VAR VS         0              
 ICCAP_VAR VB         0              

 #VD              ID              IB              IG             
  0               -4.3616e-008    1.611e-008      -2.5506e-009   
  0.05            1.6086e-005     -2.555e-008     1.3564e-009    
  0.1             3.0878e-005     -1.5267e-008    2.7504e-009    
  0.15            4.3973e-005     -2.4851e-008    2.582e-009     
  0.2             5.5249e-005     -2.2105e-008    1.9558e-009    
  0.25            6.4677e-005     -1.0356e-008    -8.668e-010    
  0.3             7.2388e-005     8.121e-009      -2.5894e-009   
  0.35            7.8363e-005     9.537e-009      -1.308e-010    
  0.4             8.2836e-005     -1.5529e-008    2.4904e-009    
  0.45            8.6443e-005     -1.9932e-008    1.808e-009     
  0.5             8.9127e-005     -1.4175e-008    2.5904e-009    
  0.55            9.1298e-005     -2.2416e-008    1.9635e-009    
  0.6             9.3126e-005     -1.0384e-008    -8.585e-010    
  0.65            9.4659e-005     7.875e-009      -2.5871e-009   
  0.7             9.5839e-005     1.2687e-008     -2.4499e-009   
  0.75            9.6925e-005     1.5681e-008     -1.712e-009    
  0.8             9.7715e-005     9.37e-009       8.388e-010     
  0.85            9.8474e-005     -7.732e-009     2.7359e-009    
  0.9             9.9295e-005     -8.881e-009     9.71e-011      
  0.95            0.000100333     1.4296e-008     -2.2177e-009   
  1               0.000100864     9.225e-009      1.9697e-009    
  1.05            0.000101516     -1.9264e-008    2.7492e-009    
  1.1             0.00010225      -9.374e-009     -6.76e-011     
  1.15            0.000103168     1.5079e-008     -1.9243e-009   
  1.2             0.000103824     1.4917e-008     -1.3768e-009   
  1.25            0.000104225     7.5e-009        1.0458e-009    
  1.3             0.000104745     -9.332e-009     2.7456e-009    
  1.35            0.000105439     -2.5528e-008    2.4164e-009    
  1.4             0.000106085     -1.8434e-008    1.7059e-009    
  1.45            0.000106818     -9.944e-009     -9.702e-010    
  1.5             0.000107481     8.406e-009      -2.5861e-009   
  1.55            0.000108098     1.2702e-008     -2.2969e-009   
  1.6             0.000108401     7.206e-009      1.9133e-009    
  1.65            0.000108999     -1.2818e-008    -1.221e-010    
  1.7             0.000109787     1.0236e-008     -1.8516e-009   
  1.75            0.000110359     4.693e-009      -2.4891e-009   
  1.8             0.000110933     4.13e-009       -1.7934e-009   
END_DB

BEGIN_DB
 ICCAP_VAR VG         1.8            
 ICCAP_VAR VS         0              
 ICCAP_VAR VB         0              

 #VD              ID              IB              IG             
  0               -5.9001e-008    -2.0302e-008    -5.817e-010    
  0.05            2.0177e-005     1.5277e-008     -7.402e-010    
  0.1             3.955e-005      7.164e-009      -2.5869e-009   
  0.15            5.7648e-005     1.2722e-008     -2.5387e-009   
  0.2             7.4301e-005     1.4807e-008     -1.9334e-009   
  0.25            8.9342e-005     1.0345e-008     7.294e-010     
  0.3             0.000102623     -7.479e-009     2.7065e-009    
  0.35            0.00011447      -1.0387e-008    -2.3831e-009   
  0.4             0.00012429      1.4683e-008     -2.0089e-009   
  0.45            0.00013248      9.42e-009       1.8735e-009    
  0.5             0.00013938      -1.6384e-008    1.9048e-009    
  0.55            0.00014492      -1.6939e-008    1.6454e-009    
  0.6             0.0001496       -1.0874e-008    -8.02e-010     
  0.65            0.00015338      1.9007e-008     -1.3801e-009   
  0.7             0.00015629      9.204e-009      8.641e-010     
  0.75            0.00015872      -8.054e-009     2.678e-009     
  0.8             0.00016074      -1.8534e-008    1.7354e-009    
  0.85            0.00016259      -1.1029e-008    -7.601e-010    
  0.9             0.0001643       1.8263e-008     -1.4309e-009   
  0.95            0.00016556      9.644e-009      8.189e-010     
  1               0.00016666      -8.572e-009     2.6571e-009    
  1.05            0.0001678       -1.9886e-008    1.8215e-009    
  1.1             0.00016884      -1.5423e-008    2.7573e-009    
  1.15            0.00016973      -1.0116e-008    1.938e-010     
  1.2             0.00017098      1.1951e-008     -2.5528e-009   
  1.25            0.00017195      1.3548e-008     -2.3416e-009   
  1.3             0.00017284      1.4746e-008     -1.9479e-009   
  1.35            0.00017343      9.105e-009      1.9079e-009    
  1.4             0.00017416      -1.6774e-008    1.8378e-009    
  1.45            0.000175        -1.5986e-008    2.7587e-009    
  1.5             0.0001757       -1.0657e-008    2.009e-010     
  1.55            0.0001768       1.1546e-008     -2.5578e-009   
  1.6             0.00017746      1.2169e-008     -2.3528e-009   
  1.65            0.00017826      1.2964e-008     -1.9634e-009   
  1.7             0.00017871      6.23e-009       1.9001e-009    
  1.75            0.00017942      -1.4073e-008    1.428e-010     
  1.8             0.00018042      5.117e-009      -2.5171e-009   
END_DB

BEGIN_DB
 ICCAP_VAR VG         0              
 ICCAP_VAR VS         0              
 ICCAP_VAR VB         -0.9           

 #VD              ID              IB              IG             
  0               9.513e-010      1.3529e-008     9.94e-010      
  0.05            -7.083e-010     -1.668e-008     2.2535e-009    
  0.1             2.1451e-009     -5.595e-009     4.332e-010     
  0.15            2.1935e-009     9.512e-009      5.981e-010     
  0.2             1.4157e-009     2.2799e-008     -2.0656e-009   
  0.25            -1.9015e-009    4.202e-009      -1.3792e-009   
  0.3             -1.274e-009     -2.4984e-008    2.6308e-009    
  0.35            2.1388e-009     1.0724e-008     3.921e-010     
  0.4             2.183e-009      9.745e-009      5.598e-010     
  0.45            1.3907e-009     2.396e-008      -2.1217e-009   
  0.5             -1.9363e-009    3.759e-009      -1.3477e-009   
  0.55            -5.161e-010     -1.5846e-008    2.5351e-009    
  0.6             2.1646e-009     1.0427e-008     4.881e-010     
  0.65            5.508e-010      1.5375e-008     -2.2284e-009   
  0.7             -1.9957e-009    3.095e-009      -1.2774e-009   
  0.75            -1.1917e-009    -2.536e-008     2.7081e-009    
  0.8             1.5167e-009     1.7436e-008     -1.8305e-009   
  0.85            -1.7324e-009    4.988e-009      -1.5177e-009   
  0.9             -1.3868e-009    -2.3112e-008    2.4624e-009    
  0.95            2.1615e-009     -3.992e-009     1.1851e-009    
  1               1.1071e-009     2.6985e-008     -2.5341e-009   
  1.05            -2.1244e-009    1.609e-009      -1.0167e-009   
  1.1             -1.6547e-009    -9.967e-009     2.7589e-009    
  1.15            1.3882e-009     2.3873e-008     -2.1221e-009   
  1.2             -1.932e-009     3.63e-009       -1.3469e-009   
  1.25            -5.163e-010     -1.6053e-008    2.5395e-009    
  1.3             2.1624e-009     1.0402e-008     4.856e-010     
  1.35            5.474e-010      1.5168e-008     -2.2323e-009   
  1.4             -2.0015e-009    3.07e-009       -1.2753e-009   
  1.45            -1.191e-009     -2.5364e-008    2.7035e-009    
  1.5             1.5133e-009     1.756e-008      -1.8342e-009   
  1.55            -1.736e-009     4.957e-009      -1.5155e-009   
  1.6             -1.3832e-009    -2.2897e-008    2.4579e-009    
  1.65            2.1035e-009     -3.81e-009      2.933e-010     
  1.7             2.1576e-009     1.052e-008      4.533e-010     
  1.75            2.197e-009      9.359e-009      6.194e-010     
  1.8             1.43e-009       2.1848e-008     -2.0219e-009   
END_DB

BEGIN_DB
 ICCAP_VAR VG         0.36           
 ICCAP_VAR VS         0              
 ICCAP_VAR VB         -0.9           

 #VD              ID              IB              IG             
  0               8.313e-010      1.6484e-008     9.006e-010     
  0.05            2.2483e-009     -8.238e-009     8.671e-010     
  0.1             1.6332e-009     1.2836e-008     -1.5854e-009   
  0.15            -2.1288e-009    5.319e-009      -8.086e-010    
  0.2             -1.552e-009     -1.4959e-008    1.9932e-009    
  0.25            2.1901e-009     -7.301e-009     5.864e-010     
  0.3             2.2288e-009     8.597e-009      7.42e-010      
  0.35            1.5177e-009     1.7517e-008     -1.8203e-009   
  0.4             -2.1189e-009    4.86e-009       -6.542e-010    
  0.45            -1.4698e-009    -1.9702e-008    2.2598e-009    
  0.5             2.1506e-009     -5.285e-009     4.27e-010      
  0.55            2.1983e-009     9.496e-009      5.976e-010     
