! VERSION = 6.00
BEGIN_HEADER
 ICCAP_INPUTS
  VG         V  B GROUND SMU4 0.001 LIN        2    0          1.8        6    0.36      
  VS         V  E GROUND SMU2 0.1 CON        0
  VD         V  S GROUND SMU1 0.1 LIN        1    0          1.8        37   0.05      
  VB         V  C GROUND SMU3 0.1 LIN        3    0          -0.9       2    -0.9      
 ICCAP_OUTPUTS
  ID         I  S GROUND SMU1 B
  IB         I  C GROUND SMU3 B
  IG         I  B GROUND SMU4 B
END_HEADER

BEGIN_DB
 ICCAP_VAR VG         0              
 ICCAP_VAR VS         0              
 ICCAP_VAR VB         0              

 #VD              ID              IB              IG             
  0               2.1575e-009     5.83e-010       2.0327e-009    
  0.05            1.856e-009      -6.216e-009     1.3675e-009    
  0.1             1.9768e-009     1.0525e-008     2.86e-011      
  0.15            2.0737e-009     1.05e-008       2.132e-010     
  0.2             2.162e-009      1.045e-008      4.01e-010      
  0.25            4.892e-010      1.6041e-008     -2.1618e-009   
  0.3             -1.9364e-009    2.614e-009      -1.2724e-009   
  0.35            -1.1911e-009    -2.5321e-008    1.2892e-009    
  0.4             2.1505e-009     -8.587e-009     1.1022e-009    
  0.45            1.0382e-009     2.7386e-008     -1.3719e-009   
  0.5             -2.1018e-009    9.496e-009      -1.0676e-009   
  0.55            -1.7189e-009    -1.1201e-008    1.4087e-009    
  0.6             2.2622e-009     -8.218e-009     9.188e-010     
  0.65            1.7207e-009     1.1833e-008     -1.479e-009    
  0.7             -2.1709e-009    7.45e-009       -8.777e-010    
  0.75            -1.6104e-009    -1.1961e-008    1.6462e-009    
  0.8             2.269e-009      -8.678e-009     7.217e-010     
  0.85            1.5595e-009     1.5359e-008     -1.6982e-009   
  0.9             -1.5755e-009    4.968e-009      -1.5857e-009   
  0.95            -2.0503e-009    -1.1098e-008    -1.735e-010    
  1               -2.1132e-009    -1.1296e-008    -3.916e-010    
  1.05            -2.1584e-009    -1.0877e-008    -6.044e-010    
  1.1             -2.1742e-009    -1.0272e-008    -7.93e-010     
  1.15            -1.5702e-009    -1.3134e-008    1.8027e-009    
  1.2             2.2446e-009     -8.249e-009     6.233e-010     
  1.25            1.4798e-009     1.7885e-008     -1.8458e-009   
  1.3             -1.7032e-009    3.956e-009      -1.4877e-009   
  1.35            -1.3643e-009    -2.1021e-008    2.3571e-009    
  1.4             2.0819e-009     -3.366e-009     1.1756e-009    
  1.45            1.1089e-009     2.7388e-008     -1.3523e-009   
  1.5             -2.0482e-009    1.0546e-008     -1.1473e-009   
  1.55            -1.0832e-009    -2.5895e-008    1.3484e-009    
  1.6             2.233e-009      -8.294e-009     9.902e-010     
  1.65            9.458e-010      2.6323e-008     -1.4221e-009   
  1.7             -2.1509e-009    8.464e-009      -9.573e-010    
  1.75            -1.6505e-009    -1.1442e-008    1.527e-009     
  1.8             2.2723e-009     -8.456e-009     8.098e-010     
END_DB

BEGIN_DB
 ICCAP_VAR VG         0.36           
 ICCAP_VAR VS         0              
 ICCAP_VAR VB         0              

 #VD              ID              IB              IG             
  0               3.82e-010       1.1439e-008     1.858e-010     
  0.05            -6.715e-010     -2.4312e-008    1.5109e-009    
  0.1             1.2912e-009     -8.435e-009     2.5856e-009    
  0.15            2.5012e-009     1.0632e-008     4.023e-010     
  0.2             2.5997e-009     1.0173e-008     6e-010         
  0.25            2.6517e-009     9.392e-009      7.788e-010     
  0.3             2.0334e-009     1.4128e-008     -1.6374e-009   
  0.35            -1.2808e-009    5.392e-009      1.3764e-009    
  0.4             1.4215e-009     -8.1e-009       2.683e-009     
  0.45            2.7307e-009     1.0419e-008     5.711e-010     
  0.5             2.8003e-009     9.473e-009      7.489e-010     
  0.55            2.1738e-009     1.4632e-008     -1.6775e-009   
  0.6             1.36e-010       5.072e-009      -1.4794e-009   
  0.65            2.915e-010      7.327e-009      -1.3792e-009   
  0.7             4.529e-010      9.235e-009      -1.338e-009    
  0.75            6.353e-010      1.089e-008      -1.3075e-009   
  0.8             8.227e-010      1.1288e-008     -2.6498e-009   
  0.85            -5.304e-010     -2.096e-008     2.3486e-009    
  0.9             1.9396e-009     -3.341e-009     2.2207e-009    
  0.95            2.1759e-009     2.5785e-008     -1.3255e-009   
  1               9.496e-010      1.1459e-008     -1.2927e-009   
  1.05            1.1538e-009     1.1145e-008     -2.6231e-009   
  1.1             3.172e-010      -1.1196e-008    1.798e-009     
  1.15            2.152e-009      -8.256e-009     2.4335e-009    
  1.2             3.2042e-009     1.0475e-008     1.2188e-009    
  1.25            2.4511e-009     2.6941e-008     -1.3387e-009   
  1.3             1.248e-009      1.0829e-008     -1.306e-009    
  1.35            1.4621e-009     1.1293e-008     -2.6456e-009   
  1.4             2.1991e-009     -2.0999e-008    2.3288e-009    
  1.45            2.2061e-009     -3.465e-009     2.0233e-009    
  1.5             2.198e-009      -6.288e-009     1.7335e-009    
  1.55            2.1843e-009     -8.481e-009     1.493e-009     
  1.6             2.1493e-009     -8.296e-009     1.3417e-009    
  1.65            2.1189e-009     -8.238e-009     1.2686e-009    
  1.7             2.0887e-009     -8.468e-009     1.2319e-009    
  1.75            2.061e-009      -1.0558e-008    2.7896e-009    
  1.8             2.9434e-009     -7.9e-011       2.7177e-009    
END_DB

BEGIN_DB
 ICCAP_VAR VG         0.72           
 ICCAP_VAR VS         0              
 ICCAP_VAR VB         0              

 #VD              ID              IB              IG             
  0               2.3484e-008     1.05e-008       7.134e-010     
  0.05            2.341e-006      -1.6284e-008    -2.2802e-009   
  0.1             3.2965e-006     2.4482e-008     -1.3704e-009   
  0.15            3.7139e-006     2.6195e-008     -1.3374e-009   
  0.2             3.8521e-006     9.295e-009      9.821e-010     
  0.25            4.1104e-006     -2.4551e-008    1.3048e-009    
  0.3             4.3231e-006     -2.5754e-008    1.2567e-009    
  0.35            4.5346e-006     -2.5083e-008    1.2274e-009    
  0.4             4.7509e-006     -2.239e-008     2.0444e-009    
  0.45            4.9528e-006     -2.1618e-008    1.9983e-009    
  0.5             5.1578e-006     -2.09e-008      1.9405e-009    
  0.55            5.3777e-006     -2.0241e-008    1.8961e-009    
  0.6             5.5745e-006     -1.9541e-008    1.8473e-009    
  0.65            5.7676e-006     -1.1066e-008    -4.625e-010    
  0.7             6.1181e-006     1.5779e-008     -1.8378e-009   
  0.75            6.3481e-006     2.347e-008      -1.7888e-009   
  0.8             6.3619e-006     1.0345e-008     1.8849e-009    
  0.85            6.6439e-006     -1.197e-008     1.3925e-009    
  0.9             6.9293e-006     -1.0718e-008    -8.44e-010     
  0.95            7.2769e-006     2.1841e-008     -1.4442e-009   
  1               7.3933e-006     1.029e-008      7.159e-010     
  1.05            7.608e-006      -2.01e-008      1.5463e-009    
  1.1             7.8988e-006     -1.1236e-008    -7.111e-010    
  1.15            8.2944e-006     1.9201e-008     -1.5754e-009   
  1.2             8.4353e-006     1.0503e-008     5.646e-010     
  1.25            8.6485e-006     -1.8463e-008    1.7621e-009    
  1.3             8.9198e-006     -1.1211e-008    -5.325e-010    
  1.35            9.3831e-006     1.6459e-008     -1.7608e-009   
  1.4             9.4152e-006     9.743e-009      1.9084e-009    
  1.45            9.7532e-006     -1.2432e-008    1.3792e-009    
  1.5             1.01419e-005    -1.1693e-008    -8.686e-010    
  1.55            1.05685e-005    2.08e-008       -1.4313e-009   
  1.6             1.08995e-005    8.757e-009      -2.4413e-009   
  1.65            1.12118e-005    8.748e-009      -2.2586e-009   
  1.7             1.1326e-005     -1.6337e-008    2.3476e-009    
  1.75            1.1707e-005     -1.8447e-008    -7.009e-010    
  1.8             1.2161e-005     -1.877e-009     -1.3133e-009   
END_DB

BEGIN_DB
 ICCAP_VAR VG         1.08           
 ICCAP_VAR VS         0              
 ICCAP_VAR VB         0              

 #VD              ID              IB              IG             
  0               8.0501e-008     2.238e-009      1.741e-009     
  0.05            4.2496e-005     1.0384e-008     -2.644e-009    
  0.1             7.5474e-005     1.4386e-008     -1.4381e-009   
  0.15            9.8776e-005     9.049e-009      1.0488e-009    
  0.2             0.00011561      -2.5033e-008    -9.619e-010    
  0.25            0.00012666      2.6097e-008     -1.3521e-009   
  0.3             0.00013323      9.051e-009      1.0479e-009    
  0.35            0.00013865      -2.5565e-008    1.2494e-009    
  0.4             0.00014285      -2.157e-008     2.0162e-009    
  0.45            0.00014633      -1.1044e-008    -4.854e-010    
  0.5             0.00014976      1.7963e-008     -1.6427e-009   
  0.55            0.00015214      1.0475e-008     6.046e-010     
  0.6             0.000154        -2.0626e-008    1.5327e-009    
  0.65            0.00015696      -1.0755e-008    -8.282e-010    
  0.7             0.00015959      2.4266e-008     -1.3963e-009   
  0.75            0.00016183      2.6895e-008     -1.3303e-009   
  0.8             0.00016394      1.6033e-008     -1.7658e-009   
  0.85            0.00016521      9.666e-009      2.0115e-009    
  0.9             0.00016716      -1.9109e-008    1.6503e-009    
  0.95            0.00016971      -1.1068e-008    -7.514e-010    
  1               0.00017215      2.2395e-008     -1.4442e-009   
  1.05            0.00017417      2.6182e-008     -1.3487e-009   
  1.1             0.00017495      8.958e-009      1.0577e-009    
  1.15            0.0001771       -2.5588e-008    1.2446e-009    
  1.2             0.00017924      -1.1327e-008    -1.685e-010    
  1.25            0.00018206      1.3725e-008     -1.993e-009    
  1.3             0.00018386      1.7632e-008     -1.6237e-009   
  1.35            0.00018537      9.529e-009      6.319e-010     
  1.4             0.00018668      -2.2685e-008    1.5129e-009    
  1.45            0.00018921      -1.3811e-008    -8.501e-010    
  1.5             0.00019149      1.849e-009      -1.327e-009    
  1.55            0.00019346      7.056e-009      -1.784e-009    
  1.6             0.00019481      -1.9404e-008    -2.6716e-009   
  1.65            0.00019592      -1.2675e-008    1.0782e-009    
  1.7             0.00019792      -5.7632e-008    2.3845e-009    
  1.75            0.00020093      -5.7917e-008    -1.7592e-009   
  1.8             0.0002028       -5.2489e-008    -1.4322e-009   
END_DB

BEGIN_DB
 ICCAP_VAR VG         1.44           
 ICCAP_VAR VS         0              
 ICCAP_VAR VB         0              

 #VD              ID              IB              IG             
  0               1.09934e-007    -1.2104e-008    -1.207e-010    
  0.05            8.3428e-005     1.1547e-008     -2.1105e-009   
  0.1             0.00015791      2.5961e-008     9.226e-010     
  0.15            0.00022119      -2.5212e-008    1.2947e-009    
  0.2             0.00027286      -2.4479e-008    2.2624e-009    
  0.25            0.00031378      -2.1438e-008    2.016e-009     
  0.3             0.00034523      -1.7881e-008    1.7766e-009    
  0.35            0.00036922      -1.1298e-008    -6.674e-010    
  0.4             0.00038752      2.0892e-008     -1.505e-009    
  0.45            0.00040051      1.0333e-008     7.621e-010     
  0.5             0.00041036      -2.3346e-008    1.3947e-009    
  0.55            0.00041846      -2.5637e-008    1.2674e-009    
  0.6             0.00042655      -9.392e-009     -1.2035e-009   
  0.65            0.00043201      2.6692e-008     -1.3022e-009   
  0.7             0.00043704      2.2138e-008     -1.726e-009    
  0.75            0.00044117      1.0398e-008     5.52e-010      
  0.8             0.00044452      -1.9677e-008    1.6074e-009    
  0.85            0.000449        -1.0882e-008    -7.797e-010    
  0.9             0.00045321      2.2953e-008     -1.4271e-009   
  0.95            0.00045674      2.6553e-008     -1.341e-009    
  1               0.00046015      1.4873e-008     -1.8589e-009   
  1.05            0.00046241      9.819e-009      1.9482e-009    
  1.1             0.00046556      -1.8429e-008    1.7365e-009    
  1.15            0.00046925      -1.1342e-008    -6.888e-010    
  1.2             0.00047284      2.1003e-008     -1.4829e-009   
  1.25            0.00047521      9.658e-009      7.773e-010     
  1.3             0.00047765      -2.413e-008     1.3813e-009    
  1.35            0.00048154      -1.1204e-008    -9.759e-010    
  1.4             0.00048466      7.168e-009      -1.302e-009    
  1.45            0.00048752      1.51e-008       -1.6007e-009   
  1.5             0.0004906       5.231e-009      -2.5174e-009   
  1.55            0.00049328      2.899e-009      -2.1997e-009   
  1.6             0.0004956       -2.3371e-008    -2.6137e-009   
  1.65            0.00049791      -1.5339e-008    8.553e-010     
  1.7             0.00050022      -6.2597e-008    1.3273e-009    
  1.75            0.00050366      -6.5443e-008    -2.3549e-009   
  1.8             0.00050669      -7.1979e-008    4.38e-010      
END_DB

BEGIN_DB
 ICCAP_VAR VG         1.8            
 ICCAP_VAR VS         0              
 ICCAP_VAR VB         0              

 #VD              ID              IB              IG             
  0               -9.3913e-007    -1.2327e-008    1.2265e-009    
  0.05            0.00010959      -3.805e-009     1.2963e-009    
  0.1             0.00021211      -2.5083e-008    1.2278e-009    
  0.15            0.00030474      -1.9873e-008    1.8771e-009    
  0.2             0.00038608      -1.1212e-008    -5.981e-010    
  0.25            0.00045615      1.9655e-008     -1.5533e-009   
  0.3             0.00051439      1.0322e-008     7.082e-010     
  0.35            0.0005622       -2.1846e-008    1.4295e-009    
  0.4             0.00060134      -2.4834e-008    1.2763e-009    
  0.45            0.00063359      -9.314e-009     -1.1501e-009   
  0.5             0.00065885      2.695e-008      -1.3059e-009   
  0.55            0.00067771      8.965e-009      1.2403e-009    
  0.6             0.00069432      -2.3014e-008    2.1239e-009    
  0.65            0.00070741      -1.098e-008     -4.156e-010    
  0.7             0.00071888      1.7265e-008     -1.7322e-009   
  0.75            0.00072762      1.051e-008      5.676e-010     
  0.8             0.00073454      -1.9564e-008    1.5984e-009    
  0.85            0.00074189      -1.0908e-008    -7.88e-010     
  0.9             0.00074844      2.2651e-008     -1.4164e-009   
  0.95            0.00075396      2.617e-008      -1.3324e-009   
  1               0.000759        1.5558e-008     -1.8503e-009   
  1.05            0.00076279      9.769e-009      1.9671e-009    
  1.1             0.00076723      -1.8638e-008    1.7276e-009    
  1.15            0.00077204      -1.124e-008     -7.071e-010    
  1.2             0.00077678      2.0946e-008     -1.4703e-009   
  1.25            0.00078054      1.269e-008      -1.3878e-009   
  1.3             0.00078472      2.6286e-008     -1.3207e-009   
  1.35            0.00078841      1.5889e-008     -1.7719e-009   
  1.4             0.00079207      1.9155e-008     -1.4772e-009   
  1.45            0.00079587      8.567e-009      -2.3643e-009   
  1.5             0.00079932      9.531e-009      -1.9903e-009   
  1.55            0.00080274      1.0178e-008     -1.6158e-009   
  1.6             0.00080519      -3.228e-009     2.1226e-009    
  1.65            0.00080813      -3.2056e-008    -7.9e-012      
  1.7             0.00081236      -3.1287e-008    -1.8376e-009   
  1.75            0.00081492      -3.8165e-008    1.9709e-009    
  1.8             0.00081791      -8.2835e-008    1.624e-010     
END_DB

BEGIN_DB
 ICCAP_VAR VG         0              
 ICCAP_VAR VS         0              
 ICCAP_VAR VB         -0.9           

 #VD              ID              IB              IG             
  0               5.788e-010      2.0203e-008     -1.479e-010    
  0.05            9.009e-010      2.5079e-008     -1.4681e-009   
  0.1             -2.1508e-009    8.051e-009      -9.05e-010     
  0.15            -1.6232e-009    -1.1926e-008    1.6196e-009    
  0.2             2.2594e-009     -8.645e-009     7.587e-010     
  0.25            1.5899e-009     1.4917e-008     -1.6731e-009   
  0.3             -1.5443e-009    5.413e-009      -1.6236e-009   
  0.35            -2.0723e-009    -1.1031e-008    -2.072e-010    
  0.4             -2.1329e-009    -1.1194e-008    -4.401e-010    
  0.45            -2.1698e-009    -1.0517e-008    -6.528e-010    
  0.5             -2.1684e-009    -1.0078e-008    -8.239e-010    
  0.55            -1.5845e-009    -1.2849e-008    1.7517e-009    
  0.6             2.252e-009      -8.544e-009     6.688e-010     
  0.65            1.5176e-009     1.7303e-008     -1.7902e-009   
  0.7             -1.6498e-009    4.35e-009       -1.5314e-009   
  0.75            -2.0247e-009    -1.1118e-008    -9.02e-011     
  0.8             -2.1043e-009    -1.1299e-008    -3.156e-010    
  0.85            -2.1506e-009    -1.0974e-008    -5.391e-010    
  0.9             -1.4418e-009    -1.8696e-008    2.2046e-009    
  0.95            1.97e-009       -4.926e-009     1.2773e-009    
  1               4.712e-010      1.5777e-008     -2.1954e-009   
  1.05            -1.9502e-009    2.264e-009      -1.2492e-009   
  1.1             -1.1716e-009    -2.502e-008     1.2962e-009    
  1.15            2.1542e-009     -8.457e-009     1.078e-009     
  1.2             1.838e-009      1.0624e-008     -1.3827e-009   
  1.25            -2.1003e-009    9.579e-009      -1.0436e-009   
  1.3             -1.7068e-009    -1.1272e-008    1.4326e-009    
  1.35            2.2498e-009     -8.319e-009     8.986e-010     
  1.4             1.711e-009      1.2161e-008     -1.5015e-009   
  1.45            -2.1621e-009    7.447e-009      -8.65e-010     
  1.5             -1.6043e-009    -1.2307e-008    1.6745e-009    
  1.55            2.2607e-009     -8.685e-009     7.141e-010     
  1.6             1.5535e-009     1.588e-008      -1.7314e-009   
  1.65            -1.5949e-009    4.866e-009      -1.5777e-009   
  1.7             -1.4375e-009    -1.8964e-008    2.2204e-009    
  1.75            1.9821e-009     -4.613e-009     1.2647e-009    
  1.8             4.625e-010      1.5682e-008     -2.2123e-009   
END_DB

BEGIN_DB
 ICCAP_VAR VG         0.36           
 ICCAP_VAR VS         0              
 ICCAP_VAR VB         -0.9           

 #VD              ID              IB              IG             
  0               -8.289e-010     -2.2902e-008    -8.99e-010     
  0.05            7.11e-011       1.1052e-008     -2.6174e-009   
  0.1             -1.9833e-009    -1.1129e-008    -1.62e-011     
  0.15            -2.0806e-009    -1.1215e-008    -2.361e-010    
  0.2             -2.1367e-009    -1.125e-008     -4.601e-010    
  0.25            -2.167e-009     -1.0511e-008    -6.731e-010    
  0.3             -1.5046e-009    -1.5948e-008    2.0189e-009    
  0.35            1.8475e-009     -6.765e-009     1.3889e-009    
  0.4             1.9923e-009     1.0354e-008     3.48e-011      
  0.45            2.0983e-009     1.0512e-008     2.257e-010     
  0.5             2.1887e-009     1.0653e-008     4.234e-010     
  0.55            2.2565e-009     1.0282e-008     6.131e-010     
