! VERSION = 6.00
BEGIN_HEADER
 ICCAP_INPUTS
  VG         V  B GROUND SMU4 0.001 LIN        2    0          1.8        6    0.36      
  VS         V  E GROUND SMU2 0.1 CON        0
  VD         V  S GROUND SMU1 0.1 LIN        1    0          1.8        37   0.05      
  VB         V  C GROUND SMU3 0.1 CON        0
 ICCAP_OUTPUTS
  ID         I  S GROUND SMU1 B
  IG         I  B GROUND SMU4 B
END_HEADER

BEGIN_DB
 ICCAP_VAR VG         0              
 ICCAP_VAR VS         0              
 ICCAP_VAR VB         0              

 #VD              ID              IG             
  0               -1.2893e-010    3.2282e-010    
  0.05            1.1302e-010     -2.805e-010    
  0.1             -1.8482e-010    -5.557e-011    
  0.15            1.9481e-010     1.4946e-010    
  0.2             1.0707e-010     -3.0254e-010   
  0.25            -1.9288e-010    -1.0837e-010   
  0.3             -4.008e-011     3.4131e-010    
  0.35            2.3389e-010     7.165e-011     
  0.4             5.889e-011      -3.1841e-010   
  0.45            -7.407e-011     2.7694e-010    
  0.5             2.2529e-010     1.2529e-010    
  0.55            9.532e-011      -3.3618e-010   
  0.6             -1.9409e-010    -8.452e-011    
  0.65            2.3755e-010     1.1281e-010    
  0.7             8.712e-011      -3.4252e-010   
  0.75            -1.8978e-010    -7.232e-011    
  0.8             2.4259e-010     1.0012e-010    
  0.85            7.981e-011      -3.41e-010     
  0.9             -1.8259e-010    -6.039e-011    
  0.95            1.9634e-010     1.561e-010     
  1               1.1668e-010     -2.9528e-010   
  1.05            -1.8326e-010    -1.1287e-010   
  1.1             -3.613e-011     3.4179e-010    
  1.15            2.4295e-010     7.59e-011      
  1.2             6.944e-011      -3.2441e-010   
  1.25            -6.927e-011     2.6886e-010    
  1.3             2.298e-010      1.2875e-010    
  1.35            1.0851e-010     -3.3187e-010   
  1.4             -1.834e-010     -8.912e-011    
  1.45            2.4776e-010     1.1723e-010    
  1.5             1.0813e-010     -3.4184e-010   
  1.55            -1.6661e-010    -7.672e-011    
  1.6             2.1182e-010     1.8526e-010    
  1.65            1.8104e-010     -2.6237e-010   
  1.7             5.05e-011       -3.4038e-010   
  1.75            2.941e-011      -2.2011e-010   
  1.8             1.8609e-010     3.3945e-010    
END_DB

BEGIN_DB
 ICCAP_VAR VG         0.36           
 ICCAP_VAR VS         0              
 ICCAP_VAR VB         0              

 #VD              ID              IG             
  0               -3.2203e-008    2.5773e-010    
  0.05            1.5787e-007     -1.6059e-010   
  0.1             1.9844e-007     -2.4362e-010   
  0.15            2.1466e-007     -2.521e-010    
  0.2             2.2709e-007     -2.6325e-010   
  0.25            2.389e-007      -2.7293e-010   
  0.3             2.5105e-007     -2.8406e-010   
  0.35            2.6317e-007     -2.9499e-010   
  0.4             2.7572e-007     -3.0652e-010   
  0.45            2.8845e-007     -3.1729e-010   
  0.5             3.0193e-007     -3.2646e-010   
  0.55            3.1517e-007     -2.2768e-010   
  0.6             3.2855e-007     -2.3615e-010   
  0.65            3.4258e-007     -2.4443e-010   
  0.7             3.5673e-007     -2.5402e-010   
  0.75            3.7139e-007     -2.6399e-010   
  0.8             3.8601e-007     -2.747e-010    
  0.85            4.0161e-007     -2.8613e-010   
  0.9             4.1716e-007     -2.9758e-010   
  0.95            4.3327e-007     -3.084e-010    
  1               4.4991e-007     -3.1838e-010   
  1.05            4.6839e-007     -3.2715e-010   
  1.1             4.8596e-007     -2.2908e-010   
  1.15            5.0424e-007     -2.372e-010    
  1.2             5.2306e-007     -2.4538e-010   
  1.25            5.4216e-007     -2.5518e-010   
  1.3             5.6219e-007     -2.6523e-010   
  1.35            5.8265e-007     -2.7578e-010   
  1.4             6.0378e-007     -2.8725e-010   
  1.45            6.2601e-007     -2.9831e-010   
  1.5             6.4827e-007     -3.0904e-010   
  1.55            6.7218e-007     -3.1927e-010   
  1.6             6.9786e-007     -3.2789e-010   
  1.65            7.2276e-007     -2.3008e-010   
  1.7             7.4871e-007     -2.3792e-010   
  1.75            7.757e-007      -2.4689e-010   
  1.8             8.0414e-007     -2.5692e-010   
END_DB

BEGIN_DB
 ICCAP_VAR VG         0.72           
 ICCAP_VAR VS         0              
 ICCAP_VAR VB         0              

 #VD              ID              IG             
  0               -2.6135e-006    2.8581e-010    
  0.05            0.00053436      -1.2657e-010   
  0.1             0.00077847      -2.896e-010    
  0.15            0.00088244      -2.9997e-010   
  0.2             0.00093612      -3.1032e-010   
  0.25            0.0009715       -3.2043e-010   
  0.3             0.00099592      -3.2891e-010   
  0.35            0.00102118      -2.3148e-010   
  0.4             0.00104732      -2.4006e-010   
  0.45            0.00107499      -2.4869e-010   
  0.5             0.00110412      -2.5816e-010   
  0.55            0.00113486      -2.6891e-010   
  0.6             0.001168        -2.5139e-010   
  0.65            0.001202        -2.6213e-010   
  0.7             0.001237        -2.7231e-010   
  0.75            0.0012736       -2.8391e-010   
  0.8             0.0013113       -2.9378e-010   
  0.85            0.0013501       -3.042e-010    
  0.9             0.0013902       -3.144e-010    
  0.95            0.0014316       -3.237e-010    
  1               0.0014736       -2.2795e-010   
  1.05            0.0015169       -2.3479e-010   
  1.1             0.0015614       -2.4364e-010   
  1.15            0.0016075       -2.5331e-010   
  1.2             0.0016552       -2.6256e-010   
  1.25            0.0017048       -2.7298e-010   
  1.3             0.0017561       -2.8385e-010   
  1.35            0.0018098       -2.9389e-010   
  1.4             0.0018654       -3.0463e-010   
  1.45            0.0019236       -3.1503e-010   
  1.5             0.001985        -3.2386e-010   
  1.55            0.0020478       -3.3091e-010   
  1.6             0.0021134       -2.3481e-010   
  1.65            0.0021816       -2.4376e-010   
  1.7             0.0022522       -2.5348e-010   
  1.75            0.0023258       -2.6341e-010   
  1.8             0.0024021       -2.7617e-010   
END_DB

BEGIN_DB
 ICCAP_VAR VG         1.08           
 ICCAP_VAR VS         0              
 ICCAP_VAR VB         0              

 #VD              ID              IG             
  0               -4.9782e-006    2.407e-010     
  0.05            0.0013777       -2.6988e-010   
  0.1             0.0027086       -2.8017e-010   
  0.15            0.0039589       -2.9224e-010   
  0.2             0.0050948       -3.0206e-010   
  0.25            0.0060697       -3.126e-010    
  0.3             0.0068287       -3.2201e-010   
  0.35            0.0073504       -3.2997e-010   
  0.4             0.007669        -2.3249e-010   
  0.45            0.0078603       -2.4154e-010   
  0.5             0.0079842       -2.4873e-010   
  0.55            0.0080414       -2.5992e-010   
  0.6             0.0080563       -2.7059e-010   
  0.65            0.0080691       -2.8116e-010   
  0.7             0.0080799       -2.9165e-010   
  0.75            0.0080895       -3.0304e-010   
  0.8             0.0080989       -3.1323e-010   
  0.85            0.0081089       -3.2203e-010   
  0.9             0.008118        -3.2959e-010   
  0.95            0.0081276       -2.3221e-010   
  1               0.0081382       -2.407e-010    
  1.05            0.0081505       -2.4935e-010   
  1.1             0.0081636       -2.5922e-010   
  1.15            0.0081787       -2.6969e-010   
  1.2             0.0081965       -2.8063e-010   
  1.25            0.008217        -2.9147e-010   
  1.3             0.0082412       -3.0231e-010   
  1.35            0.0082697       -3.1245e-010   
  1.4             0.008303        -3.2138e-010   
  1.45            0.0083401       -3.2931e-010   
  1.5             0.0083829       -2.3222e-010   
  1.55            0.0084315       -2.3976e-010   
  1.6             0.0084868       -2.4869e-010   
  1.65            0.0085484       -2.5868e-010   
  1.7             0.008617        -2.6899e-010   
  1.75            0.0086905       -2.7919e-010   
  1.8             0.00877         -2.8989e-010   
END_DB

BEGIN_DB
 ICCAP_VAR VG         1.44           
 ICCAP_VAR VS         0              
 ICCAP_VAR VB         0              

 #VD              ID              IG             
  0               -5.1789e-006    -2.9356e-010   
  0.05            0.0014687       3.2867e-010    
  0.1             0.0029318       2.3024e-010    
  0.15            0.0043748       2.3825e-010    
  0.2             0.0057957       2.47e-010      
  0.25            0.0071907       2.5648e-010    
  0.3             0.0085494       2.6672e-010    
  0.35            0.0098659       2.7695e-010    
  0.4             0.0111249       2.8804e-010    
  0.45            0.012328        -3.0627e-010   
  0.5             0.013425        -3.1731e-010   
  0.55            0.014405        -3.2586e-010   
  0.6             0.015237        -2.285e-010    
  0.65            0.015891        -2.3609e-010   
  0.7             0.016358        -2.4391e-010   
  0.75            0.016671        -2.5347e-010   
  0.8             0.016875        -2.6228e-010   
  0.85            0.017017        -2.7334e-010   
  0.9             0.017117        -2.8418e-010   
  0.95            0.017132        -2.9456e-010   
  1               0.017143        -3.049e-010    
  1.05            0.017152        -3.1468e-010   
  1.1             0.01716         -3.243e-010    
  1.15            0.017165        -2.275e-010    
  1.2             0.017163        -2.3543e-010   
  1.25            0.017165        -2.435e-010    
  1.3             0.017162        -2.524e-010    
  1.35            0.017159        -2.6161e-010   
  1.4             0.017156        -2.7214e-010   
  1.45            0.017155        -2.8308e-010   
  1.5             0.017153        -2.9367e-010   
  1.55            0.017152        -3.0399e-010   
  1.6             0.017151        -3.1454e-010   
  1.65            0.017153        -3.2327e-010   
  1.7             0.017159        -2.2709e-010   
  1.75            0.017168        -2.3512e-010   
  1.8             0.017181        -2.4228e-010   
END_DB

BEGIN_DB
 ICCAP_VAR VG         1.8            
 ICCAP_VAR VS         0              
 ICCAP_VAR VB         0              

 #VD              ID              IG             
  0               -5.2583e-006    -3.1117e-010   
  0.05            0.0014957       3.4484e-010    
  0.1             0.002992        2.5586e-010    
  0.15            0.0044769       2.6538e-010    
  0.2             0.0059509       2.7552e-010    
  0.25            0.0074117       2.8519e-010    
  0.3             0.0088564       2.957e-010     
  0.35            0.0102828       3.0581e-010    
  0.4             0.011692        -3.3519e-010   
  0.45            0.013067        -2.9259e-010   
  0.5             0.014416        -3.0349e-010   
  0.55            0.015729        -3.1454e-010   
  0.6             0.017008        -3.235e-010    
  0.65            0.01824         -3.3056e-010   
  0.7             0.01942         -2.3328e-010   
  0.75            0.020545        -2.4191e-010   
  0.8             0.021594        -2.4996e-010   
  0.85            0.02256         -2.6014e-010   
  0.9             0.023418        -2.7049e-010   
  0.95            0.024159        -2.8117e-010   
  1               0.024754        -2.9143e-010   
  1.05            0.025203        -3.0307e-010   
  1.1             0.025515        -3.1311e-010   
  1.15            0.025736        -3.2204e-010   
  1.2             0.025886        -3.2974e-010   
  1.25            0.026002        -2.3256e-010   
  1.3             0.026069        -2.41e-010     
  1.35            0.026084        -2.4908e-010   
  1.4             0.026101        -2.5969e-010   
  1.45            0.026109        -2.669e-010    
  1.5             0.02614         -2.7947e-010   
  1.55            0.026147        -2.9078e-010   
  1.6             0.026148        -3.0117e-010   
  1.65            0.026153        -3.1173e-010   
  1.7             0.026153        -3.217e-010    
  1.75            0.026145        -3.2869e-010   
  1.8             0.026145        -2.3167e-010   
END_DB

