! VERSION = 6.00
BEGIN_HEADER
 ICCAP_INPUTS
  VG         V  B GROUND SMU4 0.001 LIN        2    0          1.8        6    0.36      
  VS         V  E GROUND SMU2 0.1 CON        0
  VD         V  S GROUND SMU1 0.1 LIN        1    0          1.8        37   0.05      
  VB         V  C GROUND SMU3 0.1 LIN        3    0          -0.9       2    -0.9      
 ICCAP_OUTPUTS
  ID         I  S GROUND SMU1 B
  IB         I  C GROUND SMU3 B
  IG         I  B GROUND SMU4 B
END_HEADER

BEGIN_DB
 ICCAP_VAR VG         0              
 ICCAP_VAR VS         0              
 ICCAP_VAR VB         0              

 #VD              ID              IB              IG             
  0               8.234e-010      -1.1707e-008    8.643e-010     
  0.05            -1.4481e-009    -1.9432e-008    1.2333e-009    
  0.1             -2.84e-011      -1.1538e-008    2.8002e-009    
  0.15            1.3888e-009     2.224e-008      -1.3029e-009   
  0.2             6.94e-011       1.0908e-008     -2.6382e-009   
  0.25            -2.1265e-009    -9.247e-009     -1.0612e-009   
  0.3             -1.7313e-009    -1.1353e-008    1.4449e-009    
  0.35            2.2886e-009     -8.286e-009     9.148e-010     
  0.4             1.7377e-009     1.2202e-008     -1.5165e-009   
  0.45            -1.3928e-009    7.408e-009      -1.7832e-009   
  0.5             -2.1572e-009    -1.1427e-008    -4.287e-010    
  0.55            -2.194e-009     -1.0957e-008    -6.466e-010    
  0.6             -2.1993e-009    -1.0214e-008    -8.253e-010    
  0.65            -2.1705e-009    -9.413e-009     -9.755e-010    
  0.7             -1.6782e-009    -1.1692e-008    1.551e-009     
  0.75            2.3035e-009     -8.577e-009     8.252e-010     
  0.8             2.2564e-009     8.738e-009      9.785e-010     
  0.85            1.7863e-009     1.1343e-008     -1.4589e-009   
  0.9             -2.1849e-009    8.294e-009      -9.445e-010    
  0.95            -1.6597e-009    -1.1875e-008    1.5949e-009    
  1               2.3032e-009     -8.64e-009      7.91e-010      
  1.05            1.6331e-009     1.4276e-008     -1.6552e-009   
  1.1             -1.5374e-009    5.659e-009      -1.6673e-009   
  1.15            -2.1117e-009    -1.1196e-008    -2.469e-010    
  1.2             -2.1649e-009    -1.1157e-008    -4.755e-010    
  1.25            -2.1983e-009    -1.0346e-008    -6.976e-010    
  1.3             -1.5436e-009    -1.5998e-008    2.0304e-009    
  1.35            1.8672e-009     -6.999e-009     1.4101e-009    
  1.4             2.0181e-009     1.0345e-008     4.85e-011      
  1.45            2.121e-009      1.0535e-008     2.376e-010     
  1.5             2.2097e-009     1.0637e-008     4.448e-010     
  1.55            2.2799e-009     1.0079e-008     6.285e-010     
  1.6             1.5042e-009     1.8501e-008     -1.8888e-009   
  1.65            -1.7378e-009    4.175e-009      -1.5034e-009   
  1.7             -1.3882e-009    -2.1293e-008    2.3918e-009    
  1.75            2.1134e-009     -3.423e-009     1.1882e-009    
  1.8             3.852e-010      1.4264e-008     -2.3672e-009   
END_DB

BEGIN_DB
 ICCAP_VAR VG         0.36           
 ICCAP_VAR VS         0              
 ICCAP_VAR VB         0              

 #VD              ID              IB              IG             
  0               7.794e-010      2.7206e-008     7.695e-010     
  0.05            2.6143e-009     -1.5188e-008    2.8063e-009    
  0.1             3.9671e-009     -1.42e-010      2.7198e-009    
  0.15            5.51e-009       9.811e-009      1.1289e-009    
  0.2             4.8547e-009     2.7285e-008     -1.3778e-009   
  0.25            3.8284e-009     9.511e-009      -1.3374e-009   
  0.3             4.2174e-009     1.1339e-008     -1.3073e-009   
  0.35            4.6478e-009     1.1183e-008     -2.6588e-009   
  0.4             3.2638e-009     -1.9959e-008    2.2988e-009    
  0.45            5.5469e-009     -4.172e-009     1.983e-009     
  0.5             5.7538e-009     -7.225e-009     1.6922e-009    
  0.55            5.9522e-009     -8.729e-009     1.4826e-009    
  0.6             6.1379e-009     -8.213e-009     1.3386e-009    
  0.65            6.3348e-009     -8.14e-009      1.2724e-009    
  0.7             6.5665e-009     -8.585e-009     1.2383e-009    
  0.75            6.8073e-009     -1.0696e-008    2.8185e-009    
  0.8             7.8805e-009     -1.05e-010      2.7473e-009    
  0.85            9.4955e-009     1.0412e-008     1.624e-010     
  0.9             9.9601e-009     1.0687e-008     3.543e-010     
  0.95            1.04919e-008    9.964e-009      5.502e-010     
  1               1.04104e-008    2.0852e-008     -1.2942e-009   
  1.05            9.8026e-009     1.1208e-008     -2.6242e-009   
  1.1             1.0759e-008     -8.667e-009     1.4443e-009    
  1.15            1.1086e-008     -1.1145e-008    2.4924e-009    
  1.2             1.1747e-008     -1.0029e-008    2.6097e-009    
  1.25            1.1713e-008     -1.1957e-008    2.0261e-009    
  1.3             1.1743e-008     -2.5427e-008    1.244e-009     
  1.35            1.2568e-008     -2.5678e-008    1.2633e-009    
  1.4             1.3403e-008     -2.511e-008     1.2878e-009    
  1.45            1.2118e-008     -1.0689e-008    -8.529e-010    
  1.5             1.5943e-008     1.7585e-008     -1.7093e-009   
  1.55            1.6799e-008     1.5909e-008     -1.84e-009     
  1.6             1.7563e-008     1.4539e-008     -1.9783e-009   
  1.65            1.9164e-008     2.7269e-008     -1.3274e-009   
  1.7             2.0206e-008     2.6398e-008     -1.3438e-009   
  1.75            2.2243e-008     1.0033e-008     8.247e-010     
  1.8             2.1388e-008     -1.868e-008     1.7658e-009    
END_DB

BEGIN_DB
 ICCAP_VAR VG         0.72           
 ICCAP_VAR VS         0              
 ICCAP_VAR VB         0              

 #VD              ID              IB              IG             
  0               6.1281e-008     7.215e-009      1.2998e-009    
  0.05            1.6641e-005     2e-011          -1.5643e-009   
  0.1             2.3738e-005     2.6877e-008     -1.3357e-009   
  0.15            2.716e-005      2.0043e-008     -1.637e-009    
  0.2             2.9344e-005     2.6349e-008     -1.3481e-009   
  0.25            3.1111e-005     2.1899e-008     -1.7185e-009   
  0.3             3.251e-005      1.2708e-008     -1.3982e-009   
  0.35            3.3034e-005     8.842e-009      1.1551e-009    
  0.4             3.5029e-005     -1.9807e-008    1.9088e-009    
  0.45            3.6591e-005     -1.12e-008      -8.38e-010     
  0.5             3.8635e-005     2.6568e-008     -1.3487e-009   
  0.55            4.0075e-005     2.1453e-008     -1.6992e-009   
  0.6             4.1357e-005     1.2448e-008     -1.3944e-009   
  0.65            4.1675e-005     8.853e-009      1.165e-009     
  0.7             4.3775e-005     -1.9586e-008    1.8941e-009    
  0.75            4.5127e-005     -1.2148e-008    1.4031e-009    
  0.8             4.7477e-005     -9.472e-009     -1.1928e-009   
  0.85            4.9187e-005     2.3607e-008     -1.8424e-009   
  0.9             4.9926e-005     1.0676e-008     7.427e-010     
  0.95            5.1183e-005     -2.4801e-008    1.2932e-009    
  1               5.4041e-005     -1.0026e-008    -1.4033e-009   
  1.05            5.551e-005      1.85e-008       -1.5979e-009   
  1.1             5.7354e-005     2.6488e-008     -1.3406e-009   
  1.15            5.8987e-005     2.071e-008      -1.6739e-009   
  1.2             6.0762e-005     2.5794e-008     -1.3556e-009   
  1.25            6.2477e-005     2.2002e-008     -1.7544e-009   
  1.3             6.4286e-005     2.4644e-008     -1.3701e-009   
  1.35            6.6027e-005     1.6631e-008     -1.6837e-009   
  1.4             6.801e-005      9.595e-009      -2.3325e-009   
  1.45            6.9679e-005     1.4878e-008     -1.6191e-009   
  1.5             7.174e-005      6.083e-009      -2.2672e-009   
  1.55            7.352e-005      9.2e-010        -2.6497e-009   
  1.6             7.5614e-005     -1.868e-009     -2.1939e-009   
  1.65            7.6939e-005     -1.1598e-008    5.093e-010     
  1.7             7.7961e-005     -5.4604e-008    1.4223e-009    
  1.75            8.067e-005      -5.3764e-008    -2.467e-009    
  1.8             8.2399e-005     -5.1471e-008    8.013e-010     
END_DB

BEGIN_DB
 ICCAP_VAR VG         1.08           
 ICCAP_VAR VS         0              
 ICCAP_VAR VB         0              

 #VD              ID              IB              IG             
  0               1.0788e-007     -2.3231e-008    1.2362e-009    
  0.05            0.00019229      -4.267e-009     1.2985e-009    
  0.1             0.00034621      -2.5002e-008    1.2377e-009    
  0.15            0.00046347      -1.0044e-008    -1.4026e-009   
  0.2             0.00054398      1.0901e-008     -2.5289e-009   
  0.25            0.00059947      2.6812e-008     -1.3391e-009   
  0.3             0.00063678      1.6116e-008     -1.8112e-009   
  0.35            0.00066057      9.847e-009      2.019e-009     
  0.4             0.00068042      -1.8849e-008    1.6748e-009    
  0.45            0.00069856      -1.1293e-008    -7.56e-010     
  0.5             0.00071415      2.1484e-008     -1.4629e-009   
  0.55            0.00072729      2.5881e-008     -1.3565e-009   
  0.6             0.000734        8.884e-009      1.0546e-009    
  0.65            0.00074482      -2.5857e-008    1.259e-009     
  0.7             0.00075632      -1.1221e-008    -1.5e-010      
  0.75            0.00077021      1.3978e-008     -2.0734e-009   
  0.8             0.00077966      2.418e-008      -1.2744e-009   
  0.85            0.00078778      1.0587e-008     4.86e-010      
  0.9             0.00079419      -1.8813e-008    1.7257e-009    
  0.95            0.00080496      -1.1266e-008    -7.286e-010    
  1               0.00081633      2.1059e-008     -1.4791e-009   
  1.05            0.00082264      9.871e-009      8.066e-010     
  1.1             0.00082941      -2.3546e-008    1.372e-009     
  1.15            0.00084207      -1.0259e-008    -1.006e-009    
  1.2             0.00085152      2.5781e-008     -1.3519e-009   
  1.25            0.00085508      8.032e-009      1.0814e-009    
  1.3             0.00086412      -2.7471e-008    1.253e-009     
  1.35            0.00087754      -1.3037e-008    -1.3084e-009   
  1.4             0.00088535      4.582e-009      -2.5934e-009   
  1.45            0.00089369      -1.91e-010      -2.3394e-009   
  1.5             0.00089516      -1.019e-008     1.6595e-009    
  1.55            0.00090525      -4.7924e-008    1.5198e-009    
  1.6             0.00091568      -6.4531e-008    -2.1556e-009   
  1.65            0.00092567      -7.5214e-008    1.766e-010     
  1.7             0.00093178      -1.2125e-007    4.068e-010     
  1.75            0.00094248      -1.7879e-007    -2.6522e-009   
  1.8             0.00094429      -2.6274e-007    1.2672e-009    
END_DB

BEGIN_DB
 ICCAP_VAR VG         1.44           
 ICCAP_VAR VS         0              
 ICCAP_VAR VB         0              

 #VD              ID              IB              IG             
  0               1.153e-007      -1.0494e-008    5.428e-010     
  0.05            0.00033588      -2.4765e-008    -9.97e-010     
  0.1             0.00064191      2.5983e-008     -1.3548e-009   
  0.15            0.00090722      9.006e-009      1.0747e-009    
  0.2             0.00113081      -2.567e-008     2.4485e-009    
  0.25            0.0013126       1.934e-009      1.4448e-009    
  0.3             0.0014571       -1.0889e-008    -9.139e-010    
  0.35            0.0015681       8.08e-009       -1.3288e-009   
  0.4             0.0016525       2.4938e-008     -1.898e-009    
  0.45            0.0017124       1.0232e-008     1.9605e-009    
  0.5             0.0017602       -1.8264e-008    1.7751e-009    
  0.55            0.0017997       -1.1385e-008    -6.941e-010    
  0.6             0.0018326       2.0426e-008     -1.5073e-009   
  0.65            0.0018559       1.0134e-008     7.776e-010     
  0.7             0.0018758       -2.3118e-008    1.391e-009     
  0.75            0.0018997       -1.0234e-008    -9.778e-010    
  0.8             0.0019184       2.5819e-008     -1.3583e-009   
  0.85            0.0019303       8.932e-009      1.0534e-009    
  0.9             0.0019461       -2.5729e-008    1.2602e-009    
  0.95            0.0019618       -2.219e-008     2.057e-009     
  1               0.001977        -1.1143e-008    -4.953e-010    
  1.05            0.0019935       1.8138e-008     -1.6723e-009   
  1.1             0.0020054       1.0716e-008     6.193e-010     
  1.15            0.0020154       -2.0489e-008    1.5511e-009    
  1.2             0.0020308       -1.1237e-008    -8.411e-010    
  1.25            0.0020455       6.325e-009      -1.3438e-009   
  1.3             0.0020577       1.3979e-008     -1.8501e-009   
  1.35            0.002066        6.789e-009      1.9953e-009    
  1.4             0.0020765       -1.6759e-008    1.559e-010     
  1.45            0.0020941       1.066e-009      -2.4486e-009   
  1.5             0.002098        -7.095e-009     1.5601e-009    
  1.55            0.0021118       -4.5503e-008    1.6416e-009    
  1.6             0.0021252       -5.8869e-008    -2.0797e-009   
  1.65            0.0021381       -6.8008e-008    7.37e-011      
  1.7             0.0021466       -1.297e-007     2.6445e-009    
  1.75            0.0021618       -1.9441e-007    -1.6125e-009   
  1.8             0.0021707       -2.5328e-007    -1.6021e-009   
END_DB

BEGIN_DB
 ICCAP_VAR VG         1.8            
 ICCAP_VAR VS         0              
 ICCAP_VAR VB         0              

 #VD              ID              IB              IG             
  0               1.1137e-007     9.1e-011        -2.79e-010     
  0.05            0.00041591      2.6884e-008     1.2056e-009    
  0.1             0.00081087      -2.3995e-008    2.2322e-009    
  0.15            0.0011753       5.29e-010       1.8923e-009    
  0.2             0.001504        -1.1412e-008    -5.901e-010    
  0.25            0.0017949       1.9135e-008     -1.5763e-009   
  0.3             0.0020444       1.0523e-008     7.024e-010     
  0.35            0.0022544       -2.1547e-008    1.4566e-009    
  0.4             0.0024319       -1.0531e-008    -9.089e-010    
  0.45            0.0025768       2.4991e-008     -1.3792e-009   
  0.5             0.0026908       9.266e-009      9.871e-010     
  0.55            0.002784        -2.5342e-008    1.2801e-009    
  0.6             0.0028595       -2.3752e-008    1.2295e-009    
  0.65            0.0029217       -1.1232e-008    -3.923e-010    
  0.7             0.0029739       1.6621e-008     -1.7707e-009   
  0.75            0.0030141       1.0678e-008     5.424e-010     
  0.8             0.0030458       -1.9036e-008    1.6488e-009    
  0.85            0.003078        -1.1145e-008    -7.766e-010    
  0.9             0.003106        2.213e-008      -1.4457e-009   
  0.95            0.0031303       2.593e-008      -1.3522e-009   
  1               0.0031517       1.494e-008      -1.915e-009    
  1.05            0.0031679       9.905e-009      1.9523e-009    
  1.1             0.0031869       -1.8435e-008    1.7876e-009    
  1.15            0.0032064       -1.1611e-008    -6.811e-010    
  1.2             0.0032261       1.9926e-008     -1.5148e-009   
  1.25            0.0032398       9.716e-009      7.723e-010     
  1.3             0.0032538       -2.4084e-008    1.4026e-009    
  1.35            0.0032723       -1.2406e-008    -9.737e-010    
  1.4             0.0032884       5.34e-009       -1.319e-009    
  1.45            0.003303        1.1604e-008     -1.6407e-009   
  1.5             0.0033178       -4.66e-010      -2.5574e-009   
  1.55            0.0033301       -9.152e-009     -8.17e-011     
  1.6             0.0033396       -4.6268e-008    2.5682e-009    
  1.65            0.0033586       -6.365e-008     -1.6842e-009   
  1.7             0.0033709       -6.775e-008     -1.5215e-009   
  1.75            0.0033811       -1.2088e-007    -5.874e-010    
  1.8             0.0033962       -1.7743e-007    -1.5829e-009   
END_DB

BEGIN_DB
 ICCAP_VAR VG         0              
 ICCAP_VAR VS         0              
 ICCAP_VAR VB         -0.9           

 #VD              ID              IB              IG             
  0               7.646e-010      -1.1076e-008    7.533e-010     
  0.05            -1.5542e-009    -1.4552e-008    1.9623e-009    
  0.1             1.8193e-009     -7.434e-009     1.4406e-009    
  0.15            2.03e-009       1.0432e-008     8.19e-011      
  0.2             2.1313e-009     1.0674e-008     2.722e-010     
  0.25            2.2147e-009     1.0411e-008     4.678e-010     
  0.3             1.3739e-009     2.2674e-008     -1.3089e-009   
  0.35            5.37e-011       1.1158e-008     -2.653e-009    
  0.4             -1.444e-009     -1.9296e-008    1.237e-009     
  0.45            -4.67e-011      -1.1543e-008    2.7964e-009    
  0.5             1.392e-009      2.2161e-008     -1.3069e-009   
  0.55            7.17e-011       1.1039e-008     -2.6407e-009   
  0.6             -1.4626e-009    -1.8814e-008    2.2287e-009    
  0.65            2.0142e-009     -5.016e-009     1.2814e-009    
  0.7             4.759e-010      1.5417e-008     -2.2399e-009   
  0.75            -2.1783e-009    -1.0965e-008    -5.74e-010     
  0.8             -2.1999e-009    -1.0085e-008    -7.691e-010    
  0.85            -1.5713e-009    -1.4041e-008    1.8977e-009    
  0.9             1.7694e-009     -8.077e-009     1.4804e-009    
  0.95            1.9355e-009     1.0267e-008     -1.109e-010    
  1               9.339e-010      2.5437e-008     -1.4543e-009   
  1.05            -2.1861e-009    8.229e-009      -9.325e-010    
  1.1             -1.6487e-009    -1.1602e-008    1.6066e-009    
  1.15            2.2969e-009     -8.551e-009     7.771e-010     
  1.2             1.6168e-009     1.4436e-008     -1.6724e-009   
  1.25            -1.5564e-009    5.36e-009       -1.6447e-009   
  1.3             -2.099e-009     -1.1199e-008    -2.251e-010    
  1.35            -2.1544e-009    -1.1373e-008    -4.479e-010    
  1.4             -2.1961e-009    -1.0882e-008    -6.654e-010    
  1.45            -2.1999e-009    -1.0105e-008    -8.3e-010      
  1.5             -1.6005e-009    -1.2695e-008    1.7822e-009    
  1.55            1.6655e-009     -8.635e-009     1.5541e-009    
  1.6             1.9689e-009     1.0293e-008     -3.97e-011     
  1.65            9.885e-010      2.6417e-008     -1.4159e-009   
  1.7             -2.1697e-009    8.779e-009      -9.963e-010    
  1.75            -2.0721e-009    -9.462e-009     -1.1568e-009   
  1.8             -1.7853e-009    -1.117e-008     2.853e-010     
END_DB

BEGIN_DB
 ICCAP_VAR VG         0.36           
 ICCAP_VAR VS         0              
 ICCAP_VAR VB         -0.9           

 #VD              ID              IB              IG             
  0               1.2548e-009     -1.1358e-008    1.2665e-009    
  0.05            2.0981e-009     -9.32e-009      1.2245e-009    
  0.1             1.1927e-009     2.6864e-008     -1.3618e-009   
  0.15            -2.0045e-009    1.1019e-008     -1.1915e-009   
  0.2             -1.0753e-009    -2.5686e-008    1.3511e-009    
  0.25            2.2999e-009     -8.518e-009     1.0188e-009    
  0.3             1.0374e-009     2.6378e-008     -1.4269e-009   
  0.35            -2.112e-009     8.79e-009       -9.847e-010    
  0.4             -2.0026e-009    -1.0161e-008    -1.1427e-009   
  0.45            -1.0048e-009    -2.5677e-008    1.3809e-009    
  0.5             2.3602e-009     -8.336e-009     9.801e-010     
  0.55            1.8868e-009     1.1392e-008     -1.4507e-009   
