! VERSION = 6.00
BEGIN_HEADER
 ICCAP_INPUTS
  VG         V  B GROUND SMU4 0.001 LIN        2    0          1.8        6    0.36      
  VS         V  E GROUND SMU3 0.1 CON        0
  VD         V  S GROUND SMU2 0.1 LIN        1    0          1.8        37   0.05      
  VB         V  C GROUND SMU1 0.1 LIN        3    0          -0.9       2    -0.9      
 ICCAP_OUTPUTS
  ID         I  S GROUND SMU2 B
  IB         I  C GROUND SMU1 B
  IG         I  B GROUND SMU4 B
END_HEADER

BEGIN_DB
 ICCAP_VAR VG         0              
 ICCAP_VAR VS         0              
 ICCAP_VAR VB         0              

 #VD              ID              IB              IG             
  0               -6.81e-010      -1.4588e-008    5.454e-010     
  0.05            6.637e-010      -7.981e-009     1.3655e-009    
  0.1             1.9995e-009     2.4357e-008     -1.4417e-009   
  0.15            -4.3248e-009    -1.1177e-008    -7.55e-010     
  0.2             2.0581e-009     -4.402e-009     2.3762e-009    
  0.25            1.5279e-009     1.9981e-008     -1.7598e-009   
  0.3             -4.2979e-009    -1.1919e-008    -3.801e-010    
  0.35            -8.922e-010     -1.6724e-008    2.6745e-009    
  0.4             2.1353e-009     2.5547e-008     -1.4057e-009   
  0.45            -4.3035e-009    -1.086e-008     -8.398e-010    
  0.5             2.057e-009      -5.491e-009     2.4541e-009    
  0.55            1.6511e-009     2.1237e-008     -1.6439e-009   
  0.6             -4.3246e-009    -1.1814e-008    -4.865e-010    
  0.65            -1.0459e-009    -1.7627e-008    2.5781e-009    
  0.7             2.2826e-009     2.6231e-008     -1.3883e-009   
  0.75            -3.5709e-009    -9.512e-009     2.724e-010     
  0.8             2.044e-010      -8.182e-009     1.3145e-009    
  0.85            2.5643e-009     2.6191e-008     -1.3833e-009   
  0.9             -2.6064e-009    -2.3817e-008    1.3154e-009    
  0.95            2.3458e-009     2.6408e-008     -1.384e-009    
  1               -3.6322e-009    -9.704e-009     2.339e-010     
  1.05            1.399e-010      -8.604e-009     1.3113e-009    
  1.1             2.6289e-009     2.5805e-008     -1.3833e-009   
  1.15            -2.665e-009     -2.3671e-008    1.3131e-009    
  1.2             2.417e-009      2.6534e-008     -1.3807e-009   
  1.25            -2.4715e-009    -2.4128e-008    1.3228e-009    
  1.3             4.5176e-009     9.246e-009      8.542e-010     
  1.35            -2.1497e-009    4.748e-009      -2.4836e-009   
  1.4             -1.9501e-009    -2.181e-008     1.5479e-009    
  1.45            4.4891e-009     1.1114e-008     5.489e-010     
  1.5             -2.161e-009     1.843e-009      -2.1728e-009   
  1.55            -1.4776e-009    -1.8146e-008    2.0991e-009    
  1.6             2.732e-009      1.0504e-008     1.778e-009     
  1.65            1.655e-010      1.2094e-008     -1.358e-009    
  1.7             -2.9803e-009    -1.8153e-008    2.2399e-009    
  1.75            2.6353e-009     2.5882e-008     -1.3826e-009   
  1.8             -2.6849e-009    -2.3651e-008    1.3142e-009    
END_DB

BEGIN_DB
 ICCAP_VAR VG         0.36           
 ICCAP_VAR VS         0              
 ICCAP_VAR VB         0              

 #VD              ID              IB              IG             
  0               6.329e-010      1.1079e-008     2.178e-010     
  0.05            3.6868e-009     1.4448e-008     -2.5868e-009   
  0.1             3.1611e-009     -1.1496e-008    2.8101e-009    
  0.15            7.4212e-009     9.165e-009      -1.4822e-009   
  0.2             3.8885e-009     -1.1828e-008    2.8853e-009    
  0.25            7.2314e-009     1.4415e-008     -1.7693e-009   
  0.3             5.0372e-009     -2.1584e-008    1.539e-009     
  0.35            7.08e-009       -2.421e-008     1.338e-010     
  0.4             7.539e-009      2.6792e-008     3.223e-010     
  0.45            8.145e-009      2.384e-008      5.041e-010     
  0.5             8.246e-009      1.1494e-008     5.301e-010     
  0.55            8.37e-009       1.1477e-008     5.531e-010     
  0.6             8.494e-009      1.1476e-008     5.778e-010     
  0.65            8.62e-009       1.149e-008      6.054e-010     
  0.7             8.775e-009      1.1399e-008     6.29e-010      
  0.75            8.9e-009        1.141e-008      6.519e-010     
  0.8             8.964e-009      1.139e-008      6.761e-010     
  0.85            9.062e-009      1.1301e-008     6.975e-010     
  0.9             9.123e-009      1.1236e-008     7.231e-010     
  0.95            9.211e-009      1.1133e-008     7.46e-010      
  1               9.273e-009      1.118e-008      7.703e-010     
  1.05            9.362e-009      1.1038e-008     7.92e-010      
  1.1             9.458e-009      1.1002e-008     8.134e-010     
  1.15            9.522e-009      1.0898e-008     8.364e-010     
  1.2             7.884e-009      1.4039e-008     1.302e-010     
  1.25            8.262e-009      2.6818e-008     3.178e-010     
  1.3             8.853e-009      2.4167e-008     4.985e-010     
  1.35            8.973e-009      1.143e-008      5.217e-010     
  1.4             9.118e-009      1.1488e-008     5.483e-010     
  1.45            9.19e-009       1.1422e-008     5.747e-010     
  1.5             9.305e-009      1.1497e-008     5.988e-010     
  1.55            9.393e-009      1.1458e-008     6.209e-010     
  1.6             9.481e-009      1.1406e-008     6.462e-010     
  1.65            9.572e-009      1.1311e-008     6.697e-010     
  1.7             9.606e-009      1.1315e-008     6.929e-010     
  1.75            9.718e-009      1.1312e-008     7.166e-010     
  1.8             9.84e-009       1.1157e-008     7.343e-010     
END_DB

BEGIN_DB
 ICCAP_VAR VG         0.72           
 ICCAP_VAR VS         0              
 ICCAP_VAR VB         0              

 #VD              ID              IB              IG             
  0               7.824e-009      -2.5151e-008    2.8674e-009    
  0.05            7.4415e-006     1.338e-008      2.1919e-009    
  0.1             1.11599e-005    -8.358e-009     2.8873e-009    
  0.15            1.3028e-005     2.134e-008      -1.2107e-009   
  0.2             1.3725e-005     4.705e-009      -1.4419e-009   
  0.25            1.4164e-005     2.2709e-008     -1.3968e-009   
  0.3             1.4416e-005     2.5293e-008     -1.3879e-009   
  0.35            1.447e-005      1.1591e-008     6.423e-010     
  0.4             1.4802e-005     1.6847e-008     -1.5677e-009   
  0.45            1.4972e-005     2.0115e-008     -1.4475e-009   
  0.5             1.5137e-005     2.2626e-008     -1.3958e-009   
  0.55            1.5281e-005     1.3359e-008     -2.5368e-009   
  0.6             1.5411e-005     1.7449e-008     -1.5986e-009   
  0.65            1.555e-005      1.9627e-008     -1.466e-009    
  0.7             1.5695e-005     2.2263e-008     -1.401e-009    
  0.75            1.5805e-005     1.305e-008      -2.5594e-009   
  0.8             1.5925e-005     1.8256e-008     -1.6269e-009   
  0.85            1.6035e-005     1.9207e-008     -1.4812e-009   
  0.9             1.6157e-005     2.194e-008      -1.4094e-009   
  0.95            1.6256e-005     1.3026e-008     -2.5866e-009   
  1               1.636e-005      1.9219e-008     -1.6653e-009   
  1.05            1.6461e-005     1.8732e-008     -1.4997e-009   
  1.1             1.657e-005      2.1395e-008     -1.4185e-009   
  1.15            1.6649e-005     1.2749e-008     -2.6109e-009   
  1.2             1.6747e-005     2.0261e-008     -1.6996e-009   
  1.25            1.6823e-005     1.8308e-008     -1.5229e-009   
  1.3             1.6918e-005     2.0821e-008     -1.4275e-009   
  1.35            1.7005e-005     1.2536e-008     -2.6254e-009   
  1.4             1.7088e-005     2.0799e-008     -1.7364e-009   
  1.45            1.7155e-005     1.7613e-008     -1.5476e-009   
  1.5             1.7249e-005     1.9851e-008     -1.4386e-009   
  1.55            1.7323e-005     1.1032e-008     -2.6443e-009   
  1.6             1.7402e-005     2.0202e-008     -1.7701e-009   
  1.65            1.7466e-005     1.5113e-008     -1.5714e-009   
  1.7             1.7537e-005     6.856e-009      -2.7187e-009   
  1.75            1.7608e-005     6.491e-009      -2.6603e-009   
  1.8             1.7687e-005     5.83e-009       -2.5417e-009   
END_DB

BEGIN_DB
 ICCAP_VAR VG         1.08           
 ICCAP_VAR VS         0              
 ICCAP_VAR VB         0              

 #VD              ID              IB              IG             
  0               6.4269e-008     9.07e-009       1.827e-010     
  0.05            3.6385e-005     1.0803e-008     -2.7553e-009   
  0.1             6.7623e-005     2.5549e-008     -1.3904e-009   
  0.15            9.3466e-005     1.1556e-008     6.36e-010      
  0.2             0.00011447      -1.201e-008     -1.5498e-009   
  0.25            0.00013009      1.698e-008      -1.6653e-009   
  0.3             0.0001413       1.6702e-008     -1.815e-009    
  0.35            0.00014876      1.61e-008       -1.9784e-009   
  0.4             0.00015359      1.3275e-008     -1.4709e-009   
  0.45            0.00015653      1.7952e-008     -1.5541e-009   
  0.5             0.00015862      1.7002e-008     -1.6742e-009   
  0.55            0.00016016      1.6687e-008     -1.8293e-009   
  0.6             0.00016146      1.1113e-008     -1.4247e-009   
  0.65            0.00016241      1.9262e-008     -1.4772e-009   
  0.7             0.00016344      1.7867e-008     -1.5623e-009   
  0.75            0.00016428      1.7003e-008     -1.6776e-009   
  0.8             0.00016516      1.6779e-008     -1.8349e-009   
  0.85            0.00016587      1.6015e-008     -2.0015e-009   
  0.9             0.00016672      1.3677e-008     -1.4801e-009   
  0.95            0.0001673       1.7596e-008     -1.5681e-009   
  1               0.00016803      1.7032e-008     -1.6907e-009   
  1.05            0.00016867      1.6569e-008     -1.8439e-009   
  1.1             0.00016933      1.5989e-008     -2.0068e-009   
  1.15            0.00016994      1.3708e-008     -1.4843e-009   
  1.2             0.00017057      1.7841e-008     -1.5713e-009   
  1.25            0.00017109      1.6962e-008     -1.6971e-009   
  1.3             0.00017163      1.6753e-008     -1.8502e-009   
  1.35            0.00017216      1.148e-008      -1.4303e-009   
  1.4             0.00017284      1.8888e-008     -1.4868e-009   
  1.45            0.00017335      1.7539e-008     -1.5823e-009   
  1.5             0.0001738       1.6503e-008     -1.7039e-009   
  1.55            0.00017434      1.5919e-008     -1.8665e-009   
  1.6             0.00017487      1.467e-008      -2.0328e-009   
  1.65            0.00017532      1.2646e-008     -2.1962e-009   
  1.7             0.00017579      1.0521e-008     -2.3533e-009   
  1.75            0.00017631      6.793e-009      -2.4821e-009   
  1.8             0.00017676      2.086e-009      -2.5861e-009   
END_DB

BEGIN_DB
 ICCAP_VAR VG         1.44           
 ICCAP_VAR VS         0              
 ICCAP_VAR VB         0              

 #VD              ID              IB              IG             
  0               9.4972e-008     3.616e-009      2.2232e-009    
  0.05            5.9029e-005     1.1484e-008     -2.7679e-009   
  0.1             0.00011411      7.727e-009      2.1645e-009    
  0.15            0.00016495      -1.0534e-008    2.108e-010     
  0.2             0.00021138      -1.7959e-008    1.794e-009     
  0.25            0.00025299      -1.812e-008     1.9813e-009    
  0.3             0.00028996      -1.122e-008     2.61e-010      
  0.35            0.00032219      -1.9705e-008    1.8971e-009    
  0.4             0.00034928      -1.0591e-008    2.227e-010     
  0.45            0.00037171      -1.8445e-008    1.8124e-009    
  0.5             0.0003894       -1.8059e-008    2.0017e-009    
  0.55            0.00040287      -1.1497e-008    2.71e-010      
  0.6             0.0004132       -1.9888e-008    1.9146e-009    
  0.65            0.00042023      -1.0836e-008    2.352e-010     
  0.7             0.00042608      -1.1536e-008    -4.697e-010    
  0.75            0.00042928      -2.4233e-008    1.3148e-009    
  0.8             0.0004329       -1.1889e-008    -6.598e-010    
  0.85            0.00043472      -2.3055e-008    2.1773e-009    
  0.9             0.0004369       -1.3119e-008    1.5153e-009    
  0.95            0.00043853      -9.871e-009     -6.7e-012      
  1               0.00044082      -1.1663e-008    -7.613e-010    
  1.05            0.00044173      -2.1358e-008    2.007e-009     
  1.1             0.00044297      -1.1519e-008    2.751e-010     
  1.15            0.00044453      -2.0081e-008    1.933e-009     
  1.2             0.00044545      -1.0809e-008    2.356e-010     
  1.25            0.00044698      -1.871e-008     1.8473e-009    
  1.3             0.00044809      -1.0264e-008    2.028e-010     
  1.35            0.00044926      -1.7508e-008    1.766e-009     
  1.4             0.00045017      -9.875e-009     1.616e-010     
  1.45            0.00045135      -1.6306e-008    1.6951e-009    
  1.5             0.00045228      -9.666e-009     1.128e-010     
  1.55            0.00045333      -1.5255e-008    1.6253e-009    
  1.6             0.00045401      -9.746e-009     6.8e-011       
  1.65            0.00045571      -1.2273e-008    -6.642e-010    
  1.7             0.00045627      -2.3582e-008    2.1736e-009    
  1.75            0.000457        -1.4462e-008    1.5102e-009    
  1.8             0.00045772      -1.2582e-008    -1.58e-011     
END_DB

BEGIN_DB
 ICCAP_VAR VG         1.8            
 ICCAP_VAR VS         0              
 ICCAP_VAR VB         0              

 #VD              ID              IB              IG             
  0               9.6624e-008     -1.184e-008     -1.5423e-009   
  0.05            7.3693e-005     1.2826e-008     -2.116e-010    
  0.1             0.00014468      1.1727e-008     -2.152e-010    
  0.15            0.00021253      2.0573e-008     -1.6841e-009   
  0.2             0.00027713      1.7224e-008     -1.8461e-009   
  0.25            0.00033838      1.124e-008      -1.4252e-009   
  0.3             0.00039566      1.9159e-008     -1.4859e-009   
  0.35            0.00044887      1.782e-008      -1.5834e-009   
  0.4             0.00049823      1.7441e-008     -1.7133e-009   
  0.45            0.00054306      1.7136e-008     -1.8712e-009   
  0.5             0.00058316      1.1728e-008     -1.4309e-009   
  0.55            0.00061899      1.8859e-008     -1.4987e-009   
  0.6             0.00065019      1.7875e-008     -1.6003e-009   
  0.65            0.000677        1.7284e-008     -1.7344e-009   
  0.7             0.00069946      1.6904e-008     -1.9049e-009   
  0.75            0.0007181       1.2049e-008     -1.4389e-009   
  0.8             0.00073279      1.8615e-008     -1.5111e-009   
  0.85            0.00074398      1.7667e-008     -1.6169e-009   
  0.9             0.00075287      1.7354e-008     -1.7566e-009   
  0.95            0.00075948      1.6887e-008     -1.9301e-009   
  1               0.00076457      1.2452e-008     -1.4515e-009   
  1.05            0.00076882      1.8519e-008     -1.5271e-009   
  1.1             0.00077219      1.7699e-008     -1.6414e-009   
  1.15            0.00077522      1.7198e-008     -1.789e-009    
  1.2             0.00077766      1.6761e-008     -1.953e-009    
  1.25            0.00078012      1.2853e-008     -1.4602e-009   
  1.3             0.00078188      1.8413e-008     -1.5435e-009   
  1.35            0.00078403      1.7428e-008     -1.6605e-009   
  1.4             0.00078574      1.7227e-008     -1.8098e-009   
  1.45            0.00078737      1.6626e-008     -1.9758e-009   
  1.5             0.0007891       1.3396e-008     -1.4692e-009   
  1.55            0.00079059      1.8228e-008     -1.5553e-009   
  1.6             0.00079219      8.913e-009      -6.91e-011     
  1.65            0.00079313      1.1608e-008     6.052e-010     
  1.7             0.00079504      2.6229e-008     -1.3704e-009   
  1.75            0.00079532      1.1181e-008     7.626e-010     
  1.8             0.0007981       2.1138e-008     -1.7388e-009   
END_DB

BEGIN_DB
 ICCAP_VAR VG         0              
 ICCAP_VAR VS         0              
 ICCAP_VAR VB         -0.9           

 #VD              ID              IB              IG             
  0               -8.36e-011      -1.9292e-007    1.5718e-009    
  0.05            2.067e-009      -1.8865e-007    2.2744e-009    
  0.1             4.0779e-009     -1.7483e-007    1.85e-011      
  0.15            6.723e-010      -1.5693e-007    -2.5716e-009   
  0.2             -3.1043e-009    -2.0473e-007    -1.6478e-009   
  0.25            -3.0624e-009    -1.9556e-007    2.0627e-009    
  0.3             2.2142e-009     -1.8697e-007    2.0183e-009    
  0.35            3.7562e-009     -1.7494e-007    -2.471e-010    
  0.4             2.377e-010      -1.5745e-007    -2.718e-009    
  0.45            -3.74e-009      -2.0189e-007    -1.375e-009    
  0.5             -2.773e-009     -2.0184e-007    1.3233e-009    
  0.55            1.9618e-009     -1.9192e-007    2.7001e-009    
  0.6             4.4953e-009     -1.783e-007     6.145e-010     
  0.65            1.5278e-009     -1.5515e-007    -1.7336e-009   
  0.7             -2.1905e-009    -2.0451e-007    -2.0639e-009   
  0.75            -3.8115e-009    -1.9511e-007    1.358e-010     
  0.8             -4.891e-010     -1.8599e-007    2.8553e-009    
  0.85            3.7481e-009     -1.8254e-007    1.4034e-009    
  0.9             2.8172e-009     -1.5882e-007    -1.3853e-009   
  0.95            -2.0012e-009    -2.0368e-007    -2.7288e-009   
  1               -4.3038e-009    -1.9993e-007    -8.17e-010     
  1.05            -1.8299e-009    -1.9689e-007    1.6303e-009    
  1.1             2.0724e-009     -1.8841e-007    2.2427e-009    
  1.15            4.0344e-009     -1.7457e-007    -2.63e-011     
  1.2             6.282e-010      -1.5683e-007    -2.6033e-009   
  1.25            -3.1693e-009    -2.0464e-007    -1.6137e-009   
  1.3             -3.0297e-009    -1.9608e-007    2.1116e-009    
  1.35            2.2504e-009     -1.8744e-007    1.9901e-009    
  1.4             3.712e-009      -1.7451e-007    -1.4352e-009   
  1.45            -2.1776e-009    -2.0578e-007    -2.3427e-009   
  1.5             -4.2021e-009    -1.9769e-007    -2.147e-010    
  1.55            -1.069e-009     -1.893e-007     2.5648e-009    
  1.6             2.803e-009      -1.84e-007      1.7279e-009    
  1.65            3.3352e-009     -1.7012e-007    -1.66e-009     
  1.7             -2.178e-009     -2.0483e-007    -2.1051e-009   
  1.75            -3.8902e-009    -1.959e-007     7.73e-011      
  1.8             -5.943e-010     -1.8645e-007    2.8325e-009    
END_DB

BEGIN_DB
 ICCAP_VAR VG         0.36           
 ICCAP_VAR VS         0              
 ICCAP_VAR VB         -0.9           

 #VD              ID              IB              IG             
  0               1.348e-010      -1.5755e-007    1.4496e-009    
  0.05            2.088e-009      -1.8888e-007    2.3888e-009    
  0.1             4.195e-009      -1.7492e-007    1.631e-010     
  0.15            9.075e-010      -1.5691e-007    -2.3933e-009   
  0.2             -2.7315e-009    -2.0501e-007    -1.7729e-009   
  0.25            -3.187e-009     -1.9399e-007    1.7913e-009    
  0.3             2.1339e-009     -1.8771e-007    2.1645e-009    
  0.35            3.956e-009      -1.7443e-007    -1.036e-010    
  0.4             5.121e-010      -1.576e-007     -2.6535e-009   
  0.45            -3.33e-009      -2.0404e-007    -1.5294e-009   
  0.5             -2.9402e-009    -1.9783e-007    1.3062e-009    
  0.55            1.9017e-009     -1.9367e-007    2.7823e-009    
