! VERSION = 6.00
BEGIN_HEADER
 ICCAP_INPUTS
  VG         V  B GROUND SMU4 0.001 LIN        2    0          1.8        6    0.36      
  VS         V  E GROUND SMU2 0.1 CON        0
  VD         V  S GROUND SMU1 0.1 LIN        1    0          1.8        37   0.05      
  VB         V  C GROUND SMU3 0.1 CON        0
 ICCAP_OUTPUTS
  ID         I  S GROUND SMU1 B
  IG         I  B GROUND SMU4 B
END_HEADER

BEGIN_DB
 ICCAP_VAR VG         0              
 ICCAP_VAR VS         0              
 ICCAP_VAR VB         0              

 #VD              ID              IG             
  0               -9.683e-011     2.4968e-010    
  0.05            2.1084e-010     1.3178e-010    
  0.1             9.929e-011      -3.2379e-010   
  0.15            -1.9028e-010    -9.414e-011    
  0.2             2.2465e-010     1.2231e-010    
  0.25            9.445e-011      -3.344e-010    
  0.3             -1.8788e-010    -8.459e-011    
  0.35            2.3407e-010     1.1318e-010    
  0.4             8.894e-011      -3.3959e-010   
  0.45            -1.8446e-010    -7.397e-011    
  0.5             2.3995e-010     1.0339e-010    
  0.55            8.33e-011       -3.3937e-010   
  0.6             -1.7954e-010    -6.521e-011    
  0.65            1.8782e-010     1.6546e-010    
  0.7             1.2157e-010     -2.799e-010    
  0.75            -1.7126e-010    -5.592e-011    
  0.8             2.0054e-010     1.5049e-010    
  0.85            1.1746e-010     -2.9694e-010   
  0.9             -1.5958e-010    -4.728e-011    
  0.95            2.1448e-010     1.3857e-010    
  1               1.1329e-010     -3.149e-010    
  1.05            -1.4467e-010    -3.788e-011    
  1.1             -6.057e-011     2.7475e-010    
  1.15            2.3279e-010     1.2459e-010    
  1.2             1.0758e-010     -3.3172e-010   
  1.25            -1.7617e-010    -8.664e-011    
  1.3             2.4496e-010     1.1575e-010    
  1.35            1.0425e-010     -3.3821e-010   
  1.4             -1.7078e-010    -7.696e-011    
  1.45            1.8913e-010     1.896e-010     
  1.5             1.488e-010      -2.5708e-010   
  1.55            -1.5645e-010    -6.777e-011    
  1.6             2.1593e-010     1.708e-010     
  1.65            1.6933e-010     -2.7406e-010   
  1.7             3.185e-011      -3.3554e-010   
  1.75            2.5454e-010     2.6511e-010    
  1.8             2.7755e-010     -3.1688e-010   
END_DB

BEGIN_DB
 ICCAP_VAR VG         0.36           
 ICCAP_VAR VS         0              
 ICCAP_VAR VB         0              

 #VD              ID              IG             
  0               -4.9804e-008    2.9976e-010    
  0.05            2.4274e-007     -3.3683e-010   
  0.1             3.0563e-007     -2.8243e-010   
  0.15            3.3075e-007     -2.9276e-010   
  0.2             3.4991e-007     -3.0263e-010   
  0.25            3.6813e-007     -3.1239e-010   
  0.3             3.868e-007      -3.2045e-010   
  0.35            4.0618e-007     -3.2761e-010   
  0.4             4.2519e-007     -2.2821e-010   
  0.45            4.4466e-007     -2.3607e-010   
  0.5             4.6407e-007     -2.4381e-010   
  0.55            4.8451e-007     -2.544e-010    
  0.6             5.0503e-007     -2.6358e-010   
  0.65            5.2627e-007     -2.731e-010    
  0.7             5.4783e-007     -2.8403e-010   
  0.75            5.6951e-007     -2.9309e-010   
  0.8             5.9257e-007     -3.0266e-010   
  0.85            6.1571e-007     -3.1156e-010   
  0.9             6.3982e-007     -3.2075e-010   
  0.95            6.6556e-007     -3.2768e-010   
  1               6.9058e-007     -2.2834e-010   
  1.05            7.1655e-007     -2.3633e-010   
  1.1             7.4312e-007     -2.449e-010    
  1.15            7.705e-007      -2.5443e-010   
  1.2             7.9808e-007     -2.6383e-010   
  1.25            8.2695e-007     -2.7351e-010   
  1.3             8.564e-007      -2.8298e-010   
  1.35            8.8759e-007     -2.9229e-010   
  1.4             9.185e-007      -3.0294e-010   
  1.45            9.5139e-007     -3.1255e-010   
  1.5             9.8508e-007     -3.2036e-010   
  1.55            1.02077e-006    -3.2806e-010   
  1.6             1.0561e-006     -2.2976e-010   
  1.65            1.09306e-006    -2.3727e-010   
  1.7             1.13094e-006    -2.4527e-010   
  1.75            1.1721e-006     3.219e-011     
  1.8             1.2071e-006     2.5481e-010    
END_DB

BEGIN_DB
 ICCAP_VAR VG         0.72           
 ICCAP_VAR VS         0              
 ICCAP_VAR VB         0              

 #VD              ID              IG             
  0               -3.6947e-006    -3.3915e-010   
  0.05            0.00075915      7.429e-011     
  0.1             0.0011503       2.806e-011     
  0.15            0.0013317       2.4865e-010    
  0.2             0.0014283       2.5773e-010    
  0.25            0.0014784       2.6778e-010    
  0.3             0.0015024       2.773e-010     
  0.35            0.0015258       2.8814e-010    
  0.4             0.0015501       2.9768e-010    
  0.45            0.0015745       3.076e-010     
  0.5             0.0016003       3.165e-010     
  0.55            0.0016271       3.2574e-010    
  0.6             0.001656        2.2644e-010    
  0.65            0.0016863       2.3349e-010    
  0.7             0.0017188       2.4076e-010    
  0.75            0.0017528       2.4842e-010    
  0.8             0.0017885       2.581e-010     
  0.85            0.0018254       2.6744e-010    
  0.9             0.0018641       2.7769e-010    
  0.95            0.0019042       2.8825e-010    
  1               0.001946        2.9776e-010    
  1.05            0.0019892       3.0842e-010    
  1.1             0.0020341       3.1764e-010    
  1.15            0.002081        3.2596e-010    
  1.2             0.0021315       2.2702e-010    
  1.25            0.0021842       2.3371e-010    
  1.3             0.0022402       2.413e-010     
  1.35            0.0023003       2.4928e-010    
  1.4             0.0023636       2.5782e-010    
  1.45            0.0024314       2.686e-010     
  1.5             0.0025032       2.7881e-010    
  1.55            0.002579        2.8863e-010    
  1.6             0.0026592       2.9904e-010    
  1.65            0.002744        3.0944e-010    
  1.7             0.0028332       3.1853e-010    
  1.75            0.0029259       3.2497e-010    
  1.8             0.0030244       3.2851e-010    
END_DB

BEGIN_DB
 ICCAP_VAR VG         1.08           
 ICCAP_VAR VS         0              
 ICCAP_VAR VB         0              

 #VD              ID              IG             
  0               -7.8834e-006    -2.1551e-010   
  0.05            0.0022196       3.2599e-010    
  0.1             0.004354        2.2695e-010    
  0.15            0.0063574       2.3461e-010    
  0.2             0.0081994       2.4112e-010    
  0.25            0.0098398       2.5046e-010    
  0.3             0.0112298       2.5955e-010    
  0.35            0.012352        -2.7969e-010   
  0.4             0.013164        -2.9083e-010   
  0.45            0.013727        -3.0124e-010   
  0.5             0.014106        -3.0975e-010   
  0.55            0.014374        -3.1846e-010   
  0.6             0.014576        -3.2639e-010   
  0.65            0.014613        -2.2666e-010   
  0.7             0.014636        -2.3396e-010   
  0.75            0.014651        -2.4175e-010   
  0.8             0.014662        -2.5122e-010   
  0.85            0.014667        -2.6014e-010   
  0.9             0.01467         -2.6952e-010   
  0.95            0.014673        -2.7971e-010   
  1               0.014667        -2.8903e-010   
  1.05            0.014663        -3.0018e-010   
  1.1             0.014658        -3.0965e-010   
  1.15            0.014653        -3.1736e-010   
  1.2             0.014648        -3.2546e-010   
  1.25            0.014644        -2.2465e-010   
  1.3             0.014639        -2.3253e-010   
  1.35            0.014641        -2.4147e-010   
  1.4             0.014647        -2.4934e-010   
  1.45            0.014658        -2.588e-010    
  1.5             0.014679        -2.6857e-010   
  1.55            0.014711        -2.7794e-010   
  1.6             0.014754        -2.8791e-010   
  1.65            0.014814        -2.9733e-010   
  1.7             0.014884        -3.0759e-010   
  1.75            0.014968        -3.1549e-010   
  1.8             0.01507         -3.225e-010    
END_DB

BEGIN_DB
 ICCAP_VAR VG         1.44           
 ICCAP_VAR VS         0              
 ICCAP_VAR VB         0              

 #VD              ID              IG             
  0               -8.6993e-006    -2.8454e-010   
  0.05            0.002473        3.1713e-010    
  0.1             0.0049282       3.2587e-010    
  0.15            0.0073404       2.2599e-010    
  0.2             0.0097018       2.3269e-010    
  0.25            0.012022        -2.3439e-010   
  0.3             0.014255        -2.4416e-010   
  0.35            0.016412        -2.5284e-010   
  0.4             0.018479        -2.6229e-010   
  0.45            0.020439        -2.7233e-010   
  0.5             0.022288        -2.8238e-010   
  0.55            0.024003        -2.9285e-010   
  0.6             0.02557         -3.0359e-010   
  0.65            0.026971        -3.1211e-010   
  0.7             0.028191        -3.2188e-010   
  0.75            0.029216        -3.2907e-010   
  0.8             0.030029        -2.267e-010    
  0.85            0.030647        -2.3527e-010   
  0.9             0.031103        -2.4289e-010   
  0.95            0.03144         -2.5205e-010   
  1               0.031697        -2.613e-010    
  1.05            0.031903        -2.7126e-010   
  1.1             0.032044        -2.8202e-010   
  1.15            0.032089        -2.9193e-010   
  1.2             0.032131        -3.0219e-010   
  1.25            0.032159        -3.1248e-010   
  1.3             0.03218         -3.2006e-010   
  1.35            0.032202        -3.2787e-010   
  1.4             0.032217        -2.2635e-010   
  1.45            0.032224        -2.34e-010     
  1.5             0.032229        -2.4232e-010   
  1.55            0.032235        -2.5082e-010   
  1.6             0.03224         -2.6011e-010   
  1.65            0.032242        -2.6987e-010   
  1.7             0.032248        -2.7905e-010   
  1.75            0.032256        -2.8877e-010   
  1.8             0.032268        -2.9914e-010   
END_DB

BEGIN_DB
 ICCAP_VAR VG         1.8            
 ICCAP_VAR VS         0              
 ICCAP_VAR VB         0              

 #VD              ID              IG             
  0               -8.87e-006      -3.2196e-010   
  0.05            0.0025541       2.4528e-010    
  0.1             0.0051044       2.5379e-010    
  0.15            0.0076264       2.6104e-010    
  0.2             0.0101158       2.7039e-010    
  0.25            0.012582        -2.8719e-010   
  0.3             0.014989        -2.9886e-010   
  0.35            0.017347        -3.0852e-010   
  0.4             0.019644        -3.1739e-010   
  0.45            0.021879        -3.2571e-010   
  0.5             0.02405         -3.3157e-010   
  0.55            0.026147        -2.3002e-010   
  0.6             0.028169        -2.3845e-010   
  0.65            0.030104        -2.4766e-010   
  0.7             0.031957        -2.5791e-010   
  0.75            0.03371         -2.6764e-010   
  0.8             0.035357        -2.7936e-010   
  0.85            0.036905        -2.8911e-010   
  0.9             0.038374        -2.9926e-010   
  0.95            0.039716        -3.091e-010    
  1               0.040951        -3.1817e-010   
  1.05            0.042065        -3.26e-010     
  1.1             0.043141        -3.3173e-010   
  1.15            0.044044        -2.2976e-010   
  1.2             0.044786        -2.443e-010    
  1.25            0.04559         -2.4782e-010   
  1.3             0.0461          -2.5638e-010   
  1.35            0.046456        -2.6782e-010   
  1.4             0.046721        -2.7787e-010   
  1.45            0.046934        -2.8755e-010   
  1.5             0.047113        -2.9829e-010   
  1.55            0.047258        -3.0833e-010   
  1.6             0.047338        -3.1771e-010   
  1.65            0.047385        -3.2548e-010   
  1.7             0.047421        -3.3271e-010   
  1.75            0.047449        -3.3707e-010   
  1.8             0.047475        -2.3683e-010   
END_DB

