! VERSION = 6.00
BEGIN_HEADER
 ICCAP_INPUTS
  VG         V  B GROUND SMU4 0.001 LIN        1    0          1.8        37   0.05      
  VS         V  E GROUND SMU2 0.1 CON        0
  VB         V  C GROUND SMU3 0.1 LIN        3    0          -1.8       3    -0.9      
  VD         V  S GROUND SMU1 0.1 LIN        2    0.1        1.8        2    1.7       
 ICCAP_OUTPUTS
  IG         I  B GROUND SMU4 B
  ID         I  S GROUND SMU1 B
  IB         I  C GROUND SMU3 B
END_HEADER

BEGIN_DB
 ICCAP_VAR VS         0              
 ICCAP_VAR VB         0              
 ICCAP_VAR VD         0.1            

 #VG              IG              ID              IB             
  0               -1.3755e-009    -1.3265e-009    -8.877e-009    
  0.05            -1.3257e-009    -2.025e-009     1.1767e-008    
  0.1             1.344e-010      -1.9304e-009    -1.1865e-008   
  0.15            1.5504e-009     -1.0175e-009    -2.5831e-008   
  0.2             9.035e-010      2.4124e-009     -8.533e-009    
  0.25            -1.576e-009     1.8138e-009     1.3326e-008    
  0.3             -8.962e-010     -2.0689e-009    7.268e-009     
  0.35            1.7789e-009     -6.911e-010     -1.2948e-008   
  0.4             1.5283e-009     4.5633e-009     -8.632e-009    
  0.45            -1.3029e-009    1.5976e-008     -1.1766e-008   
  0.5             -2.3684e-009    5.72e-008       1.1901e-008    
  0.55            8.504e-010      1.647e-007      -1.4153e-008   
  0.6             1.2072e-009     4.0264e-007     9.012e-009     
  0.65            -1.3516e-009    8.5125e-007     2.7671e-008    
  0.7             -2.6995e-009    1.4502e-006     -2.3268e-008   
  0.75            -2.2052e-009    2.21e-006       8.96e-010      
  0.8             -1.6191e-009    3.0697e-006     2.237e-009     
  0.85            -1.3981e-009    3.9928e-006     6.797e-009     
  0.9             -1.3004e-009    4.9496e-006     1.1469e-008    
  0.95            -2.3641e-009    5.926e-006      1.1659e-008    
  1               -1.7177e-009    6.8947e-006     1.753e-009     
  1.05            -1.4212e-009    7.8696e-006     5.423e-009     
  1.1             -1.3211e-009    8.8321e-006     1.0752e-008    
  1.15            -2.4748e-009    9.7823e-006     1.1347e-008    
  1.2             -1.8369e-009    1.06896e-005    1.301e-009     
  1.25            1.2864e-009     1.1579e-005     2.637e-009     
  1.3             2.7628e-009     1.2451e-005     -1.1498e-008   
  1.35            5.825e-010      1.331e-005      1.1157e-008    
  1.4             -1.6921e-009    1.4125e-005     2.0625e-008    
  1.45            -1.4108e-009    1.4907e-005     6.015e-009     
  1.5             -1.3124e-009    1.566e-005      1.1105e-008    
  1.55            -2.4217e-009    1.6384e-005     1.1408e-008    
  1.6             -1.7832e-009    1.7062e-005     1.751e-009     
  1.65            -1.4387e-009    1.7721e-005     5.039e-009     
  1.7             -1.334e-009     1.8345e-005     1.0225e-008    
  1.75            -2.5389e-009    1.895e-005      1.1227e-008    
  1.8             -1.9089e-009    1.95e-005       1.057e-009     
END_DB

BEGIN_DB
 ICCAP_VAR VS         0              
 ICCAP_VAR VB         0              
 ICCAP_VAR VD         1.8            

 #VG              IG              ID              IB             
  0               8.467e-010      8.517e-010      -1.2066e-008   
  0.05            1.2757e-009     -1.5211e-009    -1.8312e-008   
  0.1             2.8932e-009     -1.339e-010     -1.2757e-008   
  0.15            -1.3263e-009    1.4945e-009     2.0874e-008    
  0.2             -2.692e-009     1.71e-010       1.1821e-008    
  0.25            -9.689e-010     -2.2212e-009    6.53e-010      
  0.3             2.0293e-009     -1.3325e-009    -9.586e-009    
  0.35            2.4359e-009     2.2455e-009     -7.986e-009    
  0.4             1.1899e-009     7.0956e-009     1.0833e-008    
  0.45            -2.7223e-009    1.8115e-008     -1.8754e-008   
  0.5             1.304e-009      6.5606e-008     -2.6648e-008   
  0.55            -1.5515e-009    1.9715e-007     2.5045e-008    
  0.6             -4.233e-010     5.1253e-007     -1.2119e-008   
  0.65            1.4692e-009     1.1434e-006     9.658e-009     
  0.7             1.291e-009      2.1654e-006     -9.357e-009    
  0.75            2.7889e-009     3.6187e-006     -1.2331e-008   
  0.8             5.502e-010      5.5873e-006     9.992e-009     
  0.85            -1.7153e-009    7.9662e-006     1.6142e-008    
  0.9             -1.4175e-009    1.0744e-005     4.452e-009     
  0.95            2.8679e-009     1.3896e-005     -1.2311e-008   
  1               2.8197e-009     1.7467e-005     -1.318e-009    
  1.05            5.143e-010      2.1446e-005     9.983e-009     
  1.1             -1.7543e-009    2.5718e-005     1.5581e-008    
  1.15            -1.4228e-009    3.024e-005      4.357e-009     
  1.2             -1.3331e-009    3.5065e-005     9.417e-009     
  1.25            -2.5272e-009    4.014e-005      1.0754e-008    
  1.3             -1.8739e-009    4.5348e-005     7.65e-010      
  1.35            -1.4519e-009    5.0811e-005     3.858e-009     
  1.4             -1.3516e-009    5.6425e-005     9.176e-009     
  1.45            -2.6145e-009    6.2192e-005     1.1018e-008    
  1.5             -2.0048e-009    6.8003e-005     5.43e-010      
  1.55            -1.4974e-009    7.3992e-005     3.399e-009     
  1.6             -1.3665e-009    8.0053e-005     8.277e-009     
  1.65            -2.6829e-009    8.6229e-005     1.1511e-008    
  1.7             -2.1526e-009    9.235e-005      5.65e-010      
  1.75            -1.5631e-009    9.8603e-005     2.786e-009     
  1.8             -1.38e-009      0.000104898     7.273e-009     
END_DB

BEGIN_DB
 ICCAP_VAR VS         0              
 ICCAP_VAR VB         -0.9           
 ICCAP_VAR VD         0.1            

 #VG              IG              ID              IB             
  0               1.8313e-009     2.1265e-009     1.003e-009     
  0.05            1.5866e-009     1.7197e-009     -8.859e-009    
  0.1             -1.16e-011      2.0124e-009     1.0488e-008    
  0.15            -1.4483e-009    1.0314e-009     2.7807e-008    
  0.2             -1.07e-009      -2.2322e-009    9.941e-009     
  0.25            1.5218e-009     -1.7621e-009    -1.1871e-008   
  0.3             9.242e-010      2.399e-009      -8.641e-009    
  0.35            -1.5486e-009    1.7932e-009     1.2854e-008    
  0.4             -9.203e-010     -2.2502e-009    8.027e-009     
  0.45            1.729e-009      -1.5082e-009    -1.2611e-008   
  0.5             2.5544e-009     1.9091e-009     -8.67e-009     
  0.55            3.335e-010      6.2743e-009     1.1224e-008    
  0.6             -1.758e-009     1.607e-008      -1.5467e-008   
  0.65            -1.4309e-009    6.0354e-008     5.197e-009     
  0.7             1.6138e-009     1.7249e-007     -2.607e-008    
  0.75            5.487e-010      4.1611e-007     1.1275e-008    
  0.8             9.436e-010      8.1443e-007     9.798e-009     
  0.85            -1.4195e-009    1.4142e-006     -1.1863e-008   
  0.9             -1.3262e-009    2.1603e-006     1.0653e-008    
  0.95            -2.4992e-009    3.0092e-006     1.1213e-008    
  1               -1.8501e-009    3.9065e-006     1.406e-009     
  1.05            -1.4556e-009    4.8494e-006     4.368e-009     
  1.1             -1.3457e-009    5.8091e-006     9.771e-009     
  1.15            -2.5918e-009    6.7688e-006     1.132e-008     
  1.2             -1.9768e-009    7.7068e-006     6.27e-010      
  1.25            -1.4977e-009    8.6449e-006     3.604e-009     
  1.3             -1.3661e-009    9.5589e-006     8.871e-009     
  1.35            -2.668e-009     1.04492e-005    1.1723e-008    
  1.4             -2.1259e-009    1.13014e-005    6.52e-010      
  1.45            1.6268e-009     1.2114e-005     -2.234e-008    
  1.5             5.596e-010      1.2941e-005     1.1283e-008    
  1.55            -1.699e-009     1.3714e-005     2.11e-008      
  1.6             -1.4152e-009    1.4448e-005     5.694e-009     
  1.65            -1.3184e-009    1.5157e-005     1.082e-008     
  1.7             -2.4562e-009    1.5831e-005     1.1559e-008    
  1.75            -1.8007e-009    1.6463e-005     1.499e-009     
  1.8             -1.4408e-009    1.7073e-005     4.872e-009     
END_DB

BEGIN_DB
 ICCAP_VAR VS         0              
 ICCAP_VAR VB         -0.9           
 ICCAP_VAR VD         1.8            

 #VG              IG              ID              IB             
  0               2.5515e-009     2.3973e-009     -1.4785e-008   
  0.05            1.1617e-009     2.2562e-009     -3.195e-009    
  0.1             -1.4068e-009    1.1265e-009     2.8487e-008    
  0.15            -1.1713e-009    -2.1785e-009    1.0745e-008    
  0.2             2.833e-010      -1.8259e-009    -1.1554e-008   
  0.25            1.7339e-009     -9.061e-010     -2.3256e-008   
  0.3             1.6681e-009     1.6234e-009     -8.815e-009    
  0.35            3.298e-010      2.2061e-009     1.1445e-008    
  0.4             5.458e-010      2.3428e-009     1.0835e-008    
  0.45            7.376e-010      2.6045e-009     9.753e-009     
  0.5             -1.7994e-009    2.8341e-009     1.6534e-008    
  0.55            -1.5678e-009    5.2358e-009     5.146e-009     
  0.6             2.904e-009      2.3289e-008     1.1379e-008    
  0.65            -1.7807e-009    7.8973e-008     2.3007e-008    
  0.7             7.771e-010      2.247e-007      -1.3992e-008   
  0.75            -1.4983e-009    5.6272e-007     1.5193e-008    
  0.8             2.8356e-009     1.1783e-006     2.6749e-008    
  0.85            2.0325e-009     2.191e-006      9.837e-009     
  0.9             -1.3795e-009    3.699e-006      2.6959e-008    
  0.95            -2.7211e-009    5.6332e-006     1.0716e-008    
  1               -1.3497e-009    8.0572e-006     -1.0576e-008   
  1.05            -1.681e-010     1.08152e-005    -1.2645e-008   
  1.1             1.3541e-009     1.4018e-005     -2.7611e-008   
  1.15            -1.3236e-009    1.783e-005      2.561e-008     
  1.2             -2.4439e-009    2.1849e-005     1.1013e-008    
  1.25            -7.797e-010     2.6106e-005     -1.2395e-008   
  1.3             -1.1453e-009    3.0807e-005     -1.0018e-008   
  1.35            8.92e-011       3.5548e-005     -1.1985e-008   
  1.4             -4.452e-010     4.0693e-005     -1.2269e-008   
  1.45            -9.029e-010     4.6046e-005     -1.1457e-008   
  1.5             1.4633e-009     5.1433e-005     -1.2811e-008   
  1.55            1.2946e-009     5.7076e-005     -8.495e-009    
  1.6             2.8121e-009     6.2792e-005     -1.1185e-008   
  1.65            5.35e-010       6.8833e-005     1.1262e-008    
  1.7             9.393e-010      7.4691e-005     9.828e-009     
  1.75            -2.065e-010     8.0825e-005     1.2216e-008    
  1.8             -1.4302e-009    8.6963e-005     2.4846e-008    
END_DB

BEGIN_DB
 ICCAP_VAR VS         0              
 ICCAP_VAR VB         -1.8           
 ICCAP_VAR VD         0.1            

 #VG              IG              ID              IB             
  0               -5.703e-010     -7.024e-010     -2.3449e-008   
  0.05            -2.2088e-009    5.575e-010      1.6229e-008    
  0.1             -1.3576e-009    -2.0038e-009    2.353e-009     
  0.15            1.3352e-009     -1.2982e-009    -2.5134e-008   
  0.2             1.1771e-009     2.2302e-009     -8.849e-009    
  0.25            -1.4019e-009    1.1388e-009     2.8255e-008    
  0.3             -1.1853e-009    -2.155e-009     1.09e-008      
  0.35            2.614e-010      -1.8367e-009    -1.1596e-008   
  0.4             1.7104e-009     -9.213e-010     -2.3758e-008   
  0.45            1.6969e-009     1.609e-009      -8.779e-009    
  0.5             3.493e-010      2.2389e-009     1.131e-008     
  0.55            5.66e-010       2.4825e-009     1.0515e-008    
  0.6             -1.3277e-009    2.4606e-009     2.1356e-008    
  0.65            -2.6953e-009    5.1295e-009     1.153e-008     
  0.7             2.3589e-009     2.0572e-008     9.097e-009     
  0.75            1.6304e-009     7.0837e-008     -4.948e-009    
  0.8             -1.5808e-009    1.9106e-007     2.5321e-008    
  0.85            -4.502e-010     4.1189e-007     -1.1855e-008   
  0.9             -9.041e-010     7.8403e-007     -1.1114e-008   
  0.95            2.8267e-009     1.3235e-006     2.526e-008     
  1               1.3883e-009     2.0068e-006     1.0381e-008    
  1.05            -1.3147e-009    2.855e-006      2.5987e-008    
  1.1             -2.4073e-009    3.7396e-006     1.2027e-008    
  1.15            -1.7455e-009    4.6566e-006     1.874e-009     
  1.2             -1.4154e-009    5.598e-006      5.502e-009     
  1.25            -1.3301e-009    6.5442e-006     1.0356e-008    
  1.3             -2.5149e-009    7.4812e-006     1.1314e-008    
  1.35            -1.8719e-009    8.3839e-006     1.254e-009     
  1.4             -1.448e-009     9.28e-006       4.511e-009     
  1.45            -1.3483e-009    1.01458e-005    9.682e-009     
  1.5             -2.6023e-009    1.09902e-005    1.1406e-008    
  1.55            1.3968e-009     1.177e-005      -2.6548e-008   
  1.6             -1.3107e-009    1.258e-005      2.5695e-008    
  1.65            -2.3924e-009    1.3322e-005     1.193e-008     
  1.7             -1.7377e-009    1.4024e-005     1.991e-009     
  1.75            -1.4146e-009    1.4706e-005     5.581e-009     
  1.8             -1.3265e-009    1.535e-005      1.0512e-008    
END_DB

BEGIN_DB
 ICCAP_VAR VS         0              
 ICCAP_VAR VB         -1.8           
 ICCAP_VAR VD         1.8            

 #VG              IG              ID              IB             
  0               -9.511e-010     -9.018e-010     -2.3569e-008   
  0.05            -1.3145e-009    1.95e-011       1.1398e-008    
  0.1             -2.6672e-009    1.978e-010      1.1952e-008    
  0.15            -1.0034e-009    -2.2698e-009    6.75e-010      
  0.2             1.5837e-009     -1.7223e-009    -1.1684e-008   
  0.25            8.665e-010      2.3953e-009     -8.335e-009    
  0.3             -1.596e-009     1.7396e-009     1.3331e-008    
  0.35            -1.7614e-009    -1.4755e-009    6.936e-009     
  0.4             -4.188e-010     -2.1859e-009    -1.1833e-008   
  0.45            -6.519e-010     -2.2447e-009    -1.0754e-008   
  0.5             1.2702e-009     -1.4942e-009    -1.7786e-008   
  0.55            2.3746e-009     1.3695e-009     -1.3384e-008   
  0.6             -1.3432e-009    2.8543e-009     2.3067e-008    
  0.65            -1.2956e-009    7.0371e-009     1.1323e-008    
  0.7             -9.215e-010     2.5177e-008     -2.93e-010     
  0.75            3.17e-010       8.913e-008      -1.2385e-008   
  0.8             -2.2554e-009    2.5131e-007     1.5934e-008    
  0.85            -2.357e-010     5.7963e-007     -1.2131e-008   
  0.9             1.5947e-009     1.1735e-006     1.0608e-008    
  0.95            1.3244e-009     2.1234e-006     -8.723e-009    
  1               2.8907e-009     3.51e-006       -9.875e-009    
  1.05            -1.667e-009     5.44e-006       2.0055e-008    
  1.1             -1.3995e-009    7.7801e-006     5.271e-009     
  1.15            -1.3157e-009    1.05967e-005    1.0317e-008    
  1.2             2.5256e-009     1.378e-005      -1.249e-008    
  1.25            5.606e-010      1.7467e-005     1.0895e-008    
  1.3             9.58e-010       2.1387e-005     9.14e-009      
  1.35            -1.831e-010     2.5796e-005     1.1733e-008    
  1.4             -1.4198e-009    3.0456e-005     2.5342e-008    
  1.45            -1.3331e-009    3.5322e-005     1.0009e-008    
  1.5             -2.5147e-009    4.0447e-005     1.1202e-008    
  1.55            -1.8546e-009    4.5704e-005     1.342e-009     
  1.6             -1.4416e-009    5.1177e-005     4.173e-009     
  1.65            -1.3464e-009    5.6818e-005     9.342e-009     
  1.7             -2.6084e-009    6.2573e-005     1.1274e-008    
  1.75            -1.991e-009     6.8344e-005     6.57e-010      
  1.8             -1.4874e-009    7.429e-005      3.675e-009     
END_DB

