! VERSION = 6.00
BEGIN_HEADER
 ICCAP_INPUTS
  VG         V  B GROUND SMU4 0.001 LIN        2    0          1.8        6    0.36      
  VS         V  E GROUND SMU2 0.1 CON        0
  VD         V  S GROUND SMU1 0.1 LIN        1    0          1.8        37   0.05      
  VB         V  C GROUND SMU3 0.1 LIN        3    0          -0.9       2    -0.9      
 ICCAP_OUTPUTS
  ID         I  S GROUND SMU1 B
  IB         I  C GROUND SMU3 B
  IG         I  B GROUND SMU4 B
END_HEADER

BEGIN_DB
 ICCAP_VAR VG         0              
 ICCAP_VAR VS         0              
 ICCAP_VAR VB         0              

 #VD              ID              IB              IG             
  0               1.6801e-009     4.119e-009      1.4351e-009    
  0.05            2.3313e-009     -8.489e-009     9.443e-010     
  0.1             1.7587e-009     1.2748e-008     -1.5297e-009   
  0.15            -1.4017e-009    8.057e-009      -1.7793e-009   
  0.2             -2.1436e-009    -1.1083e-008    -4.418e-010    
  0.25            -2.1888e-009    -1.1243e-008    -6.439e-010    
  0.3             -2.2021e-009    -1.0826e-008    -8.167e-010    
  0.35            -2.1815e-009    -1.0214e-008    -9.624e-010    
  0.4             -1.6276e-009    -1.2847e-008    1.6651e-009    
  0.45            1.5888e-009     -8.832e-009     1.6739e-009    
  0.5             2.1742e-009     1.0578e-008     3.289e-010     
  0.55            2.2617e-009     1.0491e-008     5.145e-010     
  0.6             1.4144e-009     2.3651e-008     -1.291e-009    
  0.65            9.72e-011       1.0856e-008     -2.67e-009     
  0.7             -1.9781e-009    -1.0748e-008    -2.31e-011     
  0.75            -2.0818e-009    -1.0959e-008    -2.288e-010    
  0.8             -2.1456e-009    -1.1139e-008    -4.424e-010    
  0.85            -2.192e-009     -1.0951e-008    -6.466e-010    
  0.9             -1.4903e-009    -1.8836e-008    1.232e-009     
  0.95            -1.224e-010     -1.2638e-008    2.8281e-009    
  1               2.0484e-009     1.0109e-008     9.96e-011      
  1.05            2.1484e-009     1.0514e-008     2.77e-010      
  1.1             2.2394e-009     1.0567e-008     4.597e-010     
  1.15            5.534e-010      1.6599e-008     -2.2053e-009   
  1.2             -1.975e-009     2.851e-009      -1.3245e-009   
  1.25            -1.8564e-009    -1.1e-008       1.33e-010      
  1.3             -1.9823e-009    -1.0748e-008    -1.64e-011     
  1.35            -2.0836e-009    -1.095e-008     -2.198e-010    
  1.4             -2.1484e-009    -1.1127e-008    -4.421e-010    
  1.45            -2.1954e-009    -1.0946e-008    -6.532e-010    
  1.5             -1.4933e-009    -1.8855e-008    1.2298e-009    
  1.55            -1.189e-010     -1.2661e-008    2.8258e-009    
  1.6             2.0481e-009     1.016e-008      9.76e-011      
  1.65            2.1495e-009     1.0534e-008     2.846e-010     
  1.7             2.2435e-009     1.0764e-008     4.647e-010     
  1.75            2.3132e-009     1.0731e-008     6.455e-010     
  1.8             2.3397e-009     1.0122e-008     8.092e-010     
END_DB

BEGIN_DB
 ICCAP_VAR VG         0.36           
 ICCAP_VAR VS         0              
 ICCAP_VAR VB         0              

 #VD              ID              IB              IG             
  0               -6.068e-010     -2.5032e-008    -6.2e-010      
  0.05            4.1206e-009     1.4329e-008     -1.6406e-009   
  0.1             2.5151e-009     6.421e-009      -1.4761e-009   
  0.15            2.7955e-009     8.696e-009      -1.3862e-009   
  0.2             3.0066e-009     9.964e-009      -1.3352e-009   
  0.25            3.2363e-009     1.0851e-008     -1.3013e-009   
  0.3             3.4859e-009     1.0752e-008     -1.2745e-009   
  0.35            3.7147e-009     1.1718e-008     -2.6306e-009   
  0.4             2.6655e-009     6.23e-010       -2.4866e-009   
  0.45            2.8533e-009     1.367e-009      -2.2756e-009   
  0.5             1.4814e-009     -1.1019e-008    -5.688e-010    
  0.55            1.5581e-009     -1.0788e-008    -7.639e-010    
  0.6             1.6681e-009     -1.0271e-008    -9.095e-010    
  0.65            2.3503e-009     -1.3539e-008    1.7603e-009    
  0.7             4.4708e-009     -9.102e-009     1.5184e-009    
  0.75            4.4805e-009     -8.394e-009     1.3728e-009    
  0.8             4.4698e-009     -8.297e-009     1.2915e-009    
  0.85            4.469e-009      -8.451e-009     1.2498e-009    
  0.9             4.4606e-009     -1.042e-008     2.8527e-009    
  0.95            5.332e-009      -1.13e-010      2.8082e-009    
  1               6.637e-009      1.0142e-008     1.34e-010      
  1.05            6.8053e-009     1.0619e-008     3.169e-010     
  1.1             6.9674e-009     1.0539e-008     5.004e-010     
  1.15            6.4747e-009     2.3944e-008     -1.2961e-009   
  1.2             5.402e-009      1.0914e-008     -2.6819e-009   
  1.25            3.2342e-009     -1.0837e-008    6.2e-012       
  1.3             3.2349e-009     -1.0941e-008    -2.091e-010    
  1.35            3.3131e-009     -1.1274e-008    -4.165e-010    
  1.4             3.3981e-009     -1.138e-008     -6.231e-010    
  1.45            3.5029e-009     -1.0914e-008    -8.047e-010    
  1.5             3.6618e-009     -1.03e-008      -9.472e-010    
  1.55            4.3338e-009     -1.2942e-008    1.6941e-009    
  1.6             6.4568e-009     -8.91e-009      1.4741e-009    
  1.65            6.5144e-009     -8.286e-009     1.3431e-009    
  1.7             6.541e-009      -8.141e-009     1.2755e-009    
  1.75            6.5652e-009     -8.783e-009     1.2419e-009    
  1.8             6.6325e-009     -1.1125e-008    2.8488e-009    
END_DB

BEGIN_DB
 ICCAP_VAR VG         0.72           
 ICCAP_VAR VS         0              
 ICCAP_VAR VB         0              

 #VD              ID              IB              IG             
  0               -4.459e-008     -1.2135e-008    -2.499e-010    
  0.05            1.8698e-005     2.482e-008      -1.1811e-009   
  0.1             2.6467e-005     1.0962e-008     -2.5705e-009   
  0.15            2.9524e-005     1.0358e-008     2.1e-010       
  0.2             3.065e-005      -1.8556e-008    1.8573e-009    
  0.25            3.1965e-005     -1.0751e-008    -9.212e-010    
  0.3             3.3419e-005     2.7648e-008     -1.3242e-009   
  0.35            3.3887e-005     1.0274e-008     4.098e-010     
  0.4             3.4192e-005     -2.1019e-008    1.5755e-009    
  0.45            3.4988e-005     -2.6094e-008    1.2593e-009    
  0.5             3.5679e-005     -1.1049e-008    -5.268e-010    
  0.55            3.7222e-005     2.2315e-008     -1.4707e-009   
  0.6             3.6709e-005     9.877e-009      1.06e-009      
  0.65            3.748e-005      -1.0122e-008    2.7883e-009    
  0.7             3.8427e-005     -1.1011e-008    -1.697e-010    
  0.75            3.9857e-005     1.761e-008      -1.7868e-009   
  0.8             3.9739e-005     1.0739e-008     8.174e-010     
  0.85            4.0323e-005     -2.5961e-008    1.2852e-009    
  0.9             4.0991e-005     -1.0785e-008    -4.106e-010    
  0.95            4.2492e-005     2.0428e-008     -1.5583e-009   
  1               4.2124e-005     1.0306e-008     9.81e-010      
  1.05            4.3037e-005     -2.5223e-008    1.2445e-009    
  1.1             4.3737e-005     -1.1209e-008    -6.355e-010    
  1.15            4.5234e-005     2.3865e-008     -1.4182e-009   
  1.2             4.5754e-005     1.5957e-008     -1.8965e-009   
  1.25            4.5646e-005     1.0346e-008     7.514e-010     
  1.3             4.6147e-005     -2.5591e-008    1.3136e-009    
  1.35            4.7799e-005     -1.1598e-008    -1.4147e-009   
  1.4             4.8496e-005     1.1244e-008     -2.3297e-009   
  1.45            4.781e-005      8.206e-009      1.9532e-009    
  1.5             4.8779e-005     -1.4353e-008    -6.54e-011     
  1.55            5.0424e-005     1.1095e-008     -1.906e-009    
  1.6             5.1174e-005     3.005e-009      -2.52e-009     
  1.65            5.1755e-005     5.25e-009       -1.8364e-009   
  1.7             5.143e-005      -7.091e-009     2.2207e-009    
  1.75            5.2124e-005     -3.4172e-008    -4.889e-010    
  1.8             5.3818e-005     -1.0163e-008    -1.5037e-009   
END_DB

BEGIN_DB
 ICCAP_VAR VG         1.08           
 ICCAP_VAR VS         0              
 ICCAP_VAR VB         0              

 #VD              ID              IB              IG             
  0               9.1198e-007     -1.0857e-008    1.0028e-009    
  0.05            0.00017223      -1.4397e-008    -9.12e-011     
  0.1             0.00031374      1.3069e-008     -2.222e-009    
  0.15            0.00042123      1.0219e-008     2.735e-010     
  0.2             0.00049631      -1.63e-008      2.1687e-009    
  0.25            0.0005493       -1.0814e-008    -4.825e-010    
  0.3             0.00058561      1.7645e-008     -1.7582e-009   
  0.35            0.00060844      1.0569e-008     6.056e-010     
  0.4             0.00062229      -2.0125e-008    1.655e-009     
  0.45            0.0006356       -1.1055e-008    -8.298e-010    
  0.5             0.00064655      2.316e-008      -1.4484e-009   
  0.55            0.00065228      1.0556e-008     9.004e-010     
  0.6             0.00065859      -2.48e-008      1.3491e-009    
  0.65            0.00066843      -1.0595e-008    -1.1027e-009   
  0.7             0.00067425      2.7481e-008     -1.3305e-009   
  0.75            0.00068046      1.6233e-008     -1.8641e-009   
  0.8             0.00068244      1.0692e-008     2.0187e-009    
  0.85            0.00068751      -1.1617e-008    1.094e-010     
  0.9             0.00069734      1.1359e-008     -2.4683e-009   
  0.95            0.00070104      1.0622e-008     6.38e-011      
  1               0.00070181      -1.4385e-008    2.477e-009     
  1.05            0.0007081       -1.0862e-008    -2.396e-010    
  1.1             0.00071627      1.4364e-008     -2.047e-009    
  1.15            0.00071645      1.079e-008      1.9072e-009    
  1.2             0.00072103      -1.2416e-008    2.107e-010     
  1.25            0.00073059      1.0424e-008     -2.5826e-009   
  1.3             0.00073414      2.6354e-008     -1.3384e-009   
  1.35            0.0007388       1.4458e-008     -1.9016e-009   
  1.4             0.00073929      7.412e-009      1.996e-009     
  1.45            0.0007433       -1.6702e-008    1.304e-010     
  1.5             0.00075213      2.102e-009      -2.4971e-009   
  1.55            0.00075563      -2.242e-009     -2.1684e-009   
  1.6             0.00075493      -1.4922e-008    1.8344e-009    
  1.65            0.00076002      -5.4436e-008    2.751e-010     
  1.7             0.00076826      -5.3733e-008    -2.6318e-009   
  1.75            0.00076627      -8.6357e-008    1.3919e-009    
  1.8             0.00077429      -1.223e-007     -6.836e-010    
END_DB

BEGIN_DB
 ICCAP_VAR VG         1.44           
 ICCAP_VAR VS         0              
 ICCAP_VAR VB         0              

 #VD              ID              IB              IG             
  0               -1.2191e-007    9.561e-009      -6.913e-010    
  0.05            0.00029983      2.0994e-008     6.884e-010     
  0.1             0.00057285      -2.1218e-008    1.5489e-009    
  0.15            0.00081409      -1.079e-008     -9.054e-010    
  0.2             0.00101858      2.4794e-008     -1.4052e-009   
  0.25            0.0011871       -8.662e-009     -2.4728e-009   
  0.3             0.00132         1.0684e-008     4.9e-011       
  0.35            0.0014206       -1.4288e-008    2.4871e-009    
  0.4             0.0015002       -1.0924e-008    -2.235e-010    
  0.45            0.0015622       1.4263e-008     -2.054e-009    
  0.5             0.0016022       1.0898e-008     1.8933e-009    
  0.55            0.0016356       -1.2326e-008    2.225e-010     
  0.6             0.0016651       1.0974e-008     -2.5839e-009   
  0.65            0.0016845       1.1375e-008     -6.6e-011      
  0.7             0.0016965       -1.2893e-008    2.6505e-009    
  0.75            0.0017115       -1.1102e-008    -7.17e-011     
  0.8             0.0017288       1.286e-008      -2.2392e-009   
  0.85            0.001739        1.0241e-008     2.442e-010     
  0.9             0.0017455       -1.6113e-008    2.2024e-009    
  0.95            0.001756        -1.0815e-008    -4.619e-010    
  1               0.0017675       1.7416e-008     -1.7868e-009   
  1.05            0.0017754       1.0599e-008     5.85e-010      
  1.1             0.001781        -1.9848e-008    1.6824e-009    
  1.15            0.001791        -1.1185e-008    -8.157e-010    
  1.2             0.0018006       2.2697e-008     -1.4638e-009   
  1.25            0.0018091       2.6295e-008     -1.3468e-009   
  1.3             0.0018158       1.4416e-008     -1.9741e-009   
  1.35            0.0018185       9.184e-009      1.9484e-009    
  1.4             0.0018252       -1.3725e-008    1.672e-010     
  1.45            0.0018374       7.394e-009      -2.5402e-009   
  1.5             0.0018435       6.5e-009        -2.2255e-009   
  1.55            0.0018506       5.113e-009      -1.8307e-009   
  1.6             0.0018524       -9.712e-009     2.0364e-009    
  1.65            0.0018583       -4.4235e-008    8.83e-011      
  1.7             0.0018699       -4.1461e-008    -2.4442e-009   
  1.75            0.0018687       -7.1667e-008    1.6167e-009    
  1.8             0.0018791       -1.2214e-007    1.2023e-009    
END_DB

BEGIN_DB
 ICCAP_VAR VG         1.8            
 ICCAP_VAR VS         0              
 ICCAP_VAR VB         0              

 #VD              ID              IB              IG             
  0               -1.2413e-007    2.3431e-008     -1.4857e-009   
  0.05            0.00037766      -1.0827e-008    -2.2252e-009   
  0.1             0.00073574      1.0185e-008     3.02e-010      
  0.15            0.00106659      -1.681e-008     2.127e-009     
  0.2             0.0013653       4e-009          1.3148e-009    
  0.25            0.0016306       -1.0307e-008    -1.146e-009    
  0.3             0.0018593       2.78e-008       -1.3185e-009   
  0.35            0.0020519       9.622e-009      1.2076e-009    
  0.4             0.0022154       -2.5067e-008    1.2402e-009    
  0.45            0.0023503       -1.0765e-008    -3.661e-010    
  0.5             0.002462        1.6034e-008     -1.9e-009      
  0.55            0.002547        1.0718e-008     1.996e-009     
  0.6             0.002617        -1.1606e-008    1.243e-010     
  0.65            0.0026771       1.1069e-008     -2.4959e-009   
  0.7             0.0027209       1.0624e-008     3.81e-011      
  0.75            0.0027524       -1.4248e-008    2.5173e-009    
  0.8             0.0027825       -1.6772e-008    2.0965e-009    
  0.85            0.0028078       -1.1006e-008    -5.414e-010    
  0.9             0.0028303       1.8214e-008     -1.7013e-009   
  0.95            0.0028471       1.0688e-008     6.532e-010     
  1               0.0028605       -2.0558e-008    1.5925e-009    
  1.05            0.0028764       -1.1376e-008    -8.679e-010    
  1.1             0.0028913       2.3692e-008     -1.4226e-009   
  1.15            0.0029002       1.0368e-008     9.345e-010     
  1.2             0.0029107       -2.4992e-008    1.3239e-009    
  1.25            0.0029259       -1.0453e-008    -1.1383e-009   
  1.3             0.0029355       2.7541e-008     -1.3196e-009   
  1.35            0.0029455       1.6399e-008     -1.805e-009    
  1.4             0.0029541       1.8997e-008     -1.6188e-009   
  1.45            0.0029648       8.89e-009       -2.5469e-009   
  1.5             0.0029729       9.392e-009      -2.2388e-009   
  1.55            0.0029813       1.0131e-008     -1.8435e-009   
  1.6             0.0029895       -2.75e-010      -2.6522e-009   
  1.65            0.0029914       -9.105e-009     1.3367e-009    
  1.7             0.0030022       -5.3901e-008    2.11e-009      
  1.75            0.0030122       -6.1461e-008    -1.9092e-009   
  1.8             0.0030198       -6.7565e-008    -1.254e-010    
END_DB

BEGIN_DB
 ICCAP_VAR VG         0              
 ICCAP_VAR VS         0              
 ICCAP_VAR VB         -0.9           

 #VD              ID              IB              IG             
  0               1.0698e-009     1.0706e-008     1.1841e-009    
  0.05            -4.777e-010     -1.6479e-008    2.5529e-009    
  0.1             2.3248e-009     7.606e-009      7.248e-010     
  0.15            1.5793e-009     1.797e-008      -1.8295e-009   
  0.2             -1.6955e-009    5.029e-009      -1.5729e-009   
  0.25            -2.0382e-009    -1.0752e-008    -1.274e-010    
  0.3             -2.1188e-009    -1.1216e-008    -3.391e-010    
  0.35            -2.1704e-009    -1.1366e-008    -5.454e-010    
  0.4             -2.203e-009     -1.0634e-008    -7.544e-010    
  0.45            -1.532e-009     -1.6643e-008    2.0643e-009    
  0.5             1.9228e-009     -7.935e-009     1.4297e-009    
  0.55            6.188e-010      1.7576e-008     -2.1006e-009   
  0.6             -1.8989e-009    3.34e-009       -1.4017e-009   
  0.65            -1.2854e-009    -2.496e-008     1.2828e-009    
  0.7             2.1895e-009     -8.522e-009     1.1801e-009    
  0.75            3.895e-010      1.3776e-008     -2.4374e-009   
  0.8             -2.1098e-009    1.578e-009      -1.1462e-009   
  0.85            -1.7304e-009    -1.1551e-008    2.832e-010     
  0.9             -8.399e-010     -2.1677e-008    1.8265e-009    
  0.95            1.7324e-009     -9.092e-009     1.5757e-009    
  1               1.4812e-009     1.0704e-008     1.7467e-009    
  1.05            2.2126e-009     1.0737e-008     4.096e-010     
  1.1             2.2918e-009     1.0698e-008     5.951e-010     
  1.15            2.3343e-009     1.0163e-008     7.646e-010     
  1.2             1.6125e-009     1.6926e-008     -1.7697e-009   
  1.25            -1.6462e-009    5.446e-009      -1.6131e-009   
  1.3             -2.0634e-009    -1.0813e-008    -1.795e-010    
  1.35            -2.132e-009     -1.1183e-008    -3.967e-010    
  1.4             -2.182e-009     -1.137e-008     -6.074e-010    
  1.45            -2.2004e-009    -1.0859e-008    -7.946e-010    
  1.5             -1.55e-009      -1.5567e-008    1.9883e-009    
  1.55            1.866e-009      -8.626e-009     1.4806e-009    
  1.6             1.609e-009      1.089e-008      1.6541e-009    
  1.65            2.1602e-009     1.0561e-008     3.061e-010     
  1.7             2.2512e-009     1.0787e-008     4.939e-010     
  1.75            1.3985e-009     2.4159e-008     -1.2929e-009   
  1.8             8.29e-011       1.0802e-008     -2.6762e-009   
END_DB

BEGIN_DB
 ICCAP_VAR VG         0.36           
 ICCAP_VAR VS         0              
 ICCAP_VAR VB         -0.9           

 #VD              ID              IB              IG             
  0               -7.722e-010     -2.608e-008     -7.151e-010    
  0.05            1.5752e-009     1.827e-008      -1.8551e-009   
  0.1             -1.7061e-009    4.985e-009      -1.5622e-009   
  0.15            -2.0213e-009    -1.0804e-008    -1.134e-010    
  0.2             -2.1026e-009    -1.1196e-008    -3.261e-010    
  0.25            -2.1543e-009    -1.1058e-008    -5.429e-010    
  0.3             -2.1879e-009    -1.0707e-008    -7.509e-010    
  0.35            -2.183e-009     -1.0168e-008    -9.02e-010     
  0.4             -1.5872e-009    -1.3495e-008    1.7672e-009    
  0.45            1.6898e-009     -8.977e-009     1.6125e-009    
  0.5             1.4442e-009     9.972e-009      1.793e-009     
  0.55            2.2539e-009     1.0503e-008     4.676e-010     
