! VERSION = 6.00
BEGIN_HEADER
 ICCAP_INPUTS
  VG         V  B GROUND SMU4 0.001 LIN        1    0          1.8        37   0.05      
  VS         V  E GROUND SMU2 0.1 CON        0
  VD         V  S GROUND SMU1 0.1 LIN        2    0.1        1.8        2    1.7       
  VB         V  C GROUND SMU3 0.1 CON        0
 ICCAP_OUTPUTS
  IG         I  B GROUND SMU4 B
  ID         I  S GROUND SMU1 B
END_HEADER

BEGIN_DB
 ICCAP_VAR VS         0              
 ICCAP_VAR VD         0.1            
 ICCAP_VAR VB         0              

 #VG              IG              ID             
  0               -3.3726e-010    6.873e-007     
  0.05            2.6949e-010     7.7649e-007    
  0.1             -2.3957e-010    8.8119e-007    
  0.15            2.1798e-010     1.00474e-006   
  0.2             -1.007e-010     1.1522e-006    
  0.25            1.8983e-010     1.3298e-006    
  0.3             -3.2995e-010    1.5558e-006    
  0.35            2.9428e-010     1.9005e-006    
  0.4             -2.4978e-010    2.633e-006     
  0.45            2.2575e-010     4.8503e-006    
  0.5             3.4046e-010     1.2711e-005    
  0.55            -2.4178e-010    3.9571e-005    
  0.6             3.3526e-010     0.00011928     
  0.65            -2.7601e-010    0.00030722     
  0.7             2.4563e-010     0.00064717     
  0.75            -2.1179e-010    0.00112071     
  0.8             3.1409e-010     0.0016414      
  0.85            -2.0009e-010    0.0021048      
  0.9             2.8252e-010     0.002457       
  0.95            -2.5191e-010    0.0027042      
  1               2.1879e-010     0.0028747      
  1.05            -3.0646e-010    0.0029941      
  1.1             3.3419e-010     0.0030809      
  1.15            -2.8087e-010    0.0031455      
  1.2             2.4973e-010     0.003195       
  1.25            -2.18e-010      0.0032344      
  1.3             3.0228e-010     0.0032655      
  1.35            -3.3501e-010    0.0032911      
  1.4             2.778e-010      0.0033125      
  1.45            -2.4641e-010    0.0033305      
  1.5             2.252e-010      0.0033455      
  1.55            -1.9699e-010    0.0033581      
  1.6             2.8174e-010     0.0033691      
  1.65            -2.4707e-010    0.0033789      
  1.7             2.1961e-010     0.0033877      
  1.75            -2.9933e-010    0.0033952      
  1.8             3.3867e-010     0.0034022      
END_DB

BEGIN_DB
 ICCAP_VAR VS         0              
 ICCAP_VAR VD         1.8            
 ICCAP_VAR VB         0              

 #VG              IG              ID             
  0               1.454e-010      4.63e-006      
  0.05            -2.9075e-010    5.2662e-006    
  0.1             2.2084e-010     5.9805e-006    
  0.15            -1.9516e-010    6.7814e-006    
  0.2             2.7619e-010     7.675e-006     
  0.25            -2.4484e-010    8.6855e-006    
  0.3             2.2169e-010     9.8738e-006    
  0.35            -2.438e-011     1.1528e-005    
  0.4             9.515e-011      1.4781e-005    
  0.45            -1.7503e-010    2.4169e-005    
  0.5             3.2168e-010     5.5255e-005    
  0.55            -2.5047e-010    0.00014984     
  0.6             -3.2583e-010    0.0014588      
  0.65            2.9897e-010     0.0018667      
  0.7             -3.3842e-010    0.0024482      
  0.75            2.6971e-010     0.0031913      
  0.8             -2.4545e-010    0.0040724      
  0.85            2.1854e-010     0.0050388      
  0.9             -1.8272e-010    0.0060693      
  0.95            2.6353e-010     0.0071658      
  1               -2.3177e-010    0.0083276      
  1.05            2.1457e-010     0.0095508      
  1.1             -2.9382e-010    0.0108301      
  1.15            2.5227e-010     0.012114       
  1.2             -2.2275e-010    0.013505       
  1.25            1.9226e-010     0.014947       
  1.3             -2.6889e-010    0.016426       
  1.35            2.4225e-010     0.017937       
  1.4             -2.169e-010     0.019466       
  1.45            3.065e-010      0.020993       
  1.5             -3.3411e-010    0.022525       
  1.55            2.8143e-010     0.02406        
  1.6             -2.4771e-010    0.025578       
  1.65            2.1575e-010     0.027108       
  1.7             -3.014e-010     0.028679       
  1.75            3.3455e-010     0.030263       
  1.8             -2.7627e-010    0.031904       
END_DB

