! VERSION = 6.00
BEGIN_HEADER
 ICCAP_INPUTS
  VG         V  B GROUND SMU4 0.001 LIN        1    0          1.8        37   0.05      
  VS         V  E GROUND SMU2 0.1 CON        0
  VB         V  C GROUND SMU3 0.1 LIN        3    0          -1.8       3    -0.9      
  VD         V  S GROUND SMU1 0.1 LIN        2    0.1        1.8        2    1.7       
 ICCAP_OUTPUTS
  IG         I  B GROUND SMU4 B
  ID         I  S GROUND SMU1 B
  IB         I  C GROUND SMU3 B
END_HEADER

BEGIN_DB
 ICCAP_VAR VS         0              
 ICCAP_VAR VB         0              
 ICCAP_VAR VD         0.1            

 #VG              IG              ID              IB             
  0               -1.1325e-009    -9.985e-010     -1.6127e-008   
  0.05            -5.439e-010     -1.9218e-009    4.25e-009      
  0.1             -7.265e-010     -1.8026e-009    -9.753e-009    
  0.15            -9.387e-010     -1.6314e-009    -1.016e-008    
  0.2             1.1923e-009     -1.6224e-009    -8.743e-009    
  0.25            2.076e-009      1.048e-009      -2.877e-009    
  0.3             8.683e-010      1.6159e-009     1.0327e-008    
  0.35            -1.2385e-009    2.0272e-009     5.731e-009     
  0.4             -1.2296e-009    2.2128e-009     5.365e-009     
  0.45            1.1888e-009     1.1451e-008     -4.092e-009    
  0.5             1.1923e-009     3.8006e-008     -1.1402e-008   
  0.55            -7.671e-010     1.17e-007       1.4734e-008    
  0.6             1.106e-009      3.0951e-007     -8.801e-009    
  0.65            1.1812e-009     6.9705e-007     -5.923e-009    
  0.7             1.8101e-009     1.3449e-006     9.044e-009     
  0.75            7.578e-010      2.2349e-006     8.612e-009     
  0.8             1.1526e-009     3.3691e-006     1.0887e-008    
  0.85            1.5497e-009     4.7001e-006     1.2369e-008    
  0.9             5.222e-010      6.1134e-006     8.378e-009     
  0.95            8.204e-010      7.5924e-006     9.58e-009      
  1               1.2226e-009     9.1212e-006     1.1482e-008    
  1.05            2.894e-010      1.0691e-005     8.285e-009     
  1.1             -2.3399e-009    1.2225e-005     8.002e-009     
  1.15            -2.964e-010     1.3731e-005     -9.622e-009    
  1.2             -6.839e-010     1.523e-005      -9.059e-009    
  1.25            -1.1754e-009    1.6677e-005     -1.0128e-008   
  1.3             2.88e-011       1.8042e-005     -9.175e-009    
  1.35            -3.504e-010     1.9415e-005     -9.753e-009    
  1.4             -7.678e-010     2.0743e-005     -9.084e-009    
  1.45            1.1054e-009     2.1963e-005     -8.82e-009     
  1.5             1.1812e-009     2.3174e-005     -5.616e-009    
  1.55            1.1948e-009     2.4345e-005     -1.0646e-008   
  1.6             1.2718e-009     2.5443e-005     -1.6652e-008   
  1.65            1.089e-009      2.6506e-005     -2.783e-009    
  1.7             1.1512e-009     2.7506e-005     -3.298e-009    
  1.75            1.1962e-009     2.8468e-005     -9.016e-009    
  1.8             1.4714e-009     2.9378e-005     -1.3908e-008   
END_DB

BEGIN_DB
 ICCAP_VAR VS         0              
 ICCAP_VAR VB         0              
 ICCAP_VAR VD         1.8            

 #VG              IG              ID              IB             
  0               1.191e-009      9.857e-010      -9.229e-009    
  0.05            1.1908e-009     -1.195e-010     -1.4321e-008   
  0.1             1.9729e-009     9.979e-010      -3.178e-009    
  0.15            -1.2081e-009    1.1892e-009     9.647e-009     
  0.2             -1.3938e-009    -1.1686e-009    9.273e-009     
  0.25            3.7e-012        -1.8394e-009    -9.89e-009     
  0.3             1.0932e-009     -4.896e-010     -9.631e-009    
  0.35            2.296e-009      2.1185e-009     -3.049e-009    
  0.4             1.2698e-009     5.8655e-009     1.2642e-008    
  0.45            -2.4163e-009    1.8412e-008     -1.5908e-008   
  0.5             1.1986e-009     6.8537e-008     -1.0726e-008   
  0.55            -3.509e-010     1.9726e-007     7.913e-009     
  0.6             -7.664e-010     5.0522e-007     -9.87e-009     
  0.65            -1.2425e-009    1.0937e-006     -1.1004e-008   
  0.7             1.1886e-009     2.0923e-006     7.912e-009     
  0.75            1.3702e-009     3.6323e-006     -1.6571e-008   
  0.8             1.0984e-009     5.7735e-006     -4.877e-009    
  0.85            1.1378e-009     8.5585e-006     -4.863e-009    
  0.9             -1.2317e-009    1.2138e-005     -3.146e-009    
  0.95            -2.2223e-009    1.6241e-005     3.422e-009     
  1               -1.1252e-009    2.0974e-005     -1.3446e-008   
  1.05            -1.4668e-009    2.6182e-005     -1.3245e-008   
  1.1             -3.237e-010     3.2026e-005     -1.1504e-008   
  1.15            -7.257e-010     3.8541e-005     -1.1146e-008   
  1.2             -1.2093e-009    4.5273e-005     -1.2807e-008   
  1.25            -1.5177e-009    5.2412e-005     -1.2466e-008   
  1.3             -3.881e-010     6.0023e-005     -1.0761e-008   
  1.35            -8.152e-010     6.8052e-005     -1.035e-008    
  1.4             1.1171e-009     7.5998e-005     -9.866e-009    
  1.45            1.1815e-009     8.4395e-005     -7.12e-009     
  1.5             1.2008e-009     9.3145e-005     -1.1557e-008   
  1.55            1.1036e-009     0.000102        -3.613e-009    
  1.6             1.131e-009      0.000110998     -3.076e-009    
  1.65            1.1454e-009     0.00012031      -2.946e-009    
  1.7             1.192e-009      0.00012947      -9.036e-009    
  1.75            1.481e-009      0.0001389       -1.3703e-008   
  1.8             1.4919e-009     0.00014838      1.1982e-008    
END_DB

BEGIN_DB
 ICCAP_VAR VS         0              
 ICCAP_VAR VB         -0.9           
 ICCAP_VAR VD         0.1            

 #VG              IG              ID              IB             
  0               1.3856e-009     -4.159e-010     8.43e-009      
  0.05            1.9912e-009     1.0027e-009     -3.077e-009    
  0.1             -1.21e-009      1.2044e-009     9.934e-009     
  0.15            -1.4087e-009    -1.17e-009      9.738e-009     
  0.2             -1.94e-011      -1.8978e-009    -9.966e-009    
  0.25            1.1939e-009     -7.84e-011      -1.3317e-008   
  0.3             1.1923e-009     -1.852e-010     -1.5958e-008   
  0.35            2.0535e-009     1.0225e-009     -2.886e-009    
  0.4             8.497e-010      1.5267e-009     9.805e-009     
  0.45            -1.2415e-009    1.5573e-009     5.789e-009     
  0.5             1.707e-010      -1.3846e-009    5.554e-009     
  0.55            1.1764e-009     2.4972e-009     -9.648e-009    
  0.6             1.1934e-009     9.8771e-009     -1.0532e-008   
  0.65            -1.8376e-009    3.7126e-008     -8.883e-009    
  0.7             1.1946e-009     1.11313e-007    -9.196e-009    
  0.75            -1.9133e-009    2.799e-007      8.543e-009     
  0.8             -8.344e-010     6.2571e-007     -9.41e-009     
  0.85            1.2777e-009     1.1894e-006     1.1755e-008    
  0.9             1.0918e-009     2.0346e-006     -2.829e-009    
  0.95            1.1506e-009     3.1098e-006     -3.306e-009    
  1               1.1961e-009     4.3724e-006     -9.054e-009    
  1.05            1.4706e-009     5.7566e-006     -1.37e-008     
  1.1             6.081e-010      7.2098e-006     8.181e-009     
  1.15            9.628e-010      8.6859e-006     1.039e-008     
  1.2             1.3795e-009     1.02038e-005    1.1935e-008    
  1.25            -1.4911e-009    1.172e-005      1.165e-008     
  1.3             -6.079e-010     1.3195e-005     -9.145e-009    
  1.35            -1.1002e-009    1.4624e-005     -1.019e-008    
  1.4             9.36e-011       1.5973e-005     -9.015e-009    
  1.45            -3.11e-010      1.7327e-005     -9.408e-009    
  1.5             -6.991e-010     1.8642e-005     -9.113e-009    
  1.55            -1.1909e-009    1.9885e-005     -1.1159e-008   
  1.6             -3e-012         2.105e-005      -9.382e-009    
  1.65            -3.739e-010     2.2201e-005     -9.221e-009    
  1.7             -7.967e-010     2.3306e-005     -9.611e-009    
  1.75            1.1136e-009     2.431e-005      -8.801e-009    
  1.8             1.1841e-009     2.5299e-005     -6.314e-009    
END_DB

BEGIN_DB
 ICCAP_VAR VS         0              
 ICCAP_VAR VB         -0.9           
 ICCAP_VAR VD         1.8            

 #VG              IG              ID              IB             
  0               1.1168e-009     9.892e-010      -9.649e-009    
  0.05            1.761e-009      9.395e-010      -6.773e-009    
  0.1             -1.2287e-009    9.545e-010      8.455e-009     
  0.15            -1.1212e-009    -1.4634e-009    6.294e-009     
  0.2             1.1166e-009     -1.7549e-009    -9.005e-009    
  0.25            1.7566e-009     9.406e-010      -6.8e-009      
  0.3             -1.2296e-009    9.568e-010      8.429e-009     
  0.35            -1.1208e-009    -1.4589e-009    6.373e-009     
  0.4             1.1174e-009     -1.7057e-009    -9.072e-009    
  0.45            2.3188e-009     1.2949e-009     -6.845e-009    
  0.5             5.481e-010      3.0482e-009     8.394e-009     
  0.55            6.645e-010      7.7996e-009     8.984e-009     
  0.6             -2.359e-009     2.3879e-008     -1.3564e-008   
  0.65            -1.4171e-009    8.0367e-008     -1.1168e-008   
  0.7             -1.3074e-009    2.1663e-007     1.099e-008     
  0.75            -1.2373e-009    4.9714e-007     2.871e-009     
  0.8             -1.2188e-009    1.03625e-006    5.088e-009     
  0.85            -1.4465e-009    1.9598e-006     -4.961e-009    
  0.9             -3.051e-010     3.4125e-006     -1.0481e-008   
  0.95            -6.929e-010     5.5427e-006     -1.0207e-008   
  1               -1.1966e-009    8.3148e-006     -1.1481e-008   
  1.05            2.3006e-009     1.1729e-005     -1.0444e-008   
  1.1             7.705e-010      1.5759e-005     7.079e-009     
  1.15            1.1804e-009     2.0508e-005     9.326e-009     
  1.2             2.463e-010      2.5964e-005     6.683e-009     
  1.25            5.413e-010      3.1791e-005     6.945e-009     
  1.3             8.552e-010      3.8114e-005     8.661e-009     
  1.35            -1.2277e-009    4.5197e-005     4.774e-009     
  1.4             -2.1927e-009    5.2515e-005     5.58e-009      
  1.45            -1.1576e-009    6.0163e-005     -1.1787e-008   
  1.5             2.19e-011       6.7906e-005     -9.842e-009    
  1.55            -3.515e-010     7.6227e-005     -9.813e-009    
  1.6             -7.778e-010     8.4815e-005     -9.862e-009    
  1.65            1.1111e-009     9.3202e-005     -9.135e-009    
  1.7             1.1808e-009     0.000101956     -6.337e-009    
  1.75            1.1931e-009     0.000111004     -1.1262e-008   
  1.8             1.1924e-009     0.0001201       -3.108e-009    
END_DB

BEGIN_DB
 ICCAP_VAR VS         0              
 ICCAP_VAR VB         -1.8           
 ICCAP_VAR VD         0.1            

 #VG              IG              ID              IB             
  0               -1.1796e-009    -1.0547e-009    9.033e-009     
  0.05            -1.7547e-009    2.613e-010      1.3218e-008    
  0.1             1.9311e-009     9.862e-010      -9.72e-009     
  0.15            -1.2139e-009    1.1584e-009     1.0306e-008    
  0.2             -1.3647e-009    -1.2138e-009    8.972e-009     
  0.25            3.82e-011       -1.8757e-009    -9.702e-009    
  0.3             -1.622e-010     -1.9432e-009    -9.711e-009    
  0.35            -3.06e-010      -1.9742e-009    -9.233e-009    
  0.4             -4.535e-010     -1.9573e-009    -9.142e-009    
  0.45            -6.296e-010     -1.8715e-009    -9.465e-009    
  0.5             -8.442e-010     -1.7016e-009    -1.0052e-008   
  0.55            1.1908e-009     -1.4773e-009    -8.775e-009    
  0.6             2.0224e-009     1.5227e-009     -2.927e-009    
  0.65            8.369e-010      4.2086e-009     1.0073e-008    
  0.7             -1.2247e-009    1.1242e-008     -9.725e-009    
  0.75            -2.0738e-009    4.3286e-008     7.065e-009     
  0.8             5.06e-010       1.2117e-007     -1.1337e-008   
  0.85            8.194e-010      2.7595e-007     8.831e-009     
  0.9             1.2252e-009     5.6455e-007     1.1176e-008    
  0.95            2.832e-010      1.06792e-006    8.44e-009      
  1               -1.2204e-009    1.846e-006      -9.287e-009    
  1.05            -1.9687e-009    2.8631e-006     7.695e-009     
  1.1             -3.12e-010      4.0556e-006     -9.518e-009    
  1.15            -7.099e-010     5.4099e-006     -9.172e-009    
  1.2             -1.2041e-009    6.8201e-006     -1.115e-008    
  1.25            -3.06e-011      8.2449e-006     -9.409e-009    
  1.3             -4.034e-010     9.7301e-006     -9.169e-009    
  1.35            -8.493e-010     1.12018e-005    -9.713e-009    
  1.4             1.9402e-009     1.2606e-005     -8.924e-009    
  1.45            9.62e-010       1.3974e-005     9.305e-009     
  1.5             1.3935e-009     1.5341e-005     1.2016e-008    
  1.55            4.13e-010       1.6658e-005     8.746e-009     
  1.6             6.871e-010      1.7896e-005     8.346e-009     
  1.65            1.0707e-009     1.9099e-005     1.0055e-008    
  1.7             1.4976e-009     2.0268e-005     1.2714e-008    
  1.75            4.821e-010      2.1366e-005     8.705e-009     
  1.8             7.835e-010      2.2399e-005     8.598e-009     
END_DB

BEGIN_DB
 ICCAP_VAR VS         0              
 ICCAP_VAR VB         -1.8           
 ICCAP_VAR VD         1.8            

 #VG              IG              ID              IB             
  0               -1.1026e-009    -9.553e-010     1.248e-008     
  0.05            -6.276e-010     -1.8584e-009    4.938e-009     
  0.1             1.1916e-009     -1.3875e-009    -8.908e-009    
  0.15            1.1904e-009     -1.304e-010     -1.5182e-008   
  0.2             2.0294e-009     1.0371e-009     -3.023e-009    
  0.25            8.42e-010       1.5691e-009     1.0117e-008    
  0.3             1.0052e-009     1.3791e-009     1.1438e-008    
  0.35            1.1888e-009     1.196e-009      1.228e-008     
  0.4             5.06e-011       1.6956e-009     8.251e-009     
  0.45            2.163e-010      1.7827e-009     8.637e-009     
  0.5             3.579e-010      1.8889e-009     8.559e-009     
  0.55            4.781e-010      2.1374e-009     8.26e-009      
  0.6             5.919e-010      3.4024e-009     8.664e-009     
  0.65            7.209e-010      9.5816e-009     9.297e-009     
  0.7             -2.3992e-009    3.061e-008      -1.4599e-008   
  0.75            -3.952e-010     9.6427e-008     -9.681e-009    
  0.8             -2.3922e-009    2.3851e-007     8.565e-009     
  0.85            -9.105e-010     5.1684e-007     -9.591e-009    
  0.9             2.678e-010      9.9394e-007     -9.279e-009    
  0.95            1.5593e-009     1.8277e-006     9.6e-009       
  1               1.4626e-009     3.1506e-006     1.1615e-008    
  1.05            4.62e-010       5.0937e-006     7.586e-009     
  1.1             7.47e-010       7.651e-006      7.867e-009     
  1.15            1.1524e-009     1.09657e-005    1.0051e-008    
  1.2             -3.697e-010     1.5092e-005     1.2878e-008    
  1.25            -8.089e-010     1.9827e-005     -1.056e-008    
  1.3             1.1184e-009     2.4951e-005     -9.853e-009    
  1.35            1.1877e-009     3.0739e-005     -7.499e-009    
  1.4             1.2023e-009     3.7123e-005     -1.1874e-008   
  1.45            1.0993e-009     4.3912e-005     -3.771e-009    
  1.5             1.1383e-009     5.1086e-005     -3.164e-009    
  1.55            1.192e-009      5.8648e-005     -8.84e-009     
  1.6             1.559e-009      6.6567e-005     -1.3068e-008   
  1.65            1.4723e-009     7.4763e-005     1.1925e-008    
  1.7             4.661e-010      8.3145e-005     8.04e-009      
  1.75            7.502e-010      9.1581e-005     8.581e-009     
  1.8             1.1585e-009     0.000100333     1.0958e-008    
END_DB

