! VERSION = 6.00
BEGIN_HEADER
 ICCAP_INPUTS
  VG         V  B GROUND SMU4 0.001 LIN        2    0          1.8        6    0.36      
  VS         V  E GROUND SMU2 0.1 CON        0
  VD         V  S GROUND SMU1 0.1 LIN        1    0          1.8        37   0.05      
  VB         V  C GROUND SMU3 0.1 LIN        3    0          -0.9       2    -0.9      
 ICCAP_OUTPUTS
  ID         I  S GROUND SMU1 B
  IB         I  C GROUND SMU3 B
  IG         I  B GROUND SMU4 B
END_HEADER

BEGIN_DB
 ICCAP_VAR VG         0              
 ICCAP_VAR VS         0              
 ICCAP_VAR VB         0              

 #VD              ID              IB              IG             
  0               -2.1636e-009    1.5227e-008     -2.1664e-009   
  0.05            -2.2067e-009    -1.0887e-008    -6.941e-010    
  0.1             -1.5329e-009    -1.7427e-008    1.2179e-009    
  0.15            -2.167e-010     -1.3863e-008    2.774e-009     
  0.2             2.0995e-009     1.0312e-008     2.086e-010     
  0.25            2.2071e-009     1.0646e-008     4.186e-010     
  0.3             5.241e-010      1.6459e-008     -2.2228e-009   
  0.35            -1.9714e-009    2.906e-009      -1.3381e-009   
  0.4             -1.8891e-009    -1.0747e-008    1.066e-010     
  0.45            -2.0298e-009    -1.0674e-008    -8.11e-011     
  0.5             -2.1212e-009    -1.1152e-008    -3.158e-010    
  0.55            -2.1838e-009    -1.1418e-008    -5.55e-010     
  0.6             -2.2056e-009    -1.0974e-008    -7.797e-010    
  0.65            -2.1952e-009    -1.0031e-008    -9.445e-010    
  0.7             -1.6362e-009    -1.2782e-008    1.6609e-009    
  0.75            1.5404e-009     -8.63e-009      1.7055e-009    
  0.8             2.1818e-009     1.064e-008      3.798e-010     
  0.85            4.907e-010      1.5985e-008     -2.2693e-009   
  0.9             -2.1957e-009    -1.1082e-008    -6.159e-010    
  0.95            -2.2083e-009    -1.0608e-008    -8.185e-010    
  1               -1.5828e-009    -1.4792e-008    1.8876e-009    
  1.05            1.7401e-009     -8.886e-009     1.5565e-009    
  1.1             1.4673e-009     1.0062e-008     1.7516e-009    
  1.15            2.2089e-009     1.0652e-008     4.288e-010     
  1.2             1.3592e-009     2.5106e-008     -1.2963e-009   
  1.25            5.66e-011       1.0794e-008     -2.668e-009    
  1.3             -1.9913e-009    -1.0664e-008    -1.36e-011     
  1.35            -2.1025e-009    -1.1003e-008    -2.463e-010    
  1.4             -2.1663e-009    -1.1186e-008    -4.907e-010    
  1.45            -2.2053e-009    -1.0808e-008    -7.262e-010    
  1.5             -1.5463e-009    -1.6834e-008    2.0554e-009    
  1.55            1.8788e-009     -8.178e-009     1.4522e-009    
  1.6             1.6013e-009     1.0666e-008     1.647e-009     
  1.65            2.1567e-009     1.0584e-008     3.144e-010     
  1.7             2.2522e-009     1.0545e-008     5.362e-010     
  1.75            1.4329e-009     2.2754e-008     -1.282e-009    
  1.8             1.309e-010      1.1286e-008     -2.6343e-009   
END_DB

BEGIN_DB
 ICCAP_VAR VG         0.36           
 ICCAP_VAR VS         0              
 ICCAP_VAR VB         0              

 #VD              ID              IB              IG             
  0               1.846e-010      1.0412e-008     -1.35e-010     
  0.05            -2.0379e-009    -1.1211e-008    -3.892e-010    
  0.1             -2.0729e-009    -1.0917e-008    -6.312e-010    
  0.15            -1.3762e-009    -1.8809e-008    1.2288e-009    
  0.2             -2.35e-011      -1.3161e-008    2.8003e-009    
  0.25            2.2136e-009     1.0229e-008     1.65e-010      
  0.3             2.334e-009      1.0644e-008     3.73e-010      
  0.35            2.4322e-009     1.0347e-008     5.833e-010     
  0.4             2.4805e-009     9.955e-009      7.756e-010     
  0.45            1.8076e-009     1.5855e-008     -1.7085e-009   
  0.5             -2.0155e-009    6.003e-009      -7.801e-010    
  0.55            -1.2348e-009    -9.915e-009     1.2388e-009    
  0.6             1.2807e-009     -1.1479e-008    2.2624e-009    
  0.65            2.491e-009      9.659e-009      1.0086e-009    
  0.7             2.0293e-009     1.1424e-008     -1.4413e-009   
  0.75            -1.706e-009     9.282e-009      3.94e-011      
  0.8             -1.8288e-009    -1.0852e-008    -1.781e-010    
  0.85            -1.8967e-009    -1.1153e-008    -4.311e-010    
  0.9             -1.9345e-009    -1.0905e-008    -6.706e-010    
  0.95            -1.2485e-009    -1.773e-008     1.2239e-009    
  1               1.3378e-009     -1.3637e-008    2.3533e-009    
  1.05            2.3099e-009     1.0165e-008     6.92e-011      
  1.1             2.4349e-009     1.0588e-008     2.776e-010     
  1.15            2.543e-009      1.0521e-008     4.875e-010     
  1.2             1.7358e-009     2.3521e-008     -1.2906e-009   
  1.25            4.597e-010      1.1215e-008     -2.6504e-009   
  1.3             -1.4973e-009    7.31e-010       1.479e-010     
  1.35            -6.228e-010     -2.4325e-008    1.5485e-009    
  1.4             1.3802e-009     -8.377e-009     2.6387e-009    
  1.45            2.6089e-009     1.0801e-008     4.754e-010     
  1.5             2.6935e-009     1.0657e-008     6.796e-010     
  1.55            1.9666e-009     1.8531e-008     -1.8435e-009   
  1.6             -1.2625e-009    5.09e-009       1.5057e-009    
  1.65            1.4459e-009     -8.449e-009     2.6642e-009    
  1.7             2.6949e-009     1.0536e-008     5.211e-010     
  1.75            1.904e-009      2.2897e-008     -1.2852e-009   
  1.8             6.431e-010      1.1392e-008     -2.6384e-009   
END_DB

BEGIN_DB
 ICCAP_VAR VG         0.72           
 ICCAP_VAR VS         0              
 ICCAP_VAR VB         0              

 #VD              ID              IB              IG             
  0               -5.1262e-010    -1.9747e-008    -2.2756e-009   
  0.05            1.2289e-006     1.5912e-008     2.3699e-009    
  0.1             1.6524e-006     -1.0777e-008    -3.297e-010    
  0.15            1.8992e-006     1.4131e-008     -2.093e-009    
  0.2             2.0295e-006     1.6282e-008     -1.8584e-009   
  0.25            2.059e-006      1.0827e-008     1.9091e-009    
  0.3             2.1856e-006     -1.3113e-008    1.4335e-009    
  0.35            2.2974e-006     -1.1232e-008    -8.906e-010    
  0.4             2.4438e-006     2.2223e-008     -1.4691e-009   
  0.45            2.4836e-006     1.0824e-008     7.707e-010     
  0.5             2.5704e-006     -2.0667e-008    1.5681e-009    
  0.55            2.6743e-006     -1.1301e-008    -7.818e-010    
  0.6             2.827e-006      1.9839e-008     -1.5795e-009   
  0.65            2.868e-006      1.0759e-008     6.396e-010     
  0.7             2.9475e-006     -1.8962e-008    1.7569e-009    
  0.75            3.0456e-006     -1.1121e-008    -6.394e-010    
  0.8             3.2095e-006     1.8081e-008     -1.7305e-009   
  0.85            3.2067e-006     1.0055e-008     1.9908e-009    
  0.9             3.3166e-006     -1.2199e-008    2.233e-010     
  0.95            3.4991e-006     1.1009e-008     -2.6439e-009   
  1               3.5877e-006     1.3949e-008     -1.4123e-009   
  1.05            3.6113e-006     1.0406e-008     8.407e-010     
  1.1             3.7016e-006     -2.2294e-008    1.4725e-009    
  1.15            3.8267e-006     -1.0957e-008    -8.598e-010    
  1.2             3.9937e-006     2.1541e-008     -1.4988e-009   
  1.25            4.0143e-006     1.059e-008      7.292e-010     
  1.3             4.0965e-006     -2.0114e-008    1.623e-009     
  1.35            4.2137e-006     -1.1256e-008    -7.477e-010    
  1.4             4.3914e-006     1.8977e-008     -1.6245e-009   
  1.45            4.4329e-006     1.0333e-008     6.01e-010      
  1.5             4.4913e-006     -1.9283e-008    1.8241e-009    
  1.55            4.6036e-006     -1.1831e-008    -5.926e-010    
  1.6             4.8004e-006     1.6182e-008     -1.7882e-009   
  1.65            4.771e-006      8.628e-009      1.9533e-009    
  1.7             4.9057e-006     -1.483e-008     2.558e-010     
  1.75            5.1214e-006     7.616e-009      -2.6578e-009   
  1.8             5.2471e-006     6.491e-009      -2.5691e-009   
END_DB

BEGIN_DB
 ICCAP_VAR VG         1.08           
 ICCAP_VAR VS         0              
 ICCAP_VAR VB         0              

 #VD              ID              IB              IG             
  0               -5.0458e-008    1.7648e-008     1.0673e-009    
  0.05            2.2647e-005     -8.356e-009     -1.4052e-009   
  0.1             4.0381e-005     1.6461e-008     -1.8444e-009   
  0.15            5.3081e-005     1.0851e-008     7.829e-010     
  0.2             6.163e-005      -2.5438e-008    1.2883e-009    
  0.25            6.7463e-005     -1.0744e-008    -3.759e-010    
  0.3             7.1661e-005     2.0007e-008     -1.563e-009    
  0.35            7.3997e-005     1.0162e-008     9.786e-010     
  0.4             7.5995e-005     -2.4932e-008    1.2376e-009    
  0.45            7.7857e-005     -1.1125e-008    -6.676e-010    
  0.5             7.9621e-005     2.4309e-008     -1.399e-009    
  0.55            8.0888e-005     1.6609e-008     -1.8203e-009   
  0.6             8.1688e-005     1.0842e-008     7.997e-010     
  0.65            8.2725e-005     -2.5678e-008    1.2819e-009    
  0.7             8.3956e-005     -1.0767e-008    -3.919e-010    
  0.75            8.5409e-005     2.0465e-008     -1.5471e-009   
  0.8             8.5881e-005     1.0134e-008     9.937e-010     
  0.85            8.6991e-005     -2.4799e-008    1.2349e-009    
  0.9             8.813e-005      -1.1173e-008    -6.841e-010    
  0.95            8.9359e-005     2.4666e-008     -1.3887e-009   
  1               9.0351e-005     1.7077e-008     -1.7984e-009   
  1.05            9.0979e-005     1.0422e-008     8.149e-010     
  1.1             9.1658e-005     -2.5782e-008    1.2781e-009    
  1.15            9.2751e-005     -1.0779e-008    -4.181e-010    
  1.2             9.4056e-005     2.0537e-008     -1.5298e-009   
  1.25            9.4346e-005     9.739e-009      1.0109e-009    
  1.3             9.5376e-005     -2.4667e-008    1.2325e-009    
  1.35            9.6393e-005     -1.1614e-008    -7.033e-010    
  1.4             9.7543e-005     7.737e-009      -1.3153e-009   
  1.45            9.8343e-005     1.9647e-008     -1.5084e-009   
  1.5             9.8762e-005     7.391e-009      1.0281e-009    
  1.55            9.97e-005       -2.8189e-008    1.2281e-009    
  1.6             0.000101075     -1.7922e-008    -1.7286e-009   
  1.65            0.000101823     7.305e-009      -1.7928e-009   
  1.7             0.000102344     -5.574e-009     2.2375e-009    
  1.75            0.00010316      -3.2691e-008    -5.259e-010    
  1.8             0.000104417     -8.682e-009     -1.4611e-009   
END_DB

BEGIN_DB
 ICCAP_VAR VG         1.44           
 ICCAP_VAR VS         0              
 ICCAP_VAR VB         0              

 #VD              ID              IB              IG             
  0               -8.861e-008     2.693e-008      8.657e-010     
  0.05            4.4312e-005     -1.4052e-008    3.309e-010     
  0.1             8.4065e-005     -1.9922e-008    1.6437e-009    
  0.15            0.00011861      -1.8302e-008    -5.339e-010    
  0.2             0.00014725      1.8353e-008     -1.6933e-009   
  0.25            0.00017002      1.0736e-008     6.618e-010     
  0.3             0.00018754      -2.0995e-008    1.5561e-009    
  0.35            0.00020123      -1.1333e-008    -8.93e-010     
  0.4             0.00021153      2.4121e-008     -1.3982e-009   
  0.45            0.00021863      1.0271e-008     9.69e-010      
  0.5             0.00022438      -2.5323e-008    1.294e-009     
  0.55            0.00022933      -1.0151e-008    -1.2078e-009   
  0.6             0.00023281      2.767e-008      -1.3034e-009   
  0.65            0.00023583      1.8225e-008     -1.6775e-009   
  0.7             0.00023801      1.0756e-008     6.777e-010     
  0.75            0.00023994      -2.116e-008     1.5435e-009    
  0.8             0.00024252      -1.0903e-008    -9.052e-010    
  0.85            0.00024461      2.442e-008      -1.3928e-009   
  0.9             0.0002459       9.984e-009      9.843e-010     
  0.95            0.00024761      -2.5248e-008    1.2893e-009    
  1               0.00024931      -1.0953e-008    -6.9e-011      
  1.05            0.00025169      1.3008e-008     -2.2229e-009   
  1.1             0.00025314      1.0153e-008     2.624e-010     
  1.15            0.00025416      -1.6695e-008    2.1528e-009    
  1.2             0.00025572      -1.0896e-008    -5.064e-010    
  1.25            0.00025775      1.8102e-008     -1.72e-009     
  1.3             0.00025879      1.0427e-008     6.403e-010     
  1.35            0.00025973      -2.1011e-008    1.5838e-009    
  1.4             0.00026167      -1.1727e-008    -8.746e-010    
  1.45            0.00026344      2.2647e-008     -1.4064e-009   
  1.5             0.00026478      1.0852e-008     -2.2012e-009   
  1.55            0.000266        1.3236e-008     -1.7932e-009   
  1.6             0.00026751      4.524e-009      -2.6183e-009   
  1.65            0.00026885      1.647e-009      -2.3761e-009   
  1.7             0.00027006      -8.75e-010      -1.9855e-009   
  1.75            0.00027116      -1.3567e-008    4.409e-010     
  1.8             0.00027185      -5.3934e-008    1.8759e-009    
END_DB

BEGIN_DB
 ICCAP_VAR VG         1.8            
 ICCAP_VAR VS         0              
 ICCAP_VAR VB         0              

 #VD              ID              IB              IG             
  0               -1.03121e-007   -9.753e-009     -2.3395e-009   
  0.05            5.8288e-005     -8.26e-009      -1.855e-010    
  0.1             0.00011317      -1.428e-008     2.4877e-009    
  0.15            0.00016361      -1.0651e-008    -2.2332e-009   
  0.2             0.0002083       1.0062e-008     3.099e-010     
  0.25            0.00024703      -1.7238e-008    2.0808e-009    
  0.3             0.00028009      -1.0886e-008    -5.516e-010    
  0.35            0.00030791      1.8808e-008     -1.6702e-009   
  0.4             0.00033049      1.0776e-008     6.818e-010     
  0.45            0.0003484       -2.1238e-008    1.5318e-009    
  0.5             0.00036348      -1.1351e-008    -9.068e-010    
  0.55            0.00037542      2.4607e-008     -1.3891e-009   
  0.6             0.00038431      1.0279e-008     9.848e-010     
  0.65            0.00039168      -2.5324e-008    1.2875e-009    
  0.7             0.00039826      -1.0136e-008    -1.2247e-009   
  0.75            0.00040325      2.7494e-008     -1.3004e-009   
  0.8             0.00040737      1.8758e-008     -1.6627e-009   
  0.85            0.00041077      1.0755e-008     6.883e-010     
  0.9             0.00041361      -2.1335e-008    1.526e-009     
  0.95            0.00041689      -1.1336e-008    -9.127e-010    
  1               0.00041968      2.4831e-008     -1.388e-009    
  1.05            0.0004216       1.024e-008      9.896e-010     
  1.1             0.00042374      -2.5418e-008    1.2837e-009    
  1.15            0.00042612      -2.4263e-008    2.2464e-009    
  1.2             0.00042831      -1.0739e-008    -4.222e-010    
  1.25            0.00043077      1.7378e-008     -1.8021e-009   
  1.3             0.00043263      1.0468e-008     5.729e-010     
  1.35            0.00043401      -1.9929e-008    1.6688e-009    
  1.4             0.00043622      -1.1912e-008    -8.198e-010    
  1.45            0.00043837      2.1751e-008     -1.4458e-009   
  1.5             0.00043957      8.989e-009      8.981e-010     
  1.55            0.0004409       -2.7354e-008    1.3304e-009    
  1.6             0.00044345      -1.509e-008     -1.1258e-009   
  1.65            0.00044511      2.546e-009      -1.2767e-009   
  1.7             0.00044631      -3.661e-009     2.7316e-009    
  1.75            0.00044805      -2.9435e-008    -9.677e-010    
  1.8             0.0004499       -1.95e-009      -1.3629e-009   
END_DB

BEGIN_DB
 ICCAP_VAR VG         0              
 ICCAP_VAR VS         0              
 ICCAP_VAR VB         -0.9           

 #VD              ID              IB              IG             
  0               -7.653e-010     -2.5724e-008    -7.026e-010    
  0.05            1.6168e-009     1.6194e-008     -1.7306e-009   
  0.1             -1.5877e-009    5.831e-009      -1.6471e-009   
  0.15            -2.1039e-009    -1.1028e-008    -2.638e-010    
  0.2             -2.1726e-009    -1.1088e-008    -5.033e-010    
  0.25            -2.215e-009     -1.0692e-008    -7.36e-010     
  0.3             -2.2077e-009    -1.0052e-008    -8.969e-010    
  0.35            -1.6198e-009    -1.3141e-008    1.7256e-009    
  0.4             1.6045e-009     -8.696e-009     1.6657e-009    
  0.45            2.1606e-009     1.0576e-008     3.315e-010     
  0.5             2.2533e-009     1.0478e-008     5.434e-010     
  0.55            2.3123e-009     1.0279e-008     7.398e-010     
  0.6             1.5988e-009     1.688e-008      -1.7485e-009   
  0.65            -1.6103e-009    5.725e-009      -1.6279e-009   
  0.7             -2.0943e-009    -1.0981e-008    -2.398e-010    
  0.75            -2.1675e-009    -1.1234e-008    -4.752e-010    
  0.8             -2.2135e-009    -1.1182e-008    -7.164e-010    
  0.85            -2.2075e-009    -1.0384e-008    -8.834e-010    
  0.9             -1.612e-009     -1.3401e-008    1.7595e-009    
  0.95            1.628e-009      -8.789e-009     1.6425e-009    
  1               2.1471e-009     1.0545e-008     3.116e-010     
  1.05            2.2456e-009     1.0708e-008     5.232e-010     
  1.1             2.3088e-009     1.0338e-008     7.169e-010     
  1.15            1.5878e-009     1.7459e-008     -1.791e-009    
  1.2             -1.6388e-009    5.505e-009      -1.6166e-009   
  1.25            -2.0858e-009    -1.098e-008     -2.095e-010    
  1.3             -2.1596e-009    -1.1204e-008    -4.534e-010    
  1.35            -2.2126e-009    -1.1153e-008    -6.873e-010    
  1.4             -2.2084e-009    -1.0553e-008    -8.621e-010    
  1.45            -1.6028e-009    -1.3642e-008    1.7889e-009    
  1.5             1.6549e-009     -8.772e-009     1.6152e-009    
  1.55            2.1371e-009     1.0528e-008     2.897e-010     
  1.6             2.2394e-009     1.0434e-008     4.981e-010     
  1.65            1.4107e-009     2.2982e-008     -1.2913e-009   
  1.7             1.114e-010      1.1072e-008     -2.6467e-009   
  1.75            -1.3021e-009    3.81e-010       -1.8541e-009   
  1.8             -2.2027e-009    -1.087e-008     -6.37e-010     
END_DB

BEGIN_DB
 ICCAP_VAR VG         0.36           
 ICCAP_VAR VS         0              
 ICCAP_VAR VB         -0.9           

 #VD              ID              IB              IG             
  0               -1.3457e-009    1.0429e-008     -1.3429e-009   
  0.05            -2.0142e-009    1.112e-008      -1.2675e-009   
  0.1             -1.8455e-009    -1.1141e-008    1.616e-010     
  0.15            -1.9906e-009    -1.0867e-008    -1.68e-011     
  0.2             -2.1009e-009    -1.1076e-008    -2.519e-010    
  0.25            -2.172e-009     -1.104e-008     -4.892e-010    
  0.3             -2.2156e-009    -1.0792e-008    -7.269e-010    
  0.35            -1.5382e-009    -1.6549e-008    2.0614e-009    
  0.4             1.8729e-009     -8.088e-009     1.4553e-009    
  0.45            1.5992e-009     1.0711e-008     1.645e-009     
  0.5             2.1526e-009     1.0609e-008     3.171e-010     
  0.55            2.2559e-009     1.0429e-008     5.28e-010      
