! VERSION = 6.00
BEGIN_HEADER
 ICCAP_INPUTS
  VG         V  B GROUND SMU4 0.001 LIN        1    0          1.8        37   0.05      
  VS         V  E GROUND SMU2 0.1 CON        0
  VB         V  C GROUND SMU3 0.1 LIN        3    0          -1.8       3    -0.9      
  VD         V  S GROUND SMU1 0.1 LIN        2    0.1        1.8        2    1.7       
 ICCAP_OUTPUTS
  IG         I  B GROUND SMU4 B
  ID         I  S GROUND SMU1 B
  IB         I  C GROUND SMU3 B
END_HEADER

BEGIN_DB
 ICCAP_VAR VS         0              
 ICCAP_VAR VB         0              
 ICCAP_VAR VD         0.1            

 #VG              IG              ID              IB             
  0               1.0703e-009     1.0031e-009     1.2799e-008    
  0.05            1.8302e-009     -8.045e-010     -2.086e-008    
  0.1             1.5197e-009     1.7201e-009     -8.374e-009    
  0.15            -6.29e-011      1.9648e-009     1.0054e-008    
  0.2             -1.4222e-009    9.79e-010       2.611e-008     
  0.25            -9.926e-010     -2.1657e-009    8.873e-009     
  0.3             1.5169e-009     -1.6094e-009    -1.1276e-008   
  0.35            2.6083e-009     1.3494e-009     -8.23e-009     
  0.4             4.331e-010      3.5833e-009     1.0679e-008    
  0.45            6.226e-010      7.0268e-009     1.0095e-008    
  0.5             -1.8475e-009    1.2648e-008     -1.703e-008    
  0.55            -1.4205e-009    3.2005e-008     4.036e-009     
  0.6             -1.3189e-009    6.4385e-008     8.803e-009     
  0.65            -2.5658e-009    1.09644e-007    1.1202e-008    
  0.7             5.839e-010      1.6491e-007     -1.1851e-008   
  0.75            -1.5984e-009    2.2376e-007     1.936e-008     
  0.8             -1.3578e-009    2.8327e-007     6e-009         
  0.85            -1.2831e-009    3.4669e-007     1.0671e-008    
  0.9             -2.3598e-009    4.1029e-007     1.1616e-008    
  0.95            -1.7279e-009    4.7197e-007     1.494e-009     
  1               -1.3856e-009    5.3512e-007     4.862e-009     
  1.05            -1.3043e-009    5.977e-007      9.588e-009     
  1.1             -2.4892e-009    6.5948e-007     1.1008e-008    
  1.15            -1.8849e-009    7.1794e-007     9.52e-010      
  1.2             -1.4339e-009    7.7731e-007     3.804e-009     
  1.25            -1.3238e-009    8.3532e-007     8.534e-009     
  1.3             -2.5841e-009    8.9191e-007     1.1228e-008    
  1.35            -2.0548e-009    9.4474e-007     4.65e-010      
  1.4             -1.5048e-009    9.9791e-007     3.068e-009     
  1.45            -1.3407e-009    1.04935e-006    7.147e-009     
  1.5             -2.6416e-009    1.09899e-006    1.1108e-008    
  1.55            9.305e-010      1.1487e-006     -9.635e-009    
  1.6             -2.065e-010     1.1935e-006     1.1642e-008    
  1.65            -1.3875e-009    1.2363e-006     2.4289e-008    
  1.7             -1.3019e-009    1.2767e-006     9.318e-009     
  1.75            -2.474e-009     1.317e-006      1.0963e-008    
  1.8             -1.8664e-009    1.3536e-006     7.91e-010      
END_DB

BEGIN_DB
 ICCAP_VAR VS         0              
 ICCAP_VAR VB         0              
 ICCAP_VAR VD         1.8            

 #VG              IG              ID              IB             
  0               1.6316e-009     1.9557e-009     1.718e-009     
  0.05            7.569e-010      2.3156e-009     -8.568e-009    
  0.1             -1.6872e-009    1.6175e-009     1.465e-008     
  0.15            -1.6373e-009    -1.5685e-009    5.255e-009     
  0.2             -2.233e-010     -2.0991e-009    -1.1144e-008   
  0.25            -4.545e-010     -2.1417e-009    -1.1185e-008   
  0.3             -6.775e-010     -2.0947e-009    -1.0471e-008   
  0.35            2.0556e-009     -1.028e-009     -1.6114e-008   
  0.4             1.7351e-009     2.6273e-009     -6.936e-009    
  0.45            1.4958e-009     7.4377e-009     -8.672e-009    
  0.5             -1.3783e-009    1.8457e-008     -1.1084e-008   
  0.55            -1.2998e-009    4.3861e-008     9.588e-009     
  0.6             -2.459e-009     8.6925e-008     1.1014e-008    
  0.65            1.88e-010       1.5172e-007     -8.302e-009    
  0.7             6.439e-010      2.3716e-007     1.0532e-008    
  0.75            -1.5499e-009    3.478e-007      1.7762e-008    
  0.8             -1.3471e-009    4.8089e-007     6.625e-009     
  0.85            -2.6568e-009    6.4233e-007     1.1006e-008    
  0.9             -3.079e-010     8.2338e-007     -1.1272e-008   
  0.95            -7.977e-010     1.03638e-006    -1.0963e-008   
  1               1.4227e-009     1.2714e-006     1.0174e-008    
  1.05            2.7935e-009     1.5346e-006     -8.404e-009    
  1.1             2.0315e-009     1.8235e-006     1.0368e-008    
  1.15            9.295e-010      2.1357e-006     9.611e-009     
  1.2             -1.3705e-009    2.4783e-006     2.4995e-008    
  1.25            -1.2918e-009    2.8351e-006     1.0088e-008    
  1.3             -2.4201e-009    3.2196e-006     1.1239e-008    
  1.35            -1.7884e-009    3.6182e-006     1.217e-009     
  1.4             -1.4021e-009    4.044e-006      4.418e-009     
  1.45            -1.3129e-009    4.4918e-006     8.947e-009     
  1.5             -2.5306e-009    4.9581e-006     1.0942e-008    
  1.55            -1.9503e-009    5.435e-006      5.42e-010      
  1.6             -1.4608e-009    5.9384e-006     3.337e-009     
  1.65            -1.3291e-009    6.4578e-006     7.847e-009     
  1.7             -2.6083e-009    6.9948e-006     1.1393e-008    
  1.75            -2.1311e-009    7.5381e-006     3.91e-010      
  1.8             -1.5466e-009    8.1037e-006     2.462e-009     
END_DB

BEGIN_DB
 ICCAP_VAR VS         0              
 ICCAP_VAR VB         -0.9           
 ICCAP_VAR VD         0.1            

 #VG              IG              ID              IB             
  0               -1.3254e-009    -1.2322e-009    -8.6e-009      
  0.05            -1.3749e-009    -1.9087e-009    1.1295e-008    
  0.1             1.2772e-009     -1.2852e-009    -2.4132e-008   
  0.15            1.1709e-009     2.1447e-009     -8.942e-009    
  0.2             -1.3621e-009    1.1218e-009     2.7462e-008    
  0.25            -1.1615e-009    -2.0934e-009    1.0313e-008    
  0.3             1.3625e-009     -1.1068e-009    -2.5816e-008   
  0.35            9.964e-010      2.2829e-009     -8.385e-009    
  0.4             -1.4356e-009    9.711e-010      2.5897e-008    
  0.45            -9.775e-010     -2.1323e-009    8.478e-009     
  0.5             1.9124e-009     -1.2842e-009    -9.251e-009    
  0.55            2.4143e-009     2.259e-009      -8.006e-009    
  0.6             -1.9273e-009    5.7711e-009     1.9484e-008    
  0.65            1.3599e-009     1.1784e-008     1.0193e-008    
  0.7             2.8187e-009     2.8705e-008     -8.511e-009    
  0.75            -1.7931e-009    5.6043e-008     1.5506e-008    
  0.8             -1.399e-009     9.3801e-008     4.489e-009     
  0.85            1.636e-009      1.4447e-007     -2.5547e-008   
  0.9             5.721e-010      1.9867e-007     1.0737e-008    
  0.95            9.56e-010       2.5634e-007     9.506e-009     
  1               -1.838e-010     3.1595e-007     1.1397e-008    
  1.05            -1.3804e-009    3.7565e-007     2.4829e-008    
  1.1             -1.297e-009     4.3472e-007     9.658e-009     
  1.15            -2.4627e-009    4.9535e-007     1.1124e-008    
  1.2             -1.8523e-009    5.5343e-007     8.96e-010      
  1.25            -1.4214e-009    6.123e-007      4.055e-009     
  1.3             -1.3187e-009    6.7001e-007     8.66e-009      
  1.35            -2.5691e-009    7.2635e-007     1.124e-008     
  1.4             -2.0406e-009    7.7948e-007     4.17e-010      
  1.45            -1.4968e-009    8.3257e-007     2.904e-009     
  1.5             -1.3355e-009    8.8405e-007     7.131e-009     
  1.55            -2.6342e-009    9.3379e-007     1.1064e-008    
  1.6             1.8013e-009     9.7963e-007     -1.8297e-008   
  1.65            1.3466e-009     1.0274e-006     -8.567e-009    
  1.7             2.8349e-009     1.07097e-006    -8.408e-009    
  1.75            2.6366e-009     1.11337e-006    -3.9e-011      
  1.8             9.006e-010      1.1532e-006     1.9207e-008    
END_DB

BEGIN_DB
 ICCAP_VAR VS         0              
 ICCAP_VAR VB         -0.9           
 ICCAP_VAR VD         1.8            

 #VG              IG              ID              IB             
  0               3.93e-011       -5.147e-010     -1.6744e-008   
  0.05            1.3818e-009     -1.0818e-009    -2.5462e-008   
  0.1             9.711e-010      2.2919e-009     -8.374e-009    
  0.15            -1.4543e-009    1.7926e-009     1.1302e-008    
  0.2             -9.472e-010     -2.1961e-009    8.223e-009     
  0.25            1.5955e-009     -1.6607e-009    -1.159e-008    
  0.3             7.903e-010      2.3234e-009     -8.477e-009    
  0.35            -1.6458e-009    1.6454e-009     1.415e-008     
  0.4             -1.6738e-009    -1.5113e-009    5.546e-009     
  0.45            -2.632e-010     -2.0168e-009    -1.1288e-008   
  0.5             1.3884e-009     -6.106e-010     -1.1324e-008   
  0.55            1.2915e-009     2.2095e-009     -8.408e-009    
  0.6             2.7935e-009     6.4825e-009     -8.642e-009    
  0.65            2.7217e-009     1.7693e-008     1.0422e-008    
  0.7             4.981e-010      3.9719e-008     1.0466e-008    
  0.75            -1.7073e-009    7.5851e-008     2.1912e-008    
  0.8             -1.3856e-009    1.3263e-007     -8.685e-009    
  0.85            -1.3029e-009    2.0985e-007     9.534e-009     
  0.9             -2.4733e-009    3.1373e-007     1.0912e-008    
  0.95            -1.8586e-009    4.404e-007      9.92e-010      
  1               -1.4248e-009    5.9516e-007     3.954e-009     
  1.05            -1.324e-009     7.762e-007      8.665e-009     
  1.1             -2.5768e-009    9.8294e-007     1.1207e-008    
  1.15            -1.5278e-009    1.2144e-006     -8.29e-009     
  1.2             1.9502e-009     1.4661e-006     -2.0601e-008   
  1.25            1.3929e-009     1.749e-006      -7.654e-009    
  1.3             2.8084e-009     2.0555e-006     -8.374e-009    
  1.35            2.0611e-009     2.3875e-006     1.0424e-008    
  1.4             9.543e-010      2.7407e-006     9.572e-009     
  1.45            -1.817e-010     3.1224e-006     1.1419e-008    
  1.5             -1.3777e-009    3.5225e-006     2.4683e-008    
  1.55            -1.2946e-009    3.9386e-006     9.681e-009     
  1.6             -2.4667e-009    4.379e-006      1.099e-008     
  1.65            -1.8525e-009    4.8315e-006     1.055e-009     
  1.7             -1.4153e-009    5.3076e-006     3.791e-009     
  1.75            -1.3086e-009    5.8021e-006     8.674e-009     
  1.8             -2.5619e-009    6.312e-006      1.124e-008     
END_DB

BEGIN_DB
 ICCAP_VAR VS         0              
 ICCAP_VAR VB         -1.8           
 ICCAP_VAR VD         0.1            

 #VG              IG              ID              IB             
  0               2.6002e-009     2.3181e-009     -1.6219e-008   
  0.05            3.551e-010      2.1823e-009     1.0712e-008    
  0.1             5.661e-010      2.264e-009      9.932e-009     
  0.15            -1.2913e-009    1.4518e-009     2.0341e-008    
  0.2             -2.6109e-009    1.386e-010      1.1434e-008    
  0.25            -9.245e-010     -2.1998e-009    4.94e-010      
  0.3             1.6271e-009     -1.6556e-009    -1.186e-008    
  0.35            7.763e-010      2.3143e-009     -8.759e-009    
  0.4             -1.6722e-009    1.6256e-009     1.4593e-008    
  0.45            -1.6529e-009    -1.5591e-009    5.364e-009     
  0.5             -2.396e-010     -2.1015e-009    -1.1139e-008   
  0.55            -4.706e-010     -2.1154e-009    -1.1197e-008   
  0.6             -6.905e-010     -1.9425e-009    -1.0315e-008   
  0.65            1.2192e-009     -4.081e-010     -1.5799e-008   
  0.7             2.7579e-009     3.6267e-009     -1.3725e-008   
  0.75            2.266e-009      1.1648e-008     1.1343e-008    
  0.8             1.1859e-009     2.6433e-008     8.605e-009     
  0.85            -1.3041e-009    4.6909e-008     2.7111e-008    
  0.9             -2.5371e-009    7.8834e-008     1.1116e-008    
  0.95            8.429e-010      1.2356e-007     -1.474e-008    
  1               -1.4047e-009    1.7295e-007     1.357e-008     
  1.05            -1.2938e-009    2.2525e-007     8.805e-009     
  1.1             -2.5245e-009    2.8246e-007     1.1144e-008    
  1.15            -1.9773e-009    3.3927e-007     4.8e-010       
  1.2             -1.4614e-009    3.9807e-007     2.952e-009     
  1.25            -1.3135e-009    4.5669e-007     7.734e-009     
  1.3             -2.5964e-009    5.1487e-007     1.1426e-008    
  1.35            -2.1459e-009    5.7024e-007     3.59e-010      
  1.4             -1.5658e-009    6.2599e-007     2.47e-009      
  1.45            -1.3343e-009    6.8052e-007     6.087e-009     
  1.5             -2.6405e-009    7.335e-007      1.0575e-008    
  1.55            1.2231e-009     7.8279e-007     -2.0221e-008   
  1.6             2.4422e-009     8.3362e-007     -1.4241e-008   
  1.65            1.7392e-009     8.8166e-007     -3.341e-009    
  1.7             1.3402e-009     9.2686e-007     -8.743e-009    
  1.75            1.2426e-009     9.7033e-007     -8.27e-009     
  1.8             2.5952e-009     1.01183e-006    -1.313e-008    
END_DB

BEGIN_DB
 ICCAP_VAR VS         0              
 ICCAP_VAR VB         -1.8           
 ICCAP_VAR VD         1.8            

 #VG              IG              ID              IB             
  0               1.1551e-009     1.2632e-009     1.1149e-008    
  0.05            2.4527e-009     -3.046e-010     -1.6214e-008   
  0.1             2.1999e-009     1.3033e-009     -3.396e-009    
  0.15            -2.2474e-009    6.716e-010      1.4791e-008    
  0.2             -2.681e-010     -1.9197e-009    1.902e-009     
  0.25            -5.008e-010     -1.9822e-009    -1.125e-008    
  0.3             -7.167e-010     -2.0192e-009    -1.0414e-008   
  0.35            2.0062e-009     -1.3659e-009    -1.5612e-008   
  0.4             1.424e-009      2.0385e-009     -7.504e-009    
  0.45            -1.3154e-009    1.5226e-009     2.3566e-008    
  0.5             -1.2762e-009    2.24e-010       1.0804e-008    
  0.55            -2.5844e-009    4.423e-010      1.1589e-008    
  0.6             1.139e-010      -1.3277e-009    3.52e-010      
  0.65            2.1302e-009     2.5823e-009     -1.1241e-008   
  0.7             1.8374e-009     6.2861e-009     -5.945e-009    
  0.75            -1.2532e-009    1.1553e-008     -2.662e-009    
  0.8             -3.44e-011      3.0118e-008     -1.1411e-008   
  0.85            -5.674e-010     5.9936e-008     -1.1456e-008   
  0.9             1.8107e-009     1.08491e-007    -1.8342e-008   
  0.95            -8.115e-010     1.7754e-007     1.2485e-008    
  1               -1.1843e-009    2.713e-007      -9.412e-009    
  1.05            1.2843e-009     3.8834e-007     -2.5815e-008   
  1.1             2.7885e-009     5.3147e-007     -9.846e-009    
  1.15            4.338e-010      7.0525e-007     1.0196e-008    
  1.2             -1.8076e-009    9.0039e-007     1.5638e-008    
  1.25            -1.3968e-009    1.12018e-006    4.059e-009     
  1.3             -2.3768e-009    1.3647e-006     -1.7906e-008   
  1.35            -4.102e-010     1.6329e-006     -1.1266e-008   
  1.4             -8.595e-010     1.931e-006      -1.0767e-008   
  1.45            1.4513e-009     2.2462e-006     -1.2615e-008   
  1.5             1.2719e-009     2.5899e-006     -8.576e-009    
  1.55            2.7552e-009     2.9514e-006     -1.0508e-008   
  1.6             -1.5219e-009    3.3487e-006     1.7319e-008    
  1.65            -1.3253e-009    3.754e-006      6.557e-009     
  1.7             -2.6244e-009    4.1821e-006     1.0913e-008    
  1.75            -1.2692e-009    4.6263e-006     -9.516e-009    
  1.8             -6.19e-011      5.0753e-006     -1.1388e-008   
END_DB

