! VERSION = 6.00
BEGIN_HEADER
 ICCAP_INPUTS
  VG         V  B GROUND SMU4 0.001 LIN        2    0          1.8        6    0.36      
  VS         V  E GROUND SMU2 0.1 CON        0
  VD         V  S GROUND SMU1 0.1 LIN        1    0          1.8        37   0.05      
  VB         V  C GROUND SMU3 0.1 LIN        3    0          -0.9       2    -0.9      
 ICCAP_OUTPUTS
  ID         I  S GROUND SMU1 B
  IB         I  C GROUND SMU3 B
  IG         I  B GROUND SMU4 B
END_HEADER

BEGIN_DB
 ICCAP_VAR VG         0              
 ICCAP_VAR VS         0              
 ICCAP_VAR VB         0              

 #VD              ID              IB              IG             
  0               -7.512e-010     -2.596e-008     -6.854e-010    
  0.05            1.6157e-009     1.7098e-008     -1.8017e-009   
  0.1             -1.6762e-009    5.447e-009      -1.6148e-009   
  0.15            -2.0721e-009    -1.0838e-008    -1.617e-010    
  0.2             -2.1416e-009    -1.1154e-008    -3.746e-010    
  0.25            -2.1944e-009    -1.1055e-008    -5.827e-010    
  0.3             -2.2139e-009    -1.0697e-008    -7.789e-010    
  0.35            -1.5575e-009    -1.6355e-008    2.0552e-009    
  0.4             1.913e-009      -8.203e-009     1.4651e-009    
  0.45            6.329e-010      1.79e-008       -2.0845e-009   
  0.5             -1.9003e-009    3.422e-009      -1.423e-009    
  0.55            -5.485e-010     -1.718e-008     2.4833e-009    
  0.6             2.1915e-009     -4.138e-009     1.2001e-009    
  0.65            1.918e-009      1.051e-008      -1.583e-010    
  0.7             1.9926e-009     1.0242e-008     5.2e-012       
  0.75            2.0906e-009     1.0369e-008     1.695e-010     
  0.8             2.1919e-009     1.061e-008      3.513e-010     
  0.85            2.2727e-009     1.0418e-008     5.4e-010       
  0.9             2.3261e-009     1.0166e-008     7.124e-010     
  0.95            1.5804e-009     1.883e-008      -1.2671e-009   
  1               2.6e-010        1.2508e-008     -2.5777e-009   
  1.05            -2.1784e-009    6.17e-010       -1.0224e-009   
  1.1             -1.6732e-009    -1.2238e-008    1.5848e-009    
  1.15            2.3383e-009     -8.539e-009     8.428e-010     
  1.2             2.3142e-009     9.68e-009       9.838e-010     
  1.25            1.796e-009      1.2211e-008     -1.5031e-009   
  1.3             -1.3792e-009    8.84e-009       -1.8147e-009   
  1.35            -2.1728e-009    -1.1197e-008    -4.962e-010    
  1.4             -2.2126e-009    -1.0732e-008    -6.984e-010    
  1.45            -1.5219e-009    -1.8224e-008    1.2259e-009    
  1.5             -1.666e-010     -1.3326e-008    2.812e-009     
  1.55            2.0743e-009     1.0305e-008     1.438e-010     
  1.6             2.1762e-009     1.0689e-008     3.274e-010     
  1.65            2.2602e-009     1.0511e-008     5.093e-010     
  1.7             1.4236e-009     2.4018e-008     -1.2989e-009   
  1.75            9.22e-011       1.0926e-008     -2.6785e-009   
  1.8             -1.9895e-009    -1.0831e-008    -1.13e-011     
END_DB

BEGIN_DB
 ICCAP_VAR VG         0.36           
 ICCAP_VAR VS         0              
 ICCAP_VAR VB         0              

 #VD              ID              IB              IG             
  0               1.1762e-009     8.312e-009      1.2435e-009    
  0.05            2.7435e-009     -1.1695e-008    2.8379e-009    
  0.1             4.124e-009      1.8875e-008     -1.9758e-009   
  0.15            2.9875e-009     4.129e-009      -1.7201e-009   
  0.2             3.2714e-009     5.777e-009      -1.5249e-009   
  0.25            3.5017e-009     8.177e-009      -1.4154e-009   
  0.3             3.7431e-009     9.797e-009      -1.3524e-009   
  0.35            4.0002e-009     1.0844e-008     -1.317e-009    
  0.4             4.2507e-009     1.0915e-008     -1.2896e-009   
  0.45            4.5062e-009     1.1213e-008     -2.6545e-009   
  0.5             3.4972e-009     4.47e-010       -2.5309e-009   
  0.55            3.6873e-009     9.71e-010       -2.3467e-009   
  0.6             3.8878e-009     1.816e-009      -2.1113e-009   
  0.65            4.1234e-009     3.095e-009      -1.8513e-009   
  0.7             4.3369e-009     4.866e-009      -1.6251e-009   
  0.75            4.5829e-009     6.639e-009      -1.4685e-009   
  0.8             4.8471e-009     8.796e-009      -1.381e-009    
  0.85            5.1017e-009     1.0118e-008     -1.3347e-009   
  0.9             5.3593e-009     1.1027e-008     -1.3041e-009   
  0.95            5.6176e-009     1.0945e-008     -1.2791e-009   
  1               5.8717e-009     1.1916e-008     -2.6214e-009   
  1.05            4.8228e-009     5.02e-010       -2.4674e-009   
  1.1             5.0181e-009     1.323e-009      -2.2504e-009   
  1.15            5.2555e-009     2.594e-009      -1.9976e-009   
  1.2             5.5221e-009     4.017e-009      -1.7469e-009   
  1.25            5.7675e-009     5.596e-009      -1.5486e-009   
  1.3             6.024e-009      7.734e-009      -1.4235e-009   
  1.35            6.2799e-009     9.607e-009      -1.3546e-009   
  1.4             6.5701e-009     1.0644e-008     -1.3192e-009   
  1.45            6.8343e-009     1.1062e-008     -1.2933e-009   
  1.5             7.1165e-009     1.0972e-008     -2.6637e-009   
  1.55            5.4201e-009     -2.0085e-008    1.24e-009      
  1.6             6.9217e-009     -1.2154e-008    2.8412e-009    
  1.65            8.1014e-009     1.9162e-008     -1.9268e-009   
  1.7             6.9168e-009     4.364e-009      -1.6825e-009   
  1.75            7.1982e-009     6.145e-009      -1.5098e-009   
  1.8             7.5056e-009     8.456e-009      -1.3992e-009   
END_DB

BEGIN_DB
 ICCAP_VAR VG         0.72           
 ICCAP_VAR VS         0              
 ICCAP_VAR VB         0              

 #VD              ID              IB              IG             
  0               -4.5692e-008    -1.1264e-008    1.4727e-009    
  0.05            1.818e-005      1.0225e-008     -1.576e-009    
  0.1             2.5437e-005     9.999e-009      9.674e-010     
  0.15            2.8695e-005     -2.5266e-008    1.2511e-009    
  0.2             3.0401e-005     -1.1337e-008    -6.193e-010    
  0.25            3.2199e-005     2.3609e-008     -1.4323e-009   
  0.3             3.314e-005      1.6119e-008     -1.9203e-009   
  0.35            3.3459e-005     1.0691e-008     7.457e-010     
  0.4             3.4129e-005     -2.5048e-008    1.3191e-009    
  0.45            3.4968e-005     -1.0885e-008    -3.026e-010    
  0.5             3.6471e-005     1.9214e-008     -1.6525e-009   
  0.55            3.7326e-005     2.6744e-008     -1.343e-009    
  0.6             3.7728e-005     1.0229e-008     3.466e-010     
  0.65            3.7938e-005     -1.9983e-008    1.6546e-009    
  0.7             3.8655e-005     -2.5929e-008    1.2743e-009    
  0.75            3.9415e-005     -1.0907e-008    -4.66e-010     
  0.8             4.0886e-005     2.1226e-008     -1.5221e-009   
  0.85            4.0504e-005     1.0051e-008     1.0213e-009    
  0.9             4.1568e-005     -2.4483e-008    1.2408e-009    
  0.95            4.2305e-005     -1.1363e-008    -7.073e-010    
  1               4.3748e-005     2.4772e-008     -1.398e-009    
  1.05            4.3006e-005     9.49e-009       1.1926e-009    
  1.1             4.4347e-005     -2.0489e-008    1.9455e-009    
  1.15            4.516e-005      -1.1424e-008    -8.803e-010    
  1.2             4.6514e-005     2.6953e-008     -1.3376e-009   
  1.25            4.7113e-005     2.2132e-008     -1.7132e-009   
  1.3             4.6876e-005     1.0416e-008     8.734e-010     
  1.35            4.7536e-005     -2.666e-008     1.2712e-009    
  1.4             4.8273e-005     -1.2179e-008    -4.834e-010    
  1.45            4.9862e-005     1.9381e-008     -1.5063e-009   
  1.5             4.9273e-005     6.572e-009      1.0382e-009    
  1.55            5.0384e-005     -2.9518e-008    2.2612e-009    
  1.6             5.1188e-005     -1.8063e-008    -2.0216e-009   
  1.65            5.2671e-005     -1.091e-009     -2.5994e-009   
  1.7             5.254e-005      -2.5151e-008    -2.629e-009    
  1.75            5.269e-005      -1.4205e-008    1.0237e-009    
  1.8             5.3813e-005     -5.7864e-008    1.2402e-009    
END_DB

BEGIN_DB
 ICCAP_VAR VG         1.08           
 ICCAP_VAR VS         0              
 ICCAP_VAR VB         0              

 #VD              ID              IB              IG             
  0               9.1098e-007     -2.0804e-008    1.388e-009     
  0.05            0.00017157      1.0348e-008     2.4098e-009    
  0.1             0.00031124      -1.1106e-008    -5.311e-010    
  0.15            0.00041842      1.8085e-008     -1.7293e-009   
  0.2             0.00049392      1.0656e-008     6.488e-010     
  0.25            0.0005436       -2.0533e-008    1.6086e-009    
  0.3             0.00057976      -1.0968e-008    -8.601e-010    
  0.35            0.00060448      2.335e-008      -1.4337e-009   
  0.4             0.00062019      2.6935e-008     -1.336e-009    
  0.45            0.00062842      9.424e-009      1.1592e-009    
  0.5             0.00063892      -2.5516e-008    1.2509e-009    
  0.55            0.00064765      -1.0923e-008    -3.025e-010    
  0.6             0.00065754      1.5314e-008     -1.985e-009    
  0.65            0.00066042      1.0733e-008     1.9647e-009    
  0.7             0.00066693      -1.2047e-008    1.776e-010     
  0.75            0.00067738      1.0915e-008     -2.5399e-009   
  0.8             0.00068203      1.086e-008      -7e-012        
  0.85            0.00068422      -1.3919e-008    2.5802e-009    
  0.9             0.00069044      -1.1017e-008    -1.602e-010    
  0.95            0.00069929      1.3806e-008     -2.1662e-009   
  1               0.00070376      1.0227e-008     3.285e-010     
  1.05            0.00070621      -1.7289e-008    2.094e-009     
  1.1             0.00071176      -1.1232e-008    -5.531e-010    
  1.15            0.00071885      1.8462e-008     -1.7092e-009   
  1.2             0.00072235      1.0657e-008     6.639e-010     
  1.25            0.00072461      -2.08e-008      1.5937e-009    
  1.3             0.00073191      -1.2064e-008    -8.73e-010     
  1.35            0.00073821      2.2409e-008     -1.4266e-009   
  1.4             0.00074315      9.989e-009      -2.2611e-009   
  1.45            0.00074716      1.1262e-008     -1.8649e-009   
  1.5             0.0007517       1.366e-009      -2.6527e-009   
  1.55            0.00075644      -5.475e-009     -2.4618e-009   
  1.6             0.00075406      -1.735e-008     1.6163e-009    
  1.65            0.00076052      -6.0643e-008    1.6885e-009    
  1.7             0.00076713      -7.8344e-008    -2.0989e-009   
  1.75            0.00077267      -9.2045e-008    1.212e-010     
  1.8             0.00077546      -1.395e-007     -2.5233e-009   
END_DB

BEGIN_DB
 ICCAP_VAR VG         1.44           
 ICCAP_VAR VS         0              
 ICCAP_VAR VB         0              

 #VD              ID              IB              IG             
  0               -1.1248e-007    2.2717e-008     -1.2864e-009   
  0.05            0.00030219      3.844e-009      -1.3365e-009   
  0.1             0.00057761      1.6201e-008     -1.8948e-009   
  0.15            0.00081844      1.0726e-008     2.0138e-009    
  0.2             0.00102192      -1.1643e-008    1.215e-010     
  0.25            0.0011914       1.0658e-008     -8.775e-010    
  0.3             0.001325        2.387e-008      -1.4162e-009   
  0.35            0.0014264       1.0374e-008     9.452e-010     
  0.4             0.0015037       -2.4996e-008    1.3211e-009    
  0.45            0.0015656       -1.0197e-008    -1.16e-009     
  0.5             0.0016095       2.7861e-008     -1.3212e-009   
  0.55            0.0016376       9.501e-009      1.2209e-009    
  0.6             0.0016648       -2.4897e-008    1.2412e-009    
  0.65            0.0016855       -1.0842e-008    -3.789e-010    
  0.7             0.0017051       1.6207e-008     -1.8951e-009   
  0.75            0.0017156       1.0788e-008     2.0138e-009    
  0.8             0.0017277       -1.1607e-008    1.153e-010     
  0.85            0.0017448       1.1322e-008     -2.4873e-009   
  0.9             0.0017541       1.0526e-008     5.29e-011      
  0.95            0.0017591       -1.4354e-008    2.5065e-009    
  1               0.0017701       -1.0888e-008    -2.278e-010    
  1.05            0.0017831       1.4474e-008     -2.0765e-009   
  1.1             0.0017868       1.092e-008      1.9061e-009    
  1.15            0.0017956       -1.2253e-008    2.227e-010     
  1.2             0.0018088       1.0839e-008     -2.5937e-009   
  1.25            0.0018155       1.0908e-008     -6.48e-011     
  1.3             0.0018183       -1.3592e-008    2.6508e-009    
  1.35            0.0018271       -1.213e-008     -7.46e-011     
  1.4             0.0018385       1.0952e-008     -2.2537e-009   
  1.45            0.0018455       1.2845e-008     -1.8566e-009   
  1.5             0.0018528       3.956e-009      -2.6585e-009   
  1.55            0.0018595       -1.183e-009     -2.4643e-009   
  1.6             0.0018596       -1.0025e-008    1.6153e-009    
  1.65            0.0018691       -5.1742e-008    1.676e-009     
  1.7             0.0018774       -6.6334e-008    -2.0972e-009   
  1.75            0.0018853       -7.8535e-008    1.258e-010     
  1.8             0.0018888       -1.3457e-007    2.8397e-009    
END_DB

BEGIN_DB
 ICCAP_VAR VG         1.8            
 ICCAP_VAR VS         0              
 ICCAP_VAR VB         0              

 #VD              ID              IB              IG             
  0               -1.1683e-007    2.6393e-008     -1.4289e-009   
  0.05            0.00038154      4.68e-010       -1.6992e-009   
  0.1             0.00074292      1.0698e-008     6.697e-010     
  0.15            0.00107666      -2.0655e-008    1.5771e-009    
  0.2             0.0013774       7.729e-009      2.855e-009     
  0.25            0.0016422       -1.3942e-008    1.4898e-009    
  0.3             0.0018726       -1.1137e-008    -9.415e-010    
  0.35            0.0020681       2.5061e-008     -1.3835e-009   
  0.4             0.0022292       9.931e-009      1.0117e-009    
  0.45            0.0023626       -2.5689e-008    1.2898e-009    
  0.5             0.0024717       -2.4622e-008    1.2379e-009    
  0.55            0.0025595       -1.0899e-008    -4.192e-010    
  0.6             0.0026325       1.6978e-008     -1.8416e-009   
  0.65            0.0026868       1.0592e-008     5.547e-010     
  0.7             0.0027284       -1.9043e-008    1.735e-009     
  0.75            0.0027664       -1.13e-008      -7.898e-010    
  0.8             0.0027983       2.1997e-008     -1.4845e-009   
  0.85            0.0028198       1.0657e-008     8.613e-010     
  0.9             0.0028384       -2.4133e-008    1.3794e-009    
  0.95            0.0028606       -1.0582e-008    -1.0621e-009   
  1               0.0028773       2.7031e-008     -1.3432e-009   
  1.05            0.0028914       1.5603e-008     -1.9316e-009   
  1.1             0.0029013       1.0614e-008     1.987e-009     
  1.15            0.0029132       -1.1812e-008    1.468e-010     
  1.2             0.0029302       1.1052e-008     -2.5142e-009   
  1.25            0.0029399       1.0481e-008     2.82e-011      
  1.3             0.0029457       -1.4475e-008    2.5341e-009    
  1.35            0.002958        -1.1478e-008    -1.995e-010    
  1.4             0.0029716       1.2925e-008     -2.1117e-009   
  1.45            0.0029806       1.5672e-008     -1.7155e-009   
  1.5             0.00299         6.888e-009      -2.6128e-009   
  1.55            0.0029989       5.269e-009      -2.3505e-009   
  1.6             0.0030071       3.045e-009      -1.9601e-009   
  1.65            0.0030145       -1.0538e-008    4.74e-010      
  1.7             0.003019        -5.3088e-008    1.8564e-009    
  1.75            0.0030299       -6.5722e-008    -2.0126e-009   
  1.8             0.0030387       -7.5624e-008    1.22e-011      
END_DB

BEGIN_DB
 ICCAP_VAR VG         0              
 ICCAP_VAR VS         0              
 ICCAP_VAR VB         -0.9           

 #VD              ID              IB              IG             
  0               9.567e-010      1.7633e-008     1.0363e-009    
  0.05            -1.0252e-009    -2.5198e-008    1.5042e-009    
  0.1             2.3475e-009     -8.543e-009     9.093e-010     
  0.15            1.7411e-009     1.339e-008      -1.5663e-009   
  0.2             -1.4452e-009    7.577e-009      -1.7654e-009   
  0.25            -2.1431e-009    -1.1177e-008    -4.1e-010      
  0.3             -2.1974e-009    -1.098e-008     -6.206e-010    
  0.35            -1.4878e-009    -1.9085e-008    1.2369e-009    
  0.4             -1.089e-010     -1.2402e-008    2.8429e-009    
  0.45            2.0498e-009     1.0307e-008     9.77e-011      
  0.5             2.1545e-009     1.0634e-008     2.854e-010     
  0.55            2.2481e-009     1.0523e-008     4.757e-010     
  0.6             1.3897e-009     2.417e-008      -1.3015e-009   
  0.65            7.44e-011       1.1029e-008     -2.6844e-009   
  0.7             -1.4398e-009    -2.0874e-008    1.2507e-009    
  0.75            -3.08e-011      -1.131e-008     2.8553e-009    
  0.8             6.68e-010       1.856e-008      -1.9982e-009   
  0.85            -1.8302e-009    3.982e-009      -1.476e-009    
  0.9             -1.9759e-009    -1.0941e-008    6e-013         
  0.95            -2.0815e-009    -1.0938e-008    -2.167e-010    
  1               -2.1476e-009    -1.1196e-008    -4.364e-010    
  1.05            -2.1986e-009    -1.0843e-008    -6.533e-010    
  1.1             -1.5021e-009    -1.8328e-008    1.2335e-009    
  1.15            -1.299e-010     -1.2807e-008    2.8321e-009    
  1.2             2.0612e-009     1.0322e-008     1.163e-010     
  1.25            2.1642e-009     1.0588e-008     3.072e-010     
  1.3             2.254e-009      1.0417e-008     5.017e-010     
  1.35            2.3198e-009     1.0326e-008     6.832e-010     
  1.4             1.5506e-009     1.8794e-008     -1.88e-009     
  1.45            -1.7334e-009    4.716e-009      -1.5497e-009   
  1.5             -2.0233e-009    -1.0885e-008    -9.05e-011     
  1.55            -2.1107e-009    -1.1144e-008    -3.03e-010     
  1.6             -2.1712e-009    -1.1093e-008    -5.242e-010    
  1.65            -2.2106e-009    -1.0643e-008    -7.34e-010     
  1.7             -1.5397e-009    -1.6751e-008    1.2246e-009    
  1.75            -2.06e-010      -1.379e-008     2.8008e-009    
  1.8             2.2376e-009     1.0733e-008     1.1294e-009    
END_DB

BEGIN_DB
 ICCAP_VAR VG         0.36           
 ICCAP_VAR VS         0              
 ICCAP_VAR VB         -0.9           

 #VD              ID              IB              IG             
  0               -1.2734e-009    1.0551e-008     -1.3304e-009   
  0.05            -1.9691e-009    1.1273e-008     -1.3225e-009   
  0.1             -1.853e-009     -1.1162e-008    1.344e-010     
  0.15            -1.9813e-009    -1.0901e-008    -3.13e-011     
  0.2             -2.0808e-009    -1.0977e-008    -2.515e-010    
  0.25            -2.1474e-009    -1.1045e-008    -4.759e-010    
  0.3             -2.1955e-009    -1.0652e-008    -6.919e-010    
  0.35            -1.4995e-009    -1.7799e-008    1.2264e-009    
  0.4             -1.521e-010     -1.3378e-008    2.8115e-009    
  0.45            2.0949e-009     1.0237e-008     1.559e-010     
  0.5             2.2014e-009     1.0583e-008     3.412e-010     
  0.55            2.2915e-009     1.0248e-008     5.382e-010     
