! VERSION = 6.00
BEGIN_HEADER
 ICCAP_INPUTS
  VG         V  B GROUND SMU4 0.001 LIN        1    0          1.8        37   0.05      
  VS         V  E GROUND SMU2 0.1 CON        0
  VB         V  C GROUND SMU3 0.1 LIN        3    0          -1.8       3    -0.9      
  VD         V  S GROUND SMU1 0.1 LIN        2    0.1        1.8        2    1.7       
 ICCAP_OUTPUTS
  IG         I  B GROUND SMU4 B
  ID         I  S GROUND SMU1 B
  IB         I  C GROUND SMU3 B
END_HEADER

BEGIN_DB
 ICCAP_VAR VS         0              
 ICCAP_VAR VB         0              
 ICCAP_VAR VD         0.1            

 #VG              IG              ID              IB             
  0               8.273e-010      8.098e-010      1.0137e-008    
  0.05            1.2438e-009     -1.5483e-009    -1.7942e-008   
  0.1             2.8436e-009     -1.557e-010     -1.278e-008    
  0.15            1.183e-010      2.1021e-009     1.0155e-008    
  0.2             3.005e-010      2.2247e-009     1.0656e-008    
  0.25            4.933e-010      2.3914e-009     1.0607e-008    
  0.3             -2.1761e-009    1.0074e-009     1.7454e-008    
  0.35            -1.9124e-009    1.1124e-009     2.887e-009     
  0.4             -1.6749e-009    6.9436e-009     4.504e-009     
  0.45            2.7671e-009     3.1047e-008     2.7187e-008    
  0.5             1.532e-009      1.2762e-007     4.48e-009      
  0.55            1.2796e-009     4.9989e-007     -8.586e-009    
  0.6             2.8682e-009     1.8226e-006     2.7189e-008    
  0.65            2.762e-009      5.7736e-006     1.33e-010      
  0.7             -2.5146e-009    1.5314e-005     1.017e-008     
  0.75            -5.638e-010     3.3394e-005     -1.113e-008    
  0.8             -9.777e-010     6.2344e-005     -1.1056e-008   
  0.85            2.584e-010      9.9661e-005     -1.2482e-008   
  0.9             -1.9957e-009    0.00014735      -1.1382e-008   
  0.95            -1.0413e-009    0.0001984       -1.0853e-008   
  1               1.937e-010      0.00024979      -1.1926e-008   
  1.05            1.406e-009      0.00030275      -2.3593e-008   
  1.1             1.256e-009      0.00035494      -8.279e-009    
  1.15            2.7596e-009     0.00040448      -1.1276e-008   
  1.2             5.367e-010      0.00045322      1.0595e-008    
  1.25            -1.7668e-009    0.00049824      2.2997e-008    
  1.3             -1.3997e-009    0.00054052      5.697e-009     
  1.35            -1.3062e-009    0.00058034      9.922e-009     
  1.4             -2.5383e-009    0.00061759      1.0879e-008    
  1.45            -1.9836e-009    0.00065203      8.65e-010      
  1.5             -1.4938e-009    0.00068444      3.812e-009     
  1.55            -1.3357e-009    0.00071469      8.809e-009     
  1.6             -2.6598e-009    0.00074306      1.0994e-008    
  1.65            -2.2345e-009    0.00076877      2.75e-010      
  1.7             -1.6503e-009    0.00079334      2.567e-009     
  1.75            -1.3735e-009    0.00081611      6.465e-009     
  1.8             -1.2972e-009    0.00083713      1.0532e-008    
END_DB

BEGIN_DB
 ICCAP_VAR VS         0              
 ICCAP_VAR VB         0              
 ICCAP_VAR VD         1.8            

 #VG              IG              ID              IB             
  0               2.278e-010      4.255e-010      1.0196e-008    
  0.05            1.7129e-009     -9.274e-010     -2.3365e-008   
  0.1             1.6851e-009     1.6358e-009     -8.963e-009    
  0.15            3.152e-010      2.2287e-009     1.072e-008     
  0.2             5.086e-010      2.3912e-009     1.0705e-008    
  0.25            -2.1567e-009    9.92e-010       1.7731e-008    
  0.3             1.4862e-009     2.132e-009      -1.0964e-008   
  0.35            1.3556e-009     7.715e-009      -8.363e-009    
  0.4             -8.165e-010     2.977e-008      -1.8e-010      
  0.45            -2.6167e-009    1.3597e-007     1.0337e-008    
  0.5             -2.1247e-009    5.6855e-007     -5.65e-010     
  0.55            -8.989e-010     2.1363e-006     -5.5e-009      
  0.6             -1.2795e-009    7.114e-006      -1.7621e-008   
  0.65            2.7491e-009     1.9168e-005     -2.8771e-008   
  0.7             2.8731e-009     4.4886e-005     -3.2089e-008   
  0.75            2.5987e-009     8.9385e-005     -5.8132e-008   
  0.8             2.2764e-009     0.00015594      -8.6865e-008   
  0.85            -2.0506e-009    0.00024569      -1.0745e-007   
  0.9             -1.5194e-009    0.00035583      -1.4597e-007   
  0.95            -1.3456e-009    0.00048211      -1.6824e-007   
  1               -2.6856e-009    0.00062083      -1.885e-007    
  1.05            -2.2713e-009    0.00076798      -2.183e-007    
  1.1             -1.6733e-009    0.00092451      -2.3051e-007   
  1.15            -1.3847e-009    0.00108579      -2.3705e-007   
  1.2             1.4702e-009     0.001248        -2.2856e-007   
  1.25            1.2736e-009     0.001417        -2.611e-007    
  1.3             2.8124e-009     0.0015866       -2.633e-007    
  1.35            2.2973e-009     0.0017601       -2.5247e-007   
  1.4             1.6182e-009     0.0019325       -2.5322e-007   
  1.45            1.309e-009      0.0021052       -2.5112e-007   
  1.5             2.8731e-009     0.0022763       -2.4434e-007   
  1.55            2.5405e-009     0.0024516       -2.2924e-007   
  1.6             1.8473e-009     0.0026228       -2.2406e-007   
  1.65            1.3736e-009     0.0027937       -2.209e-007    
  1.7             1.2555e-009     0.0029642       -2.1122e-007   
  1.75            2.7255e-009     0.0031339       -2.0573e-007   
  1.8             2.1047e-009     0.0033042       -1.8719e-007   
END_DB

BEGIN_DB
 ICCAP_VAR VS         0              
 ICCAP_VAR VB         -0.9           
 ICCAP_VAR VD         0.1            

 #VG              IG              ID              IB             
  0               -1.3666e-009    -1.5017e-009    1.026e-008     
  0.05            -1.225e-009     -2.1228e-009    1.0872e-008    
  0.1             1.3936e-009     -1.1689e-009    -2.5826e-008   
  0.15            1.0331e-009     2.3283e-009     -8.243e-009    
  0.2             -1.474e-009     9.973e-010      2.5985e-008    
  0.25            -1.8624e-009    -1.3633e-009    9.413e-009     
  0.3             -5.831e-010     -2.2444e-009    -1.1029e-008   
  0.35            -7.826e-010     -2.2585e-009    -1.0671e-008   
  0.4             2.0367e-009     -1.5409e-009    -1.596e-008    
  0.45            2.4201e-009     1.3317e-009     -8.324e-009    
  0.5             1.103e-010      3.3375e-009     1.0125e-008    
  0.55            3.031e-010      8.1027e-009     1.0503e-008    
  0.6             -2.0685e-009    2.6981e-008     -2.0553e-008   
  0.65            5.308e-010      1.3116e-007     -1.0789e-008   
  0.7             -1.773e-009     5.7091e-007     1.7825e-008    
  0.75            -2.4229e-009    2.0936e-006     -1.8385e-008   
  0.8             -4.574e-010     6.6736e-006     -1.0785e-008   
  0.85            2.7615e-009     1.746e-005      -1.1138e-008   
  0.9             8.352e-010      3.7513e-005     1.0764e-008    
  0.95            1.1992e-009     6.7716e-005     9.563e-009     
  1               -1.3226e-009    0.000109519     2.7259e-008    
  1.05            -1.5234e-009    0.00015724      1.0687e-008    
  1.1             -1.3386e-009    0.00020931      8.587e-009     
  1.15            -2.6639e-009    0.00026232      1.0949e-008    
  1.2             -2.2338e-009    0.00031444      5.8e-010       
  1.25            -1.6608e-009    0.00036542      2.617e-009     
  1.3             -1.3761e-009    0.00041395      6.622e-009     
  1.35            -1.2876e-009    0.00045988      1.0707e-008    
  1.4             -2.4312e-009    0.00050336      1.1405e-008    
  1.45            -1.8376e-009    0.00054325      1.536e-009     
  1.5             -1.4344e-009    0.00058122      5.037e-009     
  1.55            -1.3109e-009    0.00061642      9.55e-009      
  1.6             -2.5724e-009    0.00064926      1.0801e-008    
  1.65            -2.0503e-009    0.00067936      7.61e-010      
  1.7             -1.5276e-009    0.00070766      3.607e-009     
  1.75            -1.3411e-009    0.00073405      8.463e-009     
  1.8             -2.6702e-009    0.00075855      1.0925e-008    
END_DB

BEGIN_DB
 ICCAP_VAR VS         0              
 ICCAP_VAR VB         -0.9           
 ICCAP_VAR VD         1.8            

 #VG              IG              ID              IB             
  0               2.6426e-009     2.3693e-009     -1.6691e-008   
  0.05            3.807e-010      2.2281e-009     1.06e-008      
  0.1             5.725e-010      2.3174e-009     1.0676e-008    
  0.15            7.501e-010      2.3609e-009     1.0246e-008    
  0.2             -1.8097e-009    1.6189e-009     1.7544e-008    
  0.25            -1.6132e-009    -1.688e-009     5.305e-009     
  0.3             1.2587e-009     -1.456e-009     -2.0163e-008   
  0.35            2.8673e-009     8.93e-011       -1.1317e-008   
  0.4             3.83e-011       2.7651e-009     1.0302e-008    
  0.45            2.134e-010      5.6651e-009     1.0409e-008    
  0.5             2.7981e-009     1.8006e-008     2.6889e-008    
  0.55            1.3823e-009     8.1076e-008     1.0592e-008    
  0.6             2.8726e-009     3.606e-007      -1.1847e-008   
  0.65            1.5635e-009     1.4556e-006     7.305e-009     
  0.7             1.9782e-009     5.2638e-006     5.034e-009     
  0.75            -5.068e-010     1.585e-005      -4.08e-010     
  0.8             -9.37e-010      3.9345e-005     -3.914e-008    
  0.85            -1.3316e-009    8.2408e-005     -6.0352e-008   
  0.9             -2.71e-009      0.00014615      -8.6716e-008   
  0.95            1.2383e-009     0.00023368      -1.1306e-007   
  1               2.606e-009      0.00034027      -1.4696e-007   
  1.05            1.9248e-009     0.00046649      -1.617e-007    
  1.1             1.404e-009      0.00060542      -1.8947e-007   
  1.15            1.2593e-009     0.00075439      -2.0676e-007   
  1.2             2.7583e-009     0.00090993      -2.2329e-007   
  1.25            2.1752e-009     0.00107397      -2.2318e-007   
  1.3             -1.8758e-009    0.0012449       -2.5342e-007   
  1.35            -1.4406e-009    0.0014132       -2.2606e-007   
  1.4             -1.3216e-009    0.001584        -2.2167e-007   
  1.45            -2.6047e-009    0.0017564       -2.1864e-007   
  1.5             -2.0831e-009    0.0019272       -2.2572e-007   
  1.55            -1.5473e-009    0.0021005       -2.1798e-007   
  1.6             -1.3462e-009    0.0022728       -2.0771e-007   
  1.65            -2.6795e-009    0.0024457       -1.9761e-007   
  1.7             -2.3079e-009    0.0026149       -2.0067e-007   
  1.75            -1.702e-009     0.0027863       -1.9089e-007   
  1.8             -1.3882e-009    0.0029561       -1.7938e-007   
END_DB

BEGIN_DB
 ICCAP_VAR VS         0              
 ICCAP_VAR VB         -1.8           
 ICCAP_VAR VD         0.1            

 #VG              IG              ID              IB             
  0               -4.723e-010     -6.269e-010     -1.9167e-008   
  0.05            -2.0592e-009    6.429e-010      1.8453e-008    
  0.1             -1.4429e-009    -1.8996e-009    3.538e-009     
  0.15            4.74e-011       -1.9882e-009    -1.0856e-008   
  0.2             -1.595e-010     -2.1042e-009    -1.0787e-008   
  0.25            -3.736e-010     -2.1831e-009    -1.1007e-008   
  0.3             -5.868e-010     -2.2419e-009    -1.092e-008    
  0.35            -7.78e-010      -2.2644e-009    -1.0903e-008   
  0.4             -9.219e-010     -2.2462e-009    -1.0284e-008   
  0.45            1.7718e-009     -1.6386e-009    -1.3465e-008   
  0.5             1.6537e-009     1.7734e-009     -9.083e-009    
  0.55            2.8e-010        2.6465e-009     1.0437e-008    
  0.6             4.693e-010      4.5726e-009     1.0423e-008    
  0.65            -2.0416e-009    1.0042e-008     -1.9764e-008   
  0.7             -1.539e-009     5.3395e-008     3.435e-009     
  0.75            1.2422e-009     2.3848e-007     -2.0747e-008   
  0.8             1.172e-010      1.03266e-006    1.0515e-008    
  0.85            -1.4144e-009    3.6668e-006     -1.0823e-008   
  0.9             -1.3041e-009    1.07903e-005    1.0112e-008    
  0.95            2.031e-010      2.5069e-005     1.0543e-008    
  1               -2.244e-010     5.0107e-005     -1.0882e-008   
  1.05            -7.43e-010      8.5856e-005     -1.1013e-008   
  1.1             -2.714e-009     0.0001301       -1.0417e-008   
  1.15            1.2762e-009     0.00017871      -2.5222e-008   
  1.2             2.8003e-009     0.00023052      -9.633e-009    
  1.25            4.292e-010      0.00028452      1.0253e-008    
  1.3             -1.902e-009     0.00033598      1.6105e-008    
  1.35            -1.461e-009     0.0003852       4.482e-009     
  1.4             -1.3195e-009    0.0004319       9.308e-009     
  1.45            -2.6031e-009    0.00047594      1.0815e-008    
  1.5             -2.1199e-009    0.00051651      6.56e-010      
  1.55            -9.247e-010     0.00055499      -1.1066e-008   
  1.6             1.4815e-009     0.00058977      -1.3455e-008   
  1.65            1.2663e-009     0.00062329      -8.508e-009    
  1.7             2.786e-009      0.00065389      -1.0195e-008   
  1.75            4.679e-010      0.00068341      1.028e-008     
  1.8             -1.8473e-009    0.00071015      1.6736e-008    
END_DB

BEGIN_DB
 ICCAP_VAR VS         0              
 ICCAP_VAR VB         -1.8           
 ICCAP_VAR VD         1.8            

 #VG              IG              ID              IB             
  0               -9.35e-011      2.784e-010      9.551e-009     
  0.05            -3.135e-010     -2.1653e-009    -1.1218e-008   
  0.1             -5.181e-010     -2.2243e-009    -1.1072e-008   
  0.15            -7.233e-010     -2.2576e-009    -1.0602e-008   
  0.2             1.24e-009       -1.5675e-009    -1.697e-008    
  0.25            2.8231e-009     -2.082e-010     -1.3583e-008   
  0.3             -1.292e-009     1.528e-009      2.0248e-008    
  0.35            -2.6404e-009    2.063e-010      1.1817e-008    
  0.4             -9.616e-010     -2.1387e-009    3.79e-010      
  0.45            1.7005e-009     -1.1523e-009    -1.2644e-008   
  0.5             1.4792e-009     2.9738e-009     -8.922e-009    
  0.55            2.8658e-009     1.3673e-008     2.1973e-008    
  0.6             2.7551e-009     6.108e-008      1.5e-010       
  0.65            2.8683e-009     2.7884e-007     -1.1695e-008   
  0.7             1.9063e-009     1.1633e-006     9.456e-009     
  0.75            -2.488e-009     4.5182e-006     6.475e-009     
  0.8             1.3117e-009     1.3398e-005     -2.1076e-008   
  0.85            2.8708e-009     3.4043e-005     -3.3061e-008   
  0.9             2.5812e-009     7.3238e-005     -4.5159e-008   
  0.95            2.0784e-009     0.00013421      -7.0372e-008   
  1               1.3252e-009     0.00021981      -9.4458e-008   
  1.05            -1.5567e-009    0.00032574      -1.1571e-007   
  1.1             -1.3483e-009    0.00045141      -1.4368e-007   
  1.15            -2.6836e-009    0.00058912      -1.6219e-007   
  1.2             -2.3368e-009    0.00073631      -1.9036e-007   
  1.25            -1.7531e-009    0.00089266      -2.0201e-007   
  1.3             -1.3981e-009    0.00105435      -2.0821e-007   
  1.35            -1.7e-010       0.0012187       -2.3036e-007   
  1.4             -6.833e-010     0.0013866       -2.3449e-007   
  1.45            -1.0552e-009    0.0015583       -2.3434e-007   
  1.5             -1.4581e-009    0.0017315       -2.3352e-007   
  1.55            -1.8144e-009    0.0019016       -2.3072e-007   
  1.6             -2.0551e-009    0.0020718       -2.2457e-007   
  1.65            -2.4237e-009    0.0022432       -2.1746e-007   
  1.7             -2.6806e-009    0.0024141       -2.0992e-007   
  1.75            -2.6979e-009    0.0025846       -1.9871e-007   
  1.8             -2.4011e-009    0.0027546       -1.88e-007     
END_DB

