! VERSION = 6.00
BEGIN_HEADER
 ICCAP_INPUTS
  VG         V  B GROUND SMU4 0.001 LIN        2    0          1.8        6    0.36      
  VS         V  E GROUND SMU2 0.1 CON        0
  VD         V  S GROUND SMU1 0.1 LIN        1    0          1.8        37   0.05      
  VB         V  C GROUND SMU3 0.1 LIN        3    0          -0.9       2    -0.9      
 ICCAP_OUTPUTS
  ID         I  S GROUND SMU1 B
  IB         I  C GROUND SMU3 B
  IG         I  B GROUND SMU4 B
END_HEADER

BEGIN_DB
 ICCAP_VAR VG         0              
 ICCAP_VAR VS         0              
 ICCAP_VAR VB         0              

 #VD              ID              IB              IG             
  0               8.31e-010       2.4329e-008     9.167e-010     
  0.05            -1.2874e-009    -2.134e-008     1.275e-009     
  0.1             2.0908e-009     -1.1368e-008    1.2179e-009    
  0.15            1.9426e-009     1.0478e-008     -1.36e-010     
  0.2             9.29e-010       2.5539e-008     -1.4699e-009   
  0.25            -2.2009e-009    7.322e-009      -8.283e-010    
  0.3             -1.6142e-009    -1.243e-008     1.6495e-009    
  0.35            2.3025e-009     -9.756e-009     7.503e-010     
  0.4             2.3129e-009     8.365e-009      9.041e-010     
  0.45            2.2462e-009     9.392e-009      1.0457e-009    
  0.5             2.1012e-009     1.0719e-008     1.1954e-009    
  0.55            1.9307e-009     1.0458e-008     -1.676e-010    
  0.6             9.128e-010      2.5182e-008     -1.4859e-009   
  0.65            -2.2015e-009    6.833e-009      -8.103e-010    
  0.7             -1.6043e-009    -1.2741e-008    1.6872e-009    
  0.75            2.2988e-009     -9.758e-009     7.226e-010     
  0.8             1.5749e-009     1.5148e-008     -1.739e-009    
  0.85            -2.1293e-009    -5.734e-009     -1.0104e-009   
  0.9             -1.012e-009     -2.2888e-008    1.4258e-009    
  0.95            2.3076e-009     -9.843e-009     9.365e-010     
  1               1.7621e-009     1.1475e-008     -1.4866e-009   
  1.05            -2.2024e-009    7.009e-009      -8.048e-010    
  1.1             -1.6044e-009    -1.2686e-008    1.683e-009     
  1.15            2.2977e-009     -9.798e-009     7.233e-010     
  1.2             2.3155e-009     8.487e-009      8.796e-010     
  1.25            2.2658e-009     9.032e-009      1.0202e-009    
  1.3             2.1278e-009     9.436e-009      1.1707e-009    
  1.35            1.9218e-009     1.0448e-008     -1.804e-010    
  1.4             8.953e-010      2.4733e-008     -1.507e-009    
  1.45            -2.2037e-009    6.715e-009      -7.836e-010    
  1.5             -1.5938e-009    -1.2995e-008    1.7218e-009    
  1.55            2.2929e-009     -9.725e-009     7.074e-010     
  1.6             1.5571e-009     1.5751e-008     -1.2651e-009   
  1.65            2.587e-010      9.956e-009      -2.5828e-009   
  1.7             -2.1717e-009    5.18e-010       -9.295e-010    
  1.75            -9.425e-010     -2.2287e-008    1.5019e-009    
  1.8             2.3158e-009     -9.665e-009     8.579e-010     
END_DB

BEGIN_DB
 ICCAP_VAR VG         0.36           
 ICCAP_VAR VS         0              
 ICCAP_VAR VB         0              

 #VD              ID              IB              IG             
  0               -5.989e-010     -1.8727e-008    2.54e-010      
  0.05            2.3628e-009     -2.0689e-008    1.5942e-009    
  0.1             2.6517e-009     -9.888e-009     1.4129e-009    
  0.15            2.734e-009      -9.867e-009     1.3092e-009    
  0.2             2.789e-009      -1.0262e-008    2.7591e-009    
  0.25            4.1833e-009     1.1509e-008     1.7262e-009    
  0.3             5.0804e-009     1.054e-008      3.821e-010     
  0.35            5.3199e-009     9.871e-009      5.74e-010      
  0.4             5.5354e-009     9.137e-009      7.479e-010     
  0.45            5.7323e-009     8.403e-009      9.006e-010     
  0.5             5.4977e-009     1.1968e-008     -1.5416e-009   
  0.55            3.6669e-009     6.417e-009      -1.4158e-009   
  0.6             4.0557e-009     8.255e-009      -1.3588e-009   
  0.65            4.4406e-009     9.12e-009       -1.3303e-009   
  0.7             4.8394e-009     9.504e-009      -1.2997e-009   
  0.75            5.3062e-009     8.583e-009      -2.683e-009    
  0.8             3.8474e-009     -1.8653e-008    2.2462e-009    
  0.85            6.2435e-009     -7.182e-009     1.9207e-009    
  0.9             6.4334e-009     -9.376e-009     1.6439e-009    
  0.95            6.6699e-009     -9.983e-009     1.4417e-009    
  1               6.9638e-009     -9.642e-009     1.3289e-009    
  1.05            7.2167e-009     -1.0134e-008    2.7434e-009    
  1.1             8.7958e-009     1.145e-008      1.6897e-009    
  1.15            9.8745e-009     1.0537e-008     3.455e-010     
  1.2             1.03448e-008    1.0013e-008     5.404e-010     
  1.25            1.08273e-008    9.355e-009      7.222e-010     
  1.3             1.12848e-008    8.59e-009       8.729e-010     
  1.35            9.591e-009      -9.433e-009     -2.097e-009    
  1.4             1.1828e-008     1.0264e-008     -5.62e-011     
  1.45            1.1713e-008     -1.07e-008      2.8063e-009    
  1.5             1.2136e-008     -9.818e-009     2.8129e-009    
  1.55            1.2639e-008     -1.9437e-008    2.6268e-009    
  1.6             1.1462e-008     -1.2716e-008    1.4012e-009    
  1.65            1.149e-008      -1.137e-008     -5.882e-010    
  1.7             1.4574e-008     1.2e-008        -2.0319e-009   
  1.75            1.6961e-008     1.0186e-008     -1.28e-011     
  1.8             1.6907e-008     -1.0984e-008    2.7953e-009    
END_DB

BEGIN_DB
 ICCAP_VAR VG         0.72           
 ICCAP_VAR VS         0              
 ICCAP_VAR VB         0              

 #VD              ID              IB              IG             
  0               4.9431e-008     -1.1234e-008    -1.01e-009     
  0.05            1.4549e-005     9.077e-009      3.68e-011      
  0.1             2.0985e-005     1.3434e-008     -1.9096e-009   
  0.15            2.3521e-005     1.0246e-008     7.231e-010     
  0.2             2.5124e-005     -2.2065e-008    1.3063e-009    
  0.25            2.6825e-005     -1.9956e-008    1.9386e-009    
  0.3             2.8089e-005     -1.286e-008     1.4184e-009    
  0.35            2.9545e-005     -2.2596e-008    2.264e-009     
  0.4             3.0996e-005     -1.1315e-008    -5.854e-010    
  0.45            3.2765e-005     7.174e-009      -1.3349e-009   
  0.5             3.2978e-005     9.461e-009      1.4012e-009    
  0.55            3.4858e-005     -1.4618e-008    1.5498e-009    
  0.6             3.6874e-005     -9.723e-009     -9.665e-010    
  0.65            3.8501e-005     9.386e-009      -2.6555e-009   
  0.7             3.9681e-005     1.02e-008       7.4e-011       
  0.75            4.0471e-005     -1.5968e-008    1.9881e-009    
  0.8             4.1842e-005     -1.3114e-008    1.4415e-009    
  0.85            4.3383e-005     -2.2778e-008    2.3026e-009    
  0.9             4.5106e-005     -1.1297e-008    -5.624e-010    
  0.95            4.7394e-005     2.3142e-008     -1.3971e-009   
  1               4.7535e-005     8.4e-009        1.1442e-009    
  1.05            4.9669e-005     -2.0026e-008    1.9599e-009    
  1.1             5.1062e-005     -1.3058e-008    1.4224e-009    
  1.15            5.281e-005      -2.2632e-008    2.2789e-009    
  1.2             5.4719e-005     -1.1471e-008    -5.796e-010    
  1.25            5.7102e-005     6.531e-009      -1.338e-009    
  1.3             5.901e-005      1.9305e-008     -1.6524e-009   
  1.35            5.9784e-005     8.356e-009      8.778e-010     
  1.4             6.1356e-005     -2.5408e-008    2.4769e-009    
  1.45            6.3468e-005     -1.4937e-008    -4.202e-010    
  1.5             6.617e-005      -6.33e-010      -1.3614e-009   
  1.55            6.7217e-005     1.038e-009      2.6157e-009    
  1.6             6.9952e-005     -2.4178e-008    -9.209e-010    
  1.65            7.2414e-005     5.75e-009       -1.3129e-009   
  1.7             7.3186e-005     -2.3131e-008    2.7739e-009    
  1.75            7.6676e-005     -5.1613e-008    -1.2108e-009   
  1.8             7.8571e-005     -3.6718e-008    -1.7189e-009   
END_DB

BEGIN_DB
 ICCAP_VAR VG         1.08           
 ICCAP_VAR VS         0              
 ICCAP_VAR VB         0              

 #VD              ID              IB              IG             
  0               1.1403e-007     -1.1201e-008    2.8197e-009    
  0.05            0.00019141      8.537e-009      2.8135e-009    
  0.1             0.00034228      -1.3759e-008    1.4983e-009    
  0.15            0.00045381      -2.2289e-008    1.3183e-009    
  0.2             0.00053196      -2.3355e-008    2.3671e-009    
  0.25            0.00058581      -2.1619e-008    2.1151e-009    
  0.3             0.00062292      -1.8773e-008    1.8557e-009    
  0.35            0.00064978      -1.1293e-008    -5.764e-010    
  0.4             0.00067201      1.8368e-008     -1.5344e-009   
  0.45            0.000687        1.0117e-008     7.456e-010     
  0.5             0.00069871      -1.984e-008     1.4346e-009    
  0.55            0.00071127      -2.2924e-008    1.2957e-009    
  0.6             0.00072375      -2.2704e-008    1.2367e-009    
  0.65            0.00073566      -1.1311e-008    -3.091e-010    
  0.7             0.00074892      1.3724e-008     -1.8228e-009   
  0.75            0.00075587      1.0699e-008     2.0271e-009    
  0.8             0.00076519      -1.6647e-008    1.6972e-009    
  0.85            0.00077714      -1.085e-008     -6.725e-010    
  0.9             0.00078878      2.0751e-008     -1.4579e-009   
  0.95            0.00079598      9.277e-009      8.33e-010      
  1               0.0008028       -2.1259e-008    1.3649e-009    
  1.05            0.0008118       -2.3609e-008    1.2696e-009    
  1.1             0.00082214      -2.1342e-008    2.0734e-009    
  1.15            0.00083191      -1.1473e-008    -4.203e-010    
  1.2             0.00084364      1.5257e-008     -1.6802e-009   
  1.25            0.00085108      9.466e-009      6.146e-010     
  1.3             0.00085692      -1.9734e-008    1.569e-009     
  1.35            0.00086782      -1.4282e-008    -7.466e-010    
  1.4             0.00087888      -9.96e-010      -1.3512e-009   
  1.45            0.00088446      -3.773e-009     2.4954e-009    
  1.5             0.00089332      -3.3379e-008    -5.748e-010    
  1.55            0.00090445      -1.8138e-008    -1.5373e-009   
  1.6             0.00091026      -4.7941e-008    2.2243e-009    
  1.65            0.00091788      -1.01888e-007   -7.32e-011     
  1.7             0.00092856      -1.3792e-007    -2.6941e-009   
  1.75            0.00093269      -1.8944e-007    1.3083e-009    
  1.8             0.00094371      -3.049e-007     2.0556e-009    
END_DB

BEGIN_DB
 ICCAP_VAR VG         1.44           
 ICCAP_VAR VS         0              
 ICCAP_VAR VB         0              

 #VD              ID              IB              IG             
  0               1.1535e-007     1.0466e-008     -1.0383e-009   
  0.05            0.00034816      9.502e-009      -2.5e-012      
  0.1             0.00066189      -1.4686e-008    2.5048e-009    
  0.15            0.00093259      -2.2691e-008    1.2332e-009    
  0.2             0.0011562       9.351e-009      2.6805e-009    
  0.25            0.0013355       -2.3073e-008    1.2669e-009    
  0.3             0.0014758       -2.1554e-008    2.1052e-009    
  0.35            0.001583        -1.121e-008     -4.106e-010    
  0.4             0.0016666       1.5808e-008     -1.7004e-009   
  0.45            0.0017274       1.041e-008      6.207e-010     
  0.5             0.0017715       -1.7722e-008    1.5873e-009    
  0.55            0.0018088       -1.2943e-008    1.427e-009     
  0.6             0.0018393       -2.2627e-008    1.2848e-009    
  0.65            0.0018652       -2.2472e-008    1.2302e-009    
  0.7             0.0018891       -1.1214e-008    -3.258e-010    
  0.75            0.0019122       1.4564e-008     -1.821e-009    
  0.8             0.001929        1.0537e-008     5.374e-010     
  0.85            0.001943        -1.7084e-008    1.6976e-009    
  0.9             0.0019617       -1.0948e-008    -6.86e-010     
  0.95            0.001979        2.0864e-008     -1.4607e-009   
  1               0.0019912       9.388e-009      8.479e-010     
  1.05            0.0020038       -2.1117e-008    1.3587e-009    
  1.1             0.0020173       -2.3334e-008    1.2596e-009    
  1.15            0.0020322       -2.1605e-008    2.0774e-009    
  1.2             0.0020465       -1.1706e-008    -4.302e-010    
  1.25            0.0020622       1.5385e-008     -1.687e-009    
  1.3             0.0020761       7.247e-009      -2.6364e-009   
  1.35            0.0020888       6.013e-009      -2.3492e-009   
  1.4             0.0021005       6.064e-009      -1.925e-009    
  1.45            0.0021108       -1.7622e-008    -2.7285e-009   
  1.5             0.0021196       -1.2713e-008    1.0393e-009    
  1.55            0.0021311       -5.887e-008     1.2664e-009    
  1.6             0.0021465       -6.5111e-008    -2.5536e-009   
  1.65            0.0021578       -8.1504e-008    6.742e-010     
  1.7             0.0021682       -1.4442e-007    2.4708e-009    
  1.75            0.0021834       -2.225e-007     -1.7189e-009   
  1.8             0.0021945       -2.9648e-007    -1.4644e-009   
END_DB

BEGIN_DB
 ICCAP_VAR VG         1.8            
 ICCAP_VAR VS         0              
 ICCAP_VAR VB         0              

 #VD              ID              IB              IG             
  0               1.2508e-007     -6.387e-009     3.49e-010      
  0.05            0.00044091      -2.3216e-008    -1.1504e-009   
  0.1             0.00085673      2.6496e-008     -1.3111e-009   
  0.15            0.0012363       -1.4781e-008    -1.8931e-009   
  0.2             0.0015731       1.0946e-008     1.9903e-009    
  0.25            0.0018665       -1.6669e-008    1.7767e-009    
  0.3             0.0021167       -1.115e-008     -6.264e-010    
  0.35            0.0023258       1.9706e-008     -1.5024e-009   
  0.4             0.0024964       9.754e-009      7.908e-010     
  0.45            0.0026336       -2.0243e-008    1.4067e-009    
  0.5             0.0027458       -2.2871e-008    1.2785e-009    
  0.55            0.0028358       -2.2194e-008    1.2281e-009    
  0.6             0.0029092       -1.1224e-008    -3.581e-010    
  0.65            0.0029703       1.5173e-008     -1.7778e-009   
  0.7             0.0030177       1.0502e-008     5.621e-010     
  0.75            0.0030546       -1.7107e-008    1.664e-009     
  0.8             0.003091        -1.0854e-008    -6.998e-010    
  0.85            0.0031229       2.133e-008      -1.4446e-009   
  0.9             0.0031466       9.418e-009      8.629e-010     
  0.95            0.0031685       -2.1311e-008    1.3519e-009    
  1               0.0031915       -2.3321e-008    1.2614e-009    
  1.05            0.0032128       -2.1101e-008    2.0509e-009    
  1.1             0.0032332       -1.1325e-008    -4.44e-010     
  1.15            0.0032546       1.6338e-008     -1.6688e-009   
  1.2             0.0032709       1.0105e-008     6.381e-010     
  1.25            0.0032849       -1.8751e-008    1.558e-009     
  1.3             0.0033038       -1.1867e-008    -7.57e-010     
  1.35            0.003322        3.885e-009      -1.3425e-009   
  1.4             0.0033376       8.429e-009      -1.8742e-009   
  1.45            0.0033529       3.02e-010       -1.2699e-009   
  1.5             0.0033645       -8.759e-009     2.7575e-009    
  1.55            0.0033806       -3.6063e-008    -9.39e-010     
  1.6             0.0033962       -1.7708e-008    -1.3475e-009   
  1.65            0.0034067       -6.0546e-008    2.496e-009     
  1.7             0.0034208       -1.1539e-007    2.5075e-009    
  1.75            0.0034338       -1.7628e-007    -5.954e-010    
  1.8             0.0034498       -2.274e-007     -1.5272e-009   
END_DB

BEGIN_DB
 ICCAP_VAR VG         0              
 ICCAP_VAR VS         0              
 ICCAP_VAR VB         -0.9           

 #VD              ID              IB              IG             
  0               -8.29e-010      -2.3045e-008    -7.633e-010    
  0.05            3.017e-010      1.0001e-008     -2.5233e-009   
  0.1             -2.1495e-009    5.58e-010       -9.62e-010     
  0.15            -9.65e-010      -2.2531e-008    1.4814e-009    
  0.2             2.318e-009      -9.601e-009     8.904e-010     
  0.25            2.2624e-009     9.046e-009      1.0257e-009    
  0.3             2.1276e-009     1.039e-008      1.1674e-009    
  0.35            1.9167e-009     1.0514e-008     -1.91e-010     
  0.4             8.886e-010      2.4413e-008     -1.5264e-009   
  0.45            -1.4001e-009    6.52e-009       -1.7049e-009   
  0.5             -2.1152e-009    -1.1128e-008    -3.274e-010    
  0.55            -1.3135e-009    -2.0881e-008    1.2693e-009    
  0.6             2.0585e-009     -1.1533e-008    1.2372e-009    
  0.65            1.9463e-009     1.0633e-008     -1.222e-010    
  0.7             9.336e-010      2.5508e-008     -1.4735e-009   
  0.75            -2.2016e-009    7.341e-009      -8.274e-010    
  0.8             -1.6163e-009    -1.2684e-008    1.6663e-009    
  0.85            2.3069e-009     -9.89e-009      7.475e-010     
  0.9             2.3146e-009     8.379e-009      8.951e-010     
  0.95            2.2548e-009     9.147e-009      1.0326e-009    
  1               2.1266e-009     1.0517e-008     1.1692e-009    
  1.05            1.9189e-009     1.0541e-008     -1.848e-010    
  1.1             8.933e-010      2.4585e-008     -1.5198e-009   
  1.15            -2.208e-009     6.483e-009      -7.729e-010    
  1.2             -1.5887e-009    -1.3367e-008    1.7694e-009    
  1.25            2.2913e-009     -9.799e-009     6.787e-010     
  1.3             2.3189e-009     8.598e-009      8.37e-010      
  1.35            2.2878e-009     8.635e-009      9.751e-010     
  1.4             1.7893e-009     1.1326e-008     -1.4674e-009   
  1.45            -2.2001e-009    7.45e-009       -8.33e-010     
  1.5             -1.6177e-009    -1.2656e-008    1.6603e-009    
  1.55            2.308e-009      -9.857e-009     7.563e-010     
  1.6             2.3177e-009     8.401e-009      8.99e-010      
  1.65            2.2559e-009     8.762e-009      1.0356e-009    
  1.7             2.1209e-009     1.0494e-008     1.1761e-009    
  1.75            1.9278e-009     1.052e-008      -1.772e-010    
  1.8             8.955e-010      2.4726e-008     -1.5163e-009   
END_DB

BEGIN_DB
 ICCAP_VAR VG         0.36           
 ICCAP_VAR VS         0              
 ICCAP_VAR VB         -0.9           

 #VD              ID              IB              IG             
  0               1.3202e-009     -1.124e-008     1.279e-009     
  0.05            2.193e-009      -1.0744e-008    1.1509e-009    
  0.1             1.9388e-009     1.0175e-008     -2.114e-010    
  0.15            9.095e-010      2.3192e-008     -1.5531e-009   
  0.2             -2.1516e-009    6.221e-009      -7.514e-010    
  0.25            -1.533e-009     -1.381e-008     1.8249e-009    
  0.3             1.7707e-009     -9.802e-009     1.5379e-009    
  0.35            1.5283e-009     1.155e-008      1.7084e-009    
  0.4             2.2277e-009     1.0396e-008     3.729e-010     
  0.45            2.3089e-009     9.475e-009      5.552e-010     
  0.5             2.3675e-009     8.94e-009       7.26e-010      
  0.55            2.3876e-009     8.35e-009       8.813e-010     
