! VERSION = 6.00
BEGIN_HEADER
 ICCAP_INPUTS
  VG         V  B GROUND SMU4 0.001 LIN        1    0          1.8        37   0.05      
  VS         V  E GROUND SMU2 0.1 CON        0
  VB         V  C GROUND SMU3 0.1 LIN        3    0          -1.8       3    -0.9      
  VD         V  S GROUND SMU1 0.1 LIN        2    0.1        1.8        2    1.7       
 ICCAP_OUTPUTS
  IG         I  B GROUND SMU4 B
  ID         I  S GROUND SMU1 B
  IB         I  C GROUND SMU3 B
END_HEADER

BEGIN_DB
 ICCAP_VAR VS         0              
 ICCAP_VAR VB         0              
 ICCAP_VAR VD         0.1            

 #VG              IG              ID              IB             
  0               2.7115e-009     -5.151e-010     -2.0871e-008   
  0.05            7.68e-010       2.3954e-009     -3.269e-009    
  0.1             -1.6724e-009    1.7275e-009     1.5111e-008    
  0.15            1.14e-011       -1.7824e-009    -4.625e-009    
  0.2             2.6961e-009     -9.114e-010     -2.1418e-008   
  0.25            1.8068e-009     1.7949e-009     -3.655e-009    
  0.3             -2.5788e-009    2.0516e-009     9.036e-009     
  0.35            2.1989e-009     6.3392e-009     -1.8297e-008   
  0.4             -1.7709e-009    3.2233e-008     -1.6478e-008   
  0.45            6.429e-010      1.2733e-007     -1.3519e-008   
  0.5             9.96e-010       3.7477e-007     7.859e-009     
  0.55            -2.3383e-009    9.1276e-007     9.139e-009     
  0.6             -1.9888e-009    1.7342e-006     -1.4465e-008   
  0.65            2.2864e-009     2.8258e-006     -2.2155e-008   
  0.7             2.3274e-009     4.113e-006      -6.864e-009    
  0.75            -1.4524e-009    5.5353e-006     1.7698e-008    
  0.8             -2.5607e-009    6.9834e-006     6.54e-009      
  0.85            2.4887e-009     8.421e-006      -2.1697e-008   
  0.9             1.8595e-009     9.9105e-006     -5.71e-009     
  0.95            2.475e-009      1.1392e-005     -9.285e-009    
  1               -2.5701e-009    1.2879e-005     9.295e-009     
  1.05            2.4833e-009     1.4297e-005     -2.1756e-008   
  1.1             1.8411e-009     1.5724e-005     -5.708e-009    
  1.15            2.4809e-009     1.7104e-005     -9.31e-009     
  1.2             -2.4195e-009    1.8484e-005     9.144e-009     
  1.25            -1.8359e-009    1.977e-005      1.493e-009     
  1.3             2.3151e-009     2.1001e-005     -2.2168e-008   
  1.35            1.6317e-009     2.2214e-005     -6.775e-009    
  1.4             2.5604e-009     2.3365e-005     -1.0162e-008   
  1.45            -2.2728e-009    2.4506e-005     9.558e-009     
  1.5             2.6249e-009     2.5524e-005     -2.0854e-008   
  1.55            -1.3398e-009    2.6548e-005     2.0684e-008    
  1.6             -2.6048e-009    2.7495e-005     8.051e-009     
  1.65            2.3173e-009     2.8372e-005     -2.2258e-008   
  1.7             1.6439e-009     2.9218e-005     -6.604e-009    
  1.75            2.5664e-009     3.0006e-005     -1.0139e-008   
  1.8             7.866e-010      3.0755e-005     9.014e-009     
END_DB

BEGIN_DB
 ICCAP_VAR VS         0              
 ICCAP_VAR VB         0              
 ICCAP_VAR VD         1.8            

 #VG              IG              ID              IB             
  0               -1.8541e-009    -1.9763e-009    -3.093e-009    
  0.05            2.5932e-009     -1.1384e-009    -2.2259e-008   
  0.1             -1.5314e-009    1.0156e-009     2.124e-008     
  0.15            -7.508e-010     -2.0269e-009    5.618e-009     
  0.2             1.8684e-009     -6.579e-010     -1.742e-008    
  0.25            2.3449e-009     1.4791e-009     -9.315e-009    
  0.3             -1.7304e-009    2.7718e-009     1.8188e-008    
  0.35            -2.4667e-009    7.3839e-009     -4.925e-009    
  0.4             2.3493e-009     3.6076e-008     9.538e-009     
  0.45            2.3251e-009     1.3365e-007     1.112e-009     
  0.5             1.6476e-009     4.069e-007      -6.849e-009    
  0.55            2.5509e-009     9.8625e-007     -1.0835e-008   
  0.6             -2.6101e-009    2.0127e-006     -1.114e-008    
  0.65            2.2795e-009     3.4784e-006     -2.3671e-008   
  0.7             2.3331e-009     5.5149e-006     -8.649e-009    
  0.75            -1.4454e-009    8.1954e-006     1.5925e-008    
  0.8             2.3847e-009     1.132e-005      4.71e-009      
  0.85            1.7138e-009     1.5126e-005     -8.189e-009    
  0.9             2.5264e-009     1.9513e-005     -1.1575e-008   
  0.95            -2.3278e-009    2.4673e-005     7.671e-009     
  1               -6.864e-010     3.0177e-005     -1.1158e-008   
  1.05            2.7113e-009     3.6297e-005     -1.666e-008    
  1.1             2.4446e-009     4.3049e-005     -3.867e-009    
  1.15            1.8212e-009     5.0315e-005     -6.133e-009    
  1.2             2.4907e-009     5.8133e-005     -9.596e-009    
  1.25            -2.3944e-009    6.6733e-005     8.844e-009     
  1.3             -1.7997e-009    7.5508e-005     1.564e-009     
  1.35            2.2889e-009     8.4619e-005     -2.2136e-008   
  1.4             2.3298e-009     9.4409e-005     -6.776e-009    
  1.45            -1.4537e-009    0.000104847     1.7722e-008    
  1.5             2.3324e-009     0.00011516      -9.197e-009    
  1.55            1.6518e-009     0.00012617      -6.496e-009    
  1.6             2.5516e-009     0.00013752      -1.0015e-008   
  1.65            7.707e-010      0.00014937      8.862e-009     
  1.7             -1.4013e-009    0.00016153      1.5176e-008    
  1.75            -2.5887e-009    0.00017384      7.288e-009     
  1.8             2.4176e-009     0.00018608      -2.2123e-008   
END_DB

BEGIN_DB
 ICCAP_VAR VS         0              
 ICCAP_VAR VB         -0.9           
 ICCAP_VAR VD         0.1            

 #VG              IG              ID              IB             
  0               8.385e-010      8.647e-010      2.0152e-008    
  0.05            2.6136e-009     -1.1272e-009    -2.2223e-008   
  0.1             3.066e-010      2.2358e-009     9.488e-009     
  0.15            4.901e-010      2.3187e-009     9.031e-009     
  0.2             -2.1192e-009    7.247e-010      1.3661e-008    
  0.25            2.6884e-009     -1.0039e-009    -2.1602e-008   
  0.3             -1.9368e-009    1.6055e-009     1.9686e-008    
  0.35            2.6318e-009     -1.0867e-009    -2.2332e-008   
  0.4             -1.5757e-009    1.0734e-009     2.0302e-008    
  0.45            -1.3897e-009    1.704e-010      5.337e-009     
  0.5             -2.4831e-009    2.1088e-009     7.142e-009     
  0.55            2.2979e-009     1.1679e-008     -9.243e-009    
  0.6             2.3293e-009     5.1246e-008     -6.834e-009    
  0.65            1.5598e-009     1.8681e-007     -2.1374e-008   
  0.7             1.9588e-009     5.4158e-007     9.489e-009     
  0.75            -2.4213e-009    1.1848e-006     -1.7926e-008   
  0.8             -1.856e-009     2.1319e-006     1.555e-009     
  0.85            2.3252e-009     3.266e-006      -2.2194e-008   
  0.9             1.649e-009      4.5555e-006     -6.697e-009    
  0.95            2.5586e-009     5.9144e-006     -1.0112e-008   
  1               7.763e-010      7.3308e-006     8.805e-009     
  1.05            -1.3956e-009    8.7563e-006     1.4986e-008    
  1.1             -2.583e-009     1.01705e-005    7.139e-009     
  1.15            2.5707e-009     1.1538e-005     -1.0243e-008   
  1.2             -2.259e-009     1.2943e-005     9.578e-009     
  1.25            2.6227e-009     1.4242e-005     -2.1167e-008   
  1.3             5.614e-010      1.5577e-005     9.513e-009     
  1.35            -1.6428e-009    1.684e-005      1.4768e-008    
  1.4             -2.5911e-009    1.8045e-005     -4.561e-009    
  1.45            2.3912e-009     1.9196e-005     -2.232e-008    
  1.5             1.7038e-009     2.0323e-005     -6.169e-009    
  1.55            2.5246e-009     2.1388e-005     -9.842e-009    
  1.6             -2.3349e-009    2.2436e-005     9.217e-009     
  1.65            -1.7013e-009    2.3381e-005     2.191e-009     
  1.7             -2.5734e-009    2.4302e-005     -4.832e-009    
  1.75            2.4812e-009     2.5142e-005     -2.2188e-008   
  1.8             1.8166e-009     2.5961e-005     -5.915e-009    
END_DB

BEGIN_DB
 ICCAP_VAR VS         0              
 ICCAP_VAR VB         -0.9           
 ICCAP_VAR VD         1.8            

 #VG              IG              ID              IB             
  0               -1.2289e-009    -1.1167e-009    -9.87e-009     
  0.05            -2.6123e-009    1.945e-010      9.602e-009     
  0.1             2.5259e-009     -1.1061e-009    -2.1939e-008   
  0.15            6.515e-010      2.4815e-009     8.073e-009     
  0.2             -1.8719e-009    9.517e-010      1.6504e-008    
  0.25            2.5988e-009     -1.0466e-009    -2.2352e-008   
  0.3             3.255e-010      2.3574e-009     9.355e-009     
  0.35            4.945e-010      2.4465e-009     8.885e-009     
  0.4             -2.1014e-009    9.107e-010      1.3927e-008    
  0.45            2.683e-009      -4.848e-010     -2.1808e-008   
  0.5             -1.7264e-009    3.4505e-009     1.8188e-008    
  0.55            2.6162e-009     1.2978e-008     1.5484e-008    
  0.6             -2.1442e-009    5.5512e-008     1.0125e-008    
  0.65            4.105e-010      2.0667e-007     -1.1369e-008   
  0.7             -1.8388e-009    5.9589e-007     1.2109e-008    
  0.75            -1.9052e-009    1.3378e-006     -1.3838e-008   
  0.8             2.4642e-009     2.5358e-006     -2.2788e-008   
  0.85            1.8154e-009     4.283e-006      -6.963e-009    
  0.9             2.4935e-009     6.5901e-006     -1.0641e-008   
  0.95            -2.398e-009     9.5862e-006     7.776e-009     
  1               1.2824e-009     1.2944e-005     -2.302e-008    
  1.05            -1.8189e-009    1.7215e-005     1.1725e-008    
  1.1             2.2779e-009     2.18e-005       -2.3005e-008   
  1.15            2.3349e-009     2.7108e-005     -7.426e-009    
  1.2             -1.4418e-009    3.3124e-005     1.7336e-008    
  1.25            -2.5697e-009    3.9577e-005     6.192e-009     
  1.3             2.4778e-009     4.6375e-005     -2.2141e-008   
  1.35            1.8253e-009     5.3898e-005     -5.958e-009    
  1.4             2.4893e-009     6.1892e-005     -9.538e-009    
  1.45            -2.4012e-009    7.0633e-005     8.865e-009     
  1.5             -1.8055e-009    7.9511e-005     1.434e-009     
  1.55            2.2831e-009     8.8693e-005     -2.2127e-008   
  1.6             1.5964e-009     9.8509e-005     -6.961e-009    
  1.65            2.5738e-009     0.000108667     -1.018e-008    
  1.7             2.6849e-009     0.00011928      7.541e-009     
  1.75            2.6541e-009     0.00013017      -1.539e-009    
  1.8             -1.3797e-009    0.00014158      1.9136e-008    
END_DB

BEGIN_DB
 ICCAP_VAR VS         0              
 ICCAP_VAR VB         -1.8           
 ICCAP_VAR VD         0.1            

 #VG              IG              ID              IB             
  0               8.478e-010      9.024e-010      1.7052e-008    
  0.05            2.6891e-009     -1.0422e-009    -2.2018e-008   
  0.1             -1.8713e-009    1.6429e-009     1.85e-008      
  0.15            2.609e-009      -1.1377e-009    -2.2388e-008   
  0.2             -1.5187e-009    1.029e-009      2.144e-008     
  0.25            -7.606e-010     -2.0426e-009    5.699e-009     
  0.3             1.8363e-009     -1.4898e-009    -1.4032e-008   
  0.35            1.4713e-009     1.9013e-009     -9.509e-009    
  0.4             1.6351e-009     1.6429e-009     9.891e-009     
  0.45            -1.6242e-009    9.821e-010      1.9753e-008    
  0.5             -6.928e-010     -2.0189e-009    5.095e-009     
  0.55            1.9798e-009     -1.3239e-009    -1.5718e-008   
  0.6             2.3169e-009     1.8033e-009     -8.695e-009    
  0.65            -1.826e-009     4.6799e-009     1.69e-008      
  0.7             2.6767e-009     1.9256e-008     9.346e-009     
  0.75            -1.3846e-009    8.3927e-008     1.8951e-008    
  0.8             1.2322e-009     2.7444e-007     -1.7364e-008   
  0.85            -1.9122e-009    7.3109e-007     1.1735e-008    
  0.9             -2.2486e-009    1.4585e-006     -1.5472e-008   
  0.95            1.7638e-009     2.4398e-006     -1.7958e-008   
  1               2.5274e-009     3.5985e-006     -9.863e-009    
  1.05            7.332e-010      4.8813e-006     9.217e-009     
  1.1             -1.4302e-009    6.2142e-006     1.7954e-008    
  1.15            -2.5738e-009    7.5613e-006     6.678e-009     
  1.2             2.4641e-009     8.8762e-006     -2.2136e-008   
  1.25            1.7881e-009     1.02243e-005    -6.06e-009     
  1.3             -2.2318e-009    1.1572e-005     -6.524e-009    
  1.35            2.605e-009      1.2819e-005     -2.1109e-008   
  1.4             -1.3101e-009    1.4106e-005     2.1351e-008    
  1.45            -2.6116e-009    1.5316e-005     8.284e-009     
  1.5             2.2384e-009     1.6455e-005     -2.2063e-008   
  1.55            2.3589e-009     1.7575e-005     -7.255e-009    
  1.6             -1.4046e-009    1.8668e-005     1.8638e-008    
  1.65            -2.5802e-009    1.9685e-005     7.106e-009     
  1.7             2.4348e-009     2.063e-005      -2.2263e-008   
  1.75            1.7576e-009     2.1558e-005     -6.265e-009    
  1.8             2.5257e-009     2.2419e-005     -9.865e-009    
END_DB

BEGIN_DB
 ICCAP_VAR VS         0              
 ICCAP_VAR VB         -1.8           
 ICCAP_VAR VD         1.8            

 #VG              IG              ID              IB             
  0               1.0477e-009     1.0605e-008     -8.8e-011      
  0.05            2.6872e-009     1.0453e-008     -2.3793e-008   
  0.1             2.6493e-009     1.0296e-008     -1.049e-008    
  0.15            2.2824e-009     1.0604e-008     -1.3323e-008   
  0.2             2.5226e-009     1.0578e-008     -7.22e-010     
  0.25            2.7091e-009     1.0417e-008     -5.032e-009    
  0.3             2.593e-009      1.0323e-008     -1.1176e-008   
  0.35            2.0383e-009     1.0462e-008     -1.3854e-008   
  0.4             2.5688e-009     1.0576e-008     -1.7103e-008   
  0.45            2.7177e-009     1.0381e-008     -6.728e-009    
  0.5             2.5189e-009     1.0329e-008     -1.1751e-008   
  0.55            1.9157e-009     1.0618e-008     -1.4441e-008   
  0.6             2.4607e-009     1.104e-008      -1.8021e-008   
  0.65            2.6907e-009     1.4237e-008     -4.497e-009    
  0.7             2.6514e-009     2.9502e-008     -1.0539e-008   
  0.75            2.1812e-009     9.5081e-008     -1.3406e-008   
  0.8             -4.956e-010     3.0472e-007     -1e-011        
  0.85            -8.797e-010     8.0617e-007     -1.8185e-008   
  0.9             1.9996e-009     1.6874e-006     -5.86e-010     
  0.95            2.2876e-009     3.0772e-006     -1.692e-009    
  1               2.5266e-009     5.0021e-006     -1.521e-009    
  1.05            2.713e-009      7.5064e-006     -5.961e-009    
  1.1             2.5833e-009     1.05936e-005    -1.1937e-008   
  1.15            -2.5366e-009    1.4356e-005     -2.124e-009    
  1.2             -2.1521e-009    1.8576e-005     -1.6705e-008   
  1.25            -1.2479e-009    2.3539e-005     -1.7611e-008   
  1.3             -1.6478e-009    2.8956e-005     -1.8589e-008   
  1.35            -1.9065e-009    3.4853e-005     -1.6847e-008   
  1.4             -9.511e-010     4.1418e-005     -1.7714e-008   
  1.45            -1.326e-009     4.8553e-005     -1.7589e-008   
  1.5             -1.7127e-009    5.6029e-005     -1.7929e-008   
  1.55            -1.9562e-009    6.3927e-005     -1.6566e-008   
  1.6             -1.0123e-009    7.2471e-005     -1.7379e-008   
  1.65            -1.4002e-009    8.1448e-005     -1.799e-008    
  1.7             -1.7649e-009    9.0621e-005     -1.7794e-008   
  1.75            -2.0113e-009    0.000100192     -1.6382e-008   
  1.8             -1.0757e-009    0.000110346     -1.7122e-008   
END_DB

