! VERSION = 6.00
BEGIN_HEADER
 ICCAP_INPUTS
  VG         V  B GROUND SMU4 0.001 LIN        2    0          1.8        6    0.36      
  VS         V  E GROUND SMU2 0.1 CON        0
  VD         V  S GROUND SMU1 0.1 LIN        1    0          1.8        37   0.05      
  VB         V  C GROUND SMU3 0.1 LIN        3    0          -0.9       2    -0.9      
 ICCAP_OUTPUTS
  ID         I  S GROUND SMU1 B
  IB         I  C GROUND SMU3 B
  IG         I  B GROUND SMU4 B
END_HEADER

BEGIN_DB
 ICCAP_VAR VG         0              
 ICCAP_VAR VS         0              
 ICCAP_VAR VB         0              

 #VD              ID              IB              IG             
  0               -1.7888e-009    -5.751e-009     -1.5849e-009   
  0.05            -2.1188e-009    5.432e-009      -7.26e-010     
  0.1             -1.5199e-009    -1.5157e-008    1.9373e-009    
  0.15            2.1619e-009     -8.926e-009     5.812e-010     
  0.2             6.431e-010      1.5799e-008     -1.9801e-009   
  0.25            -1.1278e-009    -2.2185e-008    2.6612e-009    
  0.3             7.976e-010      2.0162e-008     -1.6204e-009   
  0.35            -2.0035e-009    -5.095e-009     -1.0731e-009   
  0.4             -1.065e-009     -2.1876e-008    2.7002e-009    
  0.45            7.752e-010      1.8916e-008     -1.7104e-009   
  0.5             -1.2667e-009    -2.1384e-008    2.4989e-009    
  0.55            1.9813e-009     -5.626e-009     1.824e-010     
  0.6             3.207e-010      1.0152e-008     -2.476e-009    
  0.65            -2.064e-009     1.434e-009      -9.835e-010    
  0.7             -9.82e-010      -2.1103e-008    2.7323e-009    
  0.75            2.2136e-009     -3.158e-009     7.898e-010     
  0.8             1.5759e-009     1.454e-008      -1.66e-009     
  0.85            -2.0173e-009    -4.73e-009      -1.0701e-009   
  0.9             -1.0461e-009    -2.174e-008     2.7123e-009    
  0.95            7.376e-010      1.8111e-008     -1.7566e-009   
  1               -2.051e-009     -5.193e-009     -1.0109e-009   
  1.05            -1.0083e-009    -2.1232e-008    2.7265e-009    
  1.1             2.2186e-009     -3.376e-009     8.276e-010     
  1.15            8.264e-010      2.0311e-008     -1.6104e-009   
  1.2             -2.1117e-009    5.227e-009      -7.191e-010    
  1.25            -1.5159e-009    -1.5294e-008    1.9533e-009    
  1.3             2.1554e-009     -8.903e-009     5.715e-010     
  1.35            6.361e-010      1.5515e-008     -1.9951e-009   
  1.4             -1.1205e-009    -2.2034e-008    2.6637e-009    
  1.45            7.985e-010      2.0035e-008     -1.6306e-009   
  1.5             -2.0096e-009    -4.834e-009     -1.0799e-009   
  1.55            -1.0566e-009    -2.1874e-008    2.7e-009       
  1.6             7.689e-010      1.8797e-008     -1.7179e-009   
  1.65            -2.043e-009     -4.795e-009     -1.0309e-009   
  1.7             -1.0238e-009    -2.139e-008     2.7255e-009    
  1.75            2.2221e-009     -3.586e-009     8.477e-010     
  1.8             8.484e-010      2.0779e-008     -1.5772e-009   
END_DB

BEGIN_DB
 ICCAP_VAR VG         0.36           
 ICCAP_VAR VS         0              
 ICCAP_VAR VB         0              

 #VD              ID              IB              IG             
  0               -3.144e-010     -1.1234e-008    -9.13e-010     
  0.05            7.84e-011       8.96e-009       -2.6123e-009   
  0.1             -9.163e-010     -2.2171e-008    2.6532e-009    
  0.15            1.0718e-009     2.0441e-008     -1.5979e-009   
  0.2             -1.4606e-009    5.441e-009      2.6476e-009    
  0.25            1.0807e-009     2.0639e-008     -1.5891e-009   
  0.3             -1.4582e-009    5.605e-009      2.6461e-009    
  0.35            1.0866e-009     2.0762e-008     -1.5815e-009   
  0.4             -1.4647e-009    5.56e-009       2.6307e-009    
  0.45            1.0958e-009     2.0902e-008     -1.5725e-009   
  0.5             -1.467e-009     5.612e-009      2.632e-009     
  0.55            1.1004e-009     2.0967e-008     -1.5607e-009   
  0.6             -1.4697e-009    5.724e-009      2.6214e-009    
  0.65            2.3015e-009     9.404e-009      3.174e-010     
  0.7             2.377e-009      9.026e-009      4.985e-010     
  0.75            8.268e-010      1.4371e-008     -2.1165e-009   
  0.8             -8.283e-010     -2.1738e-008    2.7035e-009    
  0.85            1.695e-009      1.8977e-008     -1.9083e-009   
  0.9             -9.268e-010     -2.2252e-008    2.6225e-009    
  0.95            2.3037e-009     9.453e-009      3.165e-010     
  1               2.3771e-009     9.055e-009      5.013e-010     
  1.05            2.4406e-009     8.46e-009       6.773e-010     
  1.1             9.693e-010      1.7369e-008     -1.8461e-009   
  1.15            -1.5557e-009    -5.356e-009     8.43e-011      
  1.2             -7.284e-010     -2.0834e-008    2.7382e-009    
  1.25            1.5965e-009     -3.093e-009     1.7556e-009    
  1.3             3.619e-010      9.415e-009      -2.6174e-009   
  1.35            -1.1389e-009    -1.9485e-008    2.3028e-009    
  1.4             2.2781e-009     -6.898e-009     1.2326e-009    
  1.45            7.148e-010      1.1928e-008     -2.3101e-009   
  1.5             -7.253e-010     -2.0753e-008    2.7368e-009    
  1.55            1.6008e-009     -3.122e-009     1.7523e-009    
  1.6             3.61e-010       9.386e-009      -2.6221e-009   
  1.65            -4.55e-010      -1.645e-008     2.1262e-009    
  1.7             2.1597e-009     -8.022e-009     1.3423e-009    
  1.75            8.188e-010      1.38e-008       -2.1527e-009   
  1.8             -8.096e-010     -2.1677e-008    2.7163e-009    
END_DB

BEGIN_DB
 ICCAP_VAR VG         0.72           
 ICCAP_VAR VS         0              
 ICCAP_VAR VB         0              

 #VD              ID              IB              IG             
  0               4.001e-010      9.514e-009      5.933e-010     
  0.05            3.7311e-008     1.817e-008      2.71e-009      
  0.1             6.0269e-008     -2.1694e-008    2.1901e-009    
  0.15            7.5271e-008     -2.197e-008     2.4964e-009    
  0.2             8.2191e-008     -2.0305e-008    2.686e-009     
  0.25            8.3684e-008     -1.4077e-008    2.7219e-009    
  0.3             8.436e-008      -1.5989e-008    2.7419e-009    
  0.35            8.5625e-008     -1.6366e-008    1.7594e-009    
  0.4             8.5906e-008     -1.57e-008      1.9142e-009    
  0.45            8.548e-008      -2.2084e-008    2.2774e-009    
  0.5             8.5817e-008     -2.1597e-008    2.5521e-009    
  0.55            8.522e-008      -1.1789e-008    2.6327e-009    
  0.6             8.5417e-008     -1.3004e-008    2.6936e-009    
  0.65            8.5567e-008     -1.4636e-008    2.7317e-009    
  0.7             8.5673e-008     -1.6538e-008    2.7419e-009    
  0.75            8.583e-008      -1.8466e-008    1.7993e-009    
  0.8             8.6938e-008     -1.5414e-008    1.9629e-009    
  0.85            8.642e-008      -2.2276e-008    2.3151e-009    
  0.9             8.6733e-008     -2.1398e-008    2.5795e-009    
  0.95            8.6028e-008     -1.2218e-008    2.661e-009     
  1               8.6155e-008     -1.343e-008     2.7099e-009    
  1.05            8.6252e-008     -1.5175e-008    2.7386e-009    
  1.1             8.6342e-008     -1.7096e-008    1.6857e-009    
  1.15            8.7402e-008     -1.5937e-008    1.8534e-009    
  1.2             8.755e-008      -1.5334e-008    2.0111e-009    
  1.25            8.7e-008        -2.236e-008     2.3627e-009    
  1.3             8.7279e-008     -2.1268e-008    2.6077e-009    
  1.35            8.656e-008      -1.2491e-008    2.6716e-009    
  1.4             8.6607e-008     -1.4007e-008    2.7182e-009    
  1.45            8.6659e-008     -1.5716e-008    2.7372e-009    
  1.5             8.6771e-008     -1.7688e-008    1.7367e-009    
  1.55            8.7827e-008     -1.571e-008     1.8945e-009    
  1.6             8.7294e-008     -2.2145e-008    2.2596e-009    
  1.65            8.7538e-008     -2.1765e-008    2.5431e-009    
  1.7             8.6872e-008     -1.1796e-008    2.6308e-009    
  1.75            8.6947e-008     -1.2943e-008    2.69e-009      
  1.8             8.7858e-008     -1.7353e-008    2.7399e-009    
END_DB

BEGIN_DB
 ICCAP_VAR VG         1.08           
 ICCAP_VAR VS         0              
 ICCAP_VAR VB         0              

 #VD              ID              IB              IG             
  0               2.288e-010      -1.1047e-008    -6.842e-010    
  0.05            1.0966e-007     -1.4423e-008    7.464e-010     
  0.1             2.0227e-007     -1.8363e-008    2.7357e-009    
  0.15            2.847e-007      -2.0185e-008    2.6846e-009    
  0.2             3.5476e-007     -2.1535e-008    2.5753e-009    
  0.25            4.1271e-007     -2.2386e-008    2.3997e-009    
  0.3             4.5851e-007     -2.1675e-008    2.1735e-009    
  0.35            4.925e-007      -1.9671e-008    1.9138e-009    
  0.4             5.1528e-007     -1.675e-008     1.6702e-009    
  0.45            5.2804e-007     -1.3893e-008    2.7163e-009    
  0.5             5.3446e-007     -2.0934e-008    2.6278e-009    
  0.55            5.366e-007      -2.201e-008     2.4859e-009    
  0.6             5.3751e-007     -2.2142e-008    2.2796e-009    
  0.65            5.3862e-007     -1.6058e-008    1.8242e-009    
  0.7             5.3816e-007     -1.5618e-008    2.739e-009     
  0.75            5.3919e-007     -1.9931e-008    2.7014e-009    
  0.8             5.3956e-007     -2.1431e-008    2.595e-009     
  0.85            5.3986e-007     -2.2314e-008    2.4272e-009    
  0.9             5.4078e-007     -1.5399e-008    1.9919e-009    
  0.95            5.4005e-007     -1.7688e-008    1.7465e-009    
  1               5.4048e-007     -1.0025e-008    -6.776e-010    
  1.05            5.4413e-007     1.8756e-008     -1.4294e-009   
  1.1             5.4473e-007     8.683e-009      8.203e-010     
  1.15            5.4163e-007     -1.9473e-008    2.7129e-009    
  1.2             5.4184e-007     -2.1131e-008    2.6292e-009    
  1.25            5.42e-007       -2.2115e-008    2.4776e-009    
  1.3             5.4218e-007     -2.2168e-008    2.2663e-009    
  1.35            5.4283e-007     -1.6118e-008    1.8135e-009    
  1.4             5.4203e-007     -1.5579e-008    2.734e-009     
  1.45            5.4284e-007     -2.0052e-008    2.6874e-009    
  1.5             5.4295e-007     -2.1424e-008    2.581e-009     
  1.55            5.4319e-007     -2.2419e-008    2.4077e-009    
  1.6             5.4331e-007     -2.1774e-008    2.1817e-009    
  1.65            5.4378e-007     -1.6405e-008    1.7207e-009    
  1.7             5.4327e-007     -1.0015e-008    -6.887e-010    
  1.75            5.4676e-007     1.882e-008      -1.4153e-009   
  1.8             5.4723e-007     8.624e-009      8.391e-010     
END_DB

BEGIN_DB
 ICCAP_VAR VG         1.44           
 ICCAP_VAR VS         0              
 ICCAP_VAR VB         0              

 #VD              ID              IB              IG             
  0               1.0581e-009     2.4831e-008     -5.655e-010    
  0.05            1.7476e-007     -1.807e-008     1.3103e-009    
  0.1             3.3158e-007     -2.0643e-008    2.058e-009     
  0.15            4.8115e-007     -1.8346e-008    1.8006e-009    
  0.2             6.1928e-007     -1.0113e-008    -6.499e-010    
  0.25            7.4994e-007     1.8291e-008     -1.4611e-009   
  0.3             8.674e-007      8.735e-009      8.055e-010     
  0.35            9.6905e-007     -1.9077e-008    2.7185e-009    
  0.4             1.06196e-006    -2.0737e-008    2.6433e-009    
  0.45            1.1459e-006     -2.1841e-008    -1.3583e-009   
  0.5             1.2158e-006     8.782e-009      8.051e-010     
  0.55            1.27e-006       -1.7531e-008    2.7386e-009    
  0.6             1.3145e-006     -1.3861e-008    2.7074e-009    
  0.65            1.3484e-006     -1.1869e-008    2.6199e-009    
  0.7             1.3714e-006     -2.1265e-008    2.5956e-009    
  0.75            1.3846e-006     -2.1384e-008    2.5704e-009    
  0.8             1.391e-006      -2.1653e-008    2.5384e-009    
  0.85            1.3934e-006     -2.1861e-008    2.5124e-009    
  0.9             1.3946e-006     -2.2002e-008    2.4778e-009    
  0.95            1.3957e-006     -2.2123e-008    2.4358e-009    
  1               1.3967e-006     -2.2237e-008    2.404e-009     
  1.05            1.3975e-006     -2.2311e-008    2.361e-009     
  1.1             1.3981e-006     -2.2127e-008    2.3115e-009    
  1.15            1.3994e-006     -1.5088e-008    2.0775e-009    
  1.2             1.3998e-006     -1.6068e-008    1.8261e-009    
  1.25            1.3998e-006     -1.8115e-008    1.7735e-009    
  1.3             1.4001e-006     -1.7528e-008    2.7425e-009    
  1.35            1.3999e-006     -1.4535e-008    2.7275e-009    
  1.4             1.3998e-006     -1.2276e-008    2.656e-009     
  1.45            1.401e-006      -2.0977e-008    2.634e-009     
  1.5             1.4017e-006     -2.1236e-008    2.6053e-009    
  1.55            1.4022e-006     -2.1262e-008    2.5805e-009    
  1.6             1.4025e-006     -2.1564e-008    2.5564e-009    
  1.65            1.4027e-006     -2.1742e-008    2.5259e-009    
  1.7             1.4022e-006     -2.1959e-008    2.4896e-009    
  1.75            1.4032e-006     -2.2162e-008    2.454e-009     
  1.8             1.4033e-006     -2.2327e-008    2.4128e-009    
END_DB

BEGIN_DB
 ICCAP_VAR VG         1.8            
 ICCAP_VAR VS         0              
 ICCAP_VAR VB         0              

 #VD              ID              IB              IG             
  0               1.744e-010      9.42e-009       -1.2453e-009   
  0.05            2.1821e-007     1.8227e-008     -1.2553e-009   
  0.1             4.3358e-007     9.865e-009      -2.5639e-009   
  0.15            6.3874e-007     2.4513e-008     -2.4411e-009   
  0.2             8.3335e-007     1.1094e-008     -2.0766e-009   
  0.25            1.02007e-006    1.5036e-008     -1.653e-009    
  0.3             1.1957e-006     -2.1483e-008    -2.6314e-009   
  0.35            1.3646e-006     1.5422e-008     -1.6105e-009   
  0.4             1.523e-006      9.295e-009      1.9874e-009    
  0.45            1.668e-006      -1.5658e-008    1.8767e-009    
  0.5             1.8043e-006     -1.8846e-008    1.8252e-009    
  0.55            1.9299e-006     -1.8172e-008    1.7834e-009    
  0.6             2.0449e-006     -1.7583e-008    1.7395e-009    
  0.65            2.1488e-006     -1.6894e-008    1.6913e-009    
  0.7             2.2418e-006     -1.6311e-008    1.6457e-009    
  0.75            2.3224e-006     -1.5654e-008    2.7436e-009    
  0.8             2.3923e-006     -1.297e-008     2.7056e-009    
  0.85            2.4509e-006     -2.0248e-008    2.6918e-009    
  0.9             2.4977e-006     -2.0717e-008    2.6702e-009    
  0.95            2.5321e-006     -2.0864e-008    2.6515e-009    
  1               2.5562e-006     -2.1207e-008    2.6299e-009    
  1.05            2.5709e-006     -2.1438e-008    2.6041e-009    
  1.1             2.5782e-006     -2.1564e-008    2.5744e-009    
  1.15            2.5818e-006     -2.1774e-008    2.5454e-009    
  1.2             2.5835e-006     -2.1975e-008    2.5135e-009    
  1.25            2.5849e-006     -2.2182e-008    2.4875e-009    
  1.3             2.586e-006      -2.2367e-008    2.4469e-009    
  1.35            2.587e-006      -2.2502e-008    2.3998e-009    
  1.4             2.5878e-006     -2.2495e-008    2.3569e-009    
  1.45            2.5886e-006     -2.2373e-008    2.3212e-009    
  1.5             2.5897e-006     -2.2183e-008    2.2754e-009    
  1.55            2.5912e-006     -1.5136e-008    2.0254e-009    
  1.6             2.5916e-006     -2.0242e-008    1.9794e-009    
  1.65            2.5916e-006     -1.9731e-008    1.9212e-009    
  1.7             2.5923e-006     -1.9127e-008    1.8727e-009    
  1.75            2.593e-006      -1.863e-008     1.8186e-009    
  1.8             2.5933e-006     -1.8062e-008    1.7698e-009    
END_DB

BEGIN_DB
 ICCAP_VAR VG         0              
 ICCAP_VAR VS         0              
 ICCAP_VAR VB         -0.9           

 #VD              ID              IB              IG             
  0               -9.781e-010     -2.2602e-008    -1.0653e-009   
  0.05            5.926e-010      1.4549e-008     -2.0589e-009   
  0.1             -1.0947e-009    -2.2494e-008    2.7088e-009    
  0.15            7.966e-010      1.9422e-008     -1.6463e-009   
  0.2             -2.0357e-009    -4.499e-009     -1.0714e-009   
  0.25            -1.0612e-009    -2.2339e-008    2.7278e-009    
  0.3             7.642e-010      1.841e-008      -1.7117e-009   
  0.35            -2.0629e-009    -4.712e-009     -1.0323e-009   
  0.4             -1.0297e-009    -2.1979e-008    2.739e-009     
  0.45            2.2321e-009     -3.748e-009     8.577e-010     
  0.5             1.6273e-009     1.2746e-008     -1.5371e-009   
  0.55            -2.1201e-009    5.388e-009      -7.578e-010    
  0.6             -8.009e-010     -1.7391e-008    1.8515e-009    
  0.65            2.1755e-009     -9.28e-009      6.268e-010     
  0.7             6.894e-010      1.6369e-008     -1.8751e-009   
  0.75            -1.1804e-009    -2.2554e-008    2.6318e-009    
  0.8             2.0556e-009     9.457e-009      3.342e-010     
  0.85            2.1315e-009     8.783e-009      5.145e-010     
  0.9             5.94e-010       1.4096e-008     -2.0613e-009   
  0.95            -1.0945e-009    -2.2672e-008    2.7085e-009    
  1               7.951e-010      1.9276e-008     -1.6553e-009   
  1.05            -2.0394e-009    -4.495e-009     -1.0643e-009   
  1.1             -1.0524e-009    -2.2322e-008    2.7291e-009    
  1.15            7.632e-010      1.8041e-008     -1.7247e-009   
  1.2             -2.0631e-009    -4.813e-009     -1.0254e-009   
  1.25            -1.0182e-009    -2.199e-008     2.7445e-009    
  1.3             2.2315e-009     -3.732e-009     8.512e-010     
  1.35            1.6199e-009     1.2925e-008     -1.5481e-009   
  1.4             -2.1122e-009    5.325e-009      -7.495e-010    
  1.45            -7.894e-010     -1.7383e-008    1.8655e-009    
  1.5             2.1707e-009     -9.191e-009     6.203e-010     
  1.55            2.2221e-009     7.924e-009      7.893e-010     
  1.6             8.065e-010      1.9744e-008     -1.6284e-009   
  1.65            -2.0257e-009    -4.485e-009     -1.0797e-009   
  1.7             -1.0668e-009    -2.2324e-008    2.7245e-009    
  1.75            1.4394e-009     1.8274e-008     -1.891e-009    
  1.8             -1.1682e-009    -2.2551e-008    2.6381e-009    
END_DB

BEGIN_DB
 ICCAP_VAR VG         0.36           
 ICCAP_VAR VS         0              
 ICCAP_VAR VB         -0.9           

 #VD              ID              IB              IG             
  0               -9.021e-010     -1.7684e-008    -9.726e-010    
  0.05            8.965e-010      2.2833e-008     -1.4698e-009   
  0.1             -2.1183e-009    6.208e-009      -8.043e-010    
  0.15            -8.287e-010     -1.846e-008     1.7587e-009    
  0.2             2.193e-009      -9.74e-009      6.793e-010     
  0.25            7.235e-010      1.7375e-008     -1.7966e-009   
  0.3             -2.083e-009     -5.165e-009     -9.765e-010    
  0.35            -9.744e-010     -2.1488e-008    2.7467e-009    
  0.4             2.2216e-009     -3.286e-009     7.884e-010     
  0.45            1.5665e-009     1.4455e-008     -1.6338e-009   
  0.5             -2.0282e-009    -4.472e-009     -1.0675e-009   
  0.55            -1.0501e-009    -2.2156e-008    2.7248e-009    
