! VERSION = 6.00
BEGIN_HEADER
 ICCAP_INPUTS
  VG         V  B GROUND SMU4 0.001 LIN        1    0          1.8        37   0.05      
  VS         V  E GROUND SMU2 0.1 CON        0
  VB         V  C GROUND SMU3 0.1 LIN        3    0          -1.8       3    -0.9      
  VD         V  S GROUND SMU1 0.1 LIN        2    0.1        1.8        2    1.7       
 ICCAP_OUTPUTS
  IG         I  B GROUND SMU4 B
  ID         I  S GROUND SMU1 B
  IB         I  C GROUND SMU3 B
END_HEADER

BEGIN_DB
 ICCAP_VAR VS         0              
 ICCAP_VAR VB         0              
 ICCAP_VAR VD         0.1            

 #VG              IG              ID              IB             
  0               9.82e-010       9.035e-010      2.1895e-008    
  0.05            1.3333e-009     -1.2255e-009    -2.5621e-008   
  0.1             1.1013e-009     2.257e-009      -8.279e-009    
  0.15            -1.4157e-009    1.8759e-009     1.0994e-008    
  0.2             -1.0816e-009    -2.1808e-009    1.0032e-008    
  0.25            1.5011e-009     -1.7206e-009    -1.1817e-008   
  0.3             1.8336e-009     1.4417e-009     -8.312e-009    
  0.35            5.012e-010      2.383e-009      1.0443e-008    
  0.4             -1.3032e-009    1.9225e-009     2.3788e-008    
  0.45            -2.6865e-009    2.2227e-009     1.0923e-008    
  0.5             -3.23e-011      6.3481e-009     -1.086e-008    
  0.55            2.5937e-009     3.3237e-008     2.7473e-008    
  0.6             1.4713e-009     1.205e-007      5.05e-009      
  0.65            1.2589e-009     3.9747e-007     -8.161e-009    
  0.7             2.0423e-009     1.1327e-006     1.2538e-008    
  0.75            1.4533e-009     2.7424e-006     -7.961e-009    
  0.8             1.2565e-009     5.5577e-006     -8.262e-009    
  0.85            2.7895e-009     9.6133e-006     -1.0148e-008   
  0.9             -8.562e-010     1.4899e-005     1.818e-008     
  0.95            1.5262e-009     2.0853e-005     -1.4191e-008   
  1               1.2717e-009     2.7432e-005     -8.419e-009    
  1.05            2.8203e-009     3.4217e-005     -9.575e-009    
  1.1             -1.6631e-009    4.1304e-005     2.0962e-008    
  1.15            -1.3743e-009    4.8016e-005     6.241e-009     
  1.2             -1.2888e-009    5.4543e-005     1.0728e-008    
  1.25            -2.4409e-009    6.0781e-005     1.1512e-008    
  1.3             -1.8387e-009    6.6664e-005     1.723e-009     
  1.35            -1.4292e-009    7.2297e-005     4.89e-009      
  1.4             -1.3111e-009    7.761e-005      9.484e-009     
  1.45            -2.5863e-009    8.2609e-005     1.0929e-008    
  1.5             -2.0573e-009    8.7234e-005     6.61e-010      
  1.55            -1.5251e-009    9.164e-005      3.53e-009      
  1.6             -1.3397e-009    9.5772e-005     8.018e-009     
  1.65            -2.6705e-009    9.9653e-005     1.1147e-008    
  1.7             -2.2675e-009    0.000103196     4.01e-010      
  1.75            -1.6701e-009    0.000106595     2.313e-009     
  1.8             -1.3763e-009    0.000109765     6.304e-009     
END_DB

BEGIN_DB
 ICCAP_VAR VS         0              
 ICCAP_VAR VB         0              
 ICCAP_VAR VD         1.8            

 #VG              IG              ID              IB             
  0               7.153e-010      7.537e-010      1.0104e-008    
  0.05            1.9404e-009     -1.5961e-009    -1.4859e-008   
  0.1             1.5394e-009     1.8159e-009     -8.819e-009    
  0.15            1.717e-009      1.5469e-009     1.0479e-008    
  0.2             3.632e-010      2.204e-009      1.0597e-008    
  0.25            5.577e-010      2.3109e-009     1.0527e-008    
  0.3             -1.2935e-009    1.5399e-009     2.2828e-008    
  0.35            -2.6693e-009    4.896e-010      1.1317e-008    
  0.4             2.2495e-009     2.1886e-009     -1.0697e-008   
  0.45            1.9461e-009     6.7243e-009     -6.133e-009    
  0.5             -1.3647e-009    2.2715e-008     -4.197e-009    
  0.55            -1.602e-010     9.7099e-008     -1.0961e-008   
  0.6             -2.508e-009     3.4742e-007     1.1136e-008    
  0.65            -1.9519e-009    1.1166e-006     -1.3465e-008   
  0.7             -1.8805e-009    3.0178e-006     -1.3719e-008   
  0.75            -8.73e-010      6.7275e-006     -1.5814e-008   
  0.8             2.4956e-009     1.2974e-005     -1.8604e-008   
  0.85            2.7911e-009     2.2165e-005     -4.099e-009    
  0.9             2.8356e-009     3.4317e-005     -1.4234e-008   
  0.95            2.4523e-009     4.9003e-005     -1.9561e-008   
  1               1.7535e-009     6.6025e-005     -2.6518e-008   
  1.05            1.3325e-009     8.4904e-005     -3.3806e-008   
  1.1             2.8544e-009     0.0001052       -3.5582e-008   
  1.15            1.2732e-009     0.00012688      -2.111e-008    
  1.2             2.8316e-009     0.00014911      -3.9541e-008   
  1.25            2.415e-009      0.00017253      -3.1716e-008   
  1.3             1.7266e-009     0.00019601      -3.6148e-008   
  1.35            1.3214e-009     0.00021987      -4.0477e-008   
  1.4             2.8623e-009     0.00024401      -3.9894e-008   
  1.45            2.6062e-009     0.00026865      -3.1434e-008   
  1.5             1.9539e-009     0.000293        -3.3102e-008   
  1.55            1.4065e-009     0.00031735      -3.8409e-008   
  1.6             1.2488e-009     0.00034194      -3.7225e-008   
  1.65            2.754e-009      0.00036632      -3.8939e-008   
  1.7             2.1896e-009     0.00039105      -2.8347e-008   
  1.75            1.5411e-009     0.00041522      -3.2487e-008   
  1.8             1.2734e-009     0.0004394       -3.3168e-008   
END_DB

BEGIN_DB
 ICCAP_VAR VS         0              
 ICCAP_VAR VB         -0.9           
 ICCAP_VAR VD         0.1            

 #VG              IG              ID              IB             
  0               1.7831e-009     2.0349e-009     -1.1391e-008   
  0.05            1.6261e-009     1.6744e-009     -8.893e-009    
  0.1             2.799e-010      2.1504e-009     1.0457e-008    
  0.15            4.788e-010      2.2515e-009     1.0697e-008    
  0.2             6.705e-010      2.3241e-009     1.0736e-008    
  0.25            -1.9095e-009    1.5438e-009     1.9449e-008    
  0.3             -1.5455e-009    -1.7612e-009    4.449e-009     
  0.35            2.2514e-009     -6.873e-010     -1.8931e-008   
  0.4             1.3363e-009     2.0321e-009     -6.272e-009    
  0.45            -2.2196e-009    5.517e-010      1.6465e-008    
  0.5             -1.3277e-009    -1.9019e-009    2.441e-009     
  0.55            1.264e-010      -1.4673e-009    -1.1071e-008   
  0.6             2.2907e-009     2.6007e-009     -1.0651e-008   
  0.65            1.9878e-009     8.8212e-009     -5.7e-009      
  0.7             -2.5421e-009    3.3916e-008     -1.1337e-008   
  0.75            7.68e-010       1.2214e-007     -1.4111e-008   
  0.8             -1.5157e-009    3.9589e-007     1.6847e-008    
  0.85            -1.3276e-009    1.11683e-006    8.569e-009     
  0.9             -2.7132e-009    2.669e-006      -2.569e-008    
  0.95            1.2342e-009     5.414e-006      -2.3875e-008   
  1               2.6613e-009     9.4299e-006     -1.2652e-008   
  1.05            -2.6366e-009    1.4758e-005     1.0471e-008    
  1.1             -8.347e-010     2.0861e-005     -1.1334e-008   
  1.15            -1.2078e-009    2.7566e-005     -1.0233e-008   
  1.2             2.89e-011       3.4275e-005     -1.1461e-008   
  1.25            -4.926e-010     4.1238e-005     -1.0903e-008   
  1.3             -9.287e-010     4.8012e-005     -1.1233e-008   
  1.35            2.882e-010      5.4291e-005     -1.3213e-008   
  1.4             -1.115e-010     6.0513e-005     -1.1003e-008   
  1.45            -6.405e-010     6.6389e-005     -1.1061e-008   
  1.5             -1.0272e-009    7.1941e-005     -1.0812e-008   
  1.55            -1.4394e-009    7.7108e-005     -1.0349e-008   
  1.6             2.0379e-009     8.1766e-005     -1.7453e-008   
  1.65            1.4435e-009     8.6263e-005     -8.26e-009     
  1.7             1.2515e-009     9.0449e-005     -8.189e-009    
  1.75            2.758e-009      9.4369e-005     -1.0794e-008   
  1.8             5.11e-010       9.809e-005      1.0328e-008    
END_DB

BEGIN_DB
 ICCAP_VAR VS         0              
 ICCAP_VAR VB         -0.9           
 ICCAP_VAR VD         1.8            

 #VG              IG              ID              IB             
  0               3.725e-010      5.443e-010      -1.0789e-008   
  0.05            1.9936e-009     -7.922e-010     -2.0459e-008   
  0.1             1.4946e-009     1.8381e-009     -8.472e-009    
  0.15            1.6751e-009     1.588e-009      1.0814e-008    
  0.2             3.395e-010      2.1798e-009     1.0503e-008    
  0.25            5.351e-010      2.2736e-009     1.072e-008     
  0.3             7.222e-010      2.3303e-009     1.028e-008     
  0.35            -1.8339e-009    1.5856e-009     1.7881e-008    
  0.4             -1.5901e-009    -1.669e-009     5.146e-009     
  0.45            -1.529e-010     -1.9514e-009    -1.0859e-008   
  0.5             -3.821e-010     -1.5706e-009    -1.1123e-008   
  0.55            1.2702e-009     2.799e-009      -2.3353e-008   
  0.6             2.7323e-009     1.2576e-008     2.7582e-008    
  0.65            5.553e-010      5.1685e-008     1.0483e-008    
  0.7             2.8267e-009     1.9447e-007     -1.1045e-008   
  0.75            2.7766e-009     6.6789e-007     -5.1e-010      
  0.8             1.5962e-009     1.9124e-006     8.127e-009     
  0.85            2.017e-009      4.7659e-006     6.811e-009     
  0.9             -2.3075e-009    1.01484e-005    6.763e-009     
  0.95            2.8151e-009     1.8121e-005     -1.92e-008     
  1               2.3714e-009     2.9292e-005     -1.3279e-008   
  1.05            1.6795e-009     4.3318e-005     -2.078e-008    
  1.1             1.309e-009      5.9875e-005     -2.758e-008    
  1.15            2.8539e-009     7.8335e-005     -3.0188e-008   
  1.2             2.5419e-009     9.8814e-005     -2.4081e-008   
  1.25            1.2476e-009     0.00012026      -1.6216e-008   
  1.3             2.7489e-009     0.0001425       -3.7952e-008   
  1.35            2.1752e-009     0.00016589      -2.9102e-008   
  1.4             1.5307e-009     0.00018947      -3.5116e-008   
  1.45            1.2722e-009     0.00021333      -3.6928e-008   
  1.5             2.8237e-009     0.0002374       -3.7705e-008   
  1.55            2.3749e-009     0.00026213      -2.8642e-008   
  1.6             1.6809e-009     0.00028639      -3.2349e-008   
  1.65            1.3093e-009     0.00031096      -3.548e-008    
  1.7             2.8502e-009     0.00033514      -3.4408e-008   
  1.75            2.5551e-009     0.00035992      -2.5887e-008   
  1.8             1.8838e-009     0.00038431      -2.731e-008    
END_DB

BEGIN_DB
 ICCAP_VAR VS         0              
 ICCAP_VAR VB         -1.8           
 ICCAP_VAR VD         0.1            

 #VG              IG              ID              IB             
  0               2.5967e-009     2.3396e-009     -1.6365e-008   
  0.05            1.118e-009      2.2467e-009     -2.762e-009    
  0.1             -1.4008e-009    1.0736e-009     2.7445e-008    
  0.15            -1.1087e-009    -2.1648e-009    1.018e-008     
  0.2             1.4586e-009     -1.7516e-009    -1.1571e-008   
  0.25            9.541e-010      2.3233e-009     -8.138e-009    
  0.3             -1.5184e-009    1.7771e-009     1.2512e-008    
  0.35            -1.8125e-009    -1.3931e-009    8.593e-009     
  0.4             -5.188e-010     -2.184e-009     -1.1248e-008   
  0.45            -7.418e-010     -2.2221e-009    -1.096e-008    
  0.5             2.0691e-009     -1.5484e-009    -1.6736e-008   
  0.55            1.4553e-009     1.9321e-009     -8.053e-009    
  0.6             1.6464e-009     1.8057e-009     1.0669e-008    
  0.65            3.151e-010      3.0147e-009     1.0544e-008    
  0.7             5.079e-010      6.079e-009      1.0381e-008    
  0.75            -2.2637e-009    1.5363e-008     -2.3769e-008   
  0.8             -1.6582e-009    6.0795e-008     2.365e-009     
  0.85            1.1488e-009     1.9475e-007     -1.8852e-008   
  0.9             -1.3223e-009    5.8506e-007     2.7621e-008    
  0.95            -2.6277e-009    1.5001e-006     -2.3023e-008   
  1               -2.1654e-009    3.3861e-006     8.25e-010      
  1.05            -1.5802e-009    6.53e-006       2.803e-009     
  1.1             -1.3478e-009    1.09523e-005    7.267e-009     
  1.15            2.895e-010      1.6251e-005     9.771e-009     
  1.2             -1.115e-010     2.2551e-005     -1.105e-008    
  1.25            -6.536e-010     2.9333e-005     -1.1107e-008   
  1.3             1.7919e-009     3.6153e-005     -1.8519e-008   
  1.35            1.3321e-009     4.2946e-005     -8.837e-009    
  1.4             2.8535e-009     4.9533e-005     -8.3e-009      
  1.45            -1.7113e-009    5.606e-005      1.8118e-008    
  1.5             -1.3781e-009    6.2043e-005     5.888e-009     
  1.55            -1.2849e-009    6.7687e-005     1.0423e-008    
  1.6             -2.4483e-009    7.298e-005      1.1563e-008    
  1.65            -1.8416e-009    7.7854e-005     1.705e-009     
  1.7             -1.4214e-009    8.2472e-005     4.994e-009     
  1.75            -1.3035e-009    8.6789e-005     9.667e-009     
  1.8             -2.5488e-009    9.0793e-005     1.0935e-008    
END_DB

BEGIN_DB
 ICCAP_VAR VS         0              
 ICCAP_VAR VB         -1.8           
 ICCAP_VAR VD         1.8            

 #VG              IG              ID              IB             
  0               1.2584e-009     1.3941e-009     -1.1123e-008   
  0.05            1.23e-009       2.92e-011       -1.0073e-008   
  0.1             2.8208e-009     -1.599e-010     -1.3293e-008   
  0.15            1.478e-010      2.0816e-009     1.0253e-008    
  0.2             3.478e-010      2.1904e-009     1.063e-008     
  0.25            -2.3294e-009    4.642e-010      1.5425e-008    
  0.3             -1.26e-009      -2.0536e-009    2.227e-009     
  0.35            1.807e-010      -1.852e-009     -1.1066e-008   
  0.4             1.6155e-009     -9.559e-010     -2.3659e-008   
  0.45            1.7562e-009     1.5347e-009     -8.701e-009    
  0.5             4.229e-010      2.319e-009      1.0604e-008    
  0.55            -2.2507e-009    9.74e-010       1.6503e-008    
  0.6             -1.9604e-009    1.419e-009      2.654e-009     
  0.65            -1.697e-009     8.805e-009      4.165e-009     
  0.7             1.2356e-009     3.97e-008       1.0108e-008    
  0.75            -1.832e-009     1.5478e-007     2.7541e-008    
  0.8             -8.142e-010     5.3458e-007     -1.1969e-008   
  0.85            2.1507e-009     1.5517e-006     1.0679e-008    
  0.9             1.0558e-009     3.8558e-006     7.207e-009     
  0.95            -2.3136e-009    8.4679e-006     7.543e-009     
  1               2.4584e-009     1.5636e-005     -1.9487e-008   
  1.05            1.7538e-009     2.5989e-005     -1.528e-008    
  1.1             1.3213e-009     3.9314e-005     -2.34e-008     
  1.15            2.8519e-009     5.5215e-005     -2.5691e-008   
  1.2             2.5884e-009     7.3599e-005     -2.0409e-008   
  1.25            1.922e-009      9.3387e-005     -2.5416e-008   
  1.3             -1.5568e-009    0.00011548      -4.5197e-008   
  1.35            -1.8754e-009    0.0001373       -3.6944e-008   
  1.4             -2.1676e-009    0.00016019      -3.6303e-008   
  1.45            -2.5435e-009    0.00018362      -3.5046e-008   
  1.5             -2.7049e-009    0.00020748      -3.3285e-008   
  1.55            -2.5943e-009    0.00023161      -2.8039e-008   
  1.6             -2.1039e-009    0.00025602      -2.6445e-008   
  1.65            -1.5416e-009    0.00028042      -2.3373e-008   
  1.7             -1.3327e-009    0.00030495      -1.7895e-008   
  1.75            -2.4745e-009    0.00032914      -2.5408e-008   
  1.8             -1.8933e-009    0.00035366      -2.2994e-008   
END_DB

