! VERSION = 6.00
BEGIN_HEADER
 ICCAP_INPUTS
  VG         V  B GROUND SMU4 0.001 LIN        2    0          1.8        6    0.36      
  VS         V  E GROUND SMU2 0.1 CON        0
  VD         V  S GROUND SMU1 0.1 LIN        1    0          1.8        37   0.05      
  VB         V  C GROUND SMU3 0.1 CON        0
 ICCAP_OUTPUTS
  ID         I  S GROUND SMU1 B
  IG         I  B GROUND SMU4 B
END_HEADER

BEGIN_DB
 ICCAP_VAR VG         0              
 ICCAP_VAR VS         0              
 ICCAP_VAR VB         0              

 #VD              ID              IG             
  0               1.5688e-010     -3.262e-010    
  0.05            -5.854e-011     2.7387e-010    
  0.1             2.4399e-010     1.29e-010      
  0.15            1.2025e-010     -3.3011e-010   
  0.2             -1.7103e-010    -8.952e-011    
  0.25            2.5463e-010     1.1935e-010    
  0.3             1.1495e-010     -3.3649e-010   
  0.35            -1.6873e-010    -7.995e-011    
  0.4             1.9511e-010     1.9699e-010    
  0.45            1.0879e-010     -3.394e-010    
  0.5             -1.6511e-010    -7.017e-011    
  0.55            2.0542e-010     1.7831e-010    
  0.6             1.4922e-010     -2.6962e-010   
  0.65            -1.6063e-010    -6.181e-011    
  0.7             2.1602e-010     1.6226e-010    
  0.75            1.437e-010      -2.8637e-010   
  0.8             -1.5228e-010    -5.336e-011    
  0.85            2.2868e-010     1.4959e-010    
  0.9             1.387e-010      -3.0166e-010   
  0.95            -1.4188e-010    -4.525e-011    
  1               -5.211e-011     2.6333e-010    
  1.05            2.4456e-010     1.3472e-010    
  1.1             1.3152e-010     -3.228e-010    
  1.15            -1.2179e-010    -3.251e-011    
  1.2             -4.096e-011     2.8562e-010    
  1.25            2.5967e-010     1.2146e-010    
  1.3             1.2359e-010     -3.3475e-010   
  1.35            -1.6249e-010    -8.269e-011    
  1.4             2.0004e-010     2.0194e-010    
  1.45            1.1862e-010     -3.398e-010    
  1.5             -1.5757e-010    -7.287e-011    
  1.55            2.126e-010      1.8221e-010    
  1.6             1.6208e-010     -2.668e-010    
  1.65            -1.4666e-010    -6.431e-011    
  1.7             2.3499e-010     1.6612e-010    
  1.75            1.7726e-010     -2.8251e-010   
  1.8             3.109e-011      -3.338e-010    
END_DB

BEGIN_DB
 ICCAP_VAR VG         0.36           
 ICCAP_VAR VS         0              
 ICCAP_VAR VB         0              

 #VD              ID              IG             
  0               -1.175e-007     -2.8412e-010   
  0.05            7.65e-007       -3.0737e-010   
  0.1             9.323e-007      -3.1631e-010   
  0.15            9.8007e-007     -3.2489e-010   
  0.2             1.00502e-006    -2.2843e-010   
  0.25            1.02564e-006    -2.3569e-010   
  0.3             1.0452e-006     -2.4389e-010   
  0.35            1.06307e-006    -2.5223e-010   
  0.4             1.08025e-006    -2.6037e-010   
  0.45            1.09671e-006    -2.6995e-010   
  0.5             1.11201e-006    -2.7962e-010   
  0.55            1.12717e-006    -2.8939e-010   
  0.6             1.1402e-006     3.3102e-010    
  0.65            1.1531e-006     2.4587e-010    
  0.7             1.1671e-006     2.6754e-010    
  0.75            1.1807e-006     2.9068e-010    
  0.8             1.1937e-006     3.1265e-010    
  0.85            1.2039e-006     3.3018e-010    
  0.9             1.2168e-006     2.4534e-010    
  0.95            1.229e-006      2.6523e-010    
  1               1.241e-006      2.8772e-010    
  1.05            1.2516e-006     3.1029e-010    
  1.1             1.2609e-006     3.2811e-010    
  1.15            1.2714e-006     2.4156e-010    
  1.2             1.2827e-006     2.6257e-010    
  1.25            1.2928e-006     2.8551e-010    
  1.3             1.3029e-006     3.0759e-010    
  1.35            1.3125e-006     3.2625e-010    
  1.4             1.3196e-006     2.3937e-010    
  1.45            1.3303e-006     2.6049e-010    
  1.5             1.3393e-006     2.8272e-010    
  1.55            1.3481e-006     3.0465e-010    
  1.6             1.3572e-006     3.2441e-010    
  1.65            1.3645e-006     2.3796e-010    
  1.7             1.3736e-006     2.5706e-010    
  1.75            1.3819e-006     2.7928e-010    
  1.8             1.3907e-006     3.0282e-010    
END_DB

BEGIN_DB
 ICCAP_VAR VG         0.72           
 ICCAP_VAR VS         0              
 ICCAP_VAR VB         0              

 #VD              ID              IG             
  0               -2.1913e-006    2.6239e-010    
  0.05            0.0005247       -7.274e-011    
  0.1             0.00086378      -3.3813e-010   
  0.15            0.00103993      -2.7426e-010   
  0.2             0.00111815      -2.845e-010    
  0.25            0.0011542       -2.7684e-010   
  0.3             0.0011733       -2.8775e-010   
  0.35            0.001184        -2.977e-010    
  0.4             0.0011907       -3.0638e-010   
  0.45            0.0011969       -3.1577e-010   
  0.5             0.0012033       -3.2363e-010   
  0.55            0.0012095       -3.2995e-010   
  0.6             0.0012158       -2.3379e-010   
  0.65            0.0012219       -2.4195e-010   
  0.7             0.0012293       -2.5133e-010   
  0.75            0.0012367       -2.5961e-010   
  0.8             0.001245        -2.6856e-010   
  0.85            0.001254        -2.7878e-010   
  0.9             0.0012634       -2.8859e-010   
  0.95            0.0012736       -2.9848e-010   
  1               0.0012846       -3.0788e-010   
  1.05            0.0012966       -3.158e-010    
  1.1             0.0013099       -3.2444e-010   
  1.15            0.0013237       -3.3011e-010   
  1.2             0.0013386       -2.3489e-010   
  1.25            0.0013546       -2.4318e-010   
  1.3             0.0013722       -2.5216e-010   
  1.35            0.0013911       -2.605e-010    
  1.4             0.0014114       -2.6955e-010   
  1.45            0.0014328       -2.7897e-010   
  1.5             0.0014561       -2.884e-010    
  1.55            0.0014809       -2.9844e-010   
  1.6             0.001507        -3.0767e-010   
  1.65            0.0015345       -3.166e-010    
  1.7             0.0015636       -3.2343e-010   
  1.75            0.0015938       -3.3018e-010   
  1.8             0.0016248       -2.3499e-010   
END_DB

BEGIN_DB
 ICCAP_VAR VG         1.08           
 ICCAP_VAR VS         0              
 ICCAP_VAR VB         0              

 #VD              ID              IG             
  0               -3.2866e-006    -3.2326e-010   
  0.05            0.0009154       5.076e-011     
  0.1             0.0017966       -3.3384e-010   
  0.15            0.0026254       -2.4004e-010   
  0.2             0.0033882       -2.4883e-010   
  0.25            0.0040691       -2.5711e-010   
  0.3             0.0046444       -2.6679e-010   
  0.35            0.0050961       -2.7671e-010   
  0.4             0.0054139       -2.8644e-010   
  0.45            0.0056123       -2.9493e-010   
  0.5             0.0057255       -3.0452e-010   
  0.55            0.0057905       -3.1369e-010   
  0.6             0.005823        -3.2211e-010   
  0.65            0.0058183       -3.288e-010    
  0.7             0.0058111       -2.3276e-010   
  0.75            0.0058013       -2.4008e-010   
  0.8             0.0057894       -2.4918e-010   
  0.85            0.0057759       -2.5783e-010   
  0.9             0.0057613       -2.6668e-010   
  0.95            0.0057452       -2.7627e-010   
  1               0.0057282       -2.8501e-010   
  1.05            0.0057104       -2.9477e-010   
  1.1             0.0056918       -3.0456e-010   
  1.15            0.0056731       -3.1279e-010   
  1.2             0.0056548       -3.2122e-010   
  1.25            0.0056363       -3.2741e-010   
  1.3             0.005619        -2.3145e-010   
  1.35            0.0056031       -2.392e-010    
  1.4             0.0055902       -2.4676e-010   
  1.45            0.0055805       -2.5514e-010   
  1.5             0.005575        -2.6313e-010   
  1.55            0.0055747       -2.7314e-010   
  1.6             0.005579        -2.8319e-010   
  1.65            0.0055887       -2.9239e-010   
  1.7             0.0056032       -3.0176e-010   
  1.75            0.0056223       -3.108e-010    
  1.8             0.0056454       -3.1841e-010   
END_DB

BEGIN_DB
 ICCAP_VAR VG         1.44           
 ICCAP_VAR VS         0              
 ICCAP_VAR VB         0              

 #VD              ID              IG             
  0               -3.5274e-006    -2.4043e-010   
  0.05            0.00099814      9.046e-011     
  0.1             0.0019877       -2.7198e-010   
  0.15            0.0029572       -2.8148e-010   
  0.2             0.0039037       -2.923e-010    
  0.25            0.0048252       -3.0169e-010   
  0.3             0.0057143       -3.0981e-010   
  0.35            0.0065676       -3.1864e-010   
  0.4             0.0073773       -3.2557e-010   
  0.45            0.0081362       -2.2896e-010   
  0.5             0.0088369       -2.3723e-010   
  0.55            0.0094667       -2.4488e-010   
  0.6             0.0100156       -2.5305e-010   
  0.65            0.0104696       -2.6186e-010   
  0.7             0.0108215       -2.7222e-010   
  0.75            0.0110705       -2.8095e-010   
  0.8             0.011232        -2.8998e-010   
  0.85            0.0113323       -2.9891e-010   
  0.9             0.0113964       -3.0787e-010   
  0.95            0.011423        2.528e-010     
  1               0.011412        2.6248e-010    
  1.05            0.011397        2.71e-010      
  1.1             0.011382        2.8129e-010    
  1.15            0.011364        2.9082e-010    
  1.2             0.011345        2.9992e-010    
  1.25            0.011324        3.0941e-010    
  1.3             0.011302        3.1824e-010    
  1.35            0.011276        3.2604e-010    
  1.4             0.011253        2.2911e-010    
  1.45            0.011227        2.3651e-010    
  1.5             0.011202        2.436e-010     
  1.55            0.011175        2.5224e-010    
  1.6             0.011152        2.6123e-010    
  1.65            0.011128        2.6976e-010    
  1.7             0.011113        2.8001e-010    
  1.75            0.011099        2.8949e-010    
  1.8             0.011088        2.9897e-010    
END_DB

BEGIN_DB
 ICCAP_VAR VG         1.8            
 ICCAP_VAR VS         0              
 ICCAP_VAR VB         0              

 #VD              ID              IG             
  0               -3.7248e-006    -2.3568e-010   
  0.05            0.0010316       2.7775e-010    
  0.1             0.0020602       2.8655e-010    
  0.15            0.0030764       2.9597e-010    
  0.2             0.0040799       3.0414e-010    
  0.25            0.0050683       3.1267e-010    
  0.3             0.006037        3.2062e-010    
  0.35            0.0069867       3.274e-010     
  0.4             0.0079111       2.3157e-010    
  0.45            0.0088104       2.393e-010     
  0.5             0.0096818       2.4568e-010    
  0.55            0.010521        2.5435e-010    
  0.6             0.0113267       2.6259e-010    
  0.65            0.012104        -2.7801e-010   
  0.7             0.01283         -2.8842e-010   
  0.75            0.013512        -2.98e-010     
  0.8             0.014141        -3.0723e-010   
  0.85            0.014716        -3.1624e-010   
  0.9             0.015228        -3.2364e-010   
  0.95            0.015664        -3.2904e-010   
  1               0.016026        -2.3421e-010   
  1.05            0.016304        -2.4153e-010   
  1.1             0.016506        -2.5005e-010   
  1.15            0.016635        -2.5888e-010   
  1.2             0.01672         -2.6695e-010   
  1.25            0.016784        -2.7712e-010   
  1.3             0.016796        -2.8629e-010   
  1.35            0.016774        -2.9576e-010   
  1.4             0.016748        -3.0615e-010   
  1.45            0.016731        -3.1285e-010   
  1.5             0.016719        -3.2086e-010   
  1.55            0.016701        -3.2766e-010   
  1.6             0.016678        -2.3143e-010   
  1.65            0.01666         -2.4027e-010   
  1.7             0.016636        -2.4748e-010   
  1.75            0.016623        -2.5532e-010   
  1.8             0.016603        -2.6575e-010   
END_DB

