! VERSION = 6.00
BEGIN_HEADER
 ICCAP_INPUTS
  VG         V  B GROUND SMU4 0.001 LIN        1    0          1.8        37   0.05      
  VS         V  E GROUND SMU2 0.1 CON        0
  VD         V  S GROUND SMU1 0.1 LIN        2    0.1        1.8        2    1.7       
  VB         V  C GROUND SMU3 0.1 CON        0
 ICCAP_OUTPUTS
  IG         I  B GROUND SMU4 B
  ID         I  S GROUND SMU1 B
END_HEADER

BEGIN_DB
 ICCAP_VAR VS         0              
 ICCAP_VAR VD         0.1            
 ICCAP_VAR VB         0              

 #VG              IG              ID             
  0               -2.9838e-010    1.3315e-010    
  0.05            1.0028e-010     2.0843e-010    
  0.1             -1.4511e-010    3.5821e-010    
  0.15            -2.341e-010     1.9207e-009    
  0.2             2.2602e-010     7.4358e-009    
  0.25            -1.1606e-010    3.3469e-008    
  0.3             3.2928e-010     1.5219e-007    
  0.35            -3.2485e-010    6.8961e-007    
  0.4             1.3665e-010     3.0529e-006    
  0.45            1.9492e-010     1.2522e-005    
  0.5             -2.6809e-010    4.4044e-005    
  0.55            3.2476e-010     0.00012426     
  0.6             -3.286e-010     0.00027671     
  0.65            2.9114e-010     0.00049858     
  0.7             -2.5356e-010    0.00075806     
  0.75            2.246e-010      0.00101153     
  0.8             2.8952e-010     0.0012287      
  0.85            -2.5133e-010    0.001399       
  0.9             2.2294e-010     0.0015285      
  0.95            -3.0366e-010    0.0016271      
  1               2.5437e-010     0.0017032      
  1.05            -2.2388e-010    0.001763       
  1.1             1.9469e-010     0.001811       
  1.15            -2.6881e-010    0.0018502      
  1.2             2.2646e-010     0.0018823      
  1.25            -1.9555e-010    0.00191        
  1.3             2.7294e-010     0.0019334      
  1.35            -2.3657e-010    0.0019535      
  1.4             2.0974e-010     0.0019707      
  1.45            -2.8454e-010    0.0019862      
  1.5             2.5095e-010     0.0019997      
  1.55            -2.0911e-010    0.0020119      
  1.6             2.9188e-010     0.0020222      
  1.65            -2.4889e-010    0.0020323      
  1.7             2.2532e-010     0.0020405      
  1.75            -2.9875e-010    0.0020483      
  1.8             3.4005e-010     0.0020552      
END_DB

BEGIN_DB
 ICCAP_VAR VS         0              
 ICCAP_VAR VD         1.8            
 ICCAP_VAR VB         0              

 #VG              IG              ID             
  0               -7.207e-011     -2.325e-011    
  0.05            1.1928e-010     2.5335e-010    
  0.1             -1.7299e-010    5.5657e-010    
  0.15            -3.1164e-010    2.6395e-009    
  0.2             3.213e-010      1.07819e-008   
  0.25            -1.363e-010     4.8921e-008    
  0.3             3.3696e-010     2.2465e-007    
  0.35            -3.1156e-010    1.02823e-006   
  0.4             3.3906e-010     4.5763e-006    
  0.45            3.3259e-010     1.8715e-005    
  0.5             -2.7204e-010    6.4856e-005    
  0.55            2.803e-010      0.0001795      
  0.6             -2.4384e-010    0.00039655     
  0.65            -2.6202e-010    0.0011594      
  0.7             2.3119e-010     0.0014865      
  0.75            -2.0167e-010    0.0018669      
  0.8             2.7934e-010     0.0023132      
  0.85            -2.422e-010     0.0028226      
  0.9             2.1509e-010     0.0033871      
  0.95            -2.9318e-010    0.0039996      
  1               2.5728e-010     0.0046518      
  1.05            -2.2533e-010    0.0053348      
  1.1             1.9896e-010     0.0060424      
  1.15            -2.723e-010     0.00677        
  1.2             2.2915e-010     0.0075161      
  1.25            -1.9844e-010    0.0082761      
  1.3             2.7731e-010     0.0090472      
  1.35            -2.3901e-010    0.0098242      
  1.4             2.1282e-010     0.0106047      
  1.45            -2.8962e-010    0.0113876      
  1.5             2.4133e-010     0.012142       
  1.55            -2.1137e-010    0.012919       
  1.6             2.9208e-010     0.013692       
  1.65            -2.5297e-010    0.014451       
  1.7             2.2484e-010     0.015188       
  1.75            -1.9388e-010    0.015923       
  1.8             2.7096e-010     0.016636       
END_DB

