! VERSION = 6.00
BEGIN_HEADER
 ICCAP_INPUTS
  VG         V  B GROUND SMU4 0.001 LIN        2    0          1.8        6    0.36      
  VS         V  E GROUND SMU2 0.1 CON        0
  VD         V  S GROUND SMU1 0.1 LIN        1    0          1.8        37   0.05      
  VB         V  C GROUND SMU3 0.1 LIN        3    0          -0.9       2    -0.9      
 ICCAP_OUTPUTS
  ID         I  S GROUND SMU1 B
  IB         I  C GROUND SMU3 B
  IG         I  B GROUND SMU4 B
END_HEADER

BEGIN_DB
 ICCAP_VAR VG         0              
 ICCAP_VAR VS         0              
 ICCAP_VAR VB         0              

 #VD              ID              IB              IG             
  0               1.0575e-009     -9.791e-009     1.0931e-009    
  0.05            9.357e-010      -3.011e-009     1.608e-009     
  0.1             7.706e-010      8.335e-009      -1.2486e-009   
  0.15            -1.7245e-009    5.531e-009      -8.632e-010    
  0.2             -1.5988e-009    -8.764e-009     1.2105e-009    
  0.25            1.0261e-009     -3.102e-009     2.0287e-009    
  0.3             1.2653e-009     1.0631e-008     -1.3378e-009   
  0.35            -1.2134e-009    3.206e-009      -1.3842e-009   
  0.4             -1.9084e-009    -9.904e-009     3.65e-011      
  0.45            -1.9745e-009    -9.544e-009     -1.628e-010    
  0.5             -1.1144e-009    -1.3045e-008    1.1541e-009    
  0.55            9.745e-010      -8.641e-009     1.8631e-009    
  0.6             1.0998e-009     8.853e-009      -1.237e-009    
  0.65            -1.305e-009     7.84e-009       -1.2888e-009   
  0.7             -1.8581e-009    -9.961e-009     1.788e-010     
  0.75            -1.9415e-009    -1.0203e-008    -2.69e-011     
  0.8             -1.987e-009     -9.761e-009     -2.09e-010     
  0.85            -1.9914e-009    -8.99e-009      -3.481e-010    
  0.9             -1.2365e-009    -9.415e-009     1.1961e-009    
  0.95            1.027e-010      -1.1066e-008    1.2086e-009    
  1               -7.78e-011      -1.4013e-008    1.2059e-009    
  1.05            -1.873e-010     -1.6894e-008    1.5837e-009    
  1.1             1.1662e-009     1.1838e-008     1.2137e-009    
  1.15            1.6838e-009     8.409e-009      3.45e-011      
  1.2             1.768e-009      8.829e-009      2.04e-010      
  1.25            7.169e-010      8.841e-009      -1.2518e-009   
  1.3             -1.7818e-009    5.507e-009      -7.739e-010    
  1.35            -1.5533e-009    -8.774e-009     1.2001e-009    
  1.4             1.0142e-009     -3.316e-009     1.9894e-009    
  1.45            1.2221e-009     9.365e-009      -1.2242e-009   
  1.5             -1.1732e-009    9.717e-009      -1.4217e-009   
  1.55            -1.9355e-009    -9.902e-009     -9.9e-012      
  1.6             -1.9945e-009    -9.446e-009     -1.938e-010    
  1.65            -1.999e-009     -8.998e-009     -3.32e-010     
  1.7             -1.2287e-009    -9.528e-009     1.1968e-009    
  1.75            1.187e-010      -1.1016e-008    1.2077e-009    
  1.8             -6.32e-011      -1.3832e-008    1.2063e-009    
END_DB

BEGIN_DB
 ICCAP_VAR VG         0.36           
 ICCAP_VAR VS         0              
 ICCAP_VAR VB         0              

 #VD              ID              IB              IG             
  0               -1.1895e-009    -3.242e-009     -1.2534e-009   
  0.05            -1.8088e-009    5.413e-009      -6.348e-010    
  0.1             1.083e-009      -9.729e-009     1.9388e-009    
  0.15            1.7555e-009     9.203e-009      7.197e-010     
  0.2             1.6039e-009     1.001e-008      8.769e-010     
  0.25            1.5795e-009     5.755e-009      -1.2472e-009   
  0.3             -1.7636e-009    5.559e-009      1.606e-010     
  0.35            -1.8319e-009    -1.0181e-008    -4.07e-011     
  0.4             -1.8693e-009    -9.563e-009     -2.159e-010    
  0.45            -8.489e-010     -9.124e-009     1.1158e-009    
  0.5             1.1701e-009     -5.945e-009     2.3334e-009    
  0.55            1.9446e-009     8.384e-009      5.204e-010     
  0.6             1.8813e-009     8.73e-009       6.286e-010     
  0.65            1.7606e-009     9.452e-009      7.641e-010     
  0.7             1.6042e-009     1.0428e-008     9.245e-010     
  0.75            1.4228e-009     1.1681e-008     1.0975e-009    
  0.8             1.2567e-009     1.269e-008      1.2829e-009    
  0.85            1.8787e-009     8.729e-009      1.018e-010     
  0.9             1.9633e-009     9.064e-009      2.561e-010     
  0.95            2.0058e-009     8.554e-009      3.909e-010     
  1               2.0127e-009     8.403e-009      4.951e-010     
  1.05            1.9591e-009     8.562e-009      6.102e-010     
  1.1             1.8564e-009     9.241e-009      7.363e-010     
  1.15            1.7039e-009     1.0285e-008     8.935e-010     
  1.2             1.728e-009      5.915e-009      -1.2442e-009   
  1.25            -1.6143e-009    5.576e-009      1.38e-010      
  1.3             -3.766e-010     -9.768e-009     1.0984e-009    
  1.35            1.3176e-009     -2.757e-009     2.2579e-009    
  1.4             1.4569e-009     1.1714e-008     1.1773e-009    
  1.45            1.9468e-009     8.085e-009      1.49e-011      
  1.5             2.0472e-009     8.769e-009      1.75e-010      
  1.55            2.122e-009      8.929e-009      3.182e-010     
  1.6             2.1578e-009     8.425e-009      4.39e-010      
  1.65            2.1421e-009     8.394e-009      5.493e-010     
  1.7             2.0706e-009     8.864e-009      6.651e-010     
  1.75            1.9539e-009     9.689e-009      8.078e-010     
  1.8             1.793e-009      1.0915e-008     9.737e-010     
END_DB

BEGIN_DB
 ICCAP_VAR VG         0.72           
 ICCAP_VAR VS         0              
 ICCAP_VAR VB         0              

 #VD              ID              IB              IG             
  0               -2.2543e-010    -9.001e-009     1.8618e-009    
  0.05            6.47e-007       1.2475e-008     -1.2521e-009   
  0.1             8.8863e-007     8.173e-009      6.541e-010     
  0.15            1.01372e-006    -2.836e-009     1.153e-009     
  0.2             1.0922e-006     -9.426e-009     9.3e-012       
  0.25            1.1666e-006     -9.612e-009     -1.2498e-009   
  0.3             1.1943e-006     8.318e-009      5.793e-010     
  0.35            1.2448e-006     -2.633e-009     1.1135e-009    
  0.4             1.3183e-006     -8.986e-009     -7.056e-010    
  0.45            1.36e-006       4.879e-009      -1.2381e-009   
  0.5             1.3645e-006     8.779e-009      8.091e-010     
  0.55            1.4167e-006     -3.653e-009     1.1709e-009    
  0.6             1.4647e-006     -9.377e-009     4e-011         
  0.65            1.5366e-006     1.0159e-008     -1.6946e-009   
  0.7             1.5444e-006     1.1909e-008     1.3797e-009    
  0.75            1.5887e-006     -9.821e-009     1.2005e-009    
  0.8             1.6409e-006     -9.949e-009     -2.613e-010    
  0.85            1.6987e-006     5.62e-010       -1.2635e-009   
  0.9             1.7225e-006     8.756e-009      4.814e-010     
  0.95            1.7611e-006     -2.77e-009      1.095e-009     
  1               1.834e-006      -9.177e-009     -5.338e-010    
  1.05            1.8822e-006     3.782e-009      -1.2445e-009   
  1.1             1.8846e-006     8.229e-009      6.894e-010     
  1.15            1.9366e-006     -2.683e-009     1.1445e-009    
  1.2             2.0327e-006     -9.331e-009     -8.909e-010    
  1.25            2.0774e-006     5.405e-009      -1.2316e-009   
  1.3             2.0641e-006     9.396e-009      9.667e-010     
  1.35            2.1273e-006     -6.472e-009     1.1938e-009    
  1.4             2.2158e-006     -1.0431e-008    -1.257e-009    
  1.45            2.2784e-006     6.348e-009      -2.1359e-009   
  1.5             2.2601e-006     9.725e-009      1.044e-009     
  1.55            2.3273e-006     -7.848e-009     1.1998e-009    
  1.6             2.3936e-006     -1.0466e-008    -2.028e-010    
  1.65            2.4781e-006     1.3159e-008     -1.4102e-009   
  1.7             2.5106e-006     7.128e-009      2.387e-010     
  1.75            2.5406e-006     -1.5823e-008    1.4264e-009    
  1.8             2.6081e-006     -1.2881e-008    -1.5437e-009   
END_DB

BEGIN_DB
 ICCAP_VAR VG         1.08           
 ICCAP_VAR VS         0              
 ICCAP_VAR VB         0              

 #VD              ID              IB              IG             
  0               -2.4101e-008    1.233e-008      -1.194e-010    
  0.05            8.4502e-006     -1.1437e-008    -2.0674e-009   
  0.1             1.5207e-005     1.0632e-008     -1.9679e-009   
  0.15            2.0255e-005     1.2397e-008     1.5232e-009    
  0.2             2.3794e-005     -1.9399e-008    1.1504e-009    
  0.25            2.6467e-005     -8.773e-009     -6.294e-010    
  0.3             2.8172e-005     5.236e-009      -1.2177e-009   
  0.35            2.9236e-005     1.2483e-008     1.4732e-009    
  0.4             3.0038e-005     -1.8272e-008    1.1873e-009    
  0.45            3.0938e-005     -8.975e-009     -5.773e-010    
  0.5             3.1517e-005     5.245e-009      -1.222e-009    
  0.55            3.187e-005      1.2181e-008     1.4315e-009    
  0.6             3.2286e-005     -1.7469e-008    1.2335e-009    
  0.65            3.2925e-005     -9.108e-009     -5.231e-010    
  0.7             3.3367e-005     5.344e-009      -1.2258e-009   
  0.75            3.3579e-005     1.1962e-008     1.3824e-009    
  0.8             3.3939e-005     -1.6453e-008    1.278e-009     
  0.85            3.4503e-005     -9.345e-009     -4.698e-010    
  0.9             3.4913e-005     5.59e-009       -1.2301e-009   
  0.95            3.5071e-005     1.1787e-008     1.3273e-009    
  1               3.542e-005      -1.5363e-008    1.3376e-009    
  1.05            3.5941e-005     -9.461e-009     -4.217e-010    
  1.1             3.634e-005      5.319e-009      -1.2337e-009   
  1.15            3.6464e-005     1.1532e-008     1.2744e-009    
  1.2             3.6821e-005     -1.4605e-008    1.4077e-009    
  1.25            3.7305e-005     -9.545e-009     -3.78e-010     
  1.3             3.7702e-005     5.043e-009      -1.2345e-009   
  1.35            3.7793e-005     1.105e-008      1.2205e-009    
  1.4             3.8167e-005     -1.419e-008     1.4762e-009    
  1.45            3.8621e-005     -1.0112e-008    -3.387e-010    
  1.5             3.9019e-005     3.838e-009      -1.2385e-009   
  1.55            3.9094e-005     9.382e-009      1.1641e-009    
  1.6             3.944e-005      -1.1215e-008    1.1987e-009    
  1.65            4.006e-005      -1.2544e-008    -7.724e-010    
  1.7             4.0343e-005     9.09e-010       -2.2212e-009   
  1.75            4.056e-005      -1.5513e-008    -2.4064e-009   
  1.8             4.0873e-005     -1.4881e-008    -2.4459e-009   
END_DB

BEGIN_DB
 ICCAP_VAR VG         1.44           
 ICCAP_VAR VS         0              
 ICCAP_VAR VB         0              

 #VD              ID              IB              IG             
  0               -3.86e-008      -9.265e-009     1.2277e-009    
  0.05            1.6159e-005     1.1723e-008     -1.4676e-009   
  0.1             3.0771e-005     8.807e-009      4.485e-010     
  0.15            4.3516e-005     -2.701e-009     1.1488e-009    
  0.2             5.4319e-005     -9.905e-009     -1.952e-010    
  0.25            6.3196e-005     3.366e-009      -1.2496e-009   
  0.3             7.0033e-005     9.534e-009      9.83e-010      
  0.35            7.5519e-005     -9.861e-009     1.1964e-009    
  0.4             7.991e-005      -9.038e-009     -5.669e-010    
  0.45            8.3086e-005     5.453e-009      -1.223e-009    
  0.5             8.5354e-005     1.1901e-008     1.4284e-009    
  0.55            8.7151e-005     -1.7338e-008    1.2299e-009    
  0.6             8.888e-005      -9.077e-009     -5.189e-010    
  0.65            9.0117e-005     5.461e-009      -1.228e-009    
  0.7             9.0962e-005     1.1782e-008     1.3712e-009    
  0.75            9.1827e-005     -1.6257e-008    1.277e-009     
  0.8             9.289e-005      -9.361e-009     -4.663e-010    
  0.85            9.369e-005      5.701e-009      -1.2303e-009   
  0.9             9.4274e-005     8.823e-009      3.946e-010     
  0.95            9.4857e-005     -2.453e-009     1.1336e-009    
  1               9.5774e-005     -1.0281e-008    -1.2291e-009   
  1.05            9.6356e-005     9.69e-009       -1.6479e-009   
  1.1             9.6884e-005     8.666e-009      3.589e-010     
  1.15            9.7369e-005     -2.619e-009     1.1233e-009    
  1.2             9.8005e-005     -9.758e-009     -5.12e-011     
  1.25            9.8742e-005     1.947e-009      -1.2569e-009   
  1.3             9.8984e-005     8.809e-009      8.49e-010      
  1.35            9.9619e-005     -1.2492e-008    1.1889e-009    
  1.4             0.000100189     -1.0748e-008    1.2046e-009    
  1.45            0.000101005     -1.0223e-008    -8.571e-010    
  1.5             0.000101474     5.733e-009      -2.1315e-009   
  1.55            0.000101792     1.0396e-008     1.4303e-009    
  1.6             0.000102247     -1.1073e-008    1.1097e-009    
  1.65            0.000103066     -1.4601e-008    -1.0895e-009   
  1.7             0.000103503     2.787e-009      -1.8573e-009   
  1.75            0.000104015     -2.692e-009     -1.2271e-009   
  1.8             0.000104378     -6.34e-009      2.3385e-009    
END_DB

BEGIN_DB
 ICCAP_VAR VG         1.8            
 ICCAP_VAR VS         0              
 ICCAP_VAR VB         0              

 #VD              ID              IB              IG             
  0               -5.0666e-008    -9.355e-009     1.178e-009     
  0.05            2.1259e-005     1.1938e-008     -1.4077e-009   
  0.1             4.1288e-005     8.466e-009      5.093e-010     
  0.15            5.9705e-005     -3.276e-009     1.1616e-009    
  0.2             7.6239e-005     -9.796e-009     -2.696e-010    
  0.25            9.0813e-005     4.129e-009      -1.2401e-009   
  0.3             0.000103187     1.0758e-008     1.0694e-009    
  0.35            0.000113793     -9.568e-009     1.205e-009     
  0.4             0.00012279      -1.0926e-008    2.553e-010     
  0.45            0.00013017      9.267e-009      -1.7789e-009   
  0.5             0.00013598      1.1969e-008     1.4438e-009    
  0.55            0.00014075      -1.3516e-008    1.5092e-009    
  0.6             0.00014468      -9.756e-009     -1.164e-010    
  0.65            0.00014789      1.4197e-008     -1.4095e-009   
  0.7             0.00015039      8.823e-009      3.565e-010     
  0.75            0.00015235      -2.899e-009     1.098e-009     
  0.8             0.00015431      -8.974e-009     -5.989e-010    
  0.85            0.00015581      5e-009          -1.2354e-009   
  0.9             0.00015682      9.334e-009      9.648e-010     
  0.95            0.00015808      -8.123e-009     1.1997e-009    
  1               0.00015931      -9.837e-009     -3.302e-010    
  1.05            0.00016036      2.791e-009      -1.2467e-009   
  1.1             0.00016106      8.261e-009      6.94e-010      
  1.15            0.00016193      -3.571e-009     1.1657e-009    
  1.2             0.00016312      -1.1228e-008    -1.1943e-009   
  1.25            0.00016387      7.083e-009      -2.0812e-009   
  1.3             0.00016435      1.1308e-008     1.2307e-009    
  1.35            0.00016512      -1.0443e-008    1.2034e-009    
  1.4             0.00016601      -9.65e-009      -3.457e-010    
  1.45            0.0001668       2.583e-009      -1.2458e-009   
  1.5             0.00016724      7.786e-009      7.085e-010     
  1.55            0.0001679       -4.55e-009      1.1713e-009    
  1.6             0.00016887      -1.2719e-008    -1.2158e-009   
  1.65            0.00016948      4.713e-009      -2.054e-009    
  1.7             0.00017013      1.428e-009      -1.2379e-009   
  1.75            0.00017068      -1.3265e-008    -2.4529e-009   
  1.8             0.00017129      -1.5062e-008    -2.4573e-009   
END_DB

BEGIN_DB
 ICCAP_VAR VG         0              
 ICCAP_VAR VS         0              
 ICCAP_VAR VB         -0.9           

 #VD              ID              IB              IG             
  0               9.631e-010      -8.88e-009      1.1829e-009    
  0.05            1.0109e-009     -1.0171e-008    1.9808e-009    
  0.1             1.2007e-009     1.0562e-008     -1.2153e-009   
  0.15            -1.1768e-009    8.918e-009      -1.3987e-009   
  0.2             -1.9031e-009    -9.691e-009     3.5e-012       
  0.25            -1.9771e-009    -9.31e-009      -1.736e-010    
  0.3             -1.1127e-009    -1.2411e-008    1.1555e-009    
  0.35            9.814e-010      -8.769e-009     1.8631e-009    
  0.4             1.0837e-009     9.567e-009      -1.2309e-009   
  0.45            -1.3092e-009    7.527e-009      -1.269e-009    
  0.5             -1.1675e-009    -1.014e-008     -1.4052e-009   
  0.55            -1.9098e-009    -9.677e-009     1e-012         
  0.6             -1.9743e-009    -9.149e-009     -1.824e-010    
  0.65            -1.1184e-009    -1.2181e-008    1.1566e-009    
  0.7             9.828e-010      -8.893e-009     1.8709e-009    
  0.75            1.0931e-009     9.655e-009      -1.2326e-009   
  0.8             -1.3032e-009    7.54e-009       -1.275e-009    
  0.85            -1.8405e-009    -9.797e-009     1.87e-010      
  0.9             -1.9142e-009    -9.728e-009     -2.3e-012      
  0.95            -1.9781e-009    -9.322e-009     -1.845e-010    
  1               -1.1176e-009    -1.2248e-008    1.1578e-009    
  1.05            9.834e-010      -8.69e-009      1.882e-009     
  1.1             1.0899e-009     9.636e-009      -1.2333e-009   
  1.15            -1.3001e-009    7.603e-009      -1.2791e-009   
  1.2             -1.8455e-009    -9.76e-009      1.847e-010     
  1.25            -1.9192e-009    -9.749e-009     -1.01e-011     
  1.3             -1.985e-009     -9.309e-009     -1.889e-010    
  1.35            -1.1211e-009    -1.2036e-008    1.1593e-009    
  1.4             9.827e-010      -9.027e-009     1.8746e-009    
  1.45            1.0981e-009     9.74e-009       -1.2315e-009   
  1.5             -1.299e-009     7.647e-009      -1.2788e-009   
  1.55            -1.8419e-009    -9.835e-009     1.777e-010     
  1.6             -1.9214e-009    -9.764e-009     -9.3e-012      
  1.65            -1.975e-009     -9.261e-009     -1.994e-010    
  1.7             -1.123e-009     -1.2148e-008    1.1617e-009    
  1.75            9.841e-010      -8.822e-009     1.8735e-009    
  1.8             1.1013e-009     9.663e-009      -1.2327e-009   
END_DB

BEGIN_DB
 ICCAP_VAR VG         0.36           
 ICCAP_VAR VS         0              
 ICCAP_VAR VB         -0.9           

 #VD              ID              IB              IG             
  0               1.0545e-009     1.1226e-008     1.2268e-009    
  0.05            1.0509e-009     -2.439e-009     2.1937e-009    
  0.1             1.7635e-009     8.441e-009      1.985e-010     
  0.15            7.075e-010      8.472e-009      -1.2539e-009   
  0.2             -1.7899e-009    5.637e-009      -7.554e-010    
  0.25            -1.524e-009     -9.024e-009     1.205e-009     
  0.3             1.0038e-009     -3.136e-009     1.9596e-009    
  0.35            1.1983e-009     1.0504e-008     -1.2138e-009   
  0.4             -1.1895e-009    8.933e-009      -1.3974e-009   
  0.45            -1.9083e-009    -9.719e-009     2.6e-012       
  0.5             -1.9744e-009    -9.248e-009     -1.884e-010    
  0.55            -1.1183e-009    -1.2406e-008    1.1517e-009    
