! VERSION = 6.00
BEGIN_HEADER
 ICCAP_INPUTS
  VG         V  B GROUND SMU4 0.001 LIN        1    0          1.8        37   0.05      
  VS         V  E GROUND SMU2 0.1 CON        0
  VB         V  C GROUND SMU3 0.1 LIN        3    0          -1.8       3    -0.9      
  VD         V  S GROUND SMU1 0.1 LIN        2    0.1        1.8        2    1.7       
 ICCAP_OUTPUTS
  IG         I  B GROUND SMU4 B
  ID         I  S GROUND SMU1 B
  IB         I  C GROUND SMU3 B
END_HEADER

BEGIN_DB
 ICCAP_VAR VS         0              
 ICCAP_VAR VB         0              
 ICCAP_VAR VD         0.1            

 #VG              IG              ID              IB             
  0               7.951e-010      8.02e-010       2.7087e-008    
  0.05            2.1025e-009     -1.5345e-009    -1.6484e-008   
  0.1             1.3912e-009     1.9255e-009     -8.366e-009    
  0.15            1.67e-011       2.0157e-009     1.0289e-008    
  0.2             2.049e-010      2.1072e-009     1.0322e-008    
  0.25            4.016e-010      2.2e-009        1.0244e-008    
  0.3             5.927e-010      2.2887e-009     9.404e-009     
  0.35            7.702e-010      2.3777e-009     8.838e-009     
  0.4             9.191e-010      2.6014e-009     8.313e-009     
  0.45            -1.5286e-009    3.0357e-009     1.1628e-008    
  0.5             -1.4119e-009    5.25e-009       6.851e-009     
  0.55            -6.137e-010     2.0763e-008     -1.088e-009    
  0.6             1.6963e-009     8.5496e-008     -1.6579e-008   
  0.65            -1.12e-009      2.8814e-007     1.7221e-008    
  0.7             6.68e-011       7.6307e-007     -1.1368e-008   
  0.75            1.5516e-009     1.7146e-006     1.1564e-008    
  0.8             1.2824e-009     3.2535e-006     -9.849e-009    
  0.85            2.8296e-009     5.3458e-006     -1.0995e-008   
  0.9             2.4401e-009     7.9022e-006     -3.047e-009    
  0.95            1.7466e-009     1.06873e-005    -5.918e-009    
  1               -1.2797e-009    1.3664e-005     -9.519e-009    
  1.05            -2.3316e-009    1.6587e-005     1.0067e-008    
  1.1             1.3651e-009     1.9346e-005     -1.2061e-008   
  1.15            1.2407e-009     2.2155e-005     -1.0242e-008   
  1.2             2.7031e-009     2.4831e-005     -1.3241e-008   
  1.25            5.606e-010      2.7452e-005     1.0446e-008    
  1.3             9.46e-010       2.9862e-005     8.961e-009     
  1.35            -2.234e-010     3.2212e-005     1.1345e-008    
  1.4             -1.4064e-009    3.4436e-005     2.3183e-008    
  1.45            -1.319e-009     3.6526e-005     8.332e-009     
  1.5             -2.5977e-009    3.8507e-005     8.942e-009     
  1.55            -1.9947e-009    4.0345e-005     3.48e-010      
  1.6             1.2634e-009     4.2073e-005     -2.3411e-008   
  1.65            2.7844e-009     4.3734e-005     -1.1951e-008   
  1.7             1.3505e-009     4.5295e-005     9.719e-009     
  1.75            2.348e-010      4.6835e-005     1.0416e-008    
  1.8             6.87e-010       4.8222e-005     1.0137e-008    
END_DB

BEGIN_DB
 ICCAP_VAR VS         0              
 ICCAP_VAR VB         0              
 ICCAP_VAR VD         1.8            

 #VG              IG              ID              IB             
  0               2.8084e-009     2.0954e-009     -5.751e-009    
  0.05            1.5232e-009     1.7306e-009     -6.64e-010     
  0.1             -9.7e-011       1.9601e-009     1.1475e-008    
  0.15            -1.4664e-009    9.487e-010      2.5556e-008    
  0.2             -8.567e-010     -2.2161e-009    7.884e-009     
  0.25            1.6404e-009     -1.6395e-009    -1.2486e-008   
  0.3             1.678e-009      1.6258e-009     -9.951e-009    
  0.35            3.169e-010      2.5597e-009     1.034e-008     
  0.4             5.088e-010      4.0816e-009     9.68e-009      
  0.45            6.847e-010      1.05133e-008    9.126e-009     
  0.5             2.8395e-009     3.6036e-008     1.0262e-008    
  0.55            -1.6294e-009    1.338e-007      9.365e-009     
  0.6             -1.386e-009     4.2997e-007     4.722e-009     
  0.65            1.694e-009      1.0978e-006     8.052e-009     
  0.7             -1.4755e-009    2.5258e-006     1.9291e-008    
  0.75            -1.3468e-009    4.8977e-006     4.253e-009     
  0.8             -2.6994e-009    8.4939e-006     4.884e-009     
  0.85            2.838e-009      1.3269e-005     -1.6442e-008   
  0.9             2.6998e-009     1.9363e-005     -9.684e-009    
  0.95            2.1071e-009     2.6524e-005     -1.3968e-008   
  1               1.5068e-009     3.4591e-005     -1.8946e-008   
  1.05            1.2808e-009     4.3358e-005     -2.1888e-008   
  1.1             2.8271e-009     5.2624e-005     -2.4353e-008   
  1.15            2.3956e-009     6.2533e-005     -1.6741e-008   
  1.2             1.7224e-009     7.2587e-005     -2.0091e-008   
  1.25            1.3411e-009     8.2926e-005     -2.4293e-008   
  1.3             2.8473e-009     9.345e-005      -2.4885e-008   
  1.35            2.6232e-009     0.000104265     -1.6555e-008   
  1.4             -9.409e-010     0.00011518      -3.6938e-008   
  1.45            -1.3538e-009    0.00012623      -2.4276e-008   
  1.5             -1.7778e-009    0.00013699      -2.4025e-008   
  1.55            -2.0463e-009    0.00014785      -2.2391e-008   
  1.6             -2.4125e-009    0.0001588       -2.0697e-008   
  1.65            -2.6884e-009    0.00016975      -1.8953e-008   
  1.7             -1.8268e-009    0.00018076      -2.2192e-008   
  1.75            -2.0986e-009    0.00019156      -2.0413e-008   
  1.8             -2.4781e-009    0.00020244      -1.9151e-008   
END_DB

BEGIN_DB
 ICCAP_VAR VS         0              
 ICCAP_VAR VB         -0.9           
 ICCAP_VAR VD         0.1            

 #VG              IG              ID              IB             
  0               -9.174e-010     3.528e-010      8.374e-009     
  0.05            -2.7003e-009    1.163e-010      8.848e-009     
  0.1             2.2326e-009     -1.4869e-009    -1.8248e-008   
  0.15            1.3114e-009     2.0279e-009     -7.344e-009    
  0.2             -7.64e-011      1.9769e-009     1.0229e-008    
  0.25            -1.4512e-009    9.654e-010      2.5475e-008    
  0.3             -8.718e-010     -2.2141e-009    8.023e-009     
  0.35            1.6261e-009     -1.6615e-009    -1.2392e-008   
  0.4             7.841e-010      2.3152e-009     -9.908e-009    
  0.45            9.27e-010       2.3222e-009     8.234e-009     
  0.5             -1.5371e-009    1.842e-009      1.1817e-008    
  0.55            -1.4229e-009    3.75e-011       6.857e-009     
  0.6             -1.371e-009     1.8743e-009     8.272e-009     
  0.65            1.3656e-009     1.0862e-008     -2.1813e-008   
  0.7             2.8334e-009     4.2558e-008     -1.0098e-008   
  0.75            2.0808e-009     1.5515e-007     -5.703e-009    
  0.8             1.462e-009      4.6615e-007     -8.338e-009    
  0.85            2.5893e-009     1.1534e-006     8.531e-009     
  0.9             1.8986e-009     2.3963e-006     -5.112e-009    
  0.95            1.3995e-009     4.2432e-006     -9.194e-009    
  1               2.8175e-009     6.6214e-006     -9.84e-009     
  1.05            2.7587e-009     9.3853e-006     -1.12e-009     
  1.1             -2.3671e-009    1.2308e-005     9.198e-009     
  1.15            -6.889e-010     1.5253e-005     -1.1056e-008   
  1.2             1.6013e-009     1.8124e-005     -1.5075e-008   
  1.25            1.2992e-009     2.0976e-005     -9.796e-009    
  1.3             2.8352e-009     2.3686e-005     -1.0684e-008   
  1.35            2.5273e-009     2.6322e-005     -2.613e-009    
  1.4             1.8534e-009     2.8783e-005     -5.396e-009    
  1.45            1.3757e-009     3.1111e-005     -9.491e-009    
  1.5             1.2501e-009     3.3321e-005     -1.0107e-008   
  1.55            2.7421e-009     3.5408e-005     -1.2686e-008   
  1.6             1.4074e-009     3.7349e-005     1.0266e-008    
  1.65            2.847e-010      3.9273e-005     1.0342e-008    
  1.7             7.277e-010      4.1013e-005     9.914e-009     
  1.75            1.075e-009      4.2632e-005     8.487e-009     
  1.8             1.4724e-009     4.4169e-005     9.558e-009     
END_DB

BEGIN_DB
 ICCAP_VAR VS         0              
 ICCAP_VAR VB         -0.9           
 ICCAP_VAR VD         1.8            

 #VG              IG              ID              IB             
  0               8.86e-010       8.132e-010      2.5989e-008    
  0.05            2.383e-009      -1.4135e-009    -1.9864e-008   
  0.1             1.2126e-009     2.1316e-009     -6.279e-009    
  0.15            -1.673e-010     1.9406e-009     1.0245e-008    
  0.2             -1.5109e-009    8.995e-010      2.4352e-008    
  0.25            -1.7435e-009    -1.4046e-009    6.858e-009     
  0.3             -3.31e-010      -2.1601e-009    -1.1266e-008   
  0.35            1.2675e-009     -1.3372e-009    -2.1434e-008   
  0.4             1.2606e-009     2.1518e-009     -1.1704e-008   
  0.45            -1.299e-010     2.2972e-009     1.0251e-008    
  0.5             -1.4783e-009    2.6545e-009     2.4854e-008    
  0.55            -1.3968e-009    7.957e-009      7.268e-009     
  0.6             2.6833e-009     3.6855e-008     9.857e-009     
  0.65            -1.3586e-009    1.4538e-007     1.0748e-008    
  0.7             -1.2885e-009    4.7256e-007     8.933e-009     
  0.75            2.5292e-009     1.2219e-006     1.6429e-008    
  0.8             -2.6562e-009    2.7657e-006     7.327e-009     
  0.85            -1.3567e-009    5.354e-006      -1.2681e-008   
  0.9             -1.7637e-009    9.1604e-006     -1.4993e-008   
  0.95            2.7993e-009     1.4271e-005     -1.5407e-008   
  1               2.3791e-009     2.0651e-005     -1.1204e-008   
  1.05            1.6924e-009     2.8178e-005     -1.566e-008    
  1.1             1.3221e-009     3.653e-005      -2.0533e-008   
  1.15            2.8403e-009     4.5534e-005     -2.1904e-008   
  1.2             2.6355e-009     5.5204e-005     -1.4437e-008   
  1.25            1.9984e-009     6.5124e-005     -1.7556e-008   
  1.3             1.439e-009      7.5369e-005     -2.2034e-008   
  1.35            1.2637e-009     8.5809e-005     -2.3247e-008   
  1.4             2.7938e-009     9.641e-005      -2.5166e-008   
  1.45            2.3354e-009     0.000107318     -1.6925e-008   
  1.5             2.5723e-009     0.00011798      -1.2675e-008   
  1.55            1.8941e-009     0.00012896      -1.8446e-008   
  1.6             1.393e-009      0.00013985      -2.2349e-008   
  1.65            1.2537e-009     0.00015079      -2.2465e-008   
  1.7             2.7623e-009     0.00016174      -2.4609e-008   
  1.75            2.235e-009      0.00017273      -1.5669e-008   
  1.8             1.5767e-009     0.00018359      -1.8754e-008   
END_DB

BEGIN_DB
 ICCAP_VAR VS         0              
 ICCAP_VAR VB         -1.8           
 ICCAP_VAR VD         0.1            

 #VG              IG              ID              IB             
  0               -1.1704e-009    -1.1027e-009    -1.3625e-008   
  0.05            -2.0228e-009    6.304e-010      1.7056e-008    
  0.1             1.3376e-009     -1.1556e-009    -2.3431e-008   
  0.15            1.0551e-009     2.2639e-009     -1.0356e-008   
  0.2             1.1979e-009     2.1344e-009     1.0512e-008    
  0.25            -1.863e-010     1.9296e-009     1.0198e-008    
  0.3             -1.5323e-009    8.869e-010      2.3825e-008    
  0.35            -1.7272e-009    -1.4381e-009    6.623e-009     
  0.4             -3.051e-010     -2.1575e-009    -1.128e-008    
  0.45            1.2721e-009     -1.3324e-009    -2.187e-008    
  0.5             1.2356e-009     2.1225e-009     -1.1293e-008   
  0.55            -1.514e-010     2.0006e-009     1.0207e-008    
  0.6             -1.5032e-009    1.186e-009      2.4537e-008    
  0.65            -1.4032e-009    9.637e-010      7.041e-009     
  0.7             -1.3628e-009    6.2421e-009     8.463e-009     
  0.75            2.1284e-009     2.9223e-008     2.0775e-008    
  0.8             -2.6344e-009    1.0933e-007     9.751e-009     
  0.85            -2.1035e-009    3.5474e-007     2.68e-010      
  0.9             1.2792e-009     9.0375e-007     -2.3063e-008   
  0.95            2.8428e-009     1.9713e-006     2.7044e-008    
  1               2.6556e-009     3.6295e-006     -1.979e-009    
  1.05            5.91e-010       5.8756e-006     1.047e-008     
  1.1             9.666e-010      8.4763e-006     8.974e-009     
  1.15            -2.127e-010     1.13941e-005    1.1159e-008    
  1.2             -9.454e-010     1.4363e-005     2.1235e-008    
  1.25            1.3383e-009     1.7218e-005     -2.1727e-008   
  1.3             1.2323e-009     2.0074e-005     -1.0259e-008   
  1.35            2.6648e-009     2.2831e-005     -1.3695e-008   
  1.4             5.965e-010      2.5499e-005     1.0443e-008    
  1.45            9.688e-010      2.7955e-005     8.807e-009     
  1.5             -2.099e-010     3.0348e-005     1.1198e-008    
  1.55            -1.4047e-009    3.2598e-005     2.319e-008     
  1.6             -1.3224e-009    3.4688e-005     8.262e-009     
  1.65            -2.6141e-009    3.6672e-005     8.834e-009     
  1.7             -2.0543e-009    3.8512e-005     3.08e-010      
  1.75            1.2742e-009     4.0231e-005     -2.322e-008    
  1.8             2.813e-009      4.1875e-005     -1.1456e-008   
END_DB

BEGIN_DB
 ICCAP_VAR VS         0              
 ICCAP_VAR VB         -1.8           
 ICCAP_VAR VD         1.8            

 #VG              IG              ID              IB             
  0               3.183e-010      -6.561e-010     -1.91e-008     
  0.05            1.7429e-009     -8.391e-010     -1.9604e-008   
  0.1             7.016e-010      2.2975e-009     -9.985e-009    
  0.15            8.546e-010      2.3184e-009     8.667e-009     
  0.2             9.908e-010      2.2897e-009     8.437e-009     
  0.25            -1.4717e-009    1.7947e-009     1.0785e-008    
  0.3             -1.7892e-009    -1.3578e-009    7.567e-009     
  0.35            -3.94e-010      -2.1743e-009    -1.093e-008    
  0.4             1.2553e-009     -1.3836e-009    -2.0668e-008   
  0.45            1.3102e-009     2.1012e-009     -1.2241e-008   
  0.5             -7.61e-011      2.3498e-009     1.0301e-008    
  0.55            -1.4462e-009    2.8913e-009     2.5349e-008    
  0.6             -1.3801e-009    9.0801e-009     7.934e-009     
  0.65            2.6338e-009     4.1828e-008     9.543e-009     
  0.7             -2.7219e-009    1.629e-007      1.0234e-008    
  0.75            -2.057e-010     5.2084e-007     -1.1841e-008   
  0.8             2.2509e-009     1.3538e-006     9.34e-009      
  0.85            -1.9356e-009    2.9888e-006     1.0981e-008    
  0.9             -9.163e-010     5.6766e-006     -1.3045e-008   
  0.95            -1.3286e-009    9.7158e-006     -1.4806e-008   
  1               2.775e-009      1.491e-005      -1.7006e-008   
  1.05            2.8178e-009     2.1534e-005     -7.868e-009    
  1.1             2.4213e-009     2.9182e-005     -1.2379e-008   
  1.15            1.747e-009      3.7613e-005     -1.6412e-008   
  1.2             1.3386e-009     4.67e-005       -2.135e-008    
  1.25            2.8447e-009     5.6336e-005     -2.2401e-008   
  1.3             2.6682e-009     6.6489e-005     -1.4491e-008   
  1.35            2.0585e-009     7.6708e-005     -1.7529e-008   
  1.4             1.4629e-009     8.7182e-005     -2.1618e-008   
  1.45            1.2681e-009     9.7789e-005     -2.3124e-008   
  1.5             2.8148e-009     0.000108512     -2.474e-008    
  1.55            1.3445e-009     0.00011937      -3.024e-009    
  1.6             1.2398e-009     0.00013026      -2.3205e-008   
  1.65            2.695e-009      0.00014106      -2.607e-008    
  1.7             2.0872e-009     0.00015213      -1.6748e-008   
  1.75            1.4781e-009     0.00016299      -2.0213e-008   
  1.8             1.2742e-009     0.00017384      -2.1269e-008   
END_DB

