! VERSION = 6.00
BEGIN_HEADER
 ICCAP_INPUTS
  VG         V  B GROUND SMU4 0.001 LIN        2    0          1.8        6    0.36      
  VS         V  E GROUND SMU2 0.1 CON        0
  VD         V  S GROUND SMU1 0.1 LIN        1    0          1.8        37   0.05      
  VB         V  C GROUND SMU3 0.1 LIN        3    0          -0.9       2    -0.9      
 ICCAP_OUTPUTS
  ID         I  S GROUND SMU1 B
  IB         I  C GROUND SMU3 B
  IG         I  B GROUND SMU4 B
END_HEADER

BEGIN_DB
 ICCAP_VAR VG         0              
 ICCAP_VAR VS         0              
 ICCAP_VAR VB         0              

 #VD              ID              IB              IG             
  0               7.546e-010      2.7891e-008     6.92e-010      
  0.05            -1.6688e-009    -1.2485e-008    1.7909e-009    
  0.1             1.681e-009      -8.808e-009     1.6349e-009    
  0.15            2.185e-009      1.1576e-008     2.817e-010     
  0.2             2.2806e-009     1.0927e-008     4.982e-010     
  0.25            1.4236e-009     2.2979e-008     -1.3499e-009   
  0.3             7.99e-011       1.1652e-008     -1.3042e-009   
  0.35            2.558e-010      1.264e-008      -2.6274e-009   
  0.4             -2.2705e-009    9.17e-010       -1.0552e-009   
  0.45            -1.7678e-009    -1.1537e-008    1.5223e-009    
  0.5             2.4138e-009     -8.472e-009     9.153e-010     
  0.55            1.7833e-009     1.2702e-008     -1.5693e-009   
  0.6             -1.4554e-009    7.328e-009      -1.8003e-009   
  0.65            -2.2069e-009    -1.1876e-008    -4.512e-010    
  0.7             -1.4385e-009    -2.1932e-008    1.311e-009     
  0.75            1.19e-011       -1.0974e-008    2.9114e-009    
  0.8             1.4925e-009     -5.03e-010      1.785e-009     
  0.85            2.2583e-009     1.124e-008      4.418e-010     
  0.9             1.3915e-009     2.4286e-008     -1.3631e-009   
  0.95            3.61e-011       1.1497e-008     -1.3212e-009   
  1               2.136e-010      1.2325e-008     -2.6623e-009   
  1.05            -2.2776e-009    7.11e-010       -1.0159e-009   
  1.1             -1.7409e-009    -1.164e-008     1.5876e-009    
  1.15            2.4084e-009     -8.584e-009     8.737e-010     
  1.2             2.3803e-009     8.902e-009      1.0257e-009    
  1.25            2.2488e-009     9.803e-009      1.1852e-009    
  1.3             1.9734e-009     1.1149e-008     -1.802e-010    
  1.35            9.255e-010      2.5829e-008     -1.5486e-009   
  1.4             -1.4316e-009    7.541e-009      -1.8172e-009   
  1.45            -2.216e-009     -1.1876e-008    -4.784e-010    
  1.5             -2.2672e-009    -1.0832e-008    -7.159e-010    
  1.55            -2.2866e-009    -9.819e-009     -8.819e-010    
  1.6             -1.6632e-009    -1.281e-008     1.807e-009     
  1.65            1.6977e-009     -8.738e-009     1.6205e-009    
  1.7             2.0459e-009     9.98e-009       4.1e-012       
  1.75            2.1503e-009     1.1491e-008     2.021e-010     
  1.8             2.2521e-009     1.1177e-008     4.145e-010     
END_DB

BEGIN_DB
 ICCAP_VAR VG         0.36           
 ICCAP_VAR VS         0              
 ICCAP_VAR VB         0              

 #VD              ID              IB              IG             
  0               2.2929e-009     7.99e-010       2.1877e-009    
  0.05            2.2541e-009     -6.624e-009     2.3916e-009    
  0.1             3.4237e-009     1.1221e-008     2.01e-011      
  0.15            3.6105e-009     1.1331e-008     2.148e-010     
  0.2             3.7505e-009     1.0998e-008     4.338e-010     
  0.25            3.8711e-009     1.0285e-008     6.386e-010     
  0.3             3.9487e-009     9.273e-009      8.164e-010     
  0.35            3.3387e-009     1.5229e-008     -1.7177e-009   
  0.4             1.2237e-009     5.959e-009      -1.5262e-009   
  0.45            1.3887e-009     8.262e-009      -1.4344e-009   
  0.5             1.5587e-009     1.0195e-008     -1.3867e-009   
  0.55            1.7201e-009     1.1485e-008     -1.3514e-009   
  0.6             1.8998e-009     1.147e-008      -1.3139e-009   
  0.65            2.0901e-009     1.2206e-008     -2.6583e-009   
  0.7             1.032e-009      5e-010          -2.4772e-009   
  0.75            1.1356e-009     1.536e-009      -2.2216e-009   
  0.8             1.2259e-009     2.537e-009      -1.937e-009    
  0.85            1.359e-009      4.118e-009      -1.6904e-009   
  0.9             1.506e-009      6.103e-009      -1.5191e-009   
  0.95            1.6655e-009     8.547e-009      -1.4294e-009   
  1               1.8305e-009     1.0378e-008     -1.3848e-009   
  1.05            1.974e-009      1.1585e-008     -1.3501e-009   
  1.1             2.1454e-009     1.1413e-008     -1.3116e-009   
  1.15            2.3473e-009     1.226e-008      -2.6492e-009   
  1.2             1.2537e-009     5.78e-010       -2.4495e-009   
  1.25            1.3282e-009     1.713e-009      -2.197e-009    
  1.3             1.454e-009      2.595e-009      -1.9118e-009   
  1.35            1.5925e-009     4.342e-009      -1.6685e-009   
  1.4             1.7272e-009     5.973e-009      -1.507e-009    
  1.45            1.8684e-009     8.518e-009      -1.4237e-009   
  1.5             2.0139e-009     1.0444e-008     -1.3818e-009   
  1.55            2.1633e-009     1.1648e-008     -1.3474e-009   
  1.6             2.3405e-009     1.1499e-008     -1.3065e-009   
  1.65            2.5174e-009     1.2498e-008     -2.637e-009    
  1.7             1.3957e-009     8.07e-010       -2.4351e-009   
  1.75            1.4976e-009     1.886e-009      -2.1698e-009   
  1.8             1.6069e-009     2.55e-009       -1.8886e-009   
END_DB

BEGIN_DB
 ICCAP_VAR VG         0.72           
 ICCAP_VAR VS         0              
 ICCAP_VAR VB         0              

 #VD              ID              IB              IG             
  0               -6.0845e-010    -1.204e-008     2.1632e-009    
  0.05            8.5748e-007     1.1714e-008     -2.5148e-009   
  0.1             1.3403e-006     -1.181e-008     -1.3684e-009   
  0.15            1.5762e-006     2.7445e-008     -1.3416e-009   
  0.2             1.682e-006      2.4741e-008     -1.308e-009    
  0.25            1.6979e-006     1.0527e-008     1.4385e-009    
  0.3             1.751e-006      -2.3143e-008    1.268e-009     
  0.35            1.7781e-006     -1.1856e-008    -3.475e-010    
  0.4             1.8276e-006     1.3831e-008     -2.1333e-009   
  0.45            1.8422e-006     1.1223e-008     2.246e-010     
  0.5             1.8434e-006     -1.4664e-008    2.4464e-009    
  0.55            1.8648e-006     -2.551e-008     1.2912e-009    
  0.6             1.884e-006      -1.1822e-008    -1.858e-010    
  0.65            1.9304e-006     1.283e-008      -2.3164e-009   
  0.7             1.9482e-006     2.8306e-008     -1.3593e-009   
  0.75            1.9609e-006     2.6767e-008     -1.329e-009    
  0.8             1.9761e-006     2.3431e-008     -1.2929e-009   
  0.85            1.9857e-006     1.1358e-008     4.698e-010     
  0.9             1.9821e-006     -1.6661e-008    2.082e-009     
  0.95            1.9952e-006     -1.1895e-008    -4.182e-010    
  1               2.0361e-006     1.435e-008      -2.0346e-009   
  1.05            2.0538e-006     2.6139e-008     -1.3255e-009   
  1.1             2.0658e-006     2.2844e-008     -1.7629e-009   
  1.15            2.0478e-006     1.0928e-008     2.0287e-009    
  1.2             2.0564e-006     -1.2002e-008    2.648e-010     
  1.25            2.1025e-006     1.1524e-008     -2.7181e-009   
  1.3             2.1087e-006     1.4076e-008     -1.4638e-009   
  1.35            2.1039e-006     1.0644e-008     8.335e-010     
  1.4             2.1e-006        -2.1676e-008    1.5424e-009    
  1.45            2.1249e-006     -1.1551e-008    -8.328e-010    
  1.5             2.1563e-006     2.0442e-008     -1.5611e-009   
  1.55            2.1576e-006     1.1007e-008     6.939e-010     
  1.6             2.1513e-006     -1.9182e-008    1.7358e-009    
  1.65            2.1662e-006     -1.2182e-008    -6.93e-010     
  1.7             2.2004e-006     1.7311e-008     -1.7212e-009   
  1.75            2.1779e-006     9.614e-009      2.0564e-009    
  1.8             2.1837e-006     -1.2644e-008    2.425e-010     
END_DB

BEGIN_DB
 ICCAP_VAR VG         1.08           
 ICCAP_VAR VS         0              
 ICCAP_VAR VB         0              

 #VD              ID              IB              IG             
  0               -1.0703e-008    -1.0759e-008    -1.1006e-009   
  0.05            4.0938e-006     9.277e-009      1.5691e-009    
  0.1             7.623e-006      -2.0059e-008    1.9561e-009    
  0.15            1.05719e-005    -1.2037e-008    -5.059e-010    
  0.2             1.2923e-005     1.1429e-008     1.28e-010      
  0.25            1.4805e-005     1.3351e-008     -2.1718e-009   
  0.3             1.609e-005      1.1395e-008     6.05e-010      
  0.35            1.6905e-005     -2.4178e-008    1.4364e-009    
  0.4             1.7485e-005     -2.4304e-008    1.2757e-009    
  0.45            1.7875e-005     -1.1729e-008    -7.554e-010    
  0.5             1.8189e-005     2.614e-008      -1.417e-009    
  0.55            1.8234e-005     9.079e-009      1.2445e-009    
  0.6             1.843e-005      -1.8804e-008    1.8778e-009    
  0.65            1.86e-005       -1.0589e-008    -9.317e-010    
  0.7             1.8766e-005     2.8189e-008     -1.3746e-009   
  0.75            1.8806e-005     1.1387e-008     4.2e-010       
  0.8             1.8817e-005     -2.09e-008      1.5831e-009    
  0.85            1.8917e-005     -2.6394e-008    1.307e-009     
  0.9             1.9034e-005     -1.2063e-008    -5.66e-010     
  0.95            1.92e-005       2.3011e-008     -1.4837e-009   
  1               1.9294e-005     2.8049e-008     -1.3511e-009   
  1.05            1.9339e-005     1.1435e-008     5.791e-010     
  1.1             1.9344e-005     -2.379e-008     1.4444e-009    
  1.15            1.9434e-005     -1.1721e-008    -8.23e-011     
  1.2             1.9599e-005     1.5684e-008     -1.8692e-009   
  1.25            1.9622e-005     1.0562e-008     7.896e-010     
  1.3             1.9643e-005     -2.6323e-008    1.3439e-009    
  1.35            1.9856e-005     -1.0585e-008    -1.461e-009    
  1.4             1.9885e-005     1.8398e-008     -1.6104e-009   
  1.45            1.9869e-005     9.343e-009      9.66e-010      
  1.5             1.9928e-005     -2.5808e-008    1.2965e-009    
  1.55            2.0111e-005     -1.1629e-008    -1.665e-009    
  1.6             2.0139e-005     1.355e-008      -1.4591e-009   
  1.65            2.0229e-005     2.7096e-008     -1.3418e-009   
  1.7             2.0244e-005     1.0797e-008     6.319e-010     
  1.75            2.0223e-005     -2.5534e-008    1.4185e-009    
  1.8             2.0306e-005     -1.3064e-008    -1.354e-010    
END_DB

BEGIN_DB
 ICCAP_VAR VG         1.44           
 ICCAP_VAR VS         0              
 ICCAP_VAR VB         0              

 #VD              ID              IB              IG             
  0               -1.6974e-008    -2.4352e-008    -7.724e-010    
  0.05            7.1036e-006     1.4057e-008     2.3457e-009    
  0.1             1.3724e-005     -2.1376e-008    9.767e-010     
  0.15            1.9806e-005     -2.5613e-008    1.2933e-009    
  0.2             2.5368e-005     -1.1483e-008    -1.6766e-009   
  0.25            3.0302e-005     1.3687e-008     -1.4596e-009   
  0.3             3.4669e-005     2.7033e-008     -1.3365e-009   
  0.35            3.8393e-005     1.1212e-008     6.483e-010     
  0.4             4.1477e-005     -2.4628e-008    1.4126e-009    
  0.45            4.407e-005      -2.3279e-008    1.2661e-009    
  0.5             4.6146e-005     -1.1557e-008    -7.895e-010    
  0.55            4.7774e-005     2.6427e-008     -1.4108e-009   
  0.6             4.8934e-005     2.4703e-008     -1.3027e-009   
  0.65            4.9703e-005     1.0615e-008     7.855e-010     
  0.7             5.0235e-005     -2.592e-008     1.3476e-009    
  0.75            5.0723e-005     -1.1819e-008    -3.412e-010    
  0.8             5.1181e-005     1.9469e-008     -1.628e-009    
  0.85            5.1359e-005     9.749e-009      9.635e-010     
  0.9             5.1589e-005     -2.5845e-008    1.2973e-009    
  0.95            5.1849e-005     -1.1976e-008    -6.066e-010    
  1               5.2153e-005     2.3986e-008     -1.4709e-009   
  1.05            5.2355e-005     2.7279e-008     -1.3408e-009   
  1.1             5.2471e-005     1.1337e-008     6.308e-010     
  1.15            5.253e-005      -2.4491e-008    1.4259e-009    
  1.2             5.2731e-005     -2.3349e-008    1.2713e-009    
  1.25            5.2932e-005     -1.1679e-008    -7.754e-010    
  1.3             5.3173e-005     2.6393e-008     -1.4124e-009   
  1.35            5.3284e-005     2.5021e-008     -1.3069e-009   
  1.4             5.3346e-005     1.0714e-008     7.731e-010     
  1.45            5.3403e-005     -2.5871e-008    1.3531e-009    
  1.5             5.3744e-005     -1.0366e-008    -1.4385e-009   
  1.55            5.3822e-005     1.9069e-008     -1.6384e-009   
  1.6             5.3842e-005     9.624e-009      9.482e-010     
  1.65            5.3944e-005     -2.5948e-008    1.2989e-009    
  1.7             5.4112e-005     -1.2061e-008    -5.947e-010    
  1.75            5.4338e-005     2.3397e-008     -1.4777e-009   
  1.8             5.4474e-005     2.6878e-008     -1.3421e-009   
END_DB

BEGIN_DB
 ICCAP_VAR VG         1.8            
 ICCAP_VAR VS         0              
 ICCAP_VAR VB         0              

 #VD              ID              IB              IG             
  0               -2.0759e-008    -1.3602e-008    -1.2219e-009   
  0.05            9.3296e-006     3.607e-009      1.0923e-009    
  0.1             1.8286e-005     -2.3639e-008    1.062e-009     
  0.15            2.6814e-005     -2.3558e-008    1.2726e-009    
  0.2             3.4864e-005     -1.1669e-008    -7.567e-010    
  0.25            4.2436e-005     2.5929e-008     -1.4197e-009   
  0.3             4.9368e-005     9.193e-009      1.247e-009     
  0.35            5.5824e-005     -1.8698e-008    1.8746e-009    
  0.4             6.1709e-005     -1.0407e-008    -9.334e-010    
  0.45            6.7006e-005     2.7933e-008     -1.3729e-009   
  0.5             7.1664e-005     1.134e-008      4.28e-010      
  0.55            7.5671e-005     -2.1346e-008    1.5783e-009    
  0.6             7.9192e-005     -2.6156e-008    1.3043e-009    
  0.65            8.2186e-005     -1.1912e-008    -5.696e-010    
  0.7             8.4725e-005     2.3216e-008     -1.4851e-009   
  0.75            8.6735e-005     2.7553e-008     -1.347e-009    
  0.8             8.8265e-005     1.1403e-008     5.918e-010     
  0.85            8.9383e-005     -2.3922e-008    1.443e-009     
  0.9             9.0364e-005     -1.1663e-008    -8.69e-011     
  0.95            9.1235e-005     1.6336e-008     -1.8647e-009   
  1               9.1751e-005     1.0436e-008     8.024e-010     
  1.05            9.2142e-005     -2.5913e-008    1.3444e-009    
  1.1             9.2763e-005     -1.0561e-008    -1.4713e-009   
  1.15            9.3044e-005     1.8143e-008     -1.6052e-009   
  1.2             9.3232e-005     9.41e-009       9.746e-010     
  1.25            9.3494e-005     -2.5451e-008    1.2943e-009    
  1.3             9.3805e-005     -1.198e-008     -6.326e-010    
  1.35            9.4166e-005     2.4154e-008     -1.4572e-009   
  1.4             9.4411e-005     2.6974e-008     -1.3353e-009   
  1.45            9.4566e-005     1.1253e-008     6.44e-010      
  1.5             9.4656e-005     -2.4547e-008    1.4148e-009    
  1.55            9.4865e-005     -2.2875e-008    1.263e-009     
  1.6             9.512e-005      -1.1489e-008    -7.946e-010    
  1.65            9.541e-005      2.6318e-008     -1.4066e-009   
  1.7             9.5599e-005     2.4587e-008     -1.3005e-009   
  1.75            9.5775e-005     2.6944e-008     -1.3943e-009   
  1.8             9.5953e-005     2.2898e-008     -1.7908e-009   
END_DB

BEGIN_DB
 ICCAP_VAR VG         0              
 ICCAP_VAR VS         0              
 ICCAP_VAR VB         -0.9           

 #VD              ID              IB              IG             
  0               9.002e-010      1.8249e-008     1.0134e-009    
  0.05            -1.2463e-009    -2.6292e-008    1.3735e-009    
  0.1             2.3218e-009     -8.778e-009     1.1084e-009    
  0.15            1.9252e-009     1.1243e-008     -1.4411e-009   
  0.2             -2.2531e-009    9.853e-009      -1.0892e-009   
  0.25            -1.7867e-009    -1.1703e-008    1.5129e-009    
  0.3             2.4057e-009     -8.424e-009     9.31e-010      
  0.35            1.7934e-009     1.29e-008       -1.57e-009     
  0.4             -1.4602e-009    7.411e-009      -1.8017e-009   
  0.45            -2.2083e-009    -1.1717e-008    -4.428e-010    
  0.5             -2.2601e-009    -1.0591e-008    -6.723e-010    
  0.55            -1.5604e-009    -1.7512e-008    1.2717e-009    
  0.6             -1.543e-010     -1.3287e-008    2.8848e-009    
  0.65            2.1127e-009     1.1377e-008     1.258e-010     
  0.7             2.2112e-009     1.1288e-008     3.322e-010     
  0.75            2.3083e-009     1.0426e-008     5.372e-010     
  0.8             1.4538e-009     2.2308e-008     -1.342e-009    
  0.85            9.68e-011       1.1528e-008     -2.7255e-009   
  0.9             -1.3472e-009    7.71e-010       -1.8889e-009   
  0.95            -2.2524e-009    -1.1317e-008    -6.059e-010    
  1               -2.2891e-009    -1.034e-008     -8.064e-010    
  1.05            -2.2905e-009    -9.514e-009     -9.567e-010    
  1.1             -1.7049e-009    -1.2344e-008    1.6988e-009    
  1.15            1.5992e-009     -8.626e-009     1.7054e-009    
  1.2             2.2131e-009     1.13e-008       3.444e-010     
  1.25            2.3114e-009     1.0368e-008     5.452e-010     
  1.3             1.4592e-009     2.1993e-008     -1.3386e-009   
  1.35            1.05e-010       1.169e-008      -2.7201e-009   
  1.4             -1.3407e-009    6.73e-010       -1.8965e-009   
  1.45            -2.2565e-009    -1.0952e-008    -6.196e-010    
  1.5             -1.5408e-009    -1.8305e-008    1.282e-009     
  1.55            -1.182e-010     -1.2838e-008    2.9027e-009    
  1.6             1.4802e-009     2.1399e-008     -1.3373e-009   
  1.65            1.282e-010      1.1649e-008     -2.716e-009    
  1.7             -1.3257e-009    8.24e-010       -1.9059e-009   
  1.75            -2.2621e-009    -1.1182e-008    -6.473e-010    
  1.8             -2.2904e-009    -1.0158e-008    -8.289e-010    
END_DB

BEGIN_DB
 ICCAP_VAR VG         0.36           
 ICCAP_VAR VS         0              
 ICCAP_VAR VB         -0.9           

 #VD              ID              IB              IG             
  0               1.3914e-009     -1.1677e-008    1.3393e-009    
  0.05            2.2324e-009     -9.279e-009     1.1926e-009    
  0.1             1.1547e-009     2.7526e-008     -1.4194e-009   
  0.15            -2.1677e-009    1.0972e-008     -1.1712e-009   
  0.2             -1.1141e-009    -2.6064e-008    1.4526e-009    
  0.25            2.3932e-009     -8.738e-009     1.004e-009     
  0.3             1.861e-009      1.2218e-008     -1.5128e-009   
  0.35            -2.2746e-009    8.978e-009      -9.764e-010    
  0.4             -1.7008e-009    -1.244e-008     1.672e-009     
  0.45            1.5824e-009     -8.602e-009     1.7315e-009    
  0.5             2.239e-009      1.1114e-008     3.651e-010     
  0.55            2.3422e-009     1.0255e-008     5.743e-010     
