! VERSION = 6.00
BEGIN_HEADER
 ICCAP_INPUTS
  VG         V  B GROUND SMU4 0.001 LIN        2    0          1.8        6    0.36      
  VS         V  E GROUND SMU2 0.1 CON        0
  VD         V  S GROUND SMU1 0.1 LIN        1    0          1.8        37   0.05      
  VB         V  C GROUND SMU3 0.1 LIN        3    0          -0.9       2    -0.9      
 ICCAP_OUTPUTS
  ID         I  S GROUND SMU1 B
  IB         I  C GROUND SMU3 B
  IG         I  B GROUND SMU4 B
END_HEADER

BEGIN_DB
 ICCAP_VAR VG         0              
 ICCAP_VAR VS         0              
 ICCAP_VAR VB         0              

 #VD              ID              IB              IG             
  0               -9.245e-010     -2.3707e-008    -9.724e-010    
  0.05            -2.0083e-009    1.0818e-008     -1.3752e-009   
  0.1             -1.9488e-009    -1.0838e-008    1.088e-010     
  0.15            -1.0393e-009    -2.4861e-008    1.5487e-009    
  0.2             2.3847e-009     -8.254e-009     8.829e-010     
  0.25            2.3385e-009     9.583e-009      1.0295e-009    
  0.3             1.8476e-009     1.169e-008      -1.4759e-009   
  0.35            -1.3713e-009    9.109e-009      -1.8536e-009   
  0.4             -2.2571e-009    -1.1083e-008    -5.636e-010    
  0.45            -2.2817e-009    -1.0736e-008    -7.63e-010     
  0.5             -1.5865e-009    -1.6223e-008    1.2385e-009    
  0.55            -2.428e-010     -1.4098e-008    2.8104e-009    
  0.6             2.2604e-009     1.0801e-008     1.1463e-009    
  0.65            1.1009e-009     2.7525e-008     -1.4049e-009   
  0.7             -2.2094e-009    1.0015e-008     -1.1141e-009   
  0.75            -1.7669e-009    -1.1571e-008    1.4951e-009    
  0.8             2.3787e-009     -8.069e-009     9.261e-010     
  0.85            1.7715e-009     1.3217e-008     -1.5762e-009   
  0.9             -1.4853e-009    7.576e-009      -1.7725e-009   
  0.95            -2.2169e-009    -1.1251e-008    -4.068e-010    
  1               -1.4025e-009    -2.2951e-008    1.2832e-009    
  1.05            3.54e-011       -9.453e-009     1.2507e-009    
  1.1             -1.186e-010     -1.2388e-008    2.8653e-009    
  1.15            2.0767e-009     1.0256e-008     7.72e-011      
  1.2             2.1841e-009     1.0512e-008     2.616e-010     
  1.25            2.2798e-009     1.0559e-008     4.481e-010     
  1.3             5.326e-010      1.6596e-008     -2.241e-009    
  1.35            -2.2727e-009    -1.0997e-008    -6.451e-010    
  1.4             -1.534e-009     -1.8714e-008    1.2516e-009    
  1.45            -1.352e-010     -1.2761e-008    2.8638e-009    
  1.5             1.481e-009      2.2115e-008     -1.3056e-009   
  1.55            1.267e-010      1.1257e-008     -2.6844e-009   
  1.6             -1.3424e-009    3.48e-010       -1.8733e-009   
  1.65            -2.2655e-009    -1.1359e-008    -6.122e-010    
  1.7             -2.2792e-009    -1.0927e-008    -8.008e-010    
  1.75            -2.2633e-009    -1.026e-008     -9.473e-010    
  1.8             -1.6723e-009    -1.2921e-008    1.7429e-009    
END_DB

BEGIN_DB
 ICCAP_VAR VG         0.36           
 ICCAP_VAR VS         0              
 ICCAP_VAR VB         0              

 #VD              ID              IB              IG             
  0               -1.2465e-009    1.0615e-008     -1.31e-009     
  0.05            2.5059e-009     1.0817e-008     -2.708e-009    
  0.1             2.8698e-009     -1.0891e-008    1.2804e-009    
  0.15            3.0017e-009     -9.607e-009     1.252e-009     
  0.2             2.904e-009      -1.2499e-008    2.8715e-009    
  0.25            4.4959e-009     1.0221e-008     8.18e-011      
  0.3             4.6044e-009     1.0604e-008     2.564e-010     
  0.35            4.7288e-009     1.0606e-008     4.519e-010     
  0.4             4.8285e-009     1.0588e-008     6.276e-010     
  0.45            4.9416e-009     9.997e-009      7.945e-010     
  0.5             5.0119e-009     1.6089e-008     -1.7479e-009   
  0.55            3.1892e-009     5.745e-009      -1.5473e-009   
  0.6             3.5462e-009     7.895e-009      -1.4344e-009   
  0.65            4.1025e-009     9.649e-009      -1.3715e-009   
  0.7             4.5552e-009     1.0754e-008     -1.3349e-009   
  0.75            4.9292e-009     1.0778e-008     -1.3064e-009   
  0.8             4.9092e-009     1.1209e-008     -2.6943e-009   
  0.85            3.0419e-009     5.79e-010       -2.5764e-009   
  0.9             3.2772e-009     6.38e-010       -2.3911e-009   
  0.95            1.7409e-009     -1.1261e-008    -4.987e-010    
  1               1.7563e-009     -1.11e-008      -7.021e-010    
  1.05            1.7867e-009     -1.0556e-008    -8.672e-010    
  1.1             3.3045e-009     -1.4211e-008    1.9004e-009    
  1.15            5.5443e-009     -8.854e-009     1.6264e-009    
  1.2             5.6946e-009     -8.635e-009     1.4386e-009    
  1.25            5.7782e-009     -8.102e-009     1.3341e-009    
  1.3             6.0044e-009     -8.2e-009       1.2826e-009    
  1.35            5.9851e-009     -9.436e-009     1.2548e-009    
  1.4             6.144e-009      -1.2097e-008    2.8702e-009    
  1.45            7.0899e-009     1.0239e-008     6.86e-011      
  1.5             7.172e-009      1.048e-008      2.502e-010     
  1.55            7.3445e-009     1.0529e-008     4.341e-010     
  1.6             7.5153e-009     1.0226e-008     6.13e-010      
  1.65            8.3396e-009     2.0896e-008     -1.297e-009    
  1.7             7.8899e-009     1.1509e-008     -2.6669e-009   
  1.75            5.7529e-009     6.02e-010       -2.5241e-009   
  1.8             6.1801e-009     1.36e-009       -2.3187e-009   
END_DB

BEGIN_DB
 ICCAP_VAR VG         0.72           
 ICCAP_VAR VS         0              
 ICCAP_VAR VB         0              

 #VD              ID              IB              IG             
  0               7.6671e-008     -1.0953e-008    1.4883e-009    
  0.05            1.2905e-005     1.0599e-008     -1.5919e-009   
  0.1             1.7638e-005     1.0114e-008     9.695e-010     
  0.15            2.2065e-005     -2.521e-008     1.2665e-009    
  0.2             2.1958e-005     -1.1188e-008    -6.186e-010    
  0.25            2.481e-005      2.3599e-008     -1.451e-009    
  0.3             2.4852e-005     1.5581e-008     -1.9431e-009   
  0.35            2.3715e-005     1.0639e-008     7.395e-010     
  0.4             2.619e-005      -2.5208e-008    1.3392e-009    
  0.45            2.756e-005      -2.1153e-008    2.0038e-009    
  0.5             2.6193e-005     -1.1283e-008    -8.706e-010    
  0.55            2.8641e-005     2.6886e-008     -1.3596e-009   
  0.6             2.9552e-005     2.2773e-008     -1.7591e-009   
  0.65            2.7612e-005     1.0177e-008     8.545e-010     
  0.7             3.0137e-005     -2.5929e-008    1.2956e-009    
  0.75            2.9944e-005     -1.0752e-008    -4.492e-010    
  0.8             3.2297e-005     2.1059e-008     -1.5505e-009   
  0.85            3.0283e-005     9.72e-009       1.0215e-009    
  0.9             3.3458e-005     -2.4477e-008    1.2573e-009    
  0.95            3.3023e-005     -1.1195e-008    -6.865e-010    
  1               3.613e-005      2.4536e-008     -1.423e-009    
  1.05            3.662e-005      1.6713e-008     -1.8593e-009   
  1.1             3.4554e-005     1.028e-008      7.938e-010     
  1.15            3.7658e-005     -2.5553e-008    1.3163e-009    
  1.2             3.7698e-005     -1.1263e-008    -1.4743e-009   
  1.25            4.0099e-005     1.2455e-008     -2.2926e-009   
  1.3             3.7107e-005     9.622e-009      2.0288e-009    
  1.35            4.0474e-005     -1.1841e-008    -1.171e-010    
  1.4             4.2925e-005     1.5825e-008     -1.8532e-009   
  1.45            4.2903e-005     8.906e-009      -2.4998e-009   
  1.5             4.4585e-005     1.4023e-008     -1.7811e-009   
  1.55            4.5496e-005     5.966e-009      -2.443e-009    
  1.6             4.6254e-005     9.884e-009      -1.7173e-009   
  1.65            4.3263e-005     -3.442e-009     2.3202e-009    
  1.7             4.5961e-005     -2.8832e-008    -6.1e-010      
  1.75            4.967e-005      -1.133e-009     -1.4552e-009   
  1.8             4.6222e-005     -2.6625e-008    2.5204e-009    
END_DB

BEGIN_DB
 ICCAP_VAR VG         1.08           
 ICCAP_VAR VS         0              
 ICCAP_VAR VB         0              

 #VD              ID              IB              IG             
  0               9.2387e-007     -1.1302e-008    7.493e-010     
  0.05            0.00017657      -2.0364e-008    -7.544e-010    
  0.1             0.00031623      2.1236e-008     -1.5383e-009   
  0.15            0.00041735      1.0663e-008     8.273e-010     
  0.2             0.00048654      -2.3455e-008    1.4331e-009    
  0.25            0.00053807      -1.0901e-008    -1.0292e-009   
  0.3             0.00057256      2.5847e-008     -1.3712e-009   
  0.35            0.00059524      1.5169e-008     -2.0228e-009   
  0.4             0.00060403      1.0799e-008     1.9793e-009    
  0.45            0.00061996      -1.8634e-008    1.9425e-009    
  0.5             0.00063468      -1.1279e-008    -6.805e-010    
  0.55            0.00064557      1.9844e-008     -1.5985e-009   
  0.6             0.00064716      1.0496e-008     7.632e-010     
  0.65            0.00065682      -2.2355e-008    1.4966e-009    
  0.7             0.00066572      -1.0723e-008    -9.713e-010    
  0.75            0.00067757      2.5101e-008     -1.3941e-009   
  0.8             0.00067613      9.721e-009      1.0363e-009    
  0.85            0.00068811      -2.5729e-008    1.3017e-009    
  0.9             0.00069462      -1.099e-008     -1.067e-010    
  0.95            0.00070452      1.3446e-008     -2.2377e-009   
  1               0.0007129       1.0252e-008     2.827e-010     
  1.05            0.00071494      -1.6995e-008    2.1774e-009    
  1.1             0.0007195       -1.0967e-008    -5.029e-010    
  1.15            0.00072988      1.8025e-008     -1.7719e-009   
  1.2             0.00073413      1.0412e-008     6.266e-010     
  1.25            0.00074028      -2.084e-008     1.6604e-009    
  1.3             0.0007459       -1.2336e-008    -8.533e-010    
  1.35            0.00075169      4.577e-009      -1.3584e-009   
  1.4             0.00076217      1.0501e-008     -1.9755e-009   
  1.45            0.00076676      1.352e-009      -1.2897e-009   
  1.5             0.00076624      -8.505e-009     2.8136e-009    
  1.55            0.00077692      -3.6828e-008    -1.0401e-009   
  1.6             0.0007875       -1.6313e-008    -1.3659e-009   
  1.65            0.00078583      -5.9131e-008    2.5001e-009    
  1.7             0.00079655      -1.07678e-007   -1.3145e-009   
  1.75            0.00080759      -1.4029e-007    -1.3508e-009   
  1.8             0.00081102      -2.0645e-007    2.5431e-009    
END_DB

BEGIN_DB
 ICCAP_VAR VG         1.44           
 ICCAP_VAR VS         0              
 ICCAP_VAR VB         0              

 #VD              ID              IB              IG             
  0               -1.1599e-007    -1.062e-008     2.8813e-009    
  0.05            0.00032548      9.512e-009      2.8796e-009    
  0.1             0.00061845      -1.3265e-008    1.4649e-009    
  0.15            0.0008738       -1.069e-008     -9.92e-010     
  0.2             0.0010842       2.552e-008      -1.3827e-009   
  0.25            0.001254        -8.787e-009     -1.3391e-009   
  0.3             0.0013809       9.656e-009      1.2121e-009    
  0.35            0.0014855       -2.5068e-008    1.2606e-009    
  0.4             0.0015602       -1.0806e-008    -3.52e-010     
  0.45            0.0016212       1.62e-008       -1.943e-009    
  0.5             0.001656        1.0144e-008     2.02e-009      
  0.55            0.0016922       -1.915e-008     1.8543e-009    
  0.6             0.0017204       -1.1245e-008    -7.382e-010    
  0.65            0.0017447       2.088e-008      -1.5538e-009   
  0.7             0.0017566       1.0418e-008     8.109e-010     
  0.75            0.0017759       -2.3141e-008    1.4453e-009    
  0.8             0.0017912       -1.0672e-008    -1.018e-009    
  0.85            0.0018101       2.5823e-008     -1.3773e-009   
  0.9             0.0018121       9.618e-009      1.0807e-009    
  0.95            0.0018292       -2.6013e-008    1.2879e-009    
  1               0.0018408       -1.0871e-008    -1.629e-010    
  1.05            0.0018583       1.3941e-008     -2.1661e-009   
  1.1             0.0018676       1.773e-008      -1.7772e-009   
  1.15            0.0018723       1.0515e-008     6.164e-010     
  1.2             0.0018822       -2.0409e-008    1.6612e-009    
  1.25            0.0018935       -1.1763e-008    -8.476e-010    
  1.3             0.0019061       2.1718e-008     -1.4598e-009   
  1.35            0.001917        1.0119e-008     -2.3382e-009   
  1.4             0.0019278       1.1341e-008     -1.9426e-009   
  1.45            0.0019352       2.227e-009      -1.2891e-009   
  1.5             0.0019366       -7.93e-009      2.8196e-009    
  1.55            0.0019515       -3.5065e-008    -1.0601e-009   
  1.6             0.0019643       -1.454e-008     -1.3619e-009   
  1.65            0.0019657       -5.901e-008     2.5152e-009    
  1.7             0.001977        -1.08882e-007   2.6914e-009    
  1.75            0.0019881       -1.6218e-007    2.8604e-009    
  1.8             0.0020042       -2.4083e-007    -1.463e-009    
END_DB

BEGIN_DB
 ICCAP_VAR VG         1.8            
 ICCAP_VAR VS         0              
 ICCAP_VAR VB         0              

 #VD              ID              IB              IG             
  0               -1.1521e-007    -1.1211e-008    9.665e-010     
  0.05            0.00041469      -1.6074e-008    -2.572e-010    
  0.1             0.00080695      1.5119e-008     -2.0561e-009   
  0.15            0.0011652       7.706e-009      -2.6764e-009   
  0.2             0.001485        1.6096e-008     -1.9481e-009   
  0.25            0.0017599       1.0014e-008     2.0217e-009    
  0.3             0.0019993       -1.9173e-008    1.8462e-009    
  0.35            0.002197        -1.1331e-008    -7.39e-010     
  0.4             0.0023611       2.0981e-008     -1.5522e-009   
  0.45            0.0024888       1.0591e-008     8.054e-010     
  0.5             0.0025954       -2.332e-008     1.4469e-009    
  0.55            0.0026832       -1.0773e-008    -1.0137e-009   
  0.6             0.0027534       2.6062e-008     -1.3772e-009   
  0.65            0.0028005       9.635e-009      1.0788e-009    
  0.7             0.0028494       -2.5852e-008    1.2913e-009    
  0.75            0.0028845       -1.0837e-008    -1.575e-010    
  0.8             0.0029186       1.4095e-008     -2.1663e-009   
  0.85            0.0029426       1.0184e-008     3.266e-010     
  0.9             0.0029627       -1.771e-008     2.0936e-009    
  0.95            0.0029825       -1.1205e-008    -5.542e-010    
  1               0.0030046       1.8629e-008     -1.7151e-009   
  1.05            0.0030164       1.0785e-008     6.719e-010     
  1.1             0.0030363       -2.11e-008      1.5956e-009    
  1.15            0.0030503       -1.1213e-008    -8.866e-010    
  1.2             0.0030694       2.3932e-008     -1.4362e-009   
  1.25            0.0030745       9.726e-009      9.509e-010     
  1.3             0.0030911       -2.5901e-008    1.3381e-009    
  1.35            0.0031064       -1.1742e-008    -1.1646e-009   
  1.4             0.0031179       7.223e-009      -1.3e-009      
  1.45            0.0031316       5.004e-009      -2.6789e-009   
  1.5             0.0031462       1.182e-009      -2.4561e-009   
  1.55            0.0031433       -6.041e-009     1.655e-009     
  1.6             0.0031648       -4.4619e-008    1.6632e-009    
  1.65            0.0031732       -5.6285e-008    -2.1368e-009   
  1.7             0.0031902       -6.334e-008     1.361e-010     
  1.75            0.0031966       -1.1372e-007    1.6199e-009    
  1.8             0.0032112       -1.8272e-007    -2.1558e-009   
END_DB

BEGIN_DB
 ICCAP_VAR VG         0              
 ICCAP_VAR VS         0              
 ICCAP_VAR VB         -0.9           

 #VD              ID              IB              IG             
  0               5.742e-010      -1.0884e-008    4.521e-010     
  0.05            -7.449e-010     -1.9147e-008    2.1794e-009    
  0.1             2.0185e-009     -7.188e-009     1.4034e-009    
  0.15            2.0489e-009     1.0191e-008     2.68e-011      
  0.2             2.1531e-009     1.0472e-008     2.038e-010     
  0.25            2.2509e-009     1.0709e-008     3.862e-010     
  0.3             2.3292e-009     1.0455e-008     5.768e-010     
  0.35            1.4861e-009     2.2089e-008     -1.3047e-009   
  0.4             1.281e-010      1.1331e-008     -2.6872e-009   
  0.45            -1.3416e-009    3.33e-010       -1.8765e-009   
  0.5             -2.259e-009     -1.1031e-008    -6.15e-010     
  0.55            -1.5217e-009    -1.9576e-008    1.2537e-009    
  0.6             -1.039e-010     -1.2231e-008    2.872e-009     
  0.65            2.0662e-009     1.0174e-008     6.73e-011      
  0.7             2.1767e-009     1.0574e-008     2.508e-010     
  0.75            2.2713e-009     1.0809e-008     4.397e-010     
  0.8             2.347e-009      1.0646e-008     6.168e-010     
  0.85            2.3817e-009     1.0153e-008     7.895e-010     
  0.9             1.6561e-009     1.6258e-008     -1.7647e-009   
  0.95            -1.6718e-009    5.563e-009      -1.6548e-009   
  1               -2.1481e-009    -1.1051e-008    -2.009e-010    
  1.05            -2.2198e-009    -1.133e-008     -4.228e-010    
  1.1             -2.2644e-009    -1.1406e-008    -6.304e-010    
  1.15            -2.2758e-009    -1.0756e-008    -8.209e-010    
  1.2             -2.2603e-009    -1.0087e-008    -9.696e-010    
  1.25            -1.6827e-009    -1.2758e-008    1.7037e-009    
  1.3             1.629e-009      -8.737e-009     1.6938e-009    
  1.35            2.2186e-009     1.0682e-008     3.258e-010     
  1.4             2.3059e-009     1.0767e-008     5.136e-010     
  1.45            2.3642e-009     1.0488e-008     6.951e-010     
  1.5             1.5821e-009     1.8867e-008     -1.2871e-009   
  1.55            2.394e-010      1.2459e-008     -2.6175e-009   
  1.6             -1.2682e-009    7.99e-010       -1.9412e-009   
  1.65            -2.2757e-009    -1.108e-008     -7.508e-010    
  1.7             -2.2694e-009    -1.0425e-008    -8.978e-010    
  1.75            -1.6508e-009    -1.3629e-008    1.8186e-009    
  1.8             1.7351e-009     -8.919e-009     1.6163e-009    
END_DB

BEGIN_DB
 ICCAP_VAR VG         0.36           
 ICCAP_VAR VS         0              
 ICCAP_VAR VB         -0.9           

 #VD              ID              IB              IG             
  0               -9.248e-010     -1.1172e-008    -9.709e-010    
  0.05            -8.3e-012       1.0757e-008     -1.2995e-009   
  0.1             1.265e-010      1.1135e-008     -2.6829e-009   
  0.15            -1.3475e-009    5.91e-010       -1.8754e-009   
  0.2             -2.2449e-009    -1.1313e-008    -5.854e-010    
  0.25            -2.2607e-009    -1.0972e-008    -7.854e-010    
  0.3             -1.5882e-009    -1.6164e-008    1.2341e-009    
  0.35            -2.412e-010     -1.4295e-008    2.8074e-009    
  0.4             2.1837e-009     1.0336e-008     2.29e-010      
  0.45            2.2806e-009     1.0701e-008     4.095e-010     
  0.5             2.3574e-009     1.0396e-008     5.953e-010     
  0.55            1.5245e-009     2.1596e-008     -1.2964e-009   
