! VERSION = 6.00
BEGIN_HEADER
 ICCAP_INPUTS
  VG         V  B GROUND SMU4 0.001 LIN        1    0          1.8        37   0.05      
  VS         V  E GROUND SMU3 0.1 CON        0
  VB         V  C GROUND SMU1 0.1 LIN        3    0          -1.8       3    -0.9      
  VD         V  S GROUND SMU2 0.1 LIN        2    0.1        1.8        2    1.7       
 ICCAP_OUTPUTS
  IG         I  B GROUND SMU4 B
  ID         I  S GROUND SMU2 B
  IB         I  C GROUND SMU1 B
END_HEADER

BEGIN_DB
 ICCAP_VAR VS         0              
 ICCAP_VAR VB         0              
 ICCAP_VAR VD         0.1            

 #VG              IG              ID              IB             
  0               4.628e-010      -8.637e-010     1.1007e-008    
  0.05            1.3231e-009     5.125e-010      -7.662e-009    
  0.1             8.587e-010      4.5203e-009     9.447e-009     
  0.15            -2.4915e-009    -2.1435e-009    4.671e-009     
  0.2             1.5223e-009     -1.9735e-009    -2.213e-008    
  0.25            5.723e-010      4.5257e-009     1.1099e-008    
  0.3             -5.807e-010     -4.2588e-009    -1.1478e-008   
  0.35            2.4394e-009     -7.97e-010      -1.8137e-008   
  0.4             -1.3797e-009    4.1324e-009     2.6337e-008    
  0.45            7.14e-010       1.1329e-008     1.1234e-008    
  0.5             2.319e-010      2.517e-008      -1.1004e-008   
  0.55            -2.0531e-009    1.028e-007      2.5721e-008    
  0.6             -2.0172e-009    3.8691e-007     1.095e-009     
  0.65            2.8626e-009     1.1872e-006     2.6292e-008    
  0.7             1.31e-011       3.2107e-006     9.493e-009     
  0.75            -2.2358e-009    7.0252e-006     1.4977e-008    
  0.8             -1.7027e-009    1.3034e-005     2.6365e-008    
  0.85            1.5517e-009     2.0638e-005     -1.3597e-008   
  0.9             1.0113e-009     2.9921e-005     1.0028e-008    
  0.95            -1.3837e-009    4.0202e-005     2.5814e-008    
  1               1.8185e-009     5.0145e-005     -1.8466e-008   
  1.05            8.534e-010      6.0186e-005     1.0756e-008    
  1.1             -1.3788e-009    6.9715e-005     8.345e-009     
  1.15            -5.592e-010     7.8669e-005     -1.1801e-008   
  1.2             1.611e-009      8.6895e-005     -1.8624e-008   
  1.25            -1.384e-009     9.4898e-005     2.4496e-008    
  1.3             2.0135e-009     0.000101905     -2.1222e-008   
  1.35            7.613e-010      0.00010856      1.1046e-008    
  1.4             -1.4438e-009    0.00011477      -1.0825e-008   
  1.45            1.312e-009      0.00012024      -2.4149e-008   
  1.5             -1.6462e-009    0.00012569      1.896e-008     
  1.55            -9.874e-010     0.0001304       -1.1345e-008   
  1.6             1.3185e-009     0.00013476      -2.3398e-008   
  1.65            -1.8933e-009    0.00013906      2.452e-008     
  1.7             -8.387e-010     0.00014285      -1.161e-008    
  1.75            1.3151e-009     0.0001463       -7.933e-009    
  1.8             -1.7883e-009    0.00014967      2.2446e-008    
END_DB

BEGIN_DB
 ICCAP_VAR VS         0              
 ICCAP_VAR VB         0              
 ICCAP_VAR VD         1.8            

 #VG              IG              ID              IB             
  0               -3.055e-010     1.069e-009      4.762e-009     
  0.05            -1.3822e-009    -2.512e-010     1.0135e-008    
  0.1             1.3135e-009     -2.6777e-009    -2.3491e-008   
  0.15            -1.382e-009     2.4464e-009     2.6428e-008    
  0.2             1.3201e-009     -2.4887e-009    -2.3986e-008   
  0.25            8.802e-010      4.6051e-009     9.167e-009     
  0.3             -1.6695e-009    -6.388e-010     4.858e-009     
  0.35            -4.499e-010     -2.5423e-009    -1.1695e-008   
  0.4             7.082e-010      1.227e-008      1.8193e-008    
  0.45            -1.061e-009     2.8508e-008     -1.0685e-008   
  0.5             -2.7413e-009    1.3316e-007     1.1075e-008    
  0.55            1.606e-010      4.9843e-007     -1.0771e-008   
  0.6             1.1559e-009     1.6616e-006     2.72e-009      
  0.65            -2.6629e-009    4.7728e-006     6.492e-009     
  0.7             -1.7432e-009    1.09503e-005    -1.9985e-008   
  0.75            -6.026e-010     2.1066e-005     3.23e-010      
  0.8             1.5585e-009     3.5765e-005     -4.0985e-008   
  0.85            2.5186e-009     5.5403e-005     -2.0508e-008   
  0.9             5.95e-010       7.887e-005      -2.3606e-008   
  0.95            -1.4928e-009    0.000106032     -1.9898e-008   
  1               -2.5079e-009    0.00013502      -5.5729e-008   
  1.05            -7.138e-010     0.00016658      -5.8733e-008   
  1.1             1.4547e-009     0.00019916      -6.8499e-008   
  1.15            2.5861e-009     0.00023392      -4.0861e-008   
  1.2             6.901e-010      0.00026946      -3.7746e-008   
  1.25            -1.4349e-009    0.00030629      -2.6331e-008   
  1.3             -2.6088e-009    0.00034259      -5.4454e-008   
  1.35            -8.312e-010     0.00037976      -5.5938e-008   
  1.4             1.3729e-009     0.00041653      -6.3714e-008   
  1.45            2.6586e-009     0.00045494      -3.209e-008    
  1.5             7.96e-010       0.00049308      -2.6552e-008   
  1.55            -1.3977e-009    0.00053185      -1.1912e-008   
  1.6             -2.6894e-009    0.00056935      -4.0398e-008   
  1.65            -9.223e-010     0.00060767      -4.1411e-008   
  1.7             1.3295e-009     0.00064492      -5.0286e-008   
  1.75            2.7286e-009     0.00068338      -1.7175e-008   
  1.8             8.915e-010      0.00072125      -1.2819e-008   
END_DB

BEGIN_DB
 ICCAP_VAR VS         0              
 ICCAP_VAR VB         -0.9           
 ICCAP_VAR VD         0.1            

 #VG              IG              ID              IB             
  0               -1.4413e-009    -1.651e-010     -1.8405e-007   
  0.05            -2.3522e-009    -2.1604e-009    -2.0682e-007   
  0.1             -2.402e-010     -4.2501e-009    -1.9975e-007   
  0.15            2.4842e-009     -1.1473e-009    -1.9148e-007   
  0.2             1.7973e-009     2.6761e-009     -1.8615e-007   
  0.25            -1.5976e-009    3.4421e-009     -1.7299e-007   
  0.3             -2.1722e-009    -2.1621e-009    -2.0641e-007   
  0.35            -1.1e-011       -4.0221e-009    -1.9769e-007   
  0.4             2.7158e-009     -7.595e-010     -1.891e-007    
  0.45            1.6025e-009     3.3636e-009     -1.8442e-007   
  0.5             -1.3425e-009    3.745e-009      -1.6685e-007   
  0.55            -2.7766e-009    8.251e-010      -2.0288e-007   
  0.6             1.4401e-009     1.3752e-008     -1.7488e-007   
  0.65            2.5895e-009     5.3042e-008     -1.9055e-007   
  0.7             -1.3804e-009    2.0691e-007     -1.9497e-007   
  0.75            -1.3807e-009    7.0184e-007     -1.5311e-007   
  0.8             1.3587e-009     1.949e-006      -1.8813e-007   
  0.85            2.6757e-009     4.7092e-006     -1.9189e-007   
  0.9             8.2e-010        9.4884e-006     -1.7863e-007   
  0.95            2.8939e-009     1.639e-005      -2.0126e-007   
  1               1.3788e-009     2.4857e-005     -1.8399e-007   
  1.05            -1.7977e-009    3.501e-005      -1.5947e-007   
  1.1             -2.2493e-009    4.5132e-005     -2.0588e-007   
  1.15            -4.165e-010     5.5291e-005     -1.9846e-007   
  1.2             1.8035e-009     6.4953e-005     -1.9293e-007   
  1.25            2.3901e-009     7.4345e-005     -1.8956e-007   
  1.3             4.264e-010      8.2977e-005     -1.7647e-007   
  1.35            -1.657e-009     9.1013e-005     -1.5647e-007   
  1.4             -2.3541e-009    9.8281e-005     -2.0626e-007   
  1.45            -5.372e-010     0.000105061     -1.9962e-007   
  1.5             1.6378e-009     0.000111156     -1.9401e-007   
  1.55            -2.7752e-009    0.000117        -2.0149e-007   
  1.6             -1.2581e-009    0.00012227      -2.0141e-007   
  1.65            1.3051e-009     0.00012705      -2.0398e-007   
  1.7             2.8838e-009     0.00013157      -1.9546e-007   
  1.75            1.2186e-009     0.00013564      -1.8362e-007   
  1.8             -1.3646e-009    0.0001396       -1.541e-007    
END_DB

BEGIN_DB
 ICCAP_VAR VS         0              
 ICCAP_VAR VB         -0.9           
 ICCAP_VAR VD         1.8            

 #VG              IG              ID              IB             
  0               1.2399e-009     2.0415e-009     -1.8381e-007   
  0.05            1.4893e-009     3.5801e-009     -1.9794e-007   
  0.1             -1.3639e-009    2.9712e-009     -1.6289e-007   
  0.15            -2.7694e-009    -1.9579e-009    -2.044e-007    
  0.2             -9.108e-010     -4.2701e-009    -2.011e-007    
  0.25            1.4968e-009     -2.0117e-009    -2.001e-007    
  0.3             2.3524e-009     2.0654e-009     -1.9051e-007   
  0.35            1.163e-010      4.2439e-009     -1.7651e-007   
  0.4             -2.4303e-009    1.188e-009      -1.5733e-007   
  0.45            1.41e-010       -2.2283e-009    -2.0673e-007   
  0.5             4.144e-010      1.0759e-008     -1.5459e-007   
  0.55            -1.6729e-009    3.2771e-008     -1.5684e-007   
  0.6             2.1171e-009     1.3575e-007     -1.8941e-007   
  0.65            1.3795e-009     5.4468e-007     -1.9911e-007   
  0.7             -2.4809e-009    1.908e-006      -2.0394e-007   
  0.75            -1.9205e-009    5.2171e-006     -2.1127e-007   
  0.8             -2.6928e-009    1.1776e-005     -1.9162e-007   
  0.85            -1.6664e-009    2.2976e-005     -2.1823e-007   
  0.9             1.6094e-009     3.8145e-005     -2.1835e-007   
  0.95            2.4841e-009     5.8614e-005     -2.1801e-007   
  1               5.526e-010      8.3039e-005     -2.1054e-007   
  1.05            -1.5329e-009    0.000111063     -1.9424e-007   
  1.1             -2.7739e-009    0.00014103      -2.4302e-007   
  1.15            -1.3459e-009    0.00017372      -2.4572e-007   
  1.2             2.155e-009      0.0002067       -2.4863e-007   
  1.25            2.2237e-009     0.00024181      -2.336e-007    
  1.3             2.229e-010      0.00027837      -2.2152e-007   
  1.35            -1.9378e-009    0.0003152       -2.0112e-007   
  1.4             -2.1682e-009    0.00035186      -2.4942e-007   
  1.45            -2.992e-010     0.0003892       -2.3843e-007   
  1.5             2.0009e-009     0.00042675      -2.3127e-007   
  1.55            2.3013e-009     0.00046537      -2.2496e-007   
  1.6             3.126e-010      0.00050394      -2.1043e-007   
  1.65            -1.8092e-009    0.00054234      -1.8853e-007   
  1.7             -2.2404e-009    0.00057989      -2.3623e-007   
  1.75            -4.022e-010     0.000618        -2.2582e-007   
  1.8             1.8361e-009     0.0006557       -2.1825e-007   
END_DB

BEGIN_DB
 ICCAP_VAR VS         0              
 ICCAP_VAR VB         -1.8           
 ICCAP_VAR VD         0.1            

 #VG              IG              ID              IB             
  0               1.543e-010      -3.221e-010     -1.6547e-007   
  0.05            -2.3802e-009    9.22e-010       -1.5997e-007   
  0.1             -1.8099e-009    -2.7165e-009    -2.1033e-007   
  0.15            1.7493e-009     -3.2314e-009    -1.9796e-007   
  0.2             2.2003e-009     2.0771e-009     -1.9268e-007   
  0.25            -6.72e-011      3.9909e-009     -1.7939e-007   
  0.3             -2.5992e-009    5.604e-010      -1.6124e-007   
  0.35            -1.6044e-009    -3.2555e-009    -2.0863e-007   
  0.4             2.1519e-009     -3.0266e-009    -2.013e-007    
  0.45            1.9925e-009     2.2982e-009     -1.9115e-007   
  0.5             -1.4429e-009    3.7855e-009     -1.7919e-007   
  0.55            -2.3495e-009    -1.7666e-009    -2.1006e-007   
  0.6             -2.296e-010     -2.3866e-009    -2.0275e-007   
  0.65            2.6698e-009     1.0686e-008     -1.691e-007    
  0.7             8.033e-010      4.1257e-008     -1.8185e-007   
  0.75            -1.442e-009     1.494e-007      -1.8768e-007   
  0.8             -1.3789e-009    5.3833e-007     -1.5673e-007   
  0.85            2.4179e-009     1.5357e-006     -1.8743e-007   
  0.9             2.0861e-009     3.7892e-006     -1.8998e-007   
  0.95            5.87e-011       7.9981e-006     -1.7925e-007   
  1               2.6672e-009     1.4126e-005     -2.015e-007    
  1.05            8.001e-010      2.2233e-005     -1.8162e-007   
  1.1             -1.3933e-009    3.1864e-005     -1.5757e-007   
  1.15            -2.6881e-009    4.1862e-005     -2.1071e-007   
  1.2             -9.203e-010     5.2087e-005     -2.0428e-007   
  1.25            1.3272e-009     6.1811e-005     -2.0321e-007   
  1.3             2.7181e-009     7.13e-005       -1.9439e-007   
  1.35            8.725e-010      8.0051e-005     -1.8274e-007   
  1.4             -1.3804e-009    8.832e-005      -1.5694e-007   
  1.45            -2.7273e-009    9.5711e-005     -2.1052e-007   
  1.5             -9.915e-010     0.000102634     -2.0442e-007   
  1.55            1.3133e-009     0.000108803     -2.046e-007    
  1.6             1.0359e-009     0.00011466      -2.0981e-007   
  1.65            -1.3809e-009    0.00012012      -1.5622e-007   
  1.7             -2.77e-009      0.00012493      -2.0984e-007   
  1.75            -1.1549e-009    0.00012949      -2.0427e-007   
  1.8             1.3126e-009     0.00013356      -2.0646e-007   
END_DB

BEGIN_DB
 ICCAP_VAR VS         0              
 ICCAP_VAR VB         -1.8           
 ICCAP_VAR VD         1.8            

 #VG              IG              ID              IB             
  0               6.693e-010      1.4224e-009     -1.939e-007    
  0.05            1.3338e-009     5.893e-010      -1.8203e-007   
  0.1             2.5307e-009     2.0379e-009     -1.9447e-007   
  0.15            3.527e-010      4.3865e-009     -1.805e-007    
  0.2             -2.1403e-009    1.1874e-009     -1.5968e-007   
  0.25            -1.9271e-009    -2.3952e-009    -2.0897e-007   
  0.3             1.4966e-009     -3.4314e-009    -1.9694e-007   
  0.35            2.351e-009      2.067e-009      -1.9362e-007   
  0.4             1.129e-010      4.2517e-009     -1.7977e-007   
  0.45            -2.4317e-009    1.2394e-009     -1.5985e-007   
  0.5             1.463e-010      -1.8919e-009    -2.1006e-007   
  0.55            2.4892e-009     1.0824e-008     -1.574e-007    
  0.6             2.0187e-009     4.281e-008      -1.8906e-007   
  0.65            1.683e-009      1.6714e-007     -1.8494e-007   
  0.7             1.3834e-009     6.5843e-007     -2.0133e-007   
  0.75            -2.6073e-009    2.2413e-006     -2.0685e-007   
  0.8             -1.8168e-009    5.948e-006      -2.144e-007    
  0.85            -2.7768e-009    1.2938e-005     -1.905e-007    
  0.9             -1.1864e-009    2.4504e-005     -2.1913e-007   
  0.95            1.3094e-009     4.0369e-005     -2.2826e-007   
  1               2.8649e-009     6.1245e-005     -2.2441e-007   
  1.05            1.1373e-009     8.5703e-005     -2.1933e-007   
  1.1             2.7553e-009     0.00011405      -2.2475e-007   
  1.15            2.8764e-009     0.00014468      -2.4266e-007   
  1.2             1.5116e-009     0.00017634      -2.3041e-007   
  1.25            -1.6373e-009    0.00021193      -2.1151e-007   
  1.3             -2.3587e-009    0.00024669      -2.5431e-007   
  1.35            -5.416e-010     0.00028284      -2.4702e-007   
  1.4             1.6451e-009     0.00031906      -2.3985e-007   
  1.45            2.4687e-009     0.00035689      -2.3511e-007   
  1.5             5.218e-010      0.00039448      -2.1975e-007   
  1.55            -1.5589e-009    0.00043288      -1.9726e-007   
  1.6             -2.4288e-009    0.00047041      -2.4539e-007   
  1.65            -6.242e-010     0.00050861      -2.3638e-007   
  1.7             1.542e-009      0.0005462       -2.2888e-007   
  1.75            2.5237e-009     0.0005849       -2.2243e-007   
  1.8             5.969e-010      0.00062326      -2.0705e-007   
END_DB

