! VERSION = 6.00
BEGIN_HEADER
 ICCAP_INPUTS
  VG         V  B GROUND SMU4 0.001 LIN        2    0          1.8        6    0.36      
  VS         V  E GROUND SMU3 0.1 CON        0
  VD         V  S GROUND SMU2 0.1 LIN        1    0          1.8        37   0.05      
  VB         V  C GROUND SMU1 0.1 LIN        3    0          -0.9       2    -0.9      
 ICCAP_OUTPUTS
  ID         I  S GROUND SMU2 B
  IB         I  C GROUND SMU1 B
  IG         I  B GROUND SMU4 B
END_HEADER

BEGIN_DB
 ICCAP_VAR VG         0              
 ICCAP_VAR VS         0              
 ICCAP_VAR VB         0              

 #VD              ID              IB              IG             
  0               2.0008e-009     1.1542e-008     1.1596e-009    
  0.05            3.6596e-009     9.216e-009      -1.4641e-009   
  0.1             -4.514e-010     -1.4364e-008    2.8457e-009    
  0.15            3.192e-010      1.264e-008      -2.6874e-009   
  0.2             -3.343e-009     -1.0325e-008    1.5933e-009    
  0.25            4.4992e-009     1.1195e-008     5.261e-010     
  0.3             1.0904e-009     1.7587e-008     -2.2269e-009   
  0.35            -2.662e-009     -2.3653e-008    1.3157e-009    
  0.4             9.706e-010      1.6793e-008     -2.3473e-009   
  0.45            -3.9322e-009    -1.0722e-008    5.06e-011      
  0.5             -2.141e-010     -1.2154e-008    2.8833e-009    
  0.55            3.3819e-009     1.2291e-008     -1.6408e-009   
  0.6             -4.3475e-009    -1.1811e-008    -5.1e-010      
  0.65            -1.1155e-009    -1.7897e-008    2.5214e-009    
  0.7             2.395e-009      2.6357e-008     -1.3835e-009   
  0.75            -4.2454e-009    -9.744e-009     -9.931e-010    
  0.8             2.0307e-009     -8.05e-009      2.5962e-009    
  0.85            1.9633e-009     2.4079e-008     -1.4535e-009   
  0.9             -3.3161e-009    -1.0587e-008    1.6239e-009    
  0.95            4.484e-009      1.1353e-008     5.092e-010     
  1               1.0611e-009     1.7401e-008     -2.2637e-009   
  1.05            -4.0299e-009    -1.0945e-008    -1.6e-012      
  1.1             -3.367e-010     -1.3392e-008    2.8683e-009    
  1.15            3.4596e-009     1.106e-008      -1.5801e-009   
  1.2             -4.3554e-009    -1.1807e-008    -5.768e-010    
  1.25            -1.2128e-009    -1.8261e-008    2.4365e-009    
  1.3             2.4796e-009     2.6385e-008     -1.3867e-009   
  1.35            -4.2041e-009    -9.615e-009     -1.0381e-009   
  1.4             9.416e-010      -8.513e-009     1.594e-009     
  1.45            4.4932e-009     1.1018e-008     5.202e-010     
  1.5             -4.3533e-009    -1.1615e-008    -5.356e-010    
  1.55            -1.1512e-009    -1.8052e-008    2.494e-009     
  1.6             2.4294e-009     2.6395e-008     -1.3851e-009   
  1.65            -2.5115e-009    -2.3961e-008    1.3236e-009    
  1.7             4.5257e-009     9.167e-009      8.935e-010     
  1.75            -2.1433e-009    4.947e-009      -2.5415e-009   
  1.8             -2.0826e-009    -2.2655e-008    1.4638e-009    
END_DB

BEGIN_DB
 ICCAP_VAR VG         0.36           
 ICCAP_VAR VS         0              
 ICCAP_VAR VB         0              

 #VD              ID              IB              IG             
  0               -4.395e-010     -1.1029e-008    6.07e-010      
  0.05            2.4359e-009     -8.392e-009     2.7315e-009    
  0.1             5.0055e-009     1.1409e-008     4.153e-010     
  0.15            -1.5772e-009    9.77e-010       -2.0886e-009   
  0.2             -3.155e-010     -1.7287e-008    2.636e-009     
  0.25            2.9181e-009     2.6213e-008     -1.3906e-009   
  0.3             -1.6208e-009    -2.4032e-008    1.3479e-009    
  0.35            5.293e-009      9.996e-009      7.95e-010      
  0.4             -3.5716e-009    -1.1644e-008    -7.078e-010    
  0.45            -5.466e-010     -1.8164e-008    2.25e-009      
  0.5             3.5065e-009     2.5636e-008     -1.3874e-009   
  0.55            -1.8397e-009    -2.3398e-008    1.3174e-009    
  0.6             3.4391e-009     2.655e-008      -1.3848e-009   
  0.65            -1.6378e-009    -2.4092e-008    1.317e-009     
  0.7             3.3685e-009     2.6612e-008     -1.3829e-009   
  0.75            -1.4254e-009    -2.4409e-008    1.3245e-009    
  0.8             5.6224e-009     9.287e-009      8.567e-010     
  0.85            -1.1915e-009    -2.3996e-008    1.3545e-009    
  0.9             3.2203e-009     2.5066e-008     -1.4161e-009   
  0.95            -3.1324e-009    -1.0665e-008    -8.177e-010    
  1               -2.571e-010     -1.8602e-008    2.0478e-009    
  1.05            3.9183e-009     9.961e-009      1.8233e-009    
  1.1             4.4678e-009     1.622e-008      -1.3507e-009   
  1.15            -2.9025e-009    -1.1904e-008    -2.945e-010    
  1.2             6.705e-010      -1.6539e-008    2.7284e-009    
  1.25            3.5708e-009     2.5349e-008     -1.4142e-009   
  1.3             -9.985e-010     -1.061e-008     1.3185e-009    
  1.35            3.9475e-009     2.6682e-008     -1.3847e-009   
  1.4             -7.543e-010     -2.439e-008     1.3265e-009    
  1.45            6.2892e-009     9.205e-009      8.468e-010     
  1.5             9.605e-010      6.442e-009      -1.4676e-009   
  1.55            -4.865e-010     -1.1366e-008    1.3365e-009    
  1.6             6.4998e-009     9.674e-009      8.181e-010     
  1.65            1.117e-009      6.121e-009      -1.4856e-009   
  1.7             -2.221e-010     -1.1762e-008    1.3504e-009    
  1.75            6.7369e-009     1.0014e-008     7.94e-010      
  1.8             3.7125e-009     1.9561e-008     -1.826e-009    
END_DB

BEGIN_DB
 ICCAP_VAR VG         0.72           
 ICCAP_VAR VS         0              
 ICCAP_VAR VB         0              

 #VD              ID              IB              IG             
  0               -9.275e-009     -1.7961e-008    -2.7128e-009   
  0.05            2.8828e-006     -1.8011e-008    -2.5799e-009   
  0.1             4.216e-006      1.46e-008       -2.3105e-009   
  0.15            4.8473e-006     2.4079e-008     -1.3502e-009   
  0.2             5.1209e-006     1.121e-008      7.257e-010     
  0.25            5.5011e-006     2.5928e-008     -1.3629e-009   
  0.3             5.6481e-006     1.1368e-008     6.715e-010     
  0.35            5.9761e-006     2.66e-008       -1.3732e-009   
  0.4             6.0931e-006     1.138e-008      6.113e-010     
  0.45            6.4134e-006     2.6813e-008     -1.3804e-009   
  0.5             6.5367e-006     1.1482e-008     5.506e-010     
  0.55            6.6839e-006     9.514e-009      2.1316e-009    
  0.6             6.8595e-006     -7.962e-009     2.8943e-009    
  0.65            7.0828e-006     -7.789e-009     1.3169e-009    
  0.7             7.3264e-006     -2.2439e-008    1.3291e-009    
  0.75            7.5468e-006     -1.9647e-008    1.4614e-009    
  0.8             7.7718e-006     -1.7956e-008    1.7617e-009    
  0.85            7.9912e-006     -1.1115e-008    2.622e-010     
  0.9             8.263e-006      -2.2547e-008    2.1017e-009    
  0.95            8.4581e-006     -1.4914e-008    1.6151e-009    
  1               8.6873e-006     -1.7944e-008    1.9963e-009    
  1.05            8.9226e-006     -1.35e-008      1.5359e-009    
  1.1             9.1562e-006     -1.8294e-008    1.8786e-009    
  1.15            9.4002e-006     -1.2459e-008    3.175e-010     
  1.2             9.6961e-006     -2.3497e-008    1.3005e-009    
  1.25            9.9631e-006     -1.1977e-008    -6.823e-010    
  1.3             1.01841e-005    -2.4069e-008    1.3077e-009    
  1.35            1.04833e-005    -1.2175e-008    -6.204e-010    
  1.4             1.06731e-005    -1.0439e-008    -5.69e-011     
  1.45            1.1029e-005     -1.2625e-008    -6.817e-010    
  1.5             1.1307e-005     1.0121e-008     -2.7797e-009   
  1.55            1.1568e-005     -1.3333e-008    -8.142e-010    
  1.6             1.204e-005      -1.2327e-008    -1.68e-009     
  1.65            1.2266e-005     4.289e-009      -1.3856e-009   
  1.7             1.258e-005      1.0477e-008     -2.1055e-009   
  1.75            1.2873e-005     9.838e-009      -1.8671e-009   
  1.8             1.3178e-005     7.985e-009      -1.6374e-009   
END_DB

BEGIN_DB
 ICCAP_VAR VG         1.08           
 ICCAP_VAR VS         0              
 ICCAP_VAR VB         0              

 #VD              ID              IB              IG             
  0               6.0187e-008     -1.1252e-008    -4.642e-010    
  0.05            3.4819e-005     2.1326e-008     -1.2162e-009   
  0.1             6.295e-005      4.854e-009      -1.4522e-009   
  0.15            8.4427e-005     2.2698e-008     -1.3965e-009   
  0.2             9.9722e-005     1.1449e-008     5.086e-010     
  0.25            0.000110665     2.1627e-008     -1.7494e-009   
  0.3             0.00011781      1.4549e-008     -5.414e-010    
  0.35            0.00012276      9.135e-009      1.0954e-009    
  0.4             0.00012663      -3.726e-009     1.8112e-009    
  0.45            0.00012969      -1.7885e-008    2.0218e-009    
  0.5             0.00013222      -1.1393e-008    2.815e-010     
  0.55            0.00013471      -1.9938e-008    1.906e-009     
  0.6             0.00013682      -1.7884e-008    2.0855e-009    
  0.65            0.00013892      -1.204e-008     3.063e-010     
  0.7             0.0001409       -2.1062e-008    1.9714e-009    
  0.75            0.00014261      -1.1016e-008    2.581e-010     
  0.8             0.00014467      -1.9271e-008    1.8554e-009    
  0.85            0.00014624      -1.7908e-008    2.0387e-009    
  0.9             0.00014787      -1.1587e-008    2.862e-010     
  0.95            0.00014986      -2.0347e-008    1.9328e-009    
  1               0.00015134      -1.071e-008     2.397e-010     
  1.05            0.00015307      -1.8603e-008    1.8211e-009    
  1.1             0.00015457      -1.8236e-008    2.0021e-009    
  1.15            0.00015626      -1.1244e-008    2.713e-010     
  1.2             0.00015809      -1.1401e-008    -4.37e-010     
  1.25            0.00015939      -2.4385e-008    1.3165e-009    
  1.3             0.00016156      -1.2301e-008    -6.418e-010    
  1.35            0.00016281      -2.3884e-008    2.1884e-009    
  1.4             0.00016431      -1.4103e-008    1.5071e-009    
  1.45            0.00016579      -1.1847e-008    -1.28e-011     
  1.5             0.00016844      -1.4806e-008    -1.8254e-009   
  1.55            0.00016966      1.705e-009      -1.3866e-009   
  1.6             0.00017133      3.302e-009      -2.5244e-009   
  1.65            0.00017237      -2.3001e-008    -2.4584e-009   
  1.7             0.0001742       -2.1289e-008    -1.9049e-009   
  1.75            0.00017586      -2.0405e-008    -1.4524e-009   
  1.8             0.00017725      -3.7499e-008    8.17e-011      
END_DB

BEGIN_DB
 ICCAP_VAR VG         1.44           
 ICCAP_VAR VS         0              
 ICCAP_VAR VB         0              

 #VD              ID              IB              IG             
  0               8.6835e-008     -1.8336e-008    -2.2691e-009   
  0.05            6.0309e-005     8.238e-009      2.508e-010     
  0.1             0.00011586      2.4042e-008     1.0561e-009    
  0.15            0.00016598      1.1068e-008     7.556e-010     
  0.2             0.00020994      2.1399e-008     -1.7462e-009   
  0.25            0.00024708      1.7445e-008     -1.8955e-009   
  0.3             0.00027763      1.6503e-008     -2.03e-009     
  0.35            0.00030214      1.4681e-008     -1.5081e-009   
  0.4             0.00032132      1.8853e-008     -1.5974e-009   
  0.45            0.00033605      1.805e-008      -1.7121e-009   
  0.5             0.00034739      1.7593e-008     -1.8395e-009   
  0.55            0.00035616      1.6752e-008     -1.9898e-009   
  0.6             0.00036314      1.4094e-008     -1.4912e-009   
  0.65            0.00036881      1.9234e-008     -1.5684e-009   
  0.7             0.00037361      1.8313e-008     -1.6733e-009   
  0.75            0.00037783      1.773e-008      -1.7978e-009   
  0.8             0.00038167      1.1141e-008     -2.24e-010     
  0.85            0.00038504      2.0738e-008     -1.7126e-009   
  0.9             0.00038834      1.7617e-008     -1.8487e-009   
  0.95            0.00039145      1.6735e-008     -1.9947e-009   
  1               0.00039447      1.4097e-008     -1.4906e-009   
  1.05            0.00039723      1.9242e-008     -1.5761e-009   
  1.1             0.00039981      9.334e-009      -5.61e-011     
  1.15            0.00040226      1.1391e-008     6.267e-010     
  1.2             0.00040535      2.5222e-008     -1.3564e-009   
  1.25            0.00040725      1.1079e-008     8.034e-010     
  1.3             0.00041032      1.9629e-008     -1.6815e-009   
  1.35            0.00041284      1.7522e-008     -1.8113e-009   
  1.4             0.00041518      1.6438e-008     -1.9533e-009   
  1.45            0.00041762      1.4633e-008     -2.0962e-009   
  1.5             0.00042019      1.3698e-008     -1.547e-009    
  1.55            0.00042229      1.4563e-008     -1.6421e-009   
  1.6             0.00042464      1.1503e-008     -1.7684e-009   
  1.65            0.00042697      6.693e-009      -1.9104e-009   
  1.7             0.00042886      -2.4416e-008    -2.7565e-009   
  1.75            0.00043133      -2.1469e-008    -1.4359e-009   
  1.8             0.0004334       -2.9748e-008    1.305e-010     
END_DB

BEGIN_DB
 ICCAP_VAR VG         1.8            
 ICCAP_VAR VS         0              
 ICCAP_VAR VB         0              

 #VD              ID              IB              IG             
  0               9.9264e-008     1.6968e-008     2.6849e-009    
  0.05            7.4351e-005     -8.25e-009      -1.5399e-009   
  0.1             0.00014541      2.4395e-008     1.5396e-009    
  0.15            0.0002129       -8.7e-009       1.3344e-009    
  0.2             0.0002758       -2.0729e-008    1.3851e-009    
  0.25            0.00033346      -1.9572e-008    1.4564e-009    
  0.3             0.00038544      -1.8608e-008    1.5618e-009    
  0.35            0.00043146      -9.471e-009     3.39e-011      
  0.4             0.00047203      -1.026e-008     -1.7905e-009   
  0.45            0.000506        7.54e-009       -1.3818e-009   
  0.5             0.00053481      1.2555e-008     -2.5567e-009   
  0.55            0.00055844      2.6082e-008     -1.3655e-009   
  0.6             0.00057745      1.1229e-008     7.434e-010     
  0.65            0.00059357      2.1731e-008     -1.7394e-009   
  0.7             0.00060637      1.7e-008        -1.8823e-009   
  0.75            0.00061692      1.2128e-008     -1.4372e-009   
  0.8             0.00062547      1.9549e-008     -1.4951e-009   
  0.85            0.00063288      1.826e-008      -1.5824e-009   
  0.9             0.00063912      1.767e-008      -1.6963e-009   
  0.95            0.00064472      1.7225e-008     -1.8369e-009   
  1               0.00064969      1.6554e-008     -1.991e-009    
  1.05            0.0006543       1.3761e-008     -1.4743e-009   
  1.1             0.00065844      1.8683e-008     -1.5601e-009   
  1.15            0.00066242      1.7754e-008     -1.6678e-009   
  1.2             0.00066623      1.7643e-008     -1.7948e-009   
  1.25            0.00066986      1.6698e-008     -1.9499e-009   
  1.3             0.00067327      1.303e-008      -1.4624e-009   
  1.35            0.00067657      1.8971e-008     -1.5311e-009   
  1.4             0.00067984      1.7673e-008     -1.634e-009    
  1.45            0.00068297      1.6994e-008     -1.7608e-009   
  1.5             0.00068597      1.598e-008      -1.9034e-009   
  1.55            0.00068895      1.4322e-008     -2.0529e-009   
  1.6             0.00069194      1.1862e-008     -2.1998e-009   
  1.65            0.00069504      8.832e-009      -2.332e-009    
  1.7             0.00069784      4.187e-009      -2.4481e-009   
  1.75            0.00070012      -2.2772e-008    -2.5143e-009   
  1.8             0.00070307      -2.0756e-008    -1.7951e-009   
END_DB

BEGIN_DB
 ICCAP_VAR VG         0              
 ICCAP_VAR VS         0              
 ICCAP_VAR VB         -0.9           

 #VD              ID              IB              IG             
  0               8.467e-010      -1.9554e-007    9.42e-011      
  0.05            8.479e-010      -1.5714e-007    -2.4427e-009   
  0.1             -2.8008e-009    -2.0668e-007    -1.7798e-009   
  0.15            -3.204e-009     -1.9512e-007    1.7807e-009    
  0.2             2.0772e-009     -1.8966e-007    2.1916e-009    
  0.25            3.9845e-009     -1.7621e-007    -6.12e-011     
  0.3             5.9e-010        -1.5814e-007    -2.5874e-009   
  0.35            -3.1871e-009    -2.0539e-007    -1.6361e-009   
  0.4             -3.0627e-009    -1.9736e-007    2.0723e-009    
  0.45            2.2023e-009     -1.8815e-007    2.0428e-009    
  0.5             3.791e-009      -1.7581e-007    -2.13e-010     
  0.55            3.278e-010      -1.587e-007     -2.6766e-009   
  0.6             -3.5519e-009    -2.0386e-007    -1.4731e-009   
  0.65            -2.9116e-009    -2.0079e-007    2.359e-009     
  0.7             2.4638e-009     -1.8641e-007    1.8848e-009    
  0.75            3.5712e-009     -1.7506e-007    -1.4899e-009   
  0.8             -2.1592e-009    -2.0625e-007    -2.2699e-009   
  0.85            -4.1757e-009    -1.9881e-007    -1.541e-010    
  0.9             -1.0288e-009    -1.9075e-007    2.5852e-009    
  0.95            2.8371e-009     -1.8487e-007    1.7407e-009    
  1               3.3579e-009     -1.7161e-007    -1.6439e-009   
  1.05            -2.1604e-009    -2.058e-007     -2.1374e-009   
  1.1             -3.9779e-009    -1.9708e-007    1.57e-011      
  1.15            -7.565e-010     -1.886e-007     2.7387e-009    
  1.2             3.2916e-009     -1.8423e-007    1.5865e-009    
  1.25            3.1385e-009     -1.666e-007     -1.8609e-009   
  1.3             -2.206e-009     -2.0645e-007    -2.0321e-009   
  1.35            -3.7409e-009    -1.9567e-007    1.675e-010     
  1.4             -4.636e-010     -1.8622e-007    2.8334e-009    
  1.45            3.7144e-009     -1.8443e-007    1.4294e-009    
  1.5             2.901e-009      -1.6091e-007    -1.369e-009    
  1.55            -1.9736e-009    -2.0466e-007    -2.7536e-009   
  1.6             -4.2707e-009    -2.0109e-007    -8.98e-010     
  1.65            -2.0123e-009    -1.9957e-007    1.5007e-009    
  1.7             2.054e-009      -1.903e-007     2.3564e-009    
  1.75            4.1901e-009     -1.764e-007     1.421e-010     
  1.8             9.073e-010      -1.57e-007      -2.3908e-009   
END_DB

BEGIN_DB
 ICCAP_VAR VG         0.36           
 ICCAP_VAR VS         0              
 ICCAP_VAR VB         -0.9           

 #VD              ID              IB              IG             
  0               -1.2298e-009    -1.9099e-007    2.798e-010     
  0.05            -2.282e-010     -1.8438e-007    2.8796e-009    
  0.1             3.9972e-009     -1.8458e-007    1.3106e-009    
  0.15            2.744e-009      -1.5744e-007    -1.3824e-009   
  0.2             -2.0249e-009    -2.0655e-007    -2.7341e-009   
  0.25            -4.3096e-009    -2.021e-007     -8.049e-010    
  0.3             -1.8334e-009    -1.9844e-007    1.6379e-009    
  0.35            2.0699e-009     -1.9108e-007    2.2776e-009    
  0.4             4.1178e-009     -1.7714e-007    3.62e-011      
  0.45            7.677e-010      -1.582e-007     -2.5087e-009   
  0.5             -2.9146e-009    -2.0743e-007    -1.7354e-009   
  0.55            -3.1405e-009    -1.9635e-007    1.8697e-009    
