! VERSION = 6.00
BEGIN_HEADER
 ICCAP_INPUTS
  VG         V  B GROUND SMU4 0.001 LIN        1    0          1.8        37   0.05      
  VS         V  E GROUND SMU2 0.1 CON        0
  VB         V  C GROUND SMU3 0.1 LIN        3    0          -1.8       3    -0.9      
  VD         V  S GROUND SMU1 0.1 LIN        2    0.1        1.8        2    1.7       
 ICCAP_OUTPUTS
  IG         I  B GROUND SMU4 B
  ID         I  S GROUND SMU1 B
  IB         I  C GROUND SMU3 B
END_HEADER

BEGIN_DB
 ICCAP_VAR VS         0              
 ICCAP_VAR VB         0              
 ICCAP_VAR VD         0.1            

 #VG              IG              ID              IB             
  0               -8.019e-010     -7.16e-010      9.65e-009      
  0.05            -2.5835e-009    1.457e-010      1.2384e-008    
  0.1             2.3153e-009     -1.4546e-009    -2.0715e-008   
  0.15            4.066e-010      2.1401e-009     -5.191e-009    
  0.2             5.704e-010      2.1858e-009     9.782e-009     
  0.25            -2.0976e-009    1.4086e-009     2.365e-008     
  0.3             -1.3675e-009    -1.8951e-009    3.914e-009     
  0.35            2.5099e-009     -4.34e-010      -1.6008e-008   
  0.4             2.1568e-009     1.4456e-009     -3.72e-009     
  0.45            8.941e-010      4.0918e-009     7.125e-009     
  0.5             -1.529e-009     9.7903e-009     1.1918e-008    
  0.55            2.6177e-009     3.2801e-008     9.148e-009     
  0.6             -8.113e-010     1.0924e-007     1.3522e-008    
  0.65            2.7589e-009     3.1805e-007     -1.4832e-008   
  0.7             -1.7395e-009    7.8763e-007     2.4555e-008    
  0.75            -2.0215e-009    1.5579e-006     -1.4871e-008   
  0.8             2.4601e-009     2.8339e-006     -2.5533e-008   
  0.85            1.7017e-009     4.6335e-006     -4.132e-009    
  0.9             2.5999e-009     6.8546e-006     -8.424e-009    
  0.95            7.586e-010      9.3952e-006     1.0284e-008    
  1               -3.955e-010     1.1995e-005     1.3898e-008    
  1.05            -8.381e-010     1.4617e-005     -1.0783e-008   
  1.1             2.7547e-009     1.7114e-005     -1.3456e-008   
  1.15            -1.6646e-009    1.9617e-005     2.3058e-008    
  1.2             -2.544e-009     2.1889e-005     5.036e-009     
  1.25            2.337e-010      2.3957e-005     -1.0301e-008   
  1.3             2.7567e-009     2.5974e-005     -1.8488e-008   
  1.35            -1.7367e-009    2.7873e-005     2.4609e-008    
  1.4             -2.5335e-009    2.9602e-005     4.848e-009     
  1.45            -7.488e-010     3.1173e-005     -1.1172e-008   
  1.5             -1.085e-009     3.2653e-005     -8.352e-009    
  1.55            2.6033e-009     3.4031e-005     -1.4159e-008   
  1.6             -2.5543e-009    3.5305e-005     1.2403e-008    
  1.65            2.7667e-009     3.6414e-005     -1.5401e-008   
  1.7             -1.7737e-009    3.7569e-005     2.4903e-008    
  1.75            -2.5107e-009    3.8582e-005     4.979e-009     
  1.8             2.7582e-009     3.9449e-005     -1.1712e-008   
END_DB

BEGIN_DB
 ICCAP_VAR VS         0              
 ICCAP_VAR VB         0              
 ICCAP_VAR VD         1.8            

 #VG              IG              ID              IB             
  0               1.106e-009      9.97e-010       1.1441e-008    
  0.05            2.6633e-009     -3.978e-010     -1.5796e-008   
  0.1             3.536e-010      2.1306e-009     1.0762e-008    
  0.15            5.317e-010      2.1757e-009     1.0056e-008    
  0.2             -2.1683e-009    5.908e-010      1.5547e-008    
  0.25            -1.3292e-009    -1.9484e-009    3.745e-009     
  0.3             2.679e-009      -1.1613e-009    -2.5544e-008   
  0.35            -1.736e-009     1.8775e-009     1.5638e-008    
  0.4             -1.4785e-009    9.65e-010       5.005e-009     
  0.45            -2.5062e-009    5.804e-009      5.862e-009     
  0.5             2.409e-009      2.5811e-008     1.3104e-008    
  0.55            -1.6664e-009    1.03565e-007    2.3083e-008    
  0.6             -2.2877e-009    3.3791e-007     1.1544e-008    
  0.65            1.9154e-009     9.5762e-007     -2.2522e-008   
  0.7             -2.5894e-009    2.2928e-006     -1.2506e-008   
  0.75            -1.0978e-009    4.45e-006       -1.1292e-008   
  0.8             -1.4602e-009    7.9375e-006     -1.2456e-008   
  0.85            2.7383e-009     1.2357e-005     -1.543e-008    
  0.9             2.6934e-009     1.7984e-005     -8.521e-009    
  0.95            2.1204e-009     2.4489e-005     -1.15e-008     
  1               2.4875e-009     3.175e-005      -1.6581e-008   
  1.05            2.6684e-009     3.9681e-005     -5.335e-009    
  1.1             2.7651e-009     4.8026e-005     -1.1815e-008   
  1.15            2.467e-009      5.6634e-005     -1.3894e-008   
  1.2             1.7142e-009     6.5527e-005     -1.6629e-008   
  1.25            2.5873e-009     7.4659e-005     -2.0732e-008   
  1.3             2.739e-009      8.4052e-005     -8.253e-009    
  1.35            2.6909e-009     9.3502e-005     -1.2804e-008   
  1.4             2.1159e-009     0.000102944     -1.3726e-008   
  1.45            2.4863e-009     0.000112543     -1.7207e-008   
  1.5             -1.3879e-009    0.00012239      -1.8449e-008   
  1.55            -2.0655e-009    0.0001319       -1.8665e-008   
  1.6             -1.1519e-009    0.0001417       -1.7292e-008   
  1.65            -1.5207e-009    0.00015158      -1.7238e-008   
  1.7             -1.8313e-009    0.00016101      -1.8186e-008   
  1.75            -2.0958e-009    0.00017057      -1.5632e-008   
  1.8             -1.1857e-009    0.00018044      -1.4657e-008   
END_DB

BEGIN_DB
 ICCAP_VAR VS         0              
 ICCAP_VAR VB         -0.9           
 ICCAP_VAR VD         0.1            

 #VG              IG              ID              IB             
  0               -9.31e-010      -3.871e-010     -8.948e-009    
  0.05            -1.0026e-009    -2.1216e-009    7.172e-009     
  0.1             2.7576e-009     -1.6411e-009    -9.666e-009    
  0.15            -2.1724e-009    1.3699e-009     2.4812e-008    
  0.2             -1.3227e-009    -1.9758e-009    3.655e-009     
  0.25            2.6942e-009     -1.2307e-009    -2.6123e-008   
  0.3             3.378e-010      2.1169e-009     1.1038e-008    
  0.35            5.058e-010      2.1549e-009     1.0214e-008    
  0.4             -2.2132e-009    5.705e-010      1.4837e-008    
  0.45            -1.2908e-009    -1.9742e-009    3.477e-009     
  0.5             2.7231e-009     -1.0618e-009    -2.629e-008    
  0.55            -1.7792e-009    2.2003e-009     1.6288e-008    
  0.6             -1.5134e-009    2.8195e-009     5.129e-009     
  0.65            2.7399e-009     1.5098e-008     9.854e-009     
  0.7             -1.4621e-009    6.0141e-008     1.7526e-008    
  0.75            1.1516e-009     1.8832e-007     -1.6237e-008   
  0.8             -2.3827e-009    5.0183e-007     2.7448e-008    
  0.85            -1.7102e-009    1.07553e-006    2.643e-009     
  0.9             -2.4245e-009    2.059e-006      -1.5954e-008   
  0.95            1.6132e-009     3.5089e-006     -1.6182e-008   
  1               2.6096e-009     5.4933e-006     -8.41e-009     
  1.05            -2.3609e-009    7.9008e-006     1.3982e-008    
  1.1             -1.684e-009     1.04457e-005    2.73e-009      
  1.15            2.1587e-009     1.3024e-005     4.734e-009     
  1.2             2.4854e-009     1.562e-005      -5.762e-009    
  1.25            -1.4564e-009    1.8177e-005     1.7309e-008    
  1.3             -2.5539e-009    2.0527e-005     5.587e-009     
  1.35            2.6483e-009     2.2684e-005     -2.5042e-008   
  1.4             6.494e-010      2.4779e-005     1.0881e-008    
  1.45            -1.5586e-009    2.6692e-005     2.047e-008     
  1.5             -2.5388e-009    2.8455e-005     5.101e-009     
  1.55            -8.252e-010     3.0033e-005     -1.0748e-008   
  1.6             2.7839e-009     3.1527e-005     -1.3278e-008   
  1.65            -1.6702e-009    3.298e-005      2.3349e-008    
  1.7             -2.5183e-009    3.4243e-005     4.813e-009     
  1.75            -7.507e-010     3.54e-005       -1.1052e-008   
  1.8             1.5996e-009     3.6465e-005     -1.5895e-008   
END_DB

BEGIN_DB
 ICCAP_VAR VS         0              
 ICCAP_VAR VB         -0.9           
 ICCAP_VAR VD         1.8            

 #VG              IG              ID              IB             
  0               1.1956e-009     1.1986e-009     5.934e-009     
  0.05            1.1797e-009     2.1809e-009     -8.888e-009    
  0.1             -2.5589e-009    1.106e-009      2.7773e-008    
  0.15            2.0046e-009     -1.5361e-009    -1.5031e-008   
  0.2             5.596e-010      2.1706e-009     -6.518e-009    
  0.25            -2.1088e-009    1.3835e-009     2.337e-008     
  0.3             -1.3472e-009    -1.9366e-009    3.903e-009     
  0.35            2.6764e-009     -1.2366e-009    -2.5701e-008   
  0.4             3.694e-010      2.1696e-009     1.0695e-008    
  0.45            5.293e-010      2.3965e-009     9.81e-009      
  0.5             -2.148e-009     2.5058e-009     2.4059e-008    
  0.55            -1.8585e-009    4.817e-009      3.478e-009     
  0.6             2.229e-009      2.5187e-008     2.4025e-008    
  0.65            2.4456e-009     1.00314e-007    -5.194e-009    
  0.7             1.8446e-009     3.4811e-007     -2.5144e-008   
  0.75            -2.4552e-009    1.00525e-006    1.2009e-008    
  0.8             -1.8769e-009    2.3235e-006     -1.1632e-008   
  0.85            -9.097e-010     4.5838e-006     -1.2507e-008   
  0.9             -1.2445e-009    8.1715e-006     -1.1828e-008   
  0.95            2.6636e-009     1.2802e-005     -1.6628e-008   
  1               2.7803e-009     1.87e-005       -6.92e-009     
  1.05            2.5006e-009     2.542e-005      -1.0263e-008   
  1.1             1.7702e-009     3.2892e-005     -1.3501e-008   
  1.15            2.5665e-009     4.0942e-005     -1.8584e-008   
  1.2             2.7429e-009     4.9517e-005     -6.976e-009    
  1.25            2.7206e-009     5.8379e-005     -1.2186e-008   
  1.3             2.159e-009      6.7414e-005     -1.3867e-008   
  1.35            2.4662e-009     7.667e-005      -1.7446e-008   
  1.4             2.6611e-009     8.6131e-005     -5.06e-009     
  1.45            2.789e-009      9.5679e-005     -1.0587e-008   
  1.5             2.5044e-009     0.000105259     -1.2221e-008   
  1.55            -1.1295e-009    0.0001151       -3.6209e-008   
  1.6             -1.4894e-009    0.00012497      -1.8796e-008   
  1.65            -1.8102e-009    0.0001345       -1.8976e-008   
  1.7             -2.0772e-009    0.00014427      -1.6748e-008   
  1.75            -1.1556e-009    0.00015405      -1.5868e-008   
  1.8             -1.5177e-009    0.00016383      -1.6984e-008   
END_DB

BEGIN_DB
 ICCAP_VAR VS         0              
 ICCAP_VAR VB         -1.8           
 ICCAP_VAR VD         0.1            

 #VG              IG              ID              IB             
  0               -9.083e-010     -4.365e-010     -5.946e-009    
  0.05            -1.0681e-009    -2.1352e-009    7.818e-009     
  0.1             2.7738e-009     -1.993e-010     -1.3788e-008   
  0.15            -2.0097e-009    1.421e-009      2.1267e-008    
  0.2             -1.3993e-009    -1.8792e-009    4.515e-009     
  0.25            2.6287e-009     -1.2943e-009    -2.5094e-008   
  0.3             4.266e-010      2.1312e-009     1.0641e-008    
  0.35            5.868e-010      2.1742e-009     9.323e-009     
  0.4             -2.0549e-009    1.4024e-009     2.2327e-008    
  0.45            -1.3694e-009    -1.915e-009     4.222e-009     
  0.5             2.6619e-009     -1.2512e-009    -2.5376e-008   
  0.55            -1.6282e-009    1.6844e-009     1.3671e-008    
  0.6             2.7601e-009     -1.2418e-009    5.016e-009     
  0.65            -1.8672e-009    3.8641e-009     1.8335e-008    
  0.7             2.4346e-009     1.217e-008      1.3477e-008    
  0.75            -1.5902e-009    4.742e-008      2.1069e-008    
  0.8             1.1846e-009     1.5209e-007     -1.6581e-008   
  0.85            -2.3161e-009    4.1505e-007     2.7726e-008    
  0.9             -1.6413e-009    9.0352e-007     2.716e-009     
  0.95            -2.4231e-009    1.7539e-006     -1.6429e-008   
  1               1.5661e-009     3.0586e-006     -1.4949e-008   
  1.05            2.6513e-009     4.8784e-006     -8.557e-009    
  1.1             -2.2726e-009    7.1685e-006     1.3767e-008    
  1.15            -1.5945e-009    9.6613e-006     3.164e-009     
  1.2             1.8578e-009     1.2202e-005     4.969e-009     
  1.25            2.5809e-009     1.4802e-005     -7.671e-009    
  1.3             -2.5383e-009    1.7383e-005     1.257e-008     
  1.35            1.611e-009      1.971e-005      -1.5601e-008   
  1.4             2.6462e-009     2.197e-005      -8.613e-009    
  1.45            -2.2988e-009    2.4105e-005     1.3706e-008    
  1.5             -1.621e-009     2.6024e-005     2.897e-009     
  1.55            -2.5019e-009    2.7808e-005     4.885e-009     
  1.6             -7.484e-010     2.9447e-005     -1.1026e-008   
  1.65            1.6019e-009     3.0944e-005     -1.5307e-008   
  1.7             2.6501e-009     3.2348e-005     -8.617e-009    
  1.75            -2.2864e-009    3.3706e-005     1.3552e-008    
  1.8             -1.6126e-009    3.4858e-005     2.929e-009     
END_DB

BEGIN_DB
 ICCAP_VAR VS         0              
 ICCAP_VAR VB         -1.8           
 ICCAP_VAR VD         1.8            

 #VG              IG              ID              IB             
  0               -9.877e-010     -9.508e-010     -2.0275e-008   
  0.05            -1.7765e-009    7.714e-010      1.7958e-008    
  0.1             -6.755e-010     -2.1256e-009    5.098e-009     
  0.15            2.2109e-009     -1.4831e-009    -1.8883e-008   
  0.2             4.53e-010       2.1522e-009     -5.799e-009    
  0.25            -2.2677e-009    5.211e-010      1.5059e-008    
  0.3             -1.2532e-009    -2.0173e-009    3.07e-009      
  0.35            2.7264e-009     -1.1673e-009    -2.5163e-008   
  0.4             -1.8696e-009    1.5096e-009     1.8628e-008    
  0.45            -6.053e-010     -2.061e-009     4.945e-009     
  0.5             2.6316e-009     -9.7e-010       -9.382e-009    
  0.55            -1.6615e-009    3.0154e-009     1.4424e-008    
  0.6             -1.4325e-009    6.487e-009      5.306e-009     
  0.65            1.694e-009      3.1754e-008     1.4737e-008    
  0.7             -2.2002e-009    1.2424e-007     1.4286e-008    
  0.75            2.1095e-009     4.0963e-007     -2.376e-008    
  0.8             2.4134e-009     1.1081e-006     1.4655e-008    
  0.85            -1.5057e-009    2.5932e-006     1.5364e-008    
  0.9             -2.5592e-009    5.0098e-006     2.898e-009     
  0.95            -1.7827e-009    8.7071e-006     -1.4382e-008   
  1               2.6981e-009     1.3532e-005     -1.3577e-008   
  1.05            2.1475e-009     1.9494e-005     -9.564e-009    
  1.1             2.5075e-009     2.6366e-005     -1.486e-008    
  1.15            2.7083e-009     3.3985e-005     -3.415e-009    
  1.2             2.7765e-009     4.2177e-005     -1.0402e-008   
  1.25            2.4995e-009     5.0739e-005     -1.2586e-008   
  1.3             1.7956e-009     5.9616e-005     -1.512e-008    
  1.35            2.6163e-009     6.8718e-005     -1.9695e-008   
  1.4             2.763e-009      7.815e-005      -6.799e-009    
  1.45            2.7207e-009     8.7636e-005     -1.1836e-008   
  1.5             2.1992e-009     9.7175e-005     -1.2926e-008   
  1.55            1.482e-009      0.000106762     -1.6379e-008   
  1.6             2.6016e-009     0.00011637      -1.6519e-008   
  1.65            1.927e-009      0.00012612      -1.2602e-008   
  1.7             2.5818e-009     0.00013585      -1.6677e-008   
  1.75            2.7508e-009     0.00014557      -3.671e-009    
  1.8             2.7577e-009     0.00015535      -8.263e-009    
END_DB

