! VERSION = 6.00
BEGIN_HEADER
 ICCAP_INPUTS
  VG         V  B GROUND SMU4 0.001 LIN        1    0          1.8        37   0.05      
  VS         V  E GROUND SMU2 0.1 CON        0
  VD         V  S GROUND SMU1 0.1 LIN        2    0.1        1.8        2    1.7       
  VB         V  C GROUND SMU3 0.1 CON        0
 ICCAP_OUTPUTS
  IG         I  B GROUND SMU4 B
  ID         I  S GROUND SMU1 B
END_HEADER

BEGIN_DB
 ICCAP_VAR VS         0              
 ICCAP_VAR VD         0.1            
 ICCAP_VAR VB         0              

 #VG              IG              ID             
  0               -2.2351e-010    1.0102e-010    
  0.05            -3.1197e-010    2.3885e-010    
  0.1             8.888e-011      2.3642e-010    
  0.15            -1.2911e-010    3.8297e-010    
  0.2             -2.6089e-010    1.9627e-009    
  0.25            2.5388e-010     7.0991e-009    
  0.3             -8.948e-011     2.9656e-008    
  0.35            3.3974e-010     1.2565e-007    
  0.4             -2.4977e-010    5.2941e-007    
  0.45            1.077e-010      2.2025e-006    
  0.5             -2.0131e-010    8.7762e-006    
  0.55            -3.1763e-010    3.1891e-005    
  0.6             3.2744e-010     9.9674e-005    
  0.65            -2.3817e-010    0.00025314     
  0.7             2.1278e-010     0.00051238     
  0.75            -2.9754e-010    0.00084677     
  0.8             -3.0979e-010    0.0011873      
  0.85            1.9346e-010     0.0014647      
  0.9             -2.7285e-010    0.001656       
  0.95            2.44e-010       0.001779       
  1               -2.187e-010     0.0018582      
  1.05            1.8121e-010     0.001911       
  1.1             -2.5945e-010    0.0019475      
  1.15            2.3231e-010     0.0019736      
  1.2             -2.0739e-010    0.0019934      
  1.25            2.9265e-010     0.0020083      
  1.3             -2.5666e-010    0.0020204      
  1.35            2.2236e-010     0.0020302      
  1.4             -1.9625e-010    0.0020385      
  1.45            2.7906e-010     0.002045       
  1.5             -2.4439e-010    0.0020503      
  1.55            2.1242e-010     0.0020553      
  1.6             -2.9224e-010    0.0020594      
  1.65            2.6488e-010     0.0020627      
  1.7             -2.2666e-010    0.0020661      
  1.75            2.1095e-010     0.0020686      
  1.8             -2.8551e-010    0.0020712      
END_DB

BEGIN_DB
 ICCAP_VAR VS         0              
 ICCAP_VAR VD         1.8            
 ICCAP_VAR VB         0              

 #VG              IG              ID             
  0               9.72e-011       3.6828e-010    
  0.05            -1.3722e-010    1.9964e-010    
  0.1             2.0368e-010     4.8578e-010    
  0.15            -1.3985e-010    1.5619e-009    
  0.2             2.4351e-010     6.6211e-009    
  0.25            3.3696e-010     2.8249e-008    
  0.3             2.552e-011      1.2339e-007    
  0.35            -8.98e-011      5.3409e-007    
  0.4             -2.6819e-010    2.2902e-006    
  0.45            2.2782e-010     9.4454e-006    
  0.5             -3.2863e-010    3.5824e-005    
  0.55            3.2526e-010     0.00011662     
  0.6             -2.96e-010      0.00030676     
  0.65            1.8887e-010     0.0014637      
  0.7             -2.6526e-010    0.0018463      
  0.75            2.2776e-010     0.0023264      
  0.8             -2.0363e-010    0.0028821      
  0.85            2.8744e-010     0.0034933      
  0.9             -2.3924e-010    0.0041476      
  0.95            2.1813e-010     0.0048437      
  1               -1.9133e-010    0.0055731      
  1.05            2.7322e-010     0.0063216      
  1.1             -2.3964e-010    0.0070903      
  1.15            2.1792e-010     0.0078782      
  1.2             -3.0198e-010    0.008689       
  1.25            3.3472e-010     0.0095219      
  1.3             -2.7507e-010    0.0103739      
  1.35            2.3567e-010     0.0112452      
  1.4             -2.9814e-010    0.012099       
  1.45            2.6804e-010     0.012998       
  1.5             -2.2681e-010    0.013911       
  1.55            1.9363e-010     0.014835       
  1.6             -2.7047e-010    0.01576        
  1.65            2.3135e-010     0.016694       
  1.7             -2.0594e-010    0.017633       
  1.75            2.9279e-010     0.018573       
  1.8             -2.4329e-010    0.019517       
END_DB

