! VERSION = 6.00
BEGIN_HEADER
 ICCAP_INPUTS
  VG         V  B GROUND SMU4 0.001 LIN        2    0          1.8        6    0.36      
  VS         V  E GROUND SMU2 0.1 CON        0
  VD         V  S GROUND SMU1 0.1 LIN        1    0          1.8        37   0.05      
  VB         V  C GROUND SMU3 0.1 LIN        3    0          -0.9       2    -0.9      
 ICCAP_OUTPUTS
  ID         I  S GROUND SMU1 B
  IB         I  C GROUND SMU3 B
  IG         I  B GROUND SMU4 B
END_HEADER

BEGIN_DB
 ICCAP_VAR VG         0              
 ICCAP_VAR VS         0              
 ICCAP_VAR VB         0              

 #VD              ID              IB              IG             
  0               -3.699e-010     -9.828e-009     -4.4e-011      
  0.05            2.0306e-009     1.0287e-008     1.257e-010     
  0.1             2.1342e-009     1.0373e-008     3.121e-010     
  0.15            4.266e-010      1.4051e-008     -2.2603e-009   
  0.2             -2.0037e-009    1.794e-009      -1.1824e-009   
  0.25            -1.1087e-009    -2.5448e-008    1.3459e-009    
  0.3             2.2322e-009     -8.555e-009     1.0107e-009    
  0.35            9.662e-010      2.6591e-008     -1.4254e-009   
  0.4             -2.1522e-009    8.628e-009      -9.685e-010    
  0.45            -1.6518e-009    -1.1636e-008    1.5402e-009    
  0.5             2.2984e-009     -8.625e-009     8.07e-010      
  0.55            1.6433e-009     1.3747e-008     -1.6007e-009   
  0.6             -1.4694e-009    5.461e-009      -1.6552e-009   
  0.65            -1.483e-009     -1.6126e-008    2.0611e-009    
  0.7             1.8934e-009     -5.705e-009     1.3305e-009    
  0.75            1.9654e-009     1.0738e-008     -1.33e-011     
  0.8             2.0536e-009     1.0308e-008     1.622e-010     
  0.85            2.1517e-009     1.0444e-008     3.466e-010     
  0.9             4.522e-010      1.4485e-008     -2.2225e-009   
  0.95            -1.9782e-009    2.004e-009      -1.2135e-009   
  1               -1.1346e-009    -2.5531e-008    1.3311e-009    
  1.05            2.2161e-009     -8.538e-009     1.0318e-009    
  1.1             2.0572e-009     1.0297e-008     1.1811e-009    
  1.15            1.1184e-009     2.6754e-008     -1.3613e-009   
  1.2             -2.0376e-009    1.0625e-008     -1.1467e-009   
  1.25            -1.0762e-009    -2.5633e-008    1.3678e-009    
  1.3             2.2526e-009     -8.355e-009     9.785e-010     
  1.35            9.38e-010       2.6367e-008     -1.445e-009    
  1.4             -2.1643e-009    8.386e-009      -9.319e-010    
  1.45            -1.6316e-009    -1.1805e-008    1.5827e-009    
  1.5             2.2968e-009     -8.612e-009     7.63e-010      
  1.55            1.606e-009      1.4322e-008     -1.6393e-009   
  1.6             -1.5086e-009    5.075e-009      -1.6183e-009   
  1.65            -2.0571e-009    -1.0934e-008    -2.042e-010    
  1.7             -2.1197e-009    -1.1035e-008    -4.182e-010    
  1.75            -1.3555e-009    -2.0319e-008    1.2439e-009    
  1.8             4.33e-011       -1.0315e-008    2.808e-009     
END_DB

BEGIN_DB
 ICCAP_VAR VG         0.36           
 ICCAP_VAR VS         0              
 ICCAP_VAR VB         0              

 #VD              ID              IB              IG             
  0               -9.005e-010     -1.422e-008     -1.1264e-009   
  0.05            5.4978e-009     1.9535e-008     -1.8141e-009   
  0.1             4.9013e-009     3.925e-009      -1.5768e-009   
  0.15            5.1555e-009     5.648e-009      -1.4351e-009   
  0.2             5.3412e-009     8.128e-009      -1.3721e-009   
  0.25            5.5212e-009     9.576e-009      -1.3399e-009   
  0.3             5.7345e-009     1.135e-008      -1.309e-009    
  0.35            5.8833e-009     1.1229e-008     -2.6515e-009   
  0.4             4.2768e-009     -2.0083e-008    1.2397e-009    
  0.45            5.6903e-009     -1.0986e-008    2.8056e-009    
  0.5             6.4162e-009     -1.87e-010      2.7326e-009    
  0.55            7.6498e-009     1.0493e-008     1.589e-010     
  0.6             7.7424e-009     1.0593e-008     3.393e-010     
  0.65            7.8089e-009     9.882e-009      5.257e-010     
  0.7             7.2824e-009     2.0337e-008     -1.2916e-009   
  0.75            6.1555e-009     1.1222e-008     -2.6184e-009   
  0.8             3.758e-009      -9.661e-009     -1.0867e-009   
  0.85            4.1264e-009     -1.1194e-008    1.3998e-009    
  0.9             6.171e-009      -8.209e-009     1.3007e-009    
  0.95            6.0728e-009     -8.534e-009     1.2552e-009    
  1               5.9821e-009     -9.704e-009     2.8005e-009    
  1.05            6.662e-009      1.18e-010       2.7853e-009    
  1.1             7.9593e-009     8.894e-009      9.995e-010     
  1.15            7.0828e-009     2.65e-008       -1.417e-009    
  1.2             5.8561e-009     8.525e-009      -1.3597e-009   
  1.25            6.0391e-009     1.0103e-008     -1.3298e-009   
  1.3             6.1896e-009     1.1563e-008     -1.2998e-009   
  1.35            6.3365e-009     1.1361e-008     -2.6407e-009   
  1.4             4.6361e-009     -1.8796e-008    1.2281e-009    
  1.45            6.0644e-009     -1.1666e-008    2.7999e-009    
  1.5             7.5605e-009     2.1679e-008     -1.302e-009    
  1.55            6.4308e-009     1.1231e-008     -2.6395e-009   
  1.6             4.7146e-009     -1.8647e-008    2.23e-009      
  1.65            6.6748e-009     -4.432e-009     1.9018e-009    
  1.7             6.617e-009      -7.104e-009     1.6325e-009    
  1.75            6.5429e-009     -8.648e-009     1.4345e-009    
  1.8             6.4756e-009     -8.303e-009     1.324e-009     
END_DB

BEGIN_DB
 ICCAP_VAR VG         0.72           
 ICCAP_VAR VS         0              
 ICCAP_VAR VB         0              

 #VD              ID              IB              IG             
  0               9.079e-009      -2.5321e-008    6.708e-010     
  0.05            2.1392e-006     -1.6906e-008    -2.3428e-009   
  0.1             3.5486e-006     2.5385e-008     -1.3607e-009   
  0.15            4.2726e-006     2.6795e-008     -1.334e-009    
  0.2             4.4739e-006     8.856e-009      1.0364e-009    
  0.25            4.552e-006      -2.5039e-008    1.2867e-009    
  0.3             4.5819e-006     -2.5675e-008    2.4446e-009    
  0.35            4.6006e-006     -2.5669e-008    2.4046e-009    
  0.4             4.614e-006      -2.5458e-008    2.3678e-009    
  0.45            4.6282e-006     -2.5302e-008    2.3318e-009    
  0.5             4.6411e-006     -2.489e-008     2.2908e-009    
  0.55            4.6518e-006     -2.4352e-008    2.2437e-009    
  0.6             4.6636e-006     -1.1242e-008    -1.882e-010    
  0.65            4.7266e-006     1.2956e-008     -2.1829e-009   
  0.7             4.7361e-006     2.7032e-008     -1.3083e-009   
  0.75            4.7385e-006     1.6614e-008     -1.7484e-009   
  0.8             4.6913e-006     1.0433e-008     1.9263e-009    
  0.85            4.7e-006        -1.1572e-008    1.3707e-009    
  0.9             4.7354e-006     -1.0887e-008    -8.808e-010    
  0.95            4.7711e-006     2.2184e-008     -1.4312e-009   
  1               4.7418e-006     1.0203e-008     7.517e-010     
  1.05            4.7284e-006     -2.0525e-008    1.5192e-009    
  1.1             4.756e-006      -1.1174e-008    -7.418e-010    
  1.15            4.7963e-006     1.9422e-008     -1.5421e-009   
  1.2             4.7778e-006     1.0639e-008     5.886e-010     
  1.25            4.7562e-006     -1.8428e-008    1.7249e-009    
  1.3             4.7716e-006     -1.127e-008     -5.63e-010     
  1.35            4.82e-006       1.6834e-008     -1.7283e-009   
  1.4             4.7699e-006     9.901e-009      1.9323e-009    
  1.45            4.7755e-006     -1.1669e-008    1.3686e-009    
  1.5             4.8105e-006     -1.0677e-008    -8.846e-010    
  1.55            4.8431e-006     2.2285e-008     -1.4224e-009   
  1.6             4.8104e-006     9.733e-009      7.562e-010     
  1.65            4.7962e-006     -2.124e-008     1.5081e-009    
  1.7             4.8225e-006     -1.1884e-008    -7.546e-010    
  1.75            4.8604e-006     1.8169e-008     -1.535e-009    
  1.8             4.8408e-006     9.071e-009      5.974e-010     
END_DB

BEGIN_DB
 ICCAP_VAR VG         1.08           
 ICCAP_VAR VS         0              
 ICCAP_VAR VB         0              

 #VD              ID              IB              IG             
  0               1.4145e-008     -2.2649e-008    -7.321e-010    
  0.05            6.5429e-006     1.4431e-008     2.3111e-009    
  0.1             1.2309e-005     -2.3515e-008    1.0599e-009    
  0.15            1.7314e-005     -2.2081e-008    2.0577e-009    
  0.2             2.1557e-005     -1.1277e-008    -7.526e-010    
  0.25            2.5046e-005     2.5647e-008     -1.3543e-009   
  0.3             2.7551e-005     8.818e-009      1.2447e-009    
  0.35            2.9441e-005     -1.6772e-008    1.7134e-009    
  0.4             3.0618e-005     -1.0718e-008    -9.231e-010    
  0.45            3.1207e-005     2.7507e-008     -1.3206e-009   
  0.5             3.1198e-005     9.325e-009      1.4485e-009    
  0.55            3.1375e-005     -1.253e-008     1.4571e-009    
  0.6             3.1439e-005     -2.5237e-008    2.3346e-009    
  0.65            3.1528e-005     -1.1237e-008    -5.578e-010    
  0.7             3.1672e-005     2.3195e-008     -1.4049e-009   
  0.75            3.172e-005      2.6583e-008     -1.2973e-009   
  0.8             3.1681e-005     1.0702e-008     5.774e-010     
  0.85            3.1607e-005     -2.3818e-008    1.3501e-009    
  0.9             3.166e-005      -2.3073e-008    2.1021e-009    
  0.95            3.1738e-005     -1.1315e-008    -7.197e-010    
  1               3.1833e-005     8.137e-009      -1.3182e-009   
  1.05            3.1836e-005     1.0432e-008     4.357e-010     
  1.1             3.1738e-005     -2.1364e-008    1.4493e-009    
  1.15            3.1772e-005     -2.5228e-008    1.2377e-009    
  1.2             3.1838e-005     -1.127e-008     -5.673e-010    
  1.25            3.1966e-005     2.3321e-008     -1.4038e-009   
  1.3             3.1983e-005     1.5088e-008     -1.8602e-009   
  1.35            3.1922e-005     1.0388e-008     7.042e-010     
  1.4             3.1862e-005     -2.5096e-008    1.2971e-009    
  1.45            3.1919e-005     -1.1426e-008    -2.607e-010    
  1.5             3.2052e-005     1.8465e-008     -1.588e-009    
  1.55            3.209e-005      2.6586e-008     -1.338e-009    
  1.6             3.2101e-005     2.1067e-008     -1.664e-009    
  1.65            3.2117e-005     2.5728e-008     -1.3485e-009   
  1.7             3.2122e-005     1.7881e-008     -1.6042e-009   
  1.75            3.2157e-005     2.6016e-008     -1.3399e-009   
  1.8             3.2155e-005     1.8219e-008     -1.5435e-009   
END_DB

BEGIN_DB
 ICCAP_VAR VG         1.44           
 ICCAP_VAR VS         0              
 ICCAP_VAR VB         0              

 #VD              ID              IB              IG             
  0               2.1378e-008     -2.1263e-008    -6.957e-010    
  0.05            1.0319e-005     1.5339e-008     -6.61e-010     
  0.1             2.0037e-005     2.4283e-008     -1.3799e-009   
  0.15            2.9089e-005     1.6918e-008     -1.7589e-009   
  0.2             3.7454e-005     1.0435e-008     7.8e-010       
  0.25            4.5147e-005     -2.5087e-008    1.2676e-009    
  0.3             5.2167e-005     -1.8278e-008    1.783e-009     
  0.35            5.8518e-005     -1.0884e-008    -8.914e-010    
  0.4             6.4147e-005     2.6804e-008     -1.3233e-009   
  0.45            6.8942e-005     1.0358e-008     3.934e-010     
  0.5             7.2882e-005     -2.0616e-008    1.5113e-009    
  0.55            7.6313e-005     -9.973e-009     -1.064e-009    
  0.6             7.8836e-005     1.1385e-008     -2.5739e-009   
  0.65            8.0564e-005     2.6974e-008     -1.3061e-009   
  0.7             8.1544e-005     1.0509e-008     5.086e-010     
  0.75            8.1929e-005     -2.2479e-008    1.4126e-009    
  0.8             8.2236e-005     -2.4253e-008    2.242e-009     
  0.85            8.2471e-005     -1.1291e-008    -6.37e-010     
  0.9             8.2718e-005     2.4012e-008     -1.387e-009    
  0.95            8.2783e-005     1.6152e-008     -1.7977e-009   
  1               8.2714e-005     1.0122e-008     7.577e-010     
  1.05            8.2661e-005     -2.4914e-008    1.2766e-009    
  1.1             8.279e-005      -1.1189e-008    -3.181e-010    
  1.15            8.3004e-005     1.9541e-008     -1.5617e-009   
  1.2             8.3075e-005     2.6472e-008     -1.3282e-009   
  1.25            8.3053e-005     1.0341e-008     3.575e-010     
  1.3             8.2904e-005     -2.014e-008     1.5379e-009    
  1.35            8.2949e-005     -2.545e-008     1.2448e-009    
  1.4             8.3067e-005     -1.1009e-008    -4.767e-010    
  1.45            8.3267e-005     2.1648e-008     -1.4509e-009   
  1.5             8.3052e-005     9.097e-009      1.0326e-009    
  1.55            8.3133e-005     -2.2875e-008    2.1242e-009    
  1.6             8.3255e-005     -1.1265e-008    -7.11e-010     
  1.65            8.3394e-005     8.274e-009      -1.3158e-009   
  1.7             8.309e-005      1.0305e-008     1.4468e-009    
  1.75            8.3237e-005     -1.3031e-008    1.4745e-009    
  1.8             8.3273e-005     -2.5176e-008    2.3538e-009    
END_DB

BEGIN_DB
 ICCAP_VAR VG         1.8            
 ICCAP_VAR VS         0              
 ICCAP_VAR VB         0              

 #VD              ID              IB              IG             
  0               3.2564e-008     2.4975e-008     9.428e-010     
  0.05            1.3036e-005     -1.0345e-008    3.55e-011      
  0.1             2.5601e-005     -1.6692e-008    2.0098e-009    
  0.15            3.7687e-005     -1.1195e-008    -7.807e-010    
  0.2             4.9302e-005     2.5631e-008     -1.3519e-009   
  0.25            6.0398e-005     2.2996e-008     -1.7656e-009   
  0.3             7.0927e-005     1.3316e-008     -1.412e-009    
  0.35            8.0945e-005     1.5546e-008     -1.874e-009    
  0.4             9.0325e-005     1.0497e-008     7.112e-010     
  0.45            9.9079e-005     -2.4485e-008    1.2994e-009    
  0.5             0.000107286     -2.017e-008     1.9165e-009    
  0.55            0.0001149       -1.1129e-008    -9.7e-011      
  0.6             0.00012161      -1.3111e-008    2.5638e-009    
  0.65            0.00012783      -1.1126e-008    -4.47e-011     
  0.7             0.00013347      1.2995e-008     -2.1882e-009   
  0.75            0.00013815      1.0525e-008     2.276e-010     
  0.8             0.00014196      -1.5995e-008    2.1087e-009    
  0.85            0.00014523      -1.1161e-008    -4.323e-010    
  0.9             0.00014788      1.7494e-008     -1.7241e-009   
  0.95            0.00014955      1.0637e-008     5.74e-010      
  1               0.00015049      -1.9512e-008    1.6109e-009    
  1.05            0.00015132      -1.1215e-008    -7.9e-010      
  1.1             0.00015182      2.2533e-008     -1.4294e-009   
  1.15            0.00015184      1.007e-008      8.66e-010      
  1.2             0.00015185      -2.4043e-008    1.3268e-009    
  1.25            0.00015226      -1.0011e-008    -1.0596e-009   
  1.3             0.00015237      2.6334e-008     -1.3357e-009   
  1.35            0.00015247      1.6058e-008     -1.8204e-009   
  1.4             0.00015229      1.0363e-008     2.0032e-009    
  1.45            0.00015232      -1.8891e-008    1.7135e-009    
  1.5             0.00015251      -1.1299e-008    -7.319e-010    
  1.55            0.00015272      2.1296e-008     -1.4707e-009   
  1.6             0.00015261      1.0226e-008     8.089e-010     
  1.65            0.00015254      -2.3542e-008    1.3662e-009    
  1.7             0.00015284      -1.028e-008     -9.999e-010    
  1.75            0.00015298      2.567e-008      -1.3473e-009   
  1.8             0.00015269      8.845e-009      1.0755e-009    
END_DB

BEGIN_DB
 ICCAP_VAR VG         0              
 ICCAP_VAR VS         0              
 ICCAP_VAR VB         -0.9           

 #VD              ID              IB              IG             
  0               1.1218e-009     -1.0796e-008    1.2173e-009    
  0.05            -8.51e-011      -1.2518e-008    2.7667e-009    
  0.1             1.4236e-009     2.0662e-008     -1.2956e-009   
  0.15            9.92e-011       1.1108e-008     -2.6173e-009   
  0.2             -2.0001e-009    -1.1271e-008    -3.91e-011     
  0.25            -2.0922e-009    -1.143e-008     -2.46e-010     
  0.3             -2.1443e-009    -1.1188e-008    -4.57e-010     
  0.35            -2.1793e-009    -1.0606e-008    -6.617e-010    
  0.4             -1.4919e-009    -1.6376e-008    2.0645e-009    
  0.45            1.9059e-009     -5.872e-009     1.3449e-009    
  0.5             1.9814e-009     1.0497e-008     -1.01e-011     
  0.55            9.96e-010       2.657e-008      -1.3946e-009   
  0.6             -2.133e-009     8.984e-009      -9.952e-010    
  0.65            -1.6643e-009    -1.1185e-008    1.497e-009     
  0.7             2.2864e-009     -8.148e-009     8.247e-010     
  0.75            2.2434e-009     8.646e-009      9.673e-010     
  0.8             1.7743e-009     1.1151e-008     -1.4498e-009   
  0.85            -2.1621e-009    8.167e-009      -9.124e-010    
  0.9             -1.6128e-009    -1.17e-008      1.628e-009     
  0.95            2.2856e-009     -8.449e-009     7.348e-010     
  1               1.5747e-009     1.5524e-008     -1.717e-009    
  1.05            -1.5965e-009    4.83e-009       -1.5679e-009   
  1.1             -2.0463e-009    -1.1308e-008    -1.254e-010    
  1.15            -2.1193e-009    -1.1534e-008    -3.314e-010    
  1.2             -2.1615e-009    -1.1413e-008    -5.473e-010    
  1.25            -2.1862e-009    -1.0557e-008    -7.354e-010    
  1.3             -1.5275e-009    -1.4696e-008    1.9439e-009    
  1.35            1.8129e-009     -6.973e-009     1.4169e-009    
  1.4             2.0146e-009     1.0498e-008     4.88e-011      
  1.45            2.1099e-009     1.0597e-008     2.286e-010     
  1.5             2.1916e-009     1.072e-008      4.152e-010     
  1.55            1.3285e-009     2.3217e-008     -1.3168e-009   
  1.6             1.49e-011       1.1304e-008     -1.2836e-009   
  1.65            1.581e-010      1.1478e-008     -2.596e-009    
  1.7             -2.1542e-009    4.71e-010       -9.085e-010    
  1.75            -1.5952e-009    -1.1599e-008    1.619e-009     
  1.8             1.5525e-009     -8.465e-009     1.6209e-009    
END_DB

BEGIN_DB
 ICCAP_VAR VG         0.36           
 ICCAP_VAR VS         0              
 ICCAP_VAR VB         -0.9           

 #VD              ID              IB              IG             
  0               1.0991e-009     9.301e-009      1.1998e-009    
  0.05            -1.5e-010       -1.3526e-008    2.7291e-009    
  0.1             1.4938e-009     1.9016e-008     -1.9011e-009   
  0.15            -1.746e-009     3.793e-009      -1.4555e-009   
  0.2             -1.3125e-009    -2.243e-008     1.2502e-009    
  0.25            2.0595e-009     -9.085e-009     1.2291e-009    
  0.3             1.1659e-009     2.6742e-008     -1.3464e-009   
  0.35            -2.0141e-009    1.0933e-008     -1.1726e-009   
  0.4             -1.0816e-009    -2.5469e-008    1.3454e-009    
  0.45            2.2528e-009     -8.392e-009     9.862e-010     
  0.5             9.592e-010      2.5446e-008     -1.4443e-009   
  0.55            -2.1406e-009    8.213e-009      -9.316e-010    
