! VERSION = 6.00
BEGIN_HEADER
 ICCAP_INPUTS
  VG         V  B GROUND SMU4 0.001 LIN        1    0          1.8        37   0.05      
  VS         V  E GROUND SMU2 0.1 CON        0
  VB         V  C GROUND SMU3 0.1 LIN        3    0          -1.8       3    -0.9      
  VD         V  S GROUND SMU1 0.1 LIN        2    0.1        1.8        2    1.7       
 ICCAP_OUTPUTS
  IG         I  B GROUND SMU4 B
  ID         I  S GROUND SMU1 B
  IB         I  C GROUND SMU3 B
END_HEADER

BEGIN_DB
 ICCAP_VAR VS         0              
 ICCAP_VAR VB         0              
 ICCAP_VAR VD         0.1            

 #VG              IG              ID              IB             
  0               -7.642e-010     -8.064e-010     1.1194e-008    
  0.05            -1.2833e-009    1.5435e-009     1.9817e-008    
  0.1             -2.6149e-009    2.159e-010      1.2107e-008    
  0.15            -1.003e-009     -2.2122e-009    6.73e-010      
  0.2             1.6188e-009     -1.6758e-009    -1.2284e-008   
  0.25            1.7551e-009     1.5708e-009     -8.356e-009    
  0.3             3.994e-010      2.3806e-009     1.0606e-008    
  0.35            6.027e-010      2.9138e-009     1.0723e-008    
  0.4             7.752e-010      4.8472e-009     1.0141e-008    
  0.45            1.3321e-009     1.1872e-008     1.0663e-008    
  0.5             2.8644e-009     4.6779e-008     -8.096e-009    
  0.55            -2.077e-010     1.8882e-007     1.0416e-008    
  0.6             -7.344e-010     7.5288e-007     -1.1285e-008   
  0.65            2.8572e-009     2.6066e-006     1.0668e-008    
  0.7             -1.7243e-009    8.0047e-006     1.8297e-008    
  0.75            1.2585e-009     1.8833e-005     2.769e-009     
  0.8             2.7726e-009     3.7451e-005     -1.0793e-008   
  0.85            5.181e-010      6.4959e-005     1.05e-008      
  0.9             9.248e-010      9.7722e-005     1.0506e-008    
  0.95            2.8601e-009     0.00013552      9.5e-009       
  1               2.409e-010      0.0001755       1.0089e-008    
  1.05            6.985e-010      0.0002153       1.0596e-008    
  1.1             -1.5767e-009    0.00025496      1.8947e-008    
  1.15            -1.3464e-009    0.00029373      7.745e-009     
  1.2             -2.676e-009     0.00033092      1.087e-008     
  1.25            -3.39e-010      0.0003655       -1.0743e-008   
  1.3             -8.312e-010     0.00039932      -1.1127e-008   
  1.35            -1.202e-009     0.00043157      -1.004e-008    
  1.4             3.59e-011       0.00046042      -1.1233e-008   
  1.45            -4.841e-010     0.0004889       -1.0921e-008   
  1.5             -9.23e-010      0.00051554      -1.1239e-008   
  1.55            1.4563e-009     0.00053952      -1.3304e-008   
  1.6             1.2597e-009     0.0005629       -8.095e-009    
  1.65            2.784e-009      0.00058451      -1.0501e-008   
  1.7             4.967e-010      0.0006051       1.0396e-008    
  1.75            -1.8026e-009    0.00062396      2.3959e-008    
  1.8             -1.4045e-009    0.00064134      5.438e-009     
END_DB

BEGIN_DB
 ICCAP_VAR VS         0              
 ICCAP_VAR VB         0              
 ICCAP_VAR VD         1.8            

 #VG              IG              ID              IB             
  0               2.774e-009      -5.905e-010     -1.9847e-008   
  0.05            2.423e-010      2.1584e-009     1.0418e-008    
  0.1             4.356e-010      2.2536e-009     1.0556e-008    
  0.15            -2.2534e-009    5.388e-010      1.6315e-008    
  0.2             -6.43e-010      -2.2189e-009    -1.1013e-008   
  0.25            1.2392e-009     -1.4468e-009    -1.9084e-008   
  0.3             2.3285e-009     1.3639e-009     -1.2675e-008   
  0.35            -2.0613e-009    1.8867e-009     1.8208e-008    
  0.4             -1.7818e-009    4.6455e-009     3.592e-009     
  0.45            2.2429e-009     2.2755e-008     2.4349e-008    
  0.5             1.5728e-009     9.3777e-008     -6.474e-009    
  0.55            -1.0119e-009    3.9796e-007     1.4609e-008    
  0.6             2.2097e-009     1.5183e-006     1.0955e-008    
  0.65            -1.9718e-009    5.5072e-006     1.0567e-008    
  0.7             2.2573e-009     1.5269e-005     -2.311e-008    
  0.75            2.5568e-009     3.6435e-005     -1.3916e-008   
  0.8             2.8286e-009     7.297e-005      -3.0983e-008   
  0.85            1.2352e-009     0.00012673      -4.6154e-008   
  0.9             2.6303e-009     0.00019829      -8.5087e-008   
  0.95            1.5026e-009     0.00028723      -9.6986e-008   
  1               9.65e-010       0.00038895      -9.9394e-008   
  1.05            -1.0133e-009    0.00050218      -1.1056e-007   
  1.1             -1.3119e-009    0.00062586      -8.868e-008    
  1.15            1.3354e-009     0.00075063      -1.4511e-007   
  1.2             2.863e-009      0.00088453      -1.2979e-007   
  1.25            2.6263e-009     0.00102509      -1.2144e-007   
  1.3             -4.976e-010     0.0011683       -1.0873e-007   
  1.35            -1.552e-010     0.001314        -1.0345e-007   
  1.4             2.563e-010      0.0014607       -1.0082e-007   
  1.45            -2.7197e-009    0.0016065       -9.67e-008     
  1.5             -2.3555e-009    0.001756        -9.995e-008    
  1.55            8.156e-010      0.0019043       -7.781e-008    
  1.6             1.3199e-009     0.0020499       -7.8466e-008   
  1.65            1.7496e-009     0.0021986       -7.1792e-008   
  1.7             2.1289e-009     0.0023502       -6.7699e-008   
  1.75            2.4138e-009     0.0024994       -6.3228e-008   
  1.8             2.729e-009      0.0026475       -5.8047e-008   
END_DB

BEGIN_DB
 ICCAP_VAR VS         0              
 ICCAP_VAR VB         -0.9           
 ICCAP_VAR VD         0.1            

 #VG              IG              ID              IB             
  0               6.188e-010      7.086e-010      -1.0783e-008   
  0.05            1.7344e-009     -1.6447e-009    -1.2841e-008   
  0.1             1.6683e-009     1.6411e-009     -8.608e-009    
  0.15            3.063e-010      2.1908e-009     1.0679e-008    
  0.2             5.024e-010      2.2853e-009     1.0608e-008    
  0.25            -1.3096e-009    1.4238e-009     2.3802e-008    
  0.3             -2.6887e-009    8.53e-011       1.0934e-008    
  0.35            -2.74e-011      -2.0379e-009    -1.0832e-008   
  0.4             -2.451e-010     -2.1362e-009    -1.1238e-008   
  0.45            -4.774e-010     -2.1733e-009    -1.1417e-008   
  0.5             -7.008e-010     -2.0651e-009    -1.1306e-008   
  0.55            1.2755e-009     -4.752e-010     -1.0678e-008   
  0.6             2.867e-009      4.369e-009      -9.304e-009    
  0.65            -1.3101e-009    2.0617e-008     -1.0865e-008   
  0.7             -2.5568e-009    1.01673e-007    1.0958e-008    
  0.75            5.233e-010      4.314e-007      -1.0832e-008   
  0.8             -1.2912e-009    1.7059e-006     -1.1011e-008   
  0.85            -2.4273e-009    5.6044e-006     1.1613e-008    
  0.9             1.4107e-009     1.4374e-005     6.2e-010       
  0.95            1.2553e-009     3.0997e-005     -8.117e-009    
  1               2.7565e-009     5.5782e-005     -1.1241e-008   
  1.05            5.403e-010      8.8646e-005     1.0618e-008    
  1.1             1.5644e-009     0.00012435      2.205e-008     
  1.15            1.9853e-009     0.000164        1.0099e-008    
  1.2             -1.3591e-009    0.00020501      2.6135e-008    
  1.25            -1.2873e-009    0.00024424      1.0779e-008    
  1.3             -2.3832e-009    0.00028241      1.2141e-008    
  1.35            -7.919e-010     0.00031822      -1.1292e-008   
  1.4             1.6228e-009     0.00035217      -1.5581e-008   
  1.45            1.2956e-009     0.00038517      -8.524e-009    
  1.5             2.8568e-009     0.00041576      -8.376e-009    
  1.55            -1.7624e-009    0.00044554      2.331e-008     
  1.6             -1.3974e-009    0.00047263      5.572e-009     
  1.65            -1.3047e-009    0.00049792      9.958e-009     
  1.7             -2.5202e-009    0.00052161      1.0954e-008    
  1.75            -1.948e-009     0.00054325      1.302e-009     
  1.8             -1.4699e-009    0.00056367      4.128e-009     
END_DB

BEGIN_DB
 ICCAP_VAR VS         0              
 ICCAP_VAR VB         -0.9           
 ICCAP_VAR VD         1.8            

 #VG              IG              ID              IB             
  0               -1.3784e-009    -1.4218e-009    -8.598e-009    
  0.05            -1.1613e-009    -2.1417e-009    1.036e-008     
  0.1             2.873e-010      -1.7793e-009    -1.1279e-008   
  0.15            1.413e-010      -1.9007e-009    -1.0861e-008   
  0.2             1.5644e-009     -9.991e-010     -2.4392e-008   
  0.25            1.7942e-009     1.4843e-009     -8.331e-009    
  0.3             4.335e-010      2.2568e-009     1.0834e-008    
  0.35            6.241e-010      2.3377e-009     1.0802e-008    
  0.4             8.004e-010      2.3878e-009     9.991e-009     
  0.45            9.558e-010      2.4829e-009     9.593e-009     
  0.5             -1.5312e-009    2.4601e-009     1.2483e-008    
  0.55            -1.4097e-009    3.046e-009      8.22e-009      
  0.6             2.7747e-009     1.7155e-008     2.6912e-008    
  0.65            4.843e-010      8.0283e-008     1.0405e-008    
  0.7             2.8645e-009     3.5626e-007     -1.1652e-008   
  0.75            1.5797e-009     1.4586e-006     7.904e-009     
  0.8             2.0063e-009     5.4056e-006     6.514e-009     
  0.85            -3.98e-010      1.6344e-005     2.258e-009     
  0.9             -8.644e-010     3.9654e-005     -3.1784e-008   
  0.95            -1.2407e-009    8.0238e-005     -4.3371e-008   
  1               -2.6992e-009    0.00013807      -5.8742e-008   
  1.05            -2.6712e-009    0.0002146       -6.4144e-008   
  1.1             -2.2922e-009    0.00030761      -7.3568e-008   
  1.15            1.6662e-009     0.00041267      -9.4993e-008   
  1.2             1.3931e-009     0.00052936      -1.01185e-007  
  1.25            -9.317e-010     0.00065454      -9.742e-008    
  1.3             7.865e-010      0.00078591      -1.0809e-007   
  1.35            1.6977e-009     0.00092016      -1.149e-007    
  1.4             1.3132e-009     0.00106069      -1.061e-007    
  1.45            -1.5771e-009    0.0012071       -1.1691e-007   
  1.5             2.8276e-009     0.0013477       -1.14898e-007  
  1.55            1.331e-009      0.0014942       -9.9039e-008   
  1.6             2.8546e-009     0.0016439       -1.07021e-007  
  1.65            2.5084e-009     0.0017907       -7.9901e-008   
  1.7             1.8164e-009     0.0019379       -7.8406e-008   
  1.75            1.3548e-009     0.0020854       -7.8818e-008   
  1.8             2.8687e-009     0.0022333       -7.3305e-008   
END_DB

BEGIN_DB
 ICCAP_VAR VS         0              
 ICCAP_VAR VB         -1.8           
 ICCAP_VAR VD         0.1            

 #VG              IG              ID              IB             
  0               1.0184e-009     9.376e-010      1.8907e-008    
  0.05            1.4096e-009     -1.1279e-009    -2.5743e-008   
  0.1             1.0036e-009     2.3329e-009     -8.165e-009    
  0.15            -1.4784e-009    1.8238e-009     1.1761e-008    
  0.2             -1.8405e-009    -1.3509e-009    9.011e-009     
  0.25            -5.608e-010     -2.2159e-009    -1.1293e-008   
  0.3             -7.691e-010     -2.2461e-009    -1.1002e-008   
  0.35            2.03e-009       -1.5718e-009    -1.594e-008    
  0.4             1.4665e-009     1.8963e-009     -8.227e-009    
  0.45            1.654e-009      1.6398e-009     1.0542e-008    
  0.5             2.977e-010      2.1906e-009     1.0567e-008    
  0.55            4.937e-010      2.304e-009      1.0456e-008    
  0.6             -2.1477e-009    7.321e-010      1.7289e-008    
  0.65            1.8277e-009     -8.577e-010     2.959e-009     
  0.7             1.5522e-009     4.3036e-009     -8.923e-009    
  0.75            -1.3122e-009    1.8968e-008     -1.0855e-008   
  0.8             -2.5733e-009    9.4662e-008     1.0901e-008    
  0.85            4.932e-010      4.058e-007      -1.0385e-008   
  0.9             -1.2914e-009    1.5973e-006     -1.0943e-008   
  0.95            -2.4519e-009    5.2961e-006     1.1348e-008    
  1               1.4286e-009     1.3754e-005     4.16e-010      
  1.05            1.2557e-009     2.9919e-005     -8.247e-009    
  1.1             2.7594e-009     5.4223e-005     -1.1006e-008   
  1.15            5.309e-010      8.6574e-005     1.0423e-008    
  1.2             1.5373e-009     0.00012182      2.2033e-008    
  1.25            1.9716e-009     0.00016105      1.0175e-008    
  1.3             -1.3626e-009    0.00020129      2.6403e-008    
  1.35            -1.2824e-009    0.00023993      1.075e-008     
  1.4             -2.3835e-009    0.0002775       1.191e-008     
  1.45            -7.839e-010     0.00031266      -1.1134e-008   
  1.5             -1.1546e-009    0.00034698      -1.0052e-008   
  1.55            7.95e-011       0.00037788      -1.1477e-008   
  1.6             -4.205e-010     0.00040812      -1.0758e-008   
  1.65            -8.749e-010     0.00043649      -1.0889e-008   
  1.7             1.5038e-009     0.00046195      -1.3755e-008   
  1.75            1.2713e-009     0.00048663      -8.438e-009    
  1.8             2.8189e-009     0.00050923      -9.714e-009    
END_DB

BEGIN_DB
 ICCAP_VAR VS         0              
 ICCAP_VAR VB         -1.8           
 ICCAP_VAR VD         1.8            

 #VG              IG              ID              IB             
  0               1.2614e-009     1.2567e-009     6.494e-009     
  0.05            1.2354e-009     6e-012          -1.044e-008    
  0.1             2.8285e-009     -1.775e-010     -1.3165e-008   
  0.15            1.606e-010      2.1077e-009     1.0231e-008    
  0.2             3.492e-010      2.2117e-009     1.06e-008      
  0.25            5.502e-010      2.3065e-009     1.0335e-008    
  0.3             -1.297e-009     1.4622e-009     2.236e-008     
  0.35            -2.6688e-009    1.286e-010      1.1086e-008    
  0.4             -1.8678e-009    -1.3181e-009    5.5e-010       
  0.45            -6.21e-010      -2.2206e-009    -1.0941e-008   
  0.5             1.2447e-009     -1.477e-009     -1.899e-008    
  0.55            2.85e-009       4.66e-011       -1.2497e-008   
  0.6             1.019e-010      2.9783e-009     1.0138e-008    
  0.65            2.945e-010      6.7954e-009     1.0489e-008    
  0.7             1.2414e-009     2.4348e-008     1.0241e-008    
  0.75            -1.763e-009     1.1648e-007     2.7006e-008    
  0.8             -7.025e-010     5.3178e-007     -1.1715e-008   
  0.85            1.279e-009      2.1411e-006     8.737e-009     
  0.9             2.8367e-009     7.4331e-006     -1.4357e-008   
  0.95            -1.3378e-009    2.1596e-005     -2.977e-009    
  1               -2.4943e-009    4.9071e-005     -2.1967e-008   
  1.05            -1.904e-009     9.4594e-005     -3.3334e-008   
  1.1             -1.3426e-009    0.0001591       -5.5992e-008   
  1.15            -2.6796e-009    0.00024134      -4.9095e-008   
  1.2             -2.2879e-009    0.00033739      -6.9956e-008   
  1.25            -1.6786e-009    0.00044727      -7.6245e-008   
  1.3             1.5743e-009     0.00056529      -9.4557e-008   
  1.35            1.4318e-009     0.00069243      -9.7283e-008   
  1.4             1.4102e-009     0.00082538      -9.8759e-008   
  1.45            1.3951e-009     0.00096191      -9.8756e-008   
  1.5             1.2048e-009     0.0011032       -9.7976e-008   
  1.55            -1.6921e-009    0.0012474       -1.0079e-007   
  1.6             1.2983e-009     0.0013884       -1.07546e-007  
  1.65            2.8584e-009     0.0015329       -8.7104e-008   
  1.7             2.4771e-009     0.0016814       -7.4873e-008   
  1.75            1.7834e-009     0.001828        -7.4237e-008   
  1.8             1.3443e-009     0.0019744       -7.4996e-008   
END_DB

