! VERSION = 6.00
BEGIN_HEADER
 ICCAP_INPUTS
  VG         V  B GROUND SMU4 0.001 LIN        1    0          1.8        37   0.05      
  VS         V  E GROUND SMU2 0.1 CON        0
  VD         V  S GROUND SMU1 0.1 LIN        2    0.1        1.8        2    1.7       
  VB         V  C GROUND SMU3 0.1 CON        0
 ICCAP_OUTPUTS
  IG         I  B GROUND SMU4 B
  ID         I  S GROUND SMU1 B
END_HEADER

BEGIN_DB
 ICCAP_VAR VS         0              
 ICCAP_VAR VD         0.1            
 ICCAP_VAR VB         0              

 #VG              IG              ID             
  0               -3.3564e-010    7.908e-011     
  0.05            2.0819e-010     -2.988e-011    
  0.1             -2.2245e-010    2.0034e-010    
  0.15            2.3728e-010     3.9652e-010    
  0.2             5.302e-011      1.9915e-009    
  0.25            -1.0489e-010    7.6379e-009    
  0.3             -1.4991e-010    3.2829e-008    
  0.35            2.9309e-010     1.4176e-007    
  0.4             -2.4548e-010    6.1136e-007    
  0.45            1.0966e-010     2.5926e-006    
  0.5             -2.061e-010     1.04335e-005   
  0.55            -3.1668e-010    3.7769e-005    
  0.6             3.0732e-010     0.00011567     
  0.65            -3.3388e-010    0.00028484     
  0.7             2.8026e-010     0.00056144     
  0.75            -2.4706e-010    0.0009113      
  0.8             -3.2035e-010    0.0012641      
  0.85            1.8384e-010     0.0015532      
  0.9             -2.6164e-010    0.001757       
  0.95            2.334e-010      0.0018921      
  1               -2.0966e-010    0.0019816      
  1.05            2.9554e-010     0.0020425      
  1.1             -2.4871e-010    0.0020863      
  1.15            2.249e-010      0.0021185      
  1.2             -1.9891e-010    0.0021431      
  1.25            2.8167e-010     0.0021626      
  1.3             -2.4898e-010    0.0021784      
  1.35            2.1559e-010     0.0021905      
  1.4             -3.002e-010     0.0022012      
  1.45            3.3527e-010     0.0022102      
  1.5             -2.7365e-010    0.0022174      
  1.55            2.4542e-010     0.0022241      
  1.6             -2.1708e-010    0.0022297      
  1.65            1.8636e-010     0.0022347      
  1.7             -2.598e-010     0.002239       
  1.75            2.3908e-010     0.0022432      
  1.8             -2.0452e-010    0.0022462      
END_DB

BEGIN_DB
 ICCAP_VAR VS         0              
 ICCAP_VAR VD         1.8            
 ICCAP_VAR VB         0              

 #VG              IG              ID             
  0               -2.2498e-010    2.1356e-010    
  0.05            1.0271e-010     2.7888e-010    
  0.1             -1.4361e-010    2.6735e-010    
  0.15            7.996e-011      1.02255e-009   
  0.2             2.0615e-010     4.087e-009     
  0.25            3.3795e-010     1.7903e-008    
  0.3             -2.5821e-010    7.8874e-008    
  0.35            -3.3648e-010    3.4773e-007    
  0.4             3.378e-011      1.525e-006     
  0.45            -9.735e-011     6.4828e-006    
  0.5             2.499e-010      2.5479e-005    
  0.55            -2.2201e-010    8.6541e-005    
  0.6             -2.235e-010     0.00024058     
  0.65            -2.8418e-010    0.0013918      
  0.7             2.424e-010      0.0017121      
  0.75            -2.1661e-010    0.002131       
  0.8             1.7959e-010     0.0026498      
  0.85            -2.604e-010     0.003257       
  0.9             2.3107e-010     0.0039277      
  0.95            -2.0604e-010    0.0046353      
  1               2.9364e-010     0.0053755      
  1.05            -2.4415e-010    0.0061455      
  1.1             2.1427e-010     0.0069441      
  1.15            -2.9671e-010    0.0077665      
  1.2             2.6562e-010     0.0086139      
  1.25            -2.3343e-010    0.009488       
  1.3             2.1338e-010     0.0103836      
  1.35            -2.9663e-010    0.0113008      
  1.4             2.5055e-010     0.012205       
  1.45            -2.1287e-010    0.01316        
  1.5             3.0161e-010     0.014128       
  1.55            -2.5268e-010    0.015109       
  1.6             2.1921e-010     0.016103       
  1.65            -1.9116e-010    0.0171         
  1.7             2.7426e-010     0.018107       
  1.75            -2.3963e-010    0.01912        
  1.8             2.19e-010       0.020136       
END_DB

