! VERSION = 6.00
BEGIN_HEADER
 ICCAP_INPUTS
  VG         V  B GROUND SMU4 0.001 LIN        2    0          1.8        6    0.36      
  VS         V  E GROUND SMU2 0.1 CON        0
  VD         V  S GROUND SMU1 0.1 LIN        1    0          1.8        37   0.05      
  VB         V  C GROUND SMU3 0.1 CON        0
 ICCAP_OUTPUTS
  ID         I  S GROUND SMU1 B
  IG         I  B GROUND SMU4 B
END_HEADER

BEGIN_DB
 ICCAP_VAR VG         0              
 ICCAP_VAR VS         0              
 ICCAP_VAR VB         0              

 #VD              ID              IG             
  0               -3.6635e-009    -2.6019e-010   
  0.05            3.8721e-007     -1.6709e-010   
  0.1             7.2409e-007     -2.3884e-010   
  0.15            1.02216e-006    -2.4689e-010   
  0.2             1.2968e-006     5.758e-011     
  0.25            1.5518e-006     3.2288e-010    
  0.3             1.7842e-006     3.316e-010     
  0.35            2.0031e-006     2.4434e-010    
  0.4             2.2065e-006     2.6496e-010    
  0.45            2.3954e-006     2.8964e-010    
  0.5             2.5684e-006     3.1246e-010    
  0.55            2.7291e-006     3.31e-010      
  0.6             2.8755e-006     2.4313e-010    
  0.65            2.9985e-006     2.6408e-010    
  0.7             3.1163e-006     2.886e-010     
  0.75            3.2248e-006     3.1215e-010    
  0.8             3.3229e-006     2.2462e-010    
  0.85            3.41e-006       2.4317e-010    
  0.9             3.4972e-006     2.6368e-010    
  0.95            3.5715e-006     2.8703e-010    
  1               3.6444e-006     3.1085e-010    
  1.05            3.7172e-006     3.307e-010     
  1.1             3.7771e-006     2.4211e-010    
  1.15            3.8432e-006     2.6347e-010    
  1.2             3.8998e-006     2.8652e-010    
  1.25            3.9572e-006     3.1083e-010    
  1.3             4.0146e-006     3.3001e-010    
  1.35            4.0738e-006     2.4231e-010    
  1.4             4.1259e-006     2.6399e-010    
  1.45            4.1819e-006     2.8693e-010    
  1.5             4.2344e-006     3.1005e-010    
  1.55            4.2856e-006     3.2867e-010    
  1.6             4.3388e-006     2.4185e-010    
  1.65            4.3905e-006     2.6277e-010    
  1.7             4.4456e-006     2.8607e-010    
  1.75            4.4988e-006     3.0928e-010    
  1.8             4.5512e-006     3.2957e-010    
END_DB

BEGIN_DB
 ICCAP_VAR VG         0.36           
 ICCAP_VAR VS         0              
 ICCAP_VAR VB         0              

 #VD              ID              IG             
  0               -4.5061e-008    -1.0048e-010   
  0.05            1.3265e-006     -3.4211e-010   
  0.1             2.361e-006      -2.8624e-010   
  0.15            3.2421e-006     -3.092e-010    
  0.2             4.0287e-006     -3.3013e-010   
  0.25            4.7463e-006     -2.4133e-010   
  0.3             5.4089e-006     -2.6265e-010   
  0.35            6.0279e-006     -2.8643e-010   
  0.4             6.6064e-006     -3.0887e-010   
  0.45            7.1504e-006     -3.2957e-010   
  0.5             7.6558e-006     -2.4065e-010   
  0.55            8.1269e-006     -2.6105e-010   
  0.6             8.5657e-006     -2.8518e-010   
  0.65            8.9733e-006     -3.0845e-010   
  0.7             9.3498e-006     -3.2914e-010   
  0.75            9.699e-006      -2.4114e-010   
  0.8             1.00137e-005    -2.6162e-010   
  0.85            1.03257e-005    -2.853e-010    
  0.9             1.06076e-005    -3.0928e-010   
  0.95            1.08737e-005    -3.2902e-010   
  1               1.11192e-005    -2.4127e-010   
  1.05            1.1361e-005     -2.565e-010    
  1.1             1.1582e-005     -2.4164e-010   
  1.15            1.1796e-005     -3.3507e-010   
  1.2             1.2002e-005     -3.2444e-010   
  1.25            1.2186e-005     -3.1079e-010   
  1.3             1.2376e-005     -2.9494e-010   
  1.35            1.2573e-005     -2.7882e-010   
  1.4             1.2758e-005     -2.6349e-010   
  1.45            1.2935e-005     -2.4975e-010   
  1.5             1.3114e-005     -2.3554e-010   
  1.55            1.3288e-005     -3.2975e-010   
  1.6             1.3457e-005     -3.1716e-010   
  1.65            1.3627e-005     -3.0237e-010   
  1.7             1.3798e-005     -2.8716e-010   
  1.75            1.3968e-005     -2.7028e-010   
  1.8             1.4133e-005     -2.5556e-010   
END_DB

BEGIN_DB
 ICCAP_VAR VG         0.72           
 ICCAP_VAR VS         0              
 ICCAP_VAR VB         0              

 #VD              ID              IG             
  0               -2.6604e-006    -1.8686e-010   
  0.05            0.00055325      1.0913e-010    
  0.1             0.00081749      3.2705e-010    
  0.15            0.00093433      2.2671e-010    
  0.2             0.00099536      2.3497e-010    
  0.25            0.00103263      2.435e-010     
  0.3             0.00105448      2.5287e-010    
  0.35            0.00107587      2.6348e-010    
  0.4             0.00109786      2.7283e-010    
  0.45            0.00112039      2.8356e-010    
  0.5             0.0011458       7.607e-011     
  0.55            0.0011695       3.4043e-010    
  0.6             0.0011953       2.7544e-010    
  0.65            0.0012227       2.8597e-010    
  0.7             0.0012508       2.9655e-010    
  0.75            0.0012805       3.0742e-010    
  0.8             0.0013108       3.1751e-010    
  0.85            0.0013419       3.2616e-010    
  0.9             0.0013743       2.2567e-010    
  0.95            0.0014083       2.3404e-010    
  1               0.001443        2.4304e-010    
  1.05            0.001479        2.5256e-010    
  1.1             0.0015159       2.6106e-010    
  1.15            0.0015545       2.7234e-010    
  1.2             0.0015942       2.8371e-010    
  1.25            0.0016362       2.9433e-010    
  1.3             0.0016791       3.0474e-010    
  1.35            0.0017249       3.1457e-010    
  1.4             0.0017725       3.2396e-010    
  1.45            0.0018214       3.3234e-010    
  1.5             0.0018738       2.3135e-010    
  1.55            0.0019286       2.4113e-010    
  1.6             0.0019856       2.4973e-010    
  1.65            0.0020452       2.5864e-010    
  1.7             0.0021074       2.6906e-010    
  1.75            0.0021724       2.7768e-010    
  1.8             0.0022402       2.8881e-010    
END_DB

BEGIN_DB
 ICCAP_VAR VG         1.08           
 ICCAP_VAR VS         0              
 ICCAP_VAR VB         0              

 #VD              ID              IG             
  0               -5.1423e-006    2.3987e-010    
  0.05            0.0014513       -2.6885e-010   
  0.1             0.0028493       -2.794e-010    
  0.15            0.0041593       -2.9064e-010   
  0.2             0.0053473       -3.0033e-010   
  0.25            0.0063686       -3.1065e-010   
  0.3             0.0071717       -3.2032e-010   
  0.35            0.007739        -3.2838e-010   
  0.4             0.0080991       -2.2926e-010   
  0.45            0.00832         -2.3798e-010   
  0.5             0.0084641       -2.4683e-010   
  0.55            0.00853         -2.5581e-010   
  0.6             0.0085393       -2.6597e-010   
  0.65            0.0085454       -2.7674e-010   
  0.7             0.0085496       -2.8734e-010   
  0.75            0.0085518       -2.983e-010    
  0.8             0.0085535       -3.0839e-010   
  0.85            0.0085542       -3.1779e-010   
  0.9             0.0085567       -3.2654e-010   
  0.95            0.008557        -2.2751e-010   
  1               0.008558        -2.3556e-010   
  1.05            0.0085592       -2.4421e-010   
  1.1             0.0085618       -2.5289e-010   
  1.15            0.0085647       -2.6326e-010   
  1.2             0.0085709       -2.7376e-010   
  1.25            0.0085781       -2.8323e-010   
  1.3             0.0085896       -2.9481e-010   
  1.35            0.0086041       -3.0529e-010   
  1.4             0.0086231       -3.1467e-010   
  1.45            0.0086492       -3.2396e-010   
  1.5             0.0086797       -3.3052e-010   
  1.55            0.0087164       -2.3259e-010   
  1.6             0.0087603       -2.4094e-010   
  1.65            0.008811        -2.49e-010     
  1.7             0.0088685       -2.5912e-010   
  1.75            0.0089321       -2.6775e-010   
  1.8             0.0090029       -2.7797e-010   
END_DB

BEGIN_DB
 ICCAP_VAR VG         1.44           
 ICCAP_VAR VS         0              
 ICCAP_VAR VB         0              

 #VD              ID              IG             
  0               -5.5806e-006    3.3795e-010    
  0.05            0.0015595       -3.1489e-010   
  0.1             0.0031116       -3.235e-010    
  0.15            0.0046411       -3.308e-010    
  0.2             0.0061454       -2.3295e-010   
  0.25            0.0076195       -2.4229e-010   
  0.3             0.0090527       -2.5122e-010   
  0.35            0.0104393       -2.6033e-010   
  0.4             0.011773        2.7017e-010    
  0.45            0.013025        2.8159e-010    
  0.5             0.014182        2.9219e-010    
  0.55            0.015218        3.0322e-010    
  0.6             0.016108        3.1367e-010    
  0.65            0.016824        3.2293e-010    
  0.7             0.017354        3.3107e-010    
  0.75            0.017721        2.32e-010      
  0.8             0.017963        2.4049e-010    
  0.85            0.018131        2.4949e-010    
  0.9             0.018259        2.5869e-010    
  0.95            0.018272        2.6877e-010    
  1               0.018278        2.7947e-010    
  1.05            0.018281        2.8954e-010    
  1.1             0.018278        3.0069e-010    
  1.15            0.018277        3.1059e-010    
  1.2             0.018267        3.2113e-010    
  1.25            0.018261        3.2868e-010    
  1.3             0.018251        2.3031e-010    
  1.35            0.018241        2.3912e-010    
  1.4             0.01823         2.4724e-010    
  1.45            0.018219        2.5657e-010    
  1.5             0.018211        2.6609e-010    
  1.55            0.018198        2.7645e-010    
  1.6             0.018192        2.8813e-010    
  1.65            0.018184        2.9899e-010    
  1.7             0.018183        3.089e-010     
  1.75            0.018185        3.1895e-010    
  1.8             0.018192        3.2857e-010    
END_DB

BEGIN_DB
 ICCAP_VAR VG         1.8            
 ICCAP_VAR VS         0              
 ICCAP_VAR VB         0              

 #VD              ID              IG             
  0               -5.7281e-006    -2.205e-010    
  0.05            0.0015923       2.6002e-010    
  0.1             0.0031853       2.6929e-010    
  0.15            0.004765        2.7791e-010    
  0.2             0.0063307       2.8802e-010    
  0.25            0.0078824       2.9941e-010    
  0.3             0.0094117       3.0893e-010    
  0.35            0.0109221       3.1733e-010    
  0.4             0.012414        -3.2848e-010   
  0.45            0.013868        -2.3277e-010   
  0.5             0.015289        -2.4148e-010   
  0.55            0.016669        -2.5026e-010   
  0.6             0.018014        -2.601e-010    
  0.65            0.019305        -2.7023e-010   
  0.7             0.02054         -2.8068e-010   
  0.75            0.021723        -2.9246e-010   
  0.8             0.022821        -3.0324e-010   
  0.85            0.023837        -3.1252e-010   
  0.9             0.02475         -3.218e-010    
  0.95            0.02554         -3.2974e-010   
  1               0.026198        -2.3268e-010   
  1.05            0.026731        -2.4046e-010   
  1.1             0.027122        -2.4832e-010   
  1.15            0.027399        -2.5754e-010   
  1.2             0.027612        -2.6873e-010   
  1.25            0.027786        -2.7864e-010   
  1.3             0.027921        -2.9026e-010   
  1.35            0.027938        -2.9872e-010   
  1.4             0.027991        -3.0836e-010   
  1.45            0.028003        -3.1942e-010   
  1.5             0.028009        -3.2709e-010   
  1.55            0.028012        -2.2987e-010   
  1.6             0.028014        -2.3877e-010   
  1.65            0.02802         -2.4659e-010   
  1.7             0.028029        -2.5597e-010   
  1.75            0.028033        -2.657e-010    
  1.8             0.028028        -2.7582e-010   
END_DB

