! VERSION = 6.00
BEGIN_HEADER
 ICCAP_INPUTS
  VG         V  B GROUND SMU4 0.001 LIN        2    0          1.8        6    0.36      
  VS         V  E GROUND SMU2 0.1 CON        0
  VD         V  S GROUND SMU1 0.1 LIN        1    0          1.8        37   0.05      
  VB         V  C GROUND SMU3 0.1 LIN        3    0          -0.9       2    -0.9      
 ICCAP_OUTPUTS
  ID         I  S GROUND SMU1 B
  IB         I  C GROUND SMU3 B
  IG         I  B GROUND SMU4 B
END_HEADER

BEGIN_DB
 ICCAP_VAR VG         0              
 ICCAP_VAR VS         0              
 ICCAP_VAR VB         0              

 #VD              ID              IB              IG             
  0               9.032e-010      9.887e-009      9.529e-010     
  0.05            -7.358e-010     -1.6495e-008    1.9993e-009    
  0.1             2.1404e-009     -8.543e-009     5.446e-010     
  0.15            6.271e-010      1.4495e-008     -2.0444e-009   
  0.2             -1.09e-009      -2.2395e-008    2.6908e-009    
  0.25            8.087e-010      1.9108e-008     -1.6538e-009   
  0.3             -2.017e-009     -4.603e-009     -1.0646e-009   
  0.35            -1.039e-009     -2.1995e-008    2.7176e-009    
  0.4             1.4254e-009     1.9527e-008     -1.9411e-009   
  0.45            -1.1357e-009    -2.2592e-008    2.658e-009     
  0.5             8.186e-010      2.039e-008      -1.5803e-009   
  0.55            -2.0888e-009    5.299e-009      -7.153e-010    
  0.6             -1.4989e-009    -1.4561e-008    1.9272e-009    
  0.65            2.1556e-009     -8.72e-009      5.85e-010      
  0.7             6.583e-010      1.5127e-008     -1.9813e-009   
  0.75            -1.1233e-009    -2.2568e-008    2.6695e-009    
  0.8             2.0198e-009     9.515e-009      2.635e-010     
  0.85            2.0998e-009     9.261e-009      4.459e-010     
  0.9             2.1748e-009     8.315e-009      6.189e-010     
  0.95            6.84e-010       1.5933e-008     -1.9232e-009   
  1               -1.1462e-009    -2.2658e-008    2.6442e-009    
  1.05            2.0438e-009     9.499e-009      2.935e-010     
  1.1             2.1202e-009     9.125e-009      4.676e-010     
  1.15            5.706e-010      1.3245e-008     -2.1448e-009   
  1.2             -1.0389e-009    -2.2011e-008    2.7149e-009    
  1.25            7.615e-010      1.7783e-008     -1.7567e-009   
  1.3             -2.0507e-009    -4.914e-009     -1.0008e-009   
  1.35            -9.93e-010      -2.1302e-008    2.7268e-009    
  1.4             2.2253e-009     -3.707e-009     8.131e-010     
  1.45            1.5879e-009     1.3877e-008     -1.6088e-009   
  1.5             -2.0045e-009    -4.554e-009     -1.0802e-009   
  1.55            -1.0601e-009    -2.2115e-008    2.7089e-009    
  1.6             7.843e-010      1.8295e-008     -1.7092e-009   
  1.65            -2.041e-009     -4.683e-009     -1.0279e-009   
  1.7             -1.0096e-009    -2.1653e-008    2.7266e-009    
  1.75            2.2338e-009     -3.785e-009     8.373e-010     
  1.8             8.552e-010      2.0506e-008     -1.5726e-009   
END_DB

BEGIN_DB
 ICCAP_VAR VG         0.36           
 ICCAP_VAR VS         0              
 ICCAP_VAR VB         0              

 #VD              ID              IB              IG             
  0               1.17e-011       9.788e-009      5.061e-010     
  0.05            1.0729e-008     1.814e-008      2.6883e-009    
  0.1             1.8707e-008     -2.1458e-008    2.169e-009     
  0.15            2.0158e-008     -2.2221e-008    2.4814e-009    
  0.2             2.1182e-008     -2.0546e-008    2.6844e-009    
  0.25            2.1921e-008     -1.7423e-008    2.7365e-009    
  0.3             2.519e-008      -1.8186e-008    1.8084e-009    
  0.35            2.6307e-008     -2.1539e-008    2.1738e-009    
  0.4             2.7377e-008     -2.2191e-008    2.4892e-009    
  0.45            2.8714e-008     -2.063e-008     2.6828e-009    
  0.5             3.0064e-008     -1.7501e-008    2.7384e-009    
  0.55            3.2762e-008     -1.8161e-008    1.8084e-009    
  0.6             3.5404e-008     -2.1621e-008    2.173e-009     
  0.65            3.7246e-008     -2.2267e-008    2.4904e-009    
  0.7             3.8793e-008     -2.0562e-008    2.6864e-009    
  0.75            4.0474e-008     -1.7403e-008    2.7392e-009    
  0.8             4.5066e-008     -1.8184e-008    1.8239e-009    
  0.85            4.686e-008      -2.1552e-008    2.1872e-009    
  0.9             4.8732e-008     -2.2152e-008    2.4988e-009    
  0.95            5.0299e-008     -2.05e-008      2.69e-009      
  1               5.2756e-008     -1.7442e-008    2.7393e-009    
  1.05            5.9578e-008     -1.8178e-008    1.8135e-009    
  1.1             5.9279e-008     -1.4667e-008    1.9819e-009    
  1.15            6.3889e-008     -2.2373e-008    2.3376e-009    
  1.2             6.6364e-008     -2.1679e-008    2.6047e-009    
  1.25            7.3177e-008     -1.236e-008     2.6775e-009    
  1.3             7.2759e-008     -1.7664e-008    2.7367e-009    
  1.35            8.3454e-008     -1.789e-008     1.7894e-009    
  1.4             8.0593e-008     -1.4783e-008    1.9453e-009    
  1.45            8.9276e-008     -2.2261e-008    2.3016e-009    
  1.5             9.4353e-008     -2.1789e-008    2.5786e-009    
  1.55            1.03229e-007    -1.2257e-008    2.6598e-009    
  1.6             6.3729e-008     -2.1484e-008    -2.5972e-009   
  1.65            7.4908e-008     1.2237e-008     2.3657e-009    
  1.7             1.02064e-007    9.263e-009      2.7303e-009    
  1.75            7.5127e-008     -1.8027e-008    -2.6324e-009   
  1.8             8.3465e-008     -2.2276e-008    -2.5455e-009   
END_DB

BEGIN_DB
 ICCAP_VAR VG         0.72           
 ICCAP_VAR VS         0              
 ICCAP_VAR VB         0              

 #VD              ID              IB              IG             
  0               -8.2812e-007    -2.214e-008     1.1703e-009    
  0.05            5.837e-005      -5.979e-009     -2.3325e-009   
  0.1             8.4706e-005     2.2123e-008     -1.7284e-009   
  0.15            9.7347e-005     8.66e-009       7.984e-010     
  0.2             0.000105972     -2.1897e-008    2.564e-009     
  0.25            0.00011566      1.0979e-008     2.567e-010     
  0.3             0.00012062      -1.4642e-008    2.1152e-009    
  0.35            0.0001272       -1.9052e-008    1.8701e-009    
  0.4             0.00013238      -1.6162e-008    2.7389e-009    
  0.45            0.00013683      -1.9527e-008    2.7208e-009    
  0.5             0.00014281      -2.1331e-008    2.6416e-009    
  0.55            0.0001491       -2.2323e-008    2.496e-009     
  0.6             0.00015444      -2.2376e-008    2.2963e-009    
  0.65            0.00015991      -2.0822e-008    2.0445e-009    
  0.7             0.00016637      -1.8257e-008    1.8086e-009    
  0.75            0.0001706       -1.7856e-008    2.7381e-009    
  0.8             0.0001761       -2.0164e-008    2.7013e-009    
  0.85            0.00018308      -2.1533e-008    2.6023e-009    
  0.9             0.00018911      -2.2559e-008    2.4393e-009    
  0.95            0.00019601      -2.2158e-008    2.2247e-009    
  1               0.00020194      -2.0128e-008    1.9764e-009    
  1.05            0.00020829      -1.7508e-008    1.7399e-009    
  1.1             0.00021546      -1.4613e-008    2.7343e-009    
  1.15            0.00022065      -2.0891e-008    2.6794e-009    
  1.2             0.00022632      -1.1213e-008    5.67e-011      
  1.25            0.00023812      7.802e-009      -2.3843e-009   
  1.3             0.00024541      8.451e-009      -2.0017e-009   
  1.35            0.00025191      1.0802e-008     -1.5911e-009   
  1.4             0.00025816      1.299e-009      -2.5495e-009   
  1.45            0.00026624      -4.625e-009     -2.2658e-009   
  1.5             0.00026138      -1.3154e-008    1.6591e-009    
  1.55            0.00027674      -4.9492e-008    2.7148e-009    
  1.6             0.0002868       -6.4171e-008    -1.3721e-009   
  1.65            0.00029723      -5.803e-008     -1.7747e-009   
  1.7             0.00029684      -1.2419e-007    1.2411e-009    
  1.75            0.00030471      -1.7237e-007    -2.3199e-009   
  1.8             0.0003155       -2.1706e-007    5.336e-010     
END_DB

BEGIN_DB
 ICCAP_VAR VG         1.08           
 ICCAP_VAR VS         0              
 ICCAP_VAR VB         0              

 #VD              ID              IB              IG             
  0               1.4466e-006     1.3857e-008     1.0102e-009    
  0.05            0.00068908      -1.8156e-008    -7.66e-010     
  0.1             0.0012345       1.4002e-008     2.7331e-009    
  0.15            0.0016388       -1.2087e-008    2.638e-009     
  0.2             0.0019242       -2.1894e-008    2.4988e-009    
  0.25            0.002121        -2.213e-008     2.3091e-009    
  0.3             0.0022609       -2.0826e-008    2.0865e-009    
  0.35            0.0023621       -1.8573e-008    1.8474e-009    
  0.4             0.0024367       -1.5835e-008    2.7366e-009    
  0.45            0.0024976       -1.1956e-008    2.6248e-009    
  0.5             0.0025458       -2.19e-008      2.4847e-009    
  0.55            0.0025926       -2.1964e-008    2.2953e-009    
  0.6             0.0026382       -2.055e-008     2.0639e-009    
  0.65            0.0026796       -1.8169e-008    1.8228e-009    
  0.7             0.0027188       -1.5492e-008    2.7354e-009    
  0.75            0.0027512       -2.0139e-008    2.6986e-009    
  0.8             0.0027869       -2.1451e-008    2.5957e-009    
  0.85            0.0028193       -2.2312e-008    2.4313e-009    
  0.9             0.0028559       -2.1826e-008    2.2256e-009    
  0.95            0.0028904       -2.0027e-008    1.9858e-009    
  1               0.0029238       -1.7527e-008    1.7467e-009    
  1.05            0.0029499       -1.8817e-008    2.7264e-009    
  1.1             0.0029797       -2.0932e-008    2.6702e-009    
  1.15            0.0030169       -1.1427e-008    6.28e-011      
  1.2             0.0030636       7.34e-009       -2.3749e-009   
  1.25            0.0030946       7.508e-009      -1.9995e-009   
  1.3             0.0031242       8.481e-009      -1.5993e-009   
  1.35            0.0031421       -3.85e-009      2.0732e-009    
  1.4             0.0031688       -3.465e-008     -1.86e-011     
  1.45            0.0032168       -3.6125e-008    -2.2598e-009   
  1.5             0.0032252       -6.5456e-008    1.6572e-009    
  1.55            0.0032601       -1.4716e-007    2.6727e-009    
  1.6             0.0033054       -2.067e-007     -9.999e-010    
  1.65            0.0033413       -2.839e-007     -2.3645e-009   
  1.7             0.0033443       -4.5327e-007    1.5847e-009    
  1.75            0.0033822       -6.9298e-007    2.7304e-009    
  1.8             0.0034352       -9.7717e-007    -1.2892e-009   
END_DB

BEGIN_DB
 ICCAP_VAR VG         1.44           
 ICCAP_VAR VS         0              
 ICCAP_VAR VB         0              

 #VD              ID              IB              IG             
  0               2.5089e-006     -2.1046e-008    -8.7e-010      
  0.05            0.0011909       1.9274e-008     2.631e-009     
  0.1             0.0022758       -2.179e-008     2.4988e-009    
  0.15            0.0032253       -1.4722e-008    2.1235e-009    
  0.2             0.004022        -1.9203e-008    1.8814e-009    
  0.25            0.0046695       -1.6188e-008    2.7205e-009    
  0.3             0.005175        -1.2033e-008    2.629e-009     
  0.35            0.0055674       -2.1722e-008    2.497e-009     
  0.4             0.0058646       -2.2066e-008    2.3152e-009    
  0.45            0.0060951       -2.0916e-008    2.089e-009     
  0.5             0.0062699       -1.8803e-008    1.8446e-009    
  0.55            0.0064083       -1.7741e-008    2.7219e-009    
  0.6             0.0065183       -1.9614e-008    2.686e-009     
  0.65            0.0066113       -2.107e-008     2.5952e-009    
  0.7             0.0066924       -2.1864e-008    2.4532e-009    
  0.75            0.0067681       -1.4946e-008    2.0689e-009    
  0.8             0.0068339       -1.8361e-008    1.8225e-009    
  0.85            0.0068887       -1.7915e-008    2.7172e-009    
  0.9             0.0069481       -1.1642e-008    2.603e-009     
  0.95            0.0069995       -2.1918e-008    2.4589e-009    
  1               0.0070549       -1.4879e-008    2.067e-009     
  1.05            0.0071057       -1.8741e-008    1.8261e-009    
  1.1             0.0071564       -1.0423e-008    -6.156e-010    
  1.15            0.0072131       1.6856e-008     -1.4837e-009   
  1.2             0.0072615       7.42e-009       -2.4379e-009   
  1.25            0.0073069       7.623e-009      -2.1057e-009   
  1.3             0.0073497       8.654e-009      -1.6972e-009   
  1.35            0.0073931       -2.785e-009     -2.5624e-009   
  1.4             0.0074122       -1.1674e-008    1.3555e-009    
  1.45            0.0074625       -5.6852e-008    1.956e-009     
  1.5             0.0075133       -7.2262e-008    -1.8721e-009   
  1.55            0.0075532       -9.6119e-008    6.949e-010     
  1.6             0.0075838       -1.6638e-007    2.6511e-009    
  1.65            0.0076373       -2.8649e-007    -9.703e-010    
  1.7             0.0076788       -4.1226e-007    -2.4029e-009   
  1.75            0.0076974       -6.4434e-007    1.547e-009     
  1.8             0.0077488       -9.812e-007     2.7203e-009    
END_DB

BEGIN_DB
 ICCAP_VAR VG         1.8            
 ICCAP_VAR VS         0              
 ICCAP_VAR VB         0              

 #VD              ID              IB              IG             
  0               3.1361e-006     -7.578e-009     -2.0619e-009   
  0.05            0.0014699       9.884e-009      -2.295e-010    
  0.1             0.0028682       1.1602e-008     -1.9638e-009   
  0.15            0.0041597       1.5883e-008     -1.5652e-009   
  0.2             0.0053273       2.0949e-008     -1.325e-009    
  0.25            0.0063583       8.251e-009      9.274e-010     
  0.3             0.0072435       -2.0878e-008    2.6334e-009    
  0.35            0.007997        -2.171e-008     2.4972e-009    
  0.4             0.0086256       -2.2067e-008    2.3111e-009    
  0.45            0.0091404       -2.0951e-008    2.0796e-009    
  0.5             0.0095584       -1.8627e-008    1.8286e-009    
  0.55            0.0098949       -1.5615e-008    2.7244e-009    
  0.6             0.0101628       -1.9689e-008    2.6893e-009    
  0.65            0.0103806       -2.1315e-008    2.5996e-009    
  0.7             0.0105583       -2.2181e-008    2.4405e-009    
  0.75            0.01071         -2.1907e-008    2.233e-009     
  0.8             0.0108387       -2.0173e-008    1.9919e-009    
  0.85            0.0109492       -1.7533e-008    1.7471e-009    
  0.9             0.0110396       -1.4651e-008    2.7139e-009    
  0.95            0.0111239       -2.0407e-008    2.6588e-009    
  1               0.0112022       -2.1625e-008    2.5438e-009    
  1.05            0.011289        -5.315e-009     -2.5676e-009   
  1.1             0.011367        8.995e-009      -2.3562e-009   
  1.15            0.011427        1.0947e-008     -1.9775e-009   
  1.2             0.011487        1.4849e-008     -1.5769e-009   
  1.25            0.011549        7.768e-009      -2.515e-009    
  1.3             0.011604        6.276e-009      -2.224e-009    
  1.35            0.011658        6.089e-009      -1.823e-009    
  1.4             0.011706        -1.6534e-008    -2.6161e-009   
  1.45            0.011746        -1.515e-008     1.0704e-009    
  1.5             0.011798        -6.178e-008     2.4537e-009    
  1.55            0.011864        -7.6914e-008    -1.6643e-009   
  1.6             0.011911        -9.8922e-008    -2.5564e-009   
  1.65            0.011932        -1.7685e-007    1.3679e-009    
  1.7             0.011989        -3.1053e-007    1.9265e-009    
  1.75            0.012044        -4.5766e-007    -1.8753e-009   
  1.8             0.01209         -6.6967e-007    -4.86e-011     
END_DB

BEGIN_DB
 ICCAP_VAR VG         0              
 ICCAP_VAR VS         0              
 ICCAP_VAR VB         -0.9           

 #VD              ID              IB              IG             
  0               8.37e-010       1.2384e-008     9.019e-010     
  0.05            -9.029e-010     -1.984e-008     2.7223e-009    
  0.1             2.1982e-009     -2.72e-009      6.97e-010      
  0.15            7.432e-010      1.7257e-008     -1.7887e-009   
  0.2             -2.0483e-009    -5.771e-009     -9.871e-010    
  0.25            -9.806e-010     -2.1017e-008    2.7197e-009    
  0.3             2.2201e-009     -3.494e-009     7.707e-010     
  0.35            8.054e-010      1.9545e-008     -1.63e-009     
  0.4             -2.0882e-009    5.115e-009      -7.025e-010    
  0.45            -1.477e-009     -1.5502e-008    1.9742e-009    
  0.5             2.1519e-009     -8.829e-009     5.623e-010     
  0.55            2.2095e-009     8.205e-009      7.362e-010     
  0.6             7.742e-010      1.8172e-008     -1.7289e-009   
  0.65            -2.0262e-009    -4.785e-009     -1.0198e-009   
  0.7             -1.0043e-009    -2.1297e-008    2.709e-009     
  0.75            2.2249e-009     -3.688e-009     8.382e-010     
  0.8             1.6288e-009     1.3398e-008     -1.57e-009     
  0.85            -2.0899e-009    5.574e-009      -7.331e-010    
  0.9             -1.51e-009      -1.4794e-008    1.8986e-009    
  0.95            2.173e-009      -9.226e-009     6.079e-010     
  1               2.2163e-009     7.957e-009      7.779e-010     
  1.05            8.077e-010      1.9046e-008     -1.6589e-009   
  1.1             -2.0027e-009    -4.634e-009     -1.0607e-009   
  1.15            -1.0405e-009    -2.1409e-008    2.6912e-009    
  1.2             7.667e-010      1.8064e-008     -1.7451e-009   
  1.25            -2.0333e-009    -4.906e-009     -1.0116e-009   
  1.3             -1.0035e-009    -2.1314e-008    2.7137e-009    
  1.35            2.2226e-009     -3.645e-009     8.303e-010     
  1.4             1.6197e-009     1.3537e-008     -1.5745e-009   
  1.45            -2.0915e-009    5.528e-009      -7.312e-010    
  1.5             -1.5057e-009    -1.4717e-008    1.8982e-009    
  1.55            2.1686e-009     -9.111e-009     6.067e-010     
  1.6             6.655e-010      1.5658e-008     -1.9406e-009   
  1.65            -1.137e-009     -2.2364e-008    2.6394e-009    
  1.7             2.0442e-009     9.421e-009      2.885e-010     
  1.75            2.125e-009      9.054e-009      4.773e-010     
  1.8             5.819e-010      1.347e-008      -2.146e-009    
END_DB

BEGIN_DB
 ICCAP_VAR VG         0.36           
 ICCAP_VAR VS         0              
 ICCAP_VAR VB         -0.9           

 #VD              ID              IB              IG             
  0               8.575e-010      2.0244e-008     9.155e-010     
  0.05            -6.332e-010     -1.9007e-008    1.6793e-009    
  0.1             1.7672e-009     -1.0161e-008    1.585e-009     
  0.15            1.1143e-009     1.8252e-008     -1.7167e-009   
  0.2             -1.5442e-009    -4.704e-009     2.31e-011      
  0.25            -6.258e-010     -2.1331e-008    2.7075e-009    
  0.3             1.5874e-009     -3.804e-009     1.8235e-009    
  0.35            2.4878e-009     8.732e-009      5.633e-010     
  0.4             1.1943e-009     1.5212e-008     -2.0075e-009   
  0.45            -5.026e-010     -2.2173e-008    2.6621e-009    
  0.5             1.5263e-009     1.9845e-008     -1.6121e-009   
  0.55            2.656e-010      5.304e-009      -1.4089e-009   
