! VERSION = 6.00
BEGIN_HEADER
 ICCAP_INPUTS
  VG         V  B GROUND SMU4 0.001 LIN        1    0          1.8        37   0.05      
  VS         V  E GROUND SMU2 0.1 CON        0
  VB         V  C GROUND SMU3 0.1 LIN        3    0          -1.8       3    -0.9      
  VD         V  S GROUND SMU1 0.1 LIN        2    0.1        1.8        2    1.7       
 ICCAP_OUTPUTS
  IG         I  B GROUND SMU4 B
  ID         I  S GROUND SMU1 B
  IB         I  C GROUND SMU3 B
END_HEADER

BEGIN_DB
 ICCAP_VAR VS         0              
 ICCAP_VAR VB         0              
 ICCAP_VAR VD         0.1            

 #VG              IG              ID              IB             
  0               -8.532e-010     -8.611e-010     -2.492e-008    
  0.05            -1.2994e-009    1.4516e-009     2.1987e-008    
  0.1             -2.6705e-009    1.184e-010      1.1149e-008    
  0.15            -1.8569e-009    -1.3284e-009    5.45e-010      
  0.2             -5.954e-010     -2.1997e-009    -1.0836e-008   
  0.25            1.249e-009      -1.4331e-009    -1.9448e-008   
  0.3             2.297e-009      1.3023e-009     -1.1821e-008   
  0.35            1.0188e-009     3.1436e-009     9.956e-009     
  0.4             -1.4764e-009    4.757e-009      2.6296e-008    
  0.45            1.2765e-009     1.5173e-008     1.0073e-008    
  0.5             2.8164e-009     6.5834e-008     -9.787e-009    
  0.55            -4.425e-010     2.6153e-007     1.1084e-008    
  0.6             -8.879e-010     1.01356e-006    -1.1075e-008   
  0.65            2.8249e-009     3.3361e-006     9.787e-009     
  0.7             4.055e-010      9.5684e-006     1.0241e-008    
  0.75            -2.6126e-009    2.1868e-005     1.0439e-008    
  0.8             -7.923e-010     4.187e-005      -1.0999e-008   
  0.85            1.6351e-009     6.8092e-005     -1.5459e-008   
  0.9             1.3044e-009     9.9504e-005     -8.791e-009    
  0.95            1.5838e-009     0.0001332       -8.351e-009    
  1               1.2907e-009     0.00016717      -8.517e-009    
  1.05            2.8453e-009     0.00019965      -8.893e-009    
  1.1             -1.5865e-009    0.00023189      1.9828e-008    
  1.15            -1.3582e-009    0.00026094      6.956e-009     
  1.2             -2.6902e-009    0.00028785      1.1073e-008    
  1.25            -3.011e-010     0.00031236      -1.1029e-008   
  1.3             -7.9e-010       0.00033533      -1.0928e-008   
  1.35            -1.1533e-009    0.00035642      -1.0083e-008   
  1.4             7.83e-011       0.00037502      -1.1718e-008   
  1.45            -4.135e-010     0.000393        -1.0796e-008   
  1.5             -8.707e-010     0.00040914      -1.0813e-008   
  1.55            1.5235e-009     0.00042341      -1.3984e-008   
  1.6             1.2779e-009     0.00043695      -8.406e-009    
  1.65            2.8273e-009     0.00044927      -9.656e-009    
  1.7             -1.6577e-009    0.0004609       2.057e-008     
  1.75            -1.3758e-009    0.00047116      6.326e-009     
  1.8             -1.2881e-009    0.00048072      1.0588e-008    
END_DB

BEGIN_DB
 ICCAP_VAR VS         0              
 ICCAP_VAR VB         0              
 ICCAP_VAR VD         1.8            

 #VG              IG              ID              IB             
  0               4.422e-010      5.929e-010      -1.0759e-008   
  0.05            2.983e-010      -1.7652e-009    -1.1439e-008   
  0.1             1.474e-010      -1.8764e-009    -1.1083e-008   
  0.15            1.5838e-009     -9.726e-010     -2.444e-008    
  0.2             1.7581e-009     1.5279e-009     -8.536e-009    
  0.25            4.154e-010      2.3296e-009     1.0604e-008    
  0.3             6.028e-010      2.717e-009      1.0128e-008    
  0.35            7.793e-010      4.075e-009      9.817e-009     
  0.4             -1.7534e-009    9.4356e-009     1.6523e-008    
  0.45            2.0045e-009     3.3595e-008     9.757e-009     
  0.5             -2.5604e-009    1.3887e-007     1.0232e-008    
  0.55            -2.0323e-009    5.7609e-007     -1.47e-010     
  0.6             1.3154e-009     2.1248e-006     8.04e-009      
  0.65            2.8641e-009     6.9067e-006     -1.4621e-008   
  0.7             -1.2966e-009    1.9289e-005     -6.393e-009    
  0.75            -2.1918e-009    4.2846e-005     -2.5864e-008   
  0.8             -1.61e-009      8.1666e-005     -3.8445e-008   
  0.85            -1.9555e-009    0.0001359       -6.7715e-008   
  0.9             -1.4751e-009    0.00020445      -6.6804e-008   
  0.95            -1.3255e-009    0.00028488      -7.3204e-008   
  1               1.439e-009      0.00037403      -1.00139e-007  
  1.05            1.3489e-009     0.00047233      -1.03501e-007  
  1.1             1.3425e-009     0.0005765       -1.04721e-007  
  1.15            1.3354e-009     0.00068577      -1.03507e-007  
  1.2             1.3979e-009     0.00079929      -1.0098e-007   
  1.25            1.6296e-009     0.00091585      -9.7612e-008   
  1.3             1.2992e-009     0.00103315      -8.9552e-008   
  1.35            1.334e-010      0.0011579       -8.6356e-008   
  1.4             5.849e-010      0.0012789       -5.7753e-008   
  1.45            9.694e-010      0.0014008       -5.1895e-008   
  1.5             1.3505e-009     0.0015236       -4.5032e-008   
  1.55            1.7746e-009     0.0016487       -3.8527e-008   
  1.6             2.147e-009      0.0017759       -3.4622e-008   
  1.65            2.4297e-009     0.0019014       -3.059e-008    
  1.7             2.7426e-009     0.0020284       -2.6004e-008   
  1.75            2.8535e-009     0.0021543       -2.8414e-008   
  1.8             2.5739e-009     0.0022794       -2.665e-008    
END_DB

BEGIN_DB
 ICCAP_VAR VS         0              
 ICCAP_VAR VB         -0.9           
 ICCAP_VAR VD         0.1            

 #VG              IG              ID              IB             
  0               -2.829e-010     -4.63e-010      -1.1032e-008   
  0.05            -1.7082e-009    8.104e-010      2.226e-008     
  0.1             -1.6579e-009    -1.5894e-009    5.76e-009      
  0.15            -2.486e-010     -2.1336e-009    -1.1184e-008   
  0.2             -4.7e-010       -2.1955e-009    -1.1516e-008   
  0.25            -6.771e-010     -2.2372e-009    -1.1328e-008   
  0.3             1.2438e-009     -1.5264e-009    -1.7754e-008   
  0.35            2.8233e-009     -1.631e-010     -1.3157e-008   
  0.4             -1.2963e-009    1.5166e-009     2.0579e-008    
  0.45            -2.6404e-009    2.274e-010      1.1574e-008    
  0.5             1.088e-010      -1.6059e-009    6.6e-010       
  0.55            2.2484e-009     2.1791e-009     -1.0952e-008   
  0.6             1.9589e-009     7.72e-009       -5.764e-009    
  0.65            -2.5642e-009    3.4789e-008     -1.1554e-008   
  0.7             4.95e-010       1.5481e-007     -1.047e-008    
  0.75            -1.7897e-009    6.5647e-007     1.7294e-008    
  0.8             -2.3944e-009    2.3199e-006     -1.8234e-008   
  0.85            -4.222e-010     7.1297e-006     -1.0971e-008   
  0.9             2.7286e-009     1.7795e-005     -1.1315e-008   
  0.95            -1.3489e-009    3.6759e-005     2.6839e-008    
  1               -2.6825e-009    6.2778e-005     1.1152e-008    
  1.05            -3.367e-010     9.3228e-005     -1.0859e-008   
  1.1             -2.6355e-009    0.00012744      -1.1584e-008   
  1.15            -8.087e-010     0.00016135      -1.1473e-008   
  1.2             1.5962e-009     0.00019381      -1.4912e-008   
  1.25            1.2911e-009     0.00022523      -8.447e-009    
  1.3             2.8462e-009     0.00025403      -8.527e-009    
  1.35            -1.5951e-009    0.00028179      1.9561e-008    
  1.4             -1.3558e-009    0.00030636      7.259e-009     
  1.45            -2.6927e-009    0.00032879      1.0946e-008    
  1.5             -2.88e-010      0.00034897      -1.0853e-008   
  1.55            -7.854e-010     0.00036807      -1.1269e-008   
  1.6             1.619e-009      0.00038485      -1.549e-008    
  1.65            1.2975e-009     0.00040054      -8.543e-009    
  1.7             2.8524e-009     0.0004147       -8.202e-009    
  1.75            -1.6209e-009    0.00042817      1.9115e-008    
  1.8             -1.3585e-009    0.00044018      6.595e-009     
END_DB

BEGIN_DB
 ICCAP_VAR VS         0              
 ICCAP_VAR VB         -0.9           
 ICCAP_VAR VD         1.8            

 #VG              IG              ID              IB             
  0               -7.563e-010     -8.104e-010     -2.5856e-008   
  0.05            -1.2804e-009    1.5508e-009     1.9095e-008    
  0.1             -2.5992e-009    2.208e-010      1.2021e-008    
  0.15            -1.0035e-009    -2.2073e-009    3.65e-010      
  0.2             -1.1689e-009    -2.1192e-009    -1.0773e-008   
  0.25            1.4228e-009     -1.1054e-009    -2.5668e-008   
  0.3             9.861e-010      2.3379e-009     -8.239e-009    
  0.35            -1.4935e-009    9.755e-010      2.575e-008     
  0.4             -9.577e-010     -2.1709e-009    8.856e-009     
  0.45            1.6696e-009     -1.4026e-009    -1.2585e-008   
  0.5             2.5757e-009     2.2914e-009     -8.793e-009    
  0.55            3.451e-010      8.4033e-009     1.0597e-008    
  0.6             -2.7018e-009    2.947e-008      -2.3599e-008   
  0.65            -2.717e-009     1.4245e-007     1.0264e-008    
  0.7             -1.1712e-009    6.3858e-007     -1.0785e-008   
  0.75            2.1691e-009     2.3948e-006     9.649e-009     
  0.8             -2.0374e-009    8.2023e-006     8.577e-009     
  0.85            2.7911e-009     2.1687e-005     -2.3585e-008   
  0.9             2.2952e-009     4.8344e-005     -2.502e-008    
  0.95            1.6161e-009     9.117e-005      -4.274e-008    
  1               1.5042e-009     0.00015036      -5.2463e-008   
  1.05            1.2697e-009     0.00022358      -7.0155e-008   
  1.1             2.8139e-009     0.0003088       -8.0026e-008   
  1.15            2.3334e-009     0.00040458      -7.6717e-008   
  1.2             1.6504e-009     0.00050719      -8.3681e-008   
  1.25            1.3068e-009     0.00061548      -8.7267e-008   
  1.3             2.8562e-009     0.00072707      -8.5141e-008   
  1.35            2.5381e-009     0.00084536      -7.4199e-008   
  1.4             1.8692e-009     0.00096378      -7.2542e-008   
  1.45            1.3759e-009     0.00108473      -7.3044e-008   
  1.5             -1.8768e-009    0.0012118       -8.4522e-008   
  1.55            -1.4332e-009    0.0013349       -4.8808e-008   
  1.6             -1.3116e-009    0.0014594       -3.8673e-008   
  1.65            -2.5882e-009    0.0015858       -3.2387e-008   
  1.7             -2.0779e-009    0.0017103       -3.7825e-008   
  1.75            -1.532e-009     0.0018367       -3.0489e-008   
  1.8             -1.3366e-009    0.0019633       -2.1812e-008   
END_DB

BEGIN_DB
 ICCAP_VAR VS         0              
 ICCAP_VAR VB         -1.8           
 ICCAP_VAR VD         0.1            

 #VG              IG              ID              IB             
  0               -1.3839e-009    -1.4556e-009    -6.079e-009    
  0.05            -1.1324e-009    -2.1517e-009    1.0265e-008    
  0.1             1.4412e-009     -1.7592e-009    -1.135e-008    
  0.15            9.614e-010      2.3412e-009     -8.422e-009    
  0.2             -1.5045e-009    1.8e-009        1.2251e-008    
  0.25            -1.8137e-009    -1.3786e-009    8.556e-009     
  0.3             -5.077e-010     -2.2023e-009    -1.1469e-008   
  0.35            -7.266e-010     -2.2356e-009    -1.1175e-008   
  0.4             1.2348e-009     -1.5505e-009    -1.679e-008    
  0.45            2.7958e-009     -2.098e-010     -1.3841e-008   
  0.5             2.073e-010      2.1365e-009     1.041e-008     
  0.55            3.994e-010      2.2792e-009     1.0693e-008    
  0.6             5.928e-010      2.588e-009      1.0344e-008    
  0.65            7.756e-010      3.7647e-009     9.883e-009     
  0.7             -1.7414e-009    9.1084e-009     1.6156e-008    
  0.75            2.7864e-009     3.6189e-008     1.0654e-008    
  0.8             -6.802e-010     1.5539e-007     1.111e-008     
  0.85            -1.0623e-009    6.5337e-007     -1.0594e-008   
  0.9             1.5446e-009     2.2896e-006     1.0396e-008    
  0.95            1.2818e-009     7.0459e-006     -8.429e-009    
  1               -1.3947e-009    1.8004e-005     -8.253e-009    
  1.05            -1.2979e-009    3.6653e-005     1.0177e-008    
  1.1             -2.5024e-009    6.2654e-005     1.0989e-008    
  1.15            -1.9103e-009    9.35e-005       1.398e-009     
  1.2             -1.3223e-009    0.00012727      4.538e-009     
  1.25            -2.6022e-009    0.00016112      1.0812e-008    
  1.3             -2.1042e-009    0.00019337      4.46e-010      
  1.35            -1.5373e-009    0.00022429      3.1e-009       
  1.4             -1.3397e-009    0.00025281      7.723e-009     
  1.45            -2.6742e-009    0.00027914      1.1052e-008    
  1.5             -2.2742e-009    0.00030278      5.92e-010      
  1.55            -1.6663e-009    0.0003248       2.406e-009     
  1.6             -1.37e-009      0.00034484      6.201e-009     
  1.65            -1.2907e-009    0.00036305      1.0549e-008    
  1.7             -2.4457e-009    0.00037962      1.1497e-008    
  1.75            -7.366e-010     0.00039451      -1.1268e-008   
  1.8             1.6867e-009     0.00040794      -1.6466e-008   
END_DB

BEGIN_DB
 ICCAP_VAR VS         0              
 ICCAP_VAR VB         -1.8           
 ICCAP_VAR VD         1.8            

 #VG              IG              ID              IB             
  0               -1.2488e-009    -1.1389e-009    -8.251e-009    
  0.05            -2.4117e-009    4.123e-010      1.4341e-008    
  0.1             -1.194e-009     -2.1083e-009    1.824e-009     
  0.15            2.459e-010      -1.7985e-009    -1.1293e-008   
  0.2             9.14e-011       -1.9311e-009    -1.0858e-008   
  0.25            -1.095e-010     -2.0593e-009    -1.0753e-008   
  0.3             -3.36e-010      -2.1497e-009    -1.1256e-008   
  0.35            -5.632e-010     -2.2027e-009    -1.1324e-008   
  0.4             -7.76e-010      -2.23e-009      -1.0913e-008   
  0.45            2.0146e-009     -1.5574e-009    -1.5751e-008   
  0.5             1.4935e-009     1.9468e-009     -8.539e-009    
  0.55            1.6827e-009     2.0112e-009     1.0785e-008    
  0.6             3.361e-010      4.3499e-009     1.066e-008     
  0.65            2.7791e-009     1.2093e-008     1.0685e-008    
  0.7             5.159e-010      5.6781e-008     1.039e-008     
  0.75            2.826e-009      2.4512e-007     -1.1115e-008   
  0.8             2.8036e-009     1.00184e-006    -6.28e-010     
  0.85            1.5775e-009     3.5674e-006     6.246e-009     
  0.9             -1.3017e-009    1.1666e-005     -1.3267e-008   
  0.95            -2.5211e-009    2.96e-005       -4.875e-009    
  1               -1.9421e-009    6.1784e-005     -2.5601e-008   
  1.05            -1.4561e-009    0.000110886     -3.5048e-008   
  1.1             -2.5169e-009    0.00017648      -5.5065e-008   
  1.15            -1.9264e-009    0.00025434      -5.9005e-008   
  1.2             -1.4531e-009    0.00034457      -6.281e-008    
  1.25            -1.3162e-009    0.00044296      -6.157e-008    
  1.3             -2.6066e-009    0.00054877      -6.1257e-008   
  1.35            -2.0982e-009    0.00065823      -7.05e-008     
  1.4             -1.5379e-009    0.00077358      -6.5587e-008   
  1.45            -1.3383e-009    0.00089152      -5.7538e-008   
  1.5             -2.6682e-009    0.00101155      -4.998e-008    
  1.55            -2.2674e-009    0.00113276      -5.6011e-008   
  1.6             1.5546e-009     0.0012539       -3.4066e-008   
  1.65            1.2781e-009     0.0013784       -5.5056e-008   
  1.7             2.8322e-009     0.0015026       -5.1261e-008   
  1.75            2.3907e-009     0.0016299       -3.8178e-008   
  1.8             1.6862e-009     0.0017541       -3.8207e-008   
END_DB

