! VERSION = 6.00
BEGIN_HEADER
 ICCAP_INPUTS
  VG         V  B GROUND SMU4 0.001 LIN        1    0          1.8        37   0.05      
  VS         V  E GROUND SMU2 0.1 CON        0
  VD         V  S GROUND SMU1 0.1 LIN        2    0.1        1.8        2    1.7       
  VB         V  C GROUND SMU3 0.1 CON        0
 ICCAP_OUTPUTS
  IG         I  B GROUND SMU4 B
  ID         I  S GROUND SMU1 B
END_HEADER

BEGIN_DB
 ICCAP_VAR VS         0              
 ICCAP_VAR VD         0.1            
 ICCAP_VAR VB         0              

 #VG              IG              ID             
  0               -3.2775e-010    1.6423e-010    
  0.05            2.149e-011      2.1641e-010    
  0.1             8.222e-011      2.4295e-010    
  0.15            -1.2184e-010    4.2198e-010    
  0.2             1.3441e-010     2.0534e-009    
  0.25            -2.3125e-010    8.2978e-009    
  0.3             -3.1023e-010    3.5159e-008    
  0.35            2.4361e-010     1.4843e-007    
  0.4             -2.1727e-010    6.3044e-007    
  0.45            1.3037e-010     2.6282e-006    
  0.5             -2.5535e-010    1.04409e-005   
  0.55            -2.8405e-010    3.7611e-005    
  0.6             3.1468e-010     0.00011703     
  0.65            -3.328e-010     0.00029882     
  0.7             2.8839e-010     0.00061598     
  0.75            -2.5433e-010    0.00104407     
  0.8             2.7405e-010     0.0015056      
  0.85            -2.4305e-010    0.0019107      
  0.9             2.0915e-010     0.0022154      
  0.95            -2.9717e-010    0.0024266      
  1               2.6389e-010     0.0025702      
  1.05            -2.3452e-010    0.0026696      
  1.1             2.1164e-010     0.0027416      
  1.15            -2.9953e-010    0.0027942      
  1.2             3.3569e-010     0.0028339      
  1.25            -2.7407e-010    0.0028656      
  1.3             2.4489e-010     0.0028904      
  1.35            -2.1871e-010    0.0029114      
  1.4             1.8575e-010     0.0029282      
  1.45            -2.6316e-010    0.0029427      
  1.5             2.2757e-010     0.0029547      
  1.55            -2.0172e-010    0.0029651      
  1.6             2.8997e-010     0.0029742      
  1.65            -2.4031e-010    0.0029819      
  1.7             2.2185e-010     0.002989       
  1.75            -1.9056e-010    0.0029945      
  1.8             2.8223e-010     0.0029997      
END_DB

BEGIN_DB
 ICCAP_VAR VS         0              
 ICCAP_VAR VD         1.8            
 ICCAP_VAR VB         0              

 #VG              IG              ID             
  0               -6.665e-011     1.2706e-010    
  0.05            1.1095e-010     3.2949e-010    
  0.1             -1.5318e-010    4.5435e-010    
  0.15            -1.4139e-010    1.685e-009     
  0.2             2.4878e-010     7.2454e-009    
  0.25            3.38e-010       3.1263e-008    
  0.3             1.757e-011      1.3767e-007    
  0.35            -8.595e-011     6.0084e-007    
  0.4             -2.8236e-010    2.592e-006     
  0.45            2.4971e-010     1.07113e-005   
  0.5             -3.1062e-010    4.0621e-005    
  0.55            2.6453e-010     0.00013307     
  0.6             3.1641e-010     0.0013814      
  0.65            -1.9823e-010    0.001736       
  0.7             2.7961e-010     0.0022344      
  0.75            -2.505e-010     0.0028737      
  0.8             2.1046e-010     0.0036337      
  0.85            -3.0155e-010    0.0044735      
  0.9             3.3702e-010     0.0053625      
  0.95            -2.707e-010     0.0063032      
  1               2.3416e-010     0.0072895      
  1.05            -2.0713e-010    0.0083193      
  1.1             2.9742e-010     0.0093904      
  1.15            -2.462e-010     0.0104986      
  1.2             2.6742e-010     0.011598       
  1.25            -2.3496e-010    0.012775       
  1.3             2.0475e-010     0.013982       
  1.35            -2.8377e-010    0.015205       
  1.4             2.551e-010      0.016442       
  1.45            -2.2695e-010    0.017687       
  1.5             2.0486e-010     0.01894        
  1.55            -2.8649e-010    0.02019        
  1.6             2.5558e-010     0.021434       
  1.65            -2.2797e-010    0.022671       
  1.7             2.0671e-010     0.02389        
  1.75            -2.8732e-010    0.025103       
  1.8             2.5729e-010     0.026317       
END_DB

