! VERSION = 6.00
BEGIN_HEADER
 ICCAP_INPUTS
  VG         V  B GROUND SMU4 0.001 LIN        1    0          1.8        37   0.05      
  VS         V  E GROUND SMU2 0.1 CON        0
  VB         V  C GROUND SMU3 0.1 LIN        3    0          -1.8       3    -0.9      
  VD         V  S GROUND SMU1 0.1 LIN        2    0.1        1.8        2    1.7       
 ICCAP_OUTPUTS
  IG         I  B GROUND SMU4 B
  ID         I  S GROUND SMU1 B
  IB         I  C GROUND SMU3 B
END_HEADER

BEGIN_DB
 ICCAP_VAR VS         0              
 ICCAP_VAR VB         0              
 ICCAP_VAR VD         0.1            

 #VG              IG              ID              IB             
  0               1.0513e-009     9.789e-010      1.167e-008     
  0.05            1.81e-009       -7.886e-010     -1.8939e-008   
  0.1             1.5229e-009     1.7183e-009     -9.675e-009    
  0.15            -7.87e-011      1.9679e-009     1.096e-008     
  0.2             -1.4415e-009    9.858e-010      2.5591e-008    
  0.25            -8.518e-010     -2.0891e-009    7.52e-009      
  0.3             1.6227e-009     -1.2243e-009    -1.2167e-008   
  0.35            1.4302e-009     2.1111e-009     -9.805e-009    
  0.4             1.3256e-009     7.2746e-009     -9.655e-009    
  0.45            -2.0465e-009    2.7855e-008     -1.9439e-008   
  0.5             6.07e-010       1.205e-007      -1.4e-008      
  0.55            9.718e-010      4.592e-007      8.662e-009     
  0.6             -2.6222e-009    1.69e-006       -2.0406e-008   
  0.65            -2.0844e-009    5.4609e-006     1.81e-010      
  0.7             1.5672e-009     1.4289e-005     -2.1797e-008   
  0.75            1.9932e-009     3.2589e-005     1.1472e-008    
  0.8             8.786e-010      6.1791e-005     9.414e-009     
  0.85            1.2188e-009     0.000100559     8.576e-009     
  0.9             2.7404e-009     0.00014917      9.493e-009     
  0.95            1.3574e-009     0.00020024      8.983e-009     
  1               2.502e-010      0.00025682      1.0382e-008    
  1.05            6.914e-010      0.0003114       1.0337e-008    
  1.1             1.0385e-009     0.0003642       8.587e-009     
  1.15            1.4152e-009     0.00041534      9.582e-009     
  1.2             3.184e-010      0.0004663       1.0419e-008    
  1.25            7.515e-010      0.00051229      1.0114e-008    
  1.3             -1.4819e-009    0.00055637      1.5176e-008    
  1.35            -1.3422e-009    0.00059741      6.879e-009     
  1.4             -2.6956e-009    0.00063568      9.486e-009     
  1.45            1.8314e-009     0.00067018      -1.8486e-008   
  1.5             1.3549e-009     0.00070325      -9.699e-009    
  1.55            2.8126e-009     0.00073393      -1.0023e-008   
  1.6             2.6954e-009     0.00076296      -1.475e-009    
  1.65            1.4181e-009     0.00078861      1.0671e-008    
  1.7             3.186e-010      0.00081419      1.0355e-008    
  1.75            7.509e-010      0.00083688      9.83e-009      
  1.8             -1.4768e-009    0.00085803      1.4995e-008    
END_DB

BEGIN_DB
 ICCAP_VAR VS         0              
 ICCAP_VAR VB         0              
 ICCAP_VAR VD         1.8            

 #VG              IG              ID              IB             
  0               -3.75e-011      2.195e-010      2.2378e-008    
  0.05            -2.421e-010     -2.0928e-009    -1.1335e-008   
  0.1             -4.365e-010     -2.1353e-009    -1.0711e-008   
  0.15            1.2503e-009     -1.3559e-009    -2.0052e-008   
  0.2             1.3265e-009     2.1317e-009     -1.2552e-008   
  0.25            -3.76e-011      2.6014e-009     1.0513e-008    
  0.3             -1.4185e-009    3.7884e-009     2.6165e-008    
  0.35            1.5081e-009     1.1834e-008     1.0055e-008    
  0.4             1.273e-009      5.1916e-008     -9.829e-009    
  0.45            1.784e-010      2.1477e-007     6.067e-009     
  0.5             -2.637e-010     8.6623e-007     -1.272e-008    
  0.55            2.4208e-009     3.0815e-006     1.018e-008     
  0.6             2.678e-009      9.6663e-006     -1.767e-009    
  0.65            -1.3942e-009    2.6318e-005     -1.3466e-008   
  0.7             -1.3181e-009    5.9354e-005     -3.8938e-008   
  0.75            1.3859e-009     0.00011214      -6.8845e-008   
  0.8             -1.4542e-009    0.0001906       -1.0217e-007   
  0.85            -1.3368e-009    0.0002927       -1.4447e-007   
  0.9             -2.6857e-009    0.00041256      -1.7844e-007   
  0.95            -2.2193e-009    0.00054627      -2.207e-007    
  1               -1.6033e-009    0.0006938       -2.4723e-007   
  1.05            -1.3636e-009    0.00085005      -2.6708e-007   
  1.1             -1.2966e-009    0.00101362      -2.8134e-007   
  1.15            -8.56e-011      0.0011777       -3.1655e-007   
  1.2             -5.781e-010     0.0013492       -3.2371e-007   
  1.25            -9.244e-010     0.0015248       -3.2725e-007   
  1.3             -1.335e-009     0.0017032       -3.2875e-007   
  1.35            -1.7404e-009    0.0018768       -3.286e-007    
  1.4             -2.0112e-009    0.002051        -3.2371e-007   
  1.45            -2.383e-009     0.0022237       -3.1537e-007   
  1.5             -2.6595e-009    0.0024003       -3.0738e-007   
  1.55            -2.7232e-009    0.0025752       -2.9641e-007   
  1.6             -2.4285e-009    0.0027508       -2.8395e-007   
  1.65            -1.7909e-009    0.0029263       -2.7322e-007   
  1.7             -1.4036e-009    0.0030997       -2.6007e-007   
  1.75            -1.3218e-009    0.0032724       -2.4592e-007   
  1.8             -2.6224e-009    0.0034442       -2.3451e-007   
END_DB

BEGIN_DB
 ICCAP_VAR VS         0              
 ICCAP_VAR VB         -0.9           
 ICCAP_VAR VD         0.1            

 #VG              IG              ID              IB             
  0               -8.998e-010     -8.512e-010     -2.2853e-008   
  0.05            -1.3203e-009    1.3624e-009     2.1527e-008    
  0.1             -1.2818e-009    4.4e-011        8.99e-009      
  0.15            -2.6469e-009    1.965e-010      9.364e-009     
  0.2             -1.096e-010     -2.0463e-009    -1.1275e-008   
  0.25            -3.192e-010     -2.1163e-009    -1.1087e-008   
  0.3             1.273e-009      -1.298e-009     -2.1252e-008   
  0.35            1.2221e-009     2.1152e-009     -1.1303e-008   
  0.4             1.3912e-009     1.9742e-009     1.1256e-008    
  0.45            2.84e-011       2.5039e-009     1.0431e-008    
  0.5             2.142e-010      4.3888e-009     1.0401e-008    
  0.55            1.2723e-009     1.164e-008      -2.228e-009    
  0.6             2.8006e-009     4.9052e-008     -1.1386e-008   
  0.65            -2.907e-010     2.0747e-007     9.637e-009     
  0.7             2.1377e-009     8.5522e-007     -2.148e-008    
  0.75            2.3169e-009     3.0142e-006     1.1358e-008    
  0.8             1.212e-009      8.9057e-006     8.827e-009     
  0.85            -2.0267e-009    2.2581e-005     1.179e-008     
  0.9             1.2559e-009     4.5709e-005     -2.3305e-008   
  0.95            2.756e-009      7.9608e-005     -1.233e-008    
  1               2.7631e-009     0.00012321      1.0208e-008    
  1.05            1.3192e-009     0.00017042      9.835e-009     
  1.1             2.107e-010      0.00022283      1.0475e-008    
  1.15            6.525e-010      0.00027387      1.0139e-008    
  1.2             1.0094e-009     0.00032301      8.571e-009     
  1.25            1.3801e-009     0.00036992      1.0402e-008    
  1.3             2.834e-010      0.00041635      1.0475e-008    
  1.35            7.179e-010      0.00045764      9.81e-009      
  1.4             -1.5065e-009    0.00049667      1.5688e-008    
  1.45            -1.353e-009     0.00053279      6.667e-009     
  1.5             -1.2685e-009    0.00056593      9.69e-009      
  1.55            -2.3172e-009    0.00059584      9.604e-009     
  1.6             1.3965e-009     0.00062272      -1.2286e-008   
  1.65            1.2467e-009     0.00064878      -9.917e-009    
  1.7             2.733e-009      0.00067251      -1.2741e-008   
  1.75            1.3882e-009     0.00069388      1.024e-008     
  1.8             2.83e-010       0.0007147       1.0455e-008    
END_DB

BEGIN_DB
 ICCAP_VAR VS         0              
 ICCAP_VAR VB         -0.9           
 ICCAP_VAR VD         1.8            

 #VG              IG              ID              IB             
  0               1.2729e-009     1.2786e-009     -1.1011e-008   
  0.05            1.1836e-009     2.1496e-009     -1.0909e-008   
  0.1             -1.858e-010     1.9282e-009     1.022e-008     
  0.15            -1.5261e-009    8.97e-010       2.3753e-008    
  0.2             -1.7103e-009    -1.407e-009     6.416e-009     
  0.25            -3.22e-010      -2.0954e-009    -1.1289e-008   
  0.3             1.2635e-009     -1.1813e-009    -2.1672e-008   
  0.35            2.81e-009       1.4979e-009     -1.142e-008    
  0.4             2.8067e-009     3.7004e-009     -1.751e-009    
  0.45            2.0973e-009     1.4585e-008     2.0582e-008    
  0.5             1.4859e-009     6.2791e-008     -8.109e-009    
  0.55            2.8135e-009     2.6905e-007     -1.1534e-008   
  0.6             1.8631e-009     1.1043e-006     7.797e-009     
  0.65            -2.5199e-009    4.1359e-006     3.75e-009      
  0.7             1.2685e-009     1.2297e-005     -2.0983e-008   
  0.75            2.7964e-009     3.164e-005      -3.838e-008    
  0.8             2.4116e-009     6.8745e-005     -5.2907e-008   
  0.85            1.8653e-009     0.00012659      -8.1384e-008   
  0.9             -1.9099e-009    0.00020663      -9.905e-008    
  0.95            -1.4457e-009    0.00030652      -1.3809e-007   
  1               -1.3265e-009    0.00042151      -1.6096e-007   
  1.05            -2.6676e-009    0.00054898      -1.8157e-007   
  1.1             -2.2041e-009    0.00068418      -2.0835e-007   
  1.15            -1.6001e-009    0.00082821      -2.191e-007    
  1.2             -1.3608e-009    0.00097719      -2.2316e-007   
  1.25            -1.2884e-009    0.00113056      -2.2307e-007   
  1.3             1.2789e-009     0.0012811       -2.0886e-007   
  1.35            2.8106e-009     0.0014384       -2.4023e-007   
  1.4             2.464e-009      0.0015991       -2.2715e-007   
  1.45            1.7902e-009     0.0017587       -2.2378e-007   
  1.5             1.3449e-009     0.0019183       -2.1943e-007   
  1.55            2.8105e-009     0.0020797       -2.1093e-007   
  1.6             2.6768e-009     0.0022437       -1.9382e-007   
  1.65            2.0907e-009     0.0024029       -1.8656e-007   
  1.7             1.4859e-009     0.0025633       -1.8009e-007   
  1.75            1.2687e-009     0.0027231       -1.7133e-007   
  1.8             2.7972e-009     0.002881        -1.6371e-007   
END_DB

BEGIN_DB
 ICCAP_VAR VS         0              
 ICCAP_VAR VB         -1.8           
 ICCAP_VAR VD         0.1            

 #VG              IG              ID              IB             
  0               -1.0539e-009    -9.366e-010     -1.6544e-008   
  0.05            -1.4382e-009    9.716e-010      2.6088e-008    
  0.1             -8.599e-010     -2.1947e-009    7.53e-009      
  0.15            1.6164e-009     -1.6349e-009    -1.2142e-008   
  0.2             7.779e-010      2.3116e-009     -9.847e-009    
  0.25            9.211e-010      2.3188e-009     8.401e-009     
  0.3             1.0596e-009     2.2541e-009     8.794e-009     
  0.35            1.2039e-009     2.1183e-009     1.0817e-008    
  0.4             -1.366e-009     1.1563e-009     2.6844e-008    
  0.45            -1.0629e-009    -2.0289e-009    9.156e-009     
  0.5             1.3881e-009     -7.384e-010     -2.3203e-008   
  0.55            2.6966e-009     2.4379e-009     -9.917e-009    
  0.6             5.73e-010       9.1698e-009     9.356e-009     
  0.65            -1.528e-009     3.1778e-008     -1.2614e-008   
  0.7             3.521e-010      1.4802e-007     -1.1255e-008   
  0.75            7.829e-010      6.0095e-007     9.861e-009     
  0.8             -2.6945e-009    2.2842e-006     -9.854e-009    
  0.85            1.7974e-009     6.9651e-006     -1.7912e-008   
  0.9             -1.3038e-009    1.8373e-005     -7.383e-009    
  0.95            -2.536e-009     3.8999e-005     8.736e-009     
  1               -1.9014e-009    6.9734e-005     7.4e-010       
  1.05            2.3864e-009     0.000108594     -2.3407e-008   
  1.1             2.7197e-009     0.00015495      9.666e-009     
  1.15            5.264e-010      0.00020424      1.0459e-008    
  1.2             9.066e-010      0.00025272      9.223e-009     
  1.25            1.2447e-009     0.00029978      8.716e-009     
  1.3             -1.9319e-009    0.00034701      1.2116e-008    
  1.35            1.2598e-009     0.00038833      -2.337e-008    
  1.4             2.7691e-009     0.00042778      -1.215e-008    
  1.45            1.3447e-009     0.00046429      9.99e-009      
  1.5             2.425e-010      0.0004992       1.0516e-008    
  1.55            6.804e-010      0.00052974      1.0025e-008    
  1.6             -1.5339e-009    0.00055841      1.6761e-008    
  1.65            -1.3544e-009    0.00058408      5.906e-009     
  1.7             -1.2794e-009    0.0006083       9.404e-009     
  1.75            -2.3887e-009    0.00063108      9.418e-009     
  1.8             -6.67e-010      0.00065004      -1.1032e-008   
END_DB

BEGIN_DB
 ICCAP_VAR VS         0              
 ICCAP_VAR VB         -1.8           
 ICCAP_VAR VD         1.8            

 #VG              IG              ID              IB             
  0               1.99e-010       -4.315e-010     -1.9515e-008   
  0.05            1.5389e-009     -7.78e-010      -2.1673e-008   
  0.1             1.7425e-009     1.6009e-009     -9.902e-009    
  0.15            4.021e-010      2.3404e-009     1.0317e-008    
  0.2             5.903e-010      2.4122e-009     9.726e-009     
  0.25            7.538e-010      2.4616e-009     8.904e-009     
  0.3             -1.7346e-009    1.7761e-009     1.4779e-008    
  0.35            9.01e-011       -1.6442e-009    -6.045e-009    
  0.4             2.7964e-009     1.6881e-009     -2.279e-008    
  0.45            -1.2995e-009    5.0359e-009     1.9832e-008    
  0.5             1.7128e-009     1.6111e-008     8.839e-009     
  0.55            1.3211e-009     7.4844e-008     -1.0238e-008   
  0.6             -4.616e-010     3.2768e-007     8.179e-009     
  0.65            2.4474e-009     1.3031e-006     1.3474e-008    
  0.7             -2.6725e-009    4.7957e-006     3.789e-009     
  0.75            1.4163e-009     1.404e-005      -2.3027e-008   
  0.8             1.2521e-009     3.5389e-005     -3.9365e-008   
  0.85            2.7591e-009     7.4843e-005     -6.5225e-008   
  0.9             2.8182e-009     0.00013603      -7.4658e-008   
  0.95            -2.7083e-009    0.00022092      -1.0452e-007   
  1               -2.6654e-009    0.00032424      -1.4781e-007   
  1.05            -2.2183e-009    0.00044386      -1.7395e-007   
  1.1             -1.5989e-009    0.00057611      -1.9566e-007   
  1.15            -1.359e-009     0.0007175       -2.1013e-007   
  1.2             -1.2862e-009    0.00086637      -2.1956e-007   
  1.25            -2.4577e-009    0.00102069      -2.2824e-007   
  1.3             1.9189e-009     0.0011727       -2.3105e-007   
  1.35            1.3833e-009     0.0013326       -2.521e-007    
  1.4             1.2436e-009     0.001494        -2.5078e-007   
  1.45            2.7354e-009     0.0016559       -2.4966e-007   
  1.5             2.1664e-009     0.0018211       -2.3499e-007   
  1.55            1.5229e-009     0.0019846       -2.3156e-007   
  1.6             1.2789e-009     0.002148        -2.2487e-007   
  1.65            2.816e-009      0.0023109       -2.1723e-007   
  1.7             2.4377e-009     0.0024756       -1.9932e-007   
  1.75            1.7383e-009     0.0026378       -1.9224e-007   
  1.8             1.3343e-009     0.0027989       -1.8618e-007   
END_DB

