! VERSION = 6.00
BEGIN_HEADER
 ICCAP_INPUTS
  VG         V  B GROUND SMU4 0.001 LIN        2    0          1.8        6    0.36      
  VS         V  E GROUND SMU2 0.1 CON        0
  VD         V  S GROUND SMU1 0.1 LIN        1    0          1.8        37   0.05      
  VB         V  C GROUND SMU3 0.1 CON        0
 ICCAP_OUTPUTS
  ID         I  S GROUND SMU1 B
  IG         I  B GROUND SMU4 B
END_HEADER

BEGIN_DB
 ICCAP_VAR VG         0              
 ICCAP_VAR VS         0              
 ICCAP_VAR VB         0              

 #VD              ID              IG             
  0               -1.3302e-010    -4.176e-011    
  0.05            -6.706e-011     2.8178e-010    
  0.1             2.3567e-010     1.2107e-010    
  0.15            9.884e-011      -3.3506e-010   
  0.2             -1.8753e-010    -8.069e-011    
  0.25            2.4464e-010     1.0994e-010    
  0.3             9.189e-011      -3.395e-010    
  0.35            -1.8337e-010    -6.928e-011    
  0.4             2.4903e-010     9.836e-011     
  0.45            8.419e-011      -3.369e-010    
  0.5             -1.7791e-010    -5.933e-011    
  0.55            2.0152e-010     1.5715e-010    
  0.6             1.228e-010      -2.9148e-010   
  0.65            -1.6634e-010    -4.929e-011    
  0.7             2.1617e-010     1.4208e-010    
  0.75            1.1617e-010     -3.1182e-010   
  0.8             -1.8399e-010    -1.0199e-010   
  0.85            2.3079e-010     1.3013e-010    
  0.9             1.0978e-010     -3.2764e-010   
  0.95            -1.85e-010      -8.952e-011    
  1               2.436e-010      1.1836e-010    
  1.05            1.025e-010      -3.3708e-010   
  1.1             -1.8173e-010    -7.803e-011    
  1.15            2.5182e-010     1.0764e-010    
  1.2             9.491e-011      -3.3862e-010   
  1.25            -1.771e-010     -6.744e-011    
  1.3             1.9622e-010     1.7056e-010    
  1.35            1.3406e-010     -2.7485e-010   
  1.4             -1.6871e-010    -5.584e-011    
  1.45            2.1361e-010     1.5288e-010    
  1.5             1.322e-010      -2.9523e-010   
  1.55            -1.4828e-010    -4.592e-011    
  1.6             2.4354e-010     1.3864e-010    
  1.65            1.534e-010      -3.1421e-010   
  1.7             -8.508e-011     -3.636e-011    
  1.75            2.0589e-010     3.3334e-010    
  1.8             3.4944e-010     2.1258e-010    
END_DB

BEGIN_DB
 ICCAP_VAR VG         0.36           
 ICCAP_VAR VS         0              
 ICCAP_VAR VB         0              

 #VD              ID              IG             
  0               -2.8453e-008    -2.4331e-010   
  0.05            1.5454e-007     3.2981e-010    
  0.1             1.8959e-007     2.3232e-010    
  0.15            2.0163e-007     2.4092e-010    
  0.2             2.0995e-007     2.4994e-010    
  0.25            2.1765e-007     2.5946e-010    
  0.3             2.2515e-007     2.6973e-010    
  0.35            2.3264e-007     2.8037e-010    
  0.4             2.399e-007      2.9104e-010    
  0.45            2.4726e-007     3.01e-010      
  0.5             2.5455e-007     3.1154e-010    
  0.55            2.6183e-007     3.2048e-010    
  0.6             2.6873e-007     3.2769e-010    
  0.65            2.7618e-007     2.2965e-010    
  0.7             2.8345e-007     2.3713e-010    
  0.75            2.9104e-007     2.4557e-010    
  0.8             2.9852e-007     2.5545e-010    
  0.85            3.0618e-007     2.6524e-010    
  0.9             3.1401e-007     2.7546e-010    
  0.95            3.2129e-007     2.8665e-010    
  1               3.2906e-007     2.9684e-010    
  1.05            3.3705e-007     3.0654e-010    
  1.1             3.4481e-007     3.1635e-010    
  1.15            3.5294e-007     3.2446e-010    
  1.2             3.6033e-007     2.2669e-010    
  1.25            3.6851e-007     2.3392e-010    
  1.3             3.768e-007      2.4308e-010    
  1.35            3.8525e-007     2.5147e-010    
  1.4             3.939e-007      2.6101e-010    
  1.45            4.0243e-007     2.7167e-010    
  1.5             4.1128e-007     2.8184e-010    
  1.55            4.2027e-007     2.9234e-010    
  1.6             4.2949e-007     3.0304e-010    
  1.65            4.3842e-007     3.1317e-010    
  1.7             4.4792e-007     3.2148e-010    
  1.75            4.5648e-007     2.2438e-010    
  1.8             4.6656e-007     2.3122e-010    
END_DB

BEGIN_DB
 ICCAP_VAR VG         0.72           
 ICCAP_VAR VS         0              
 ICCAP_VAR VB         0              

 #VD              ID              IG             
  0               -2.1611e-006    -2.4414e-010   
  0.05            0.0004754       8.428e-011     
  0.1             0.00069557      3.3956e-010    
  0.15            0.00078293      2.5776e-010    
  0.2             0.00082225      2.6753e-010    
  0.25            0.00084282      2.7801e-010    
  0.3             0.00085707      2.8847e-010    
  0.35            0.00087202      2.9868e-010    
  0.4             0.00088808      3.0873e-010    
  0.45            0.00090564      3.1874e-010    
  0.5             0.00092411      3.265e-010     
  0.55            0.00094463      2.2823e-010    
  0.6             0.0009665       2.3601e-010    
  0.65            0.00098958      2.4555e-010    
  0.7             0.00101402      2.5473e-010    
  0.75            0.00103953      2.6437e-010    
  0.8             0.00106608      2.7521e-010    
  0.85            0.00109356      2.857e-010     
  0.9             0.00112213      2.9564e-010    
  0.95            0.0011523       3.3331e-010    
  1               0.0011824       2.381e-010     
  1.05            0.0012137       2.473e-010     
  1.1             0.0012464       2.565e-010     
  1.15            0.0012799       2.6592e-010    
  1.2             0.0013146       2.766e-010     
  1.25            0.0013505       2.8743e-010    
  1.3             0.0013872       2.9786e-010    
  1.35            0.0014255       3.0795e-010    
  1.4             0.0014652       3.179e-010     
  1.45            0.0015059       3.2574e-010    
  1.5             0.0015483       2.2859e-010    
  1.55            0.001592        2.3602e-010    
  1.6             0.0016373       2.4533e-010    
  1.65            0.001684        2.5494e-010    
  1.7             0.0017324       2.6417e-010    
  1.75            0.0017824       2.747e-010     
  1.8             0.0018343       2.8422e-010    
END_DB

BEGIN_DB
 ICCAP_VAR VG         1.08           
 ICCAP_VAR VS         0              
 ICCAP_VAR VB         0              

 #VD              ID              IG             
  0               -3.675e-006     -1.7322e-010   
  0.05            0.001048        2.5135e-010    
  0.1             0.0020667       2.6159e-010    
  0.15            0.0030332       2.7103e-010    
  0.2             0.003923        2.8191e-010    
  0.25            0.004698        2.9227e-010    
  0.3             0.0053075       3.0298e-010    
  0.35            0.005722        3.132e-010     
  0.4             0.0059635       3.2223e-010    
  0.45            0.0060954       2.2484e-010    
  0.5             0.0061727       2.3277e-010    
  0.55            0.0061721       2.4028e-010    
  0.6             0.0061661       2.4989e-010    
  0.65            0.006159        2.5951e-010    
  0.7             0.0061515       2.6939e-010    
  0.75            0.0061444       2.7997e-010    
  0.8             0.0061379       2.9045e-010    
  0.85            0.0061321       3.0149e-010    
  0.9             0.006127        3.1104e-010    
  0.95            0.0061234       3.2034e-010    
  1               0.0061199       3.2848e-010    
  1.05            0.006119        2.3158e-010    
  1.1             0.0061205       2.3987e-010    
  1.15            0.0061242       2.4761e-010    
  1.2             0.0061307       2.5768e-010    
  1.25            0.0061394       2.6825e-010    
  1.3             0.0061508       2.7813e-010    
  1.35            0.0061661       2.8876e-010    
  1.4             0.0061847       2.9957e-010    
  1.45            0.0062075       3.0978e-010    
  1.5             0.0062347       3.1923e-010    
  1.55            0.0062664       3.274e-010     
  1.6             0.0063015       2.3018e-010    
  1.65            0.0063422       2.3826e-010    
  1.7             0.0063879       2.4738e-010    
  1.75            0.0064375       2.5726e-010    
  1.8             0.0064904       2.6719e-010    
END_DB

BEGIN_DB
 ICCAP_VAR VG         1.44           
 ICCAP_VAR VS         0              
 ICCAP_VAR VB         0              

 #VD              ID              IG             
  0               -3.7493e-006    -3.2954e-010   
  0.05            0.001103        2.5583e-010    
  0.1             0.002204        2.6673e-010    
  0.15            0.0032935       2.7614e-010    
  0.2             0.0043707       2.8687e-010    
  0.25            0.005433        2.9747e-010    
  0.3             0.0064755       3.0699e-010    
  0.35            0.0074909       3.1731e-010    
  0.4             0.0084722       3.2563e-010    
  0.45            0.0094052       2.2754e-010    
  0.5             0.0102745       2.3588e-010    
  0.55            0.0110523       2.4517e-010    
  0.6             0.011723        -2.625e-010    
  0.65            0.012228        -2.7406e-010   
  0.7             0.012579        -2.8385e-010   
  0.75            0.012794        -2.9564e-010   
  0.8             0.012925        -3.0564e-010   
  0.85            0.013009        -3.1575e-010   
  0.9             0.013013        -3.2356e-010   
  0.95            0.013003        -2.2636e-010   
  1               0.01299         -2.3432e-010   
  1.05            0.012973        -2.4326e-010   
  1.1             0.012957        -2.5212e-010   
  1.15            0.012939        -2.6165e-010   
  1.2             0.012922        -2.7241e-010   
  1.25            0.012904        -2.8267e-010   
  1.3             0.01289         -2.9359e-010   
  1.35            0.012869        -3.0381e-010   
  1.4             0.012851        -3.1335e-010   
  1.45            0.012838        -3.2116e-010   
  1.5             0.012824        -2.2549e-010   
  1.55            0.012809        -2.3257e-010   
  1.6             0.012797        -2.4088e-010   
  1.65            0.012789        -2.5028e-010   
  1.7             0.012785        -2.6033e-010   
  1.75            0.012783        -2.7113e-010   
  1.8             0.012791        -2.7995e-010   
END_DB

BEGIN_DB
 ICCAP_VAR VG         1.8            
 ICCAP_VAR VS         0              
 ICCAP_VAR VB         0              

 #VD              ID              IG             
  0               -3.8558e-006    -3.2711e-010   
  0.05            0.0011207       3.2549e-010    
  0.1             0.0022437       3.3126e-010    
  0.15            0.0033607       2.342e-010     
  0.2             0.0044725       2.4236e-010    
  0.25            0.0055815       2.489e-010     
  0.3             0.0066809       2.5824e-010    
  0.35            0.007774        2.6796e-010    
  0.4             0.0088561       2.7872e-010    
  0.45            0.0099277       2.8842e-010    
  0.5             0.010984        2.9833e-010    
  0.55            0.012035        -3.1238e-010   
  0.6             0.013054        -3.2262e-010   
  0.65            0.014046        -2.2674e-010   
  0.7             0.015011        -2.3446e-010   
  0.75            0.015931        -2.4326e-010   
  0.8             0.016799        -2.5212e-010   
  0.85            0.017598        -2.6037e-010   
  0.9             0.018314        -2.711e-010    
  0.95            0.018912        -2.818e-010    
  1               0.019382        -2.9304e-010   
  1.05            0.019711        -3.0273e-010   
  1.1             0.019928        -3.1254e-010   
  1.15            0.020071        -3.2159e-010   
  1.2             0.020166        -3.284e-010    
  1.25            0.020196        -2.328e-010    
  1.3             0.02019         -2.4166e-010   
  1.35            0.020179        -2.5084e-010   
  1.4             0.020163        -2.5959e-010   
  1.45            0.020146        -2.7018e-010   
  1.5             0.020131        -2.7988e-010   
  1.55            0.02011         -2.8964e-010   
  1.6             0.020086        -3.0001e-010   
  1.65            0.02007         -3.1015e-010   
  1.7             0.02005         -3.185e-010    
  1.75            0.020029        -3.2626e-010   
  1.8             0.020006        -2.3117e-010   
END_DB

