! VERSION = 6.00
BEGIN_HEADER
 ICCAP_INPUTS
  VG         V  B GROUND SMU4 0.001 LIN        2    0          1.8        6    0.36      
  VS         V  E GROUND SMU3 0.1 CON        0
  VD         V  S GROUND SMU2 0.1 LIN        1    0          1.8        37   0.05      
  VB         V  C GROUND SMU1 0.1 LIN        3    0          -0.9       2    -0.9      
 ICCAP_OUTPUTS
  ID         I  S GROUND SMU2 B
  IB         I  C GROUND SMU1 B
  IG         I  B GROUND SMU4 B
END_HEADER

BEGIN_DB
 ICCAP_VAR VG         0              
 ICCAP_VAR VS         0              
 ICCAP_VAR VB         0              

 #VD              ID              IB              IG             
  0               2.045e-009      1.2281e-008     1.2152e-009    
  0.05            4.4679e-009     1.1363e-008     5.127e-010     
  0.1             1.0381e-009     1.7044e-008     -2.3054e-009   
  0.15            -2.5695e-009    -2.4722e-008    1.3251e-009    
  0.2             2.2975e-009     2.7143e-008     -1.3916e-009   
  0.25            -4.2803e-009    -9.803e-009     -9.263e-010    
  0.3             2.0622e-009     -7.079e-009     2.5312e-009    
  0.35            1.7847e-009     2.2605e-008     -1.5222e-009   
  0.4             -4.3278e-009    -1.1709e-008    -6.008e-010    
  0.45            -1.2025e-009    -1.7806e-008    2.4479e-009    
  0.5             2.4464e-009     2.7037e-008     -1.3895e-009   
  0.55            -2.4924e-009    -2.486e-008     1.3282e-009    
  0.6             4.5369e-009     8.906e-009      8.589e-010     
  0.65            -2.1639e-009    4.91e-009       -2.4937e-009   
  0.7             -1.9691e-009    -2.2241e-008    1.5226e-009    
  0.75            4.4826e-009     1.1154e-008     5.52e-010      
  0.8             -2.1727e-009    1.92e-009       -2.1771e-009   
  0.85            -1.4927e-009    -1.7679e-008    2.0867e-009    
  0.9             2.7051e-009     1.0287e-008     1.7832e-009    
  0.95            1.713e-010      1.2226e-008     -2.7261e-009   
  1               -3.2076e-009    -1.1582e-008    1.7669e-009    
  1.05            4.3985e-009     1.1528e-008     3.828e-010     
  1.1             8.513e-010      1.5985e-008     -2.4669e-009   
  1.15            -2.374e-009     -2.4815e-008    1.3459e-009    
  1.2             2.0973e-009     2.5798e-008     -1.4132e-009   
  1.25            -2.1488e-009    -2.3676e-008    1.4134e-009    
  1.3             4.5186e-009     1.0635e-008     6.687e-010     
  1.35            -2.176e-009     3.147e-009      -2.2848e-009   
  1.4             -1.6484e-009    -1.9096e-008    1.8535e-009    
  1.45            4.3598e-009     1.1654e-008     3.291e-010     
  1.5             7.709e-010      1.5427e-008     -2.5221e-009   
  1.55            -3.7003e-009    -9.936e-009     2.021e-010     
  1.6             7.47e-011       -9.037e-009     2.894e-009     
  1.65            3.0775e-009     1.6753e-008     -1.365e-009    
  1.7             -3.0079e-009    -1.64e-008      2.1788e-009    
  1.75            2.6848e-009     2.5422e-008     -1.3935e-009   
  1.8             -2.7201e-009    -2.3645e-008    1.3243e-009    
END_DB

BEGIN_DB
 ICCAP_VAR VG         0.36           
 ICCAP_VAR VS         0              
 ICCAP_VAR VB         0              

 #VD              ID              IB              IG             
  0               -5.979e-010     7.289e-009      -3.675e-010    
  0.05            -5.938e-010     -1.7074e-008    2.7101e-009    
  0.1             2.4379e-009     2.621e-008      -1.4053e-009   
  0.15            -1.8243e-009    -2.3799e-008    1.3994e-009    
  0.2             4.8907e-009     1.0422e-008     6.742e-010     
  0.25            -1.8002e-009    3.21e-009       -2.2941e-009   
  0.3             -9.118e-010     -1.7594e-008    2.3177e-009    
  0.35            2.9793e-009     2.6683e-008     -1.3896e-009   
  0.4             -2.1725e-009    -2.4519e-008    1.319e-009     
  0.45            2.8048e-009     2.7035e-008     -1.3861e-009   
  0.5             -1.9222e-009    -2.4579e-008    1.3351e-009    
  0.55            1.1601e-009     1.503e-008      -2.5736e-009   
  0.6             -1.6658e-009    -2.3626e-008    1.3931e-009    
  0.65            5.0759e-009     1.0505e-008     6.858e-010     
  0.7             -1.611e-009     3.478e-009      -2.3029e-009   
  0.75            -7.308e-010     -1.7789e-008    2.2959e-009    
  0.8             3.2022e-009     2.6623e-008     -1.3882e-009   
  0.85            -1.9756e-009    -2.4301e-008    1.3192e-009    
  0.9             3.0465e-009     2.7092e-008     -1.3861e-009   
  0.95            -3.5534e-009    -9.74e-009      -9.644e-010    
  1               2.7157e-009     -8.417e-009     2.7215e-009    
  1.05            5.1801e-009     1.1552e-008     3.832e-010     
  1.1             -2.1692e-009    -1.8162e-008    1.3097e-009    
  1.15            3.6513e-009     2.3006e-008     -1.3849e-009   
  1.2             -1.9456e-009    -2.2005e-008    1.3196e-009    
  1.25            3.5246e-009     2.6414e-008     -1.3881e-009   
  1.3             -1.7034e-009    -2.4354e-008    1.3192e-009    
  1.35            3.3933e-009     2.7124e-008     -1.3846e-009   
  1.4             -1.4214e-009    -2.4801e-008    1.3263e-009    
  1.45            5.6242e-009     9.202e-009      8.355e-010     
  1.5             -3.2073e-009    -1.1098e-008    -7.503e-010    
  1.55            -2.104e-010     -1.7639e-008    2.2202e-009    
  1.6             3.8635e-009     2.5722e-008     -1.391e-009    
  1.65            -1.4022e-009    -2.3975e-008    1.3204e-009    
  1.7             3.7748e-009     2.7119e-008     -1.3859e-009   
  1.75            -1.1035e-009    -2.4739e-008    1.3218e-009    
  1.8             5.9966e-009     9.11e-009       8.594e-010     
END_DB

BEGIN_DB
 ICCAP_VAR VG         0.72           
 ICCAP_VAR VS         0              
 ICCAP_VAR VB         0              

 #VD              ID              IB              IG             
  0               -1.049e-008     2.0392e-008     -1.712e-010    
  0.05            2.5194e-006     -1.1016e-008    -2.7162e-009   
  0.1             3.5108e-006     8.047e-009      -1.3898e-009   
  0.15            3.9968e-006     1.2513e-008     -2.5809e-009   
  0.2             4.2973e-006     2.6927e-008     -1.3898e-009   
  0.25            4.5288e-006     1.2887e-008     -2.5419e-009   
  0.3             4.7466e-006     2.7081e-008     -1.3836e-009   
  0.35            4.9607e-006     2.5077e-008     -1.3836e-009   
  0.4             5.1611e-006     2.1693e-008     -1.4106e-009   
  0.45            5.3529e-006     1.8784e-008     -1.5593e-009   
  0.5             5.5488e-006     1.7402e-008     -1.866e-009    
  0.55            5.756e-006      1.5205e-008     -1.5202e-009   
  0.6             5.9605e-006     1.7715e-008     -1.7963e-009   
  0.65            6.1614e-006     1.391e-008      -1.4877e-009   
  0.7             6.3651e-006     1.7943e-008     -1.7324e-009   
  0.75            6.582e-006      1.2845e-008     -1.4609e-009   
  0.8             6.7818e-006     1.8155e-008     -1.6746e-009   
  0.85            6.9943e-006     1.6779e-008     -2.0212e-009   
  0.9             7.2143e-006     1.7851e-008     -1.618e-009    
  0.95            7.4311e-006     1.7022e-008     -1.9505e-009   
  1               7.6568e-006     1.6535e-008     -1.5752e-009   
  1.05            7.872e-006      1.7395e-008     -1.8788e-009   
  1.1             8.1085e-006     1.5341e-008     -1.5332e-009   
  1.15            8.3277e-006     1.7709e-008     -1.8101e-009   
  1.2             8.5736e-006     1.4171e-008     -1.4973e-009   
  1.25            8.7958e-006     1.7796e-008     -1.742e-009    
  1.3             9.0384e-006     1.2958e-008     -1.4673e-009   
  1.35            9.2711e-006     1.7885e-008     -1.6806e-009   
  1.4             9.521e-006      1.6233e-008     -2.0195e-009   
  1.45            9.7678e-006     1.7361e-008     -1.6238e-009   
  1.5             1.00198e-005    1.593e-008      -1.949e-009    
  1.55            1.02781e-005    1.4984e-008     -1.5744e-009   
  1.6             1.05271e-005    1.4807e-008     -1.8835e-009   
  1.65            1.07974e-005    1.1601e-008     -2.2233e-009   
  1.7             1.1075e-005     7.813e-009      -2.5103e-009   
  1.75            1.13547e-005    4.238e-009      -2.6739e-009   
  1.8             1.137e-005      -2.0832e-008    2.1625e-009    
END_DB

BEGIN_DB
 ICCAP_VAR VG         1.08           
 ICCAP_VAR VS         0              
 ICCAP_VAR VB         0              

 #VD              ID              IB              IG             
  0               6.0611e-008     1.1415e-008     -1.479e-009    
  0.05            3.4329e-005     8.289e-009      2.989e-010     
  0.1             6.2078e-005     -1.1782e-008    -6.631e-010    
  0.15            8.3184e-005     7.64e-010       -2.2038e-009   
  0.2             9.8253e-005     1.6656e-008     -1.998e-009    
  0.25            0.000108666     1.7982e-008     -1.7746e-009   
  0.3             0.00011519      -8.716e-009     2.718e-010     
  0.35            0.00012023      -1.9865e-008    1.9223e-009    
  0.4             0.00012383      -1.0849e-008    2.341e-010     
  0.45            0.00012683      -1.8655e-008    1.8399e-009    
  0.5             0.00012925      -1.0267e-008    1.968e-010     
  0.55            0.00013154      -1.7266e-008    1.7614e-009    
  0.6             0.00013359      -9.902e-009     1.608e-010     
  0.65            0.00013553      -1.6174e-008    1.6873e-009    
  0.7             0.00013733      -9.678e-009     1.168e-010     
  0.75            0.00013939      -1.1829e-008    -6.193e-010    
  0.8             0.00014083      -2.3328e-008    2.2351e-009    
  0.85            0.00014243      -1.3769e-008    1.5618e-009    
  0.9             0.00014412      -1.8301e-008    1.7061e-009    
  0.95            0.0001458       -1.816e-008     1.8824e-009    
  1               0.00014737      -1.8033e-008    2.0725e-009    
  1.05            0.00014896      -1.2184e-008    3.069e-010     
  1.1             0.00015059      -2.0936e-008    1.9996e-009    
  1.15            0.00015198      -1.1489e-008    2.697e-010     
  1.2             0.00015363      -1.9946e-008    1.9033e-009    
  1.25            0.00015501      -1.0956e-008    2.3e-010       
  1.3             0.00015657      -1.8812e-008    1.8326e-009    
  1.35            0.00015787      -1.0841e-008    1.917e-010     
  1.4             0.00015986      -1.2748e-008    -5.275e-010    
  1.45            0.00016165      -1.1837e-008    -1.148e-009    
  1.5             0.00016351      -1.444e-008     -1.7861e-009   
  1.55            0.0001647       1.456e-009      -1.3851e-009   
  1.6             0.0001662       2.635e-009      -2.5712e-009   
  1.65            0.00016724      -1.7749e-008    -2.7375e-009   
  1.7             0.00016913      2.103e-009      -1.3878e-009   
  1.75            0.00017024      -2.1937e-008    3.621e-010     
  1.8             0.00017131      -4.6359e-008    2.8509e-009    
END_DB

BEGIN_DB
 ICCAP_VAR VG         1.44           
 ICCAP_VAR VS         0              
 ICCAP_VAR VB         0              

 #VD              ID              IB              IG             
  0               8.7809e-008     -5.766e-009     -2.1983e-009   
  0.05            6.0117e-005     -1.1514e-008    2.874e-009     
  0.1             0.00011556      7.658e-009      -1.8632e-009   
  0.15            0.00016523      1.6718e-008     -2.0192e-009   
  0.2             0.00020857      1.4508e-008     -1.5081e-009   
  0.25            0.00024516      1.8723e-008     -1.6026e-009   
  0.3             0.00027516      1.8167e-008     -1.7305e-009   
  0.35            0.00029903      1.7327e-008     -1.8815e-009   
  0.4             0.00031773      1.2432e-008     -1.4497e-009   
  0.45            0.0003319       1.9789e-008     -1.5185e-009   
  0.5             0.00034286      1.8658e-008     -1.6198e-009   
  0.55            0.00035125      1.7899e-008     -1.7507e-009   
  0.6             0.00035785      1.7449e-008     -1.9115e-009   
  0.65            0.00036337      1.2823e-008     -1.4586e-009   
  0.7             0.00036801      1.9546e-008     -1.5276e-009   
  0.75            0.00037196      9.292e-009      -2.37e-011     
  0.8             0.00037521      1.1299e-008     6.55e-010      
  0.85            0.00037899      2.5093e-008     -1.9306e-009   
  0.9             0.00038215      1.2977e-008     -1.4664e-009   
  0.95            0.00038495      1.9433e-008     -1.5418e-009   
  1               0.00038784      1.8325e-008     -1.6517e-009   
  1.05            0.00039053      1.7689e-008     -1.7922e-009   
  1.1             0.00039322      1.0975e-008     -2.248e-010    
  1.15            0.0003957       2.0966e-008     -1.7268e-009   
  1.2             0.00039824      1.0025e-008     -1.929e-010    
  1.25            0.00040063      1.9435e-008     -1.6662e-009   
  1.3             0.000403        1.7632e-008     -1.8126e-009   
  1.35            0.00040532      1.0858e-008     -2.444e-010    
  1.4             0.00040776      2.0956e-008     -1.7455e-009   
  1.45            0.00040996      1.606e-008      -1.9096e-009   
  1.5             0.00041218      1.4225e-008     -2.0694e-009   
  1.55            0.00041444      1.1334e-008     -2.2178e-009   
  1.6             0.00041663      7.762e-009      -2.3642e-009   
  1.65            0.00041884      2.267e-009      -2.4819e-009   
  1.7             0.00042037      -2.5007e-008    -2.4801e-009   
  1.75            0.00042286      -2.4817e-008    -1.8711e-009   
  1.8             0.00042516      -2.7038e-008    -1.4499e-009   
END_DB

BEGIN_DB
 ICCAP_VAR VG         1.8            
 ICCAP_VAR VS         0              
 ICCAP_VAR VB         0              

 #VD              ID              IB              IG             
  0               1.1869e-007     8.051e-009      -5.749e-010    
  0.05            7.4449e-005     2.0858e-008     -1.1595e-009   
  0.1             0.00014565      1.937e-008      7.221e-010     
  0.15            0.00021304      2.2572e-008     -1.8107e-009   
  0.2             0.00027565      1.7064e-008     -1.966e-009    
  0.25            0.00033304      1.3815e-008     -1.4841e-009   
  0.3             0.00038437      1.9121e-008     -1.5684e-009   
  0.35            0.00042978      1.8213e-008     -1.6825e-009   
  0.4             0.00046909      1.7595e-008     -1.8237e-009   
  0.45            0.00050256      1.6854e-008     -1.9796e-009   
  0.5             0.00053068      1.4017e-008     -1.4906e-009   
  0.55            0.00055365      1.9199e-008     -1.5755e-009   
  0.6             0.00057254      1.8147e-008     -1.6912e-009   
  0.65            0.00058784      1.7668e-008     -1.8442e-009   
  0.7             0.00060022      1.6844e-008     -2.0001e-009   
  0.75            0.00061035      1.4145e-008     -1.5001e-009   
  0.8             0.00061852      1.8957e-008     -1.5887e-009   
  0.85            0.00062561      1.7971e-008     -1.7071e-009   
  0.9             0.00063165      1.7499e-008     -1.8545e-009   
  0.95            0.00063702      1.2072e-008     -1.4417e-009   
  1               0.00064186      2.0119e-008     -1.5053e-009   
  1.05            0.00064618      1.895e-008      -1.5967e-009   
  1.1             0.00065017      1.8162e-008     -1.7201e-009   
  1.15            0.00065394      1.7478e-008     -1.8672e-009   
  1.2             0.00065757      1.2202e-008     -1.4485e-009   
  1.25            0.00066112      2.0032e-008     -1.5119e-009   
  1.3             0.00066431      1.8695e-008     -1.604e-009    
  1.35            0.00066757      1.7864e-008     -1.7306e-009   
  1.4             0.00067064      1.721e-008      -1.8775e-009   
  1.45            0.0006737       1.1937e-008     -1.4522e-009   
  1.5             0.00067663      1.8884e-008     -1.5184e-009   
  1.55            0.00067946      1.6924e-008     -1.6141e-009   
  1.6             0.00068227      1.4904e-008     -1.7407e-009   
  1.65            0.00068504      1.1827e-008     -1.9018e-009   
  1.7             0.00068785      7.364e-009      -2.0553e-009   
  1.75            0.00069059      9.29e-010       -2.2104e-009   
  1.8             0.00069317      -8.307e-009     -2.3494e-009   
END_DB

BEGIN_DB
 ICCAP_VAR VG         0              
 ICCAP_VAR VS         0              
 ICCAP_VAR VB         -0.9           

 #VD              ID              IB              IG             
  0               8.581e-010      -1.969e-007     1.031e-010     
  0.05            8.472e-010      -1.5813e-007    -2.4425e-009   
  0.1             -2.845e-009     -2.0707e-007    -1.7651e-009   
  0.15            -3.1857e-009    -1.9612e-007    1.8381e-009    
  0.2             2.1188e-009     -1.8914e-007    2.1593e-009    
  0.25            3.9295e-009     -1.7669e-007    -1.207e-010    
  0.3             4.701e-010      -1.5914e-007    -2.6381e-009   
  0.35            -3.3685e-009    -2.0525e-007    -1.5456e-009   
  0.4             -2.9848e-009    -1.9996e-007    2.2484e-009    
  0.45            2.3739e-009     -1.8774e-007    1.9432e-009    
  0.5             3.6422e-009     -1.7598e-007    -1.478e-009    
  0.55            -2.1705e-009    -2.0728e-007    -2.2997e-009   
  0.6             -4.2019e-009    -1.9955e-007    -1.642e-010    
  0.65            -1.0144e-009    -1.9164e-007    2.5778e-009    
  0.7             2.8988e-009     -1.8573e-007    1.7227e-009    
  0.75            3.3389e-009     -1.7126e-007    -1.6959e-009   
  0.8             -2.1846e-009    -2.0637e-007    -2.1101e-009   
  0.85            -3.9062e-009    -1.9761e-007    7.7e-011       
  0.9             -6.246e-010     -1.8824e-007    2.7921e-009    
  0.95            3.5378e-009     -1.8475e-007    1.4951e-009    
  1               3.0004e-009     -1.6394e-007    -1.3655e-009   
  1.05            -1.9619e-009    -2.0488e-007    -2.7746e-009   
  1.1             -4.2828e-009    -2.0201e-007    -9.204e-010    
  1.15            -2.0205e-009    -2.0093e-007    1.5021e-009    
  1.2             2.0626e-009     -1.9107e-007    2.3676e-009    
  1.25            4.1842e-009     -1.7713e-007    1.228e-010     
  1.3             8.695e-010      -1.5778e-007    -2.427e-009    
  1.35            -2.8062e-009    -2.0728e-007    -1.7794e-009   
  1.4             -3.2039e-009    -1.9586e-007    1.8112e-009    
  1.45            2.1034e-009     -1.8987e-007    2.1783e-009    
  1.5             3.9549e-009     -1.7659e-007    -1.025e-010    
  1.55            5.208e-010      -1.5905e-007    -2.6263e-009   
  1.6             -3.3115e-009    -2.0511e-007    -1.5744e-009   
  1.65            -3.0112e-009    -1.9942e-007    2.2051e-009    
  1.7             2.3379e-009     -1.8809e-007    1.9766e-009    
  1.75            3.6783e-009     -1.761e-007     -1.4599e-009   
  1.8             -2.1669e-009    -2.0731e-007    -2.3284e-009   
END_DB

BEGIN_DB
 ICCAP_VAR VG         0.36           
 ICCAP_VAR VS         0              
 ICCAP_VAR VB         -0.9           

 #VD              ID              IB              IG             
  0               -1.8316e-009    -2.0674e-007    -1.0728e-009   
  0.05            -2.163e-009     -1.8994e-007    -2.1588e-009   
  0.1             -4.0203e-009    -1.9817e-007    2.7e-012       
  0.15            -7.707e-010     -1.8951e-007    2.7349e-009    
  0.2             3.303e-009      -1.8476e-007    1.5896e-009    
  0.25            3.136e-009      -1.6705e-007    -1.3497e-009   
  0.3             -1.9073e-009    -2.0361e-007    -2.7874e-009   
  0.35            -4.2366e-009    -2.0158e-007    -1.0021e-009   
  0.4             -2.1723e-009    -2.0248e-007    1.4057e-009    
  0.45            2.0637e-009     -1.9127e-007    2.4423e-009    
  0.5             4.2945e-009     -1.7722e-007    2.309e-010     
  0.55            1.0475e-009     -1.5706e-007    -2.3059e-009   
