! VERSION = 6.00
BEGIN_HEADER
 ICCAP_INPUTS
  VG         V  B GROUND SMU4 0.001 LIN        2    0          1.8        6    0.36      
  VS         V  E GROUND SMU3 0.1 CON        0
  VD         V  S GROUND SMU2 0.1 LIN        1    0          1.8        37   0.05      
  VB         V  C GROUND SMU1 0.1 LIN        3    0          -0.9       2    -0.9      
 ICCAP_OUTPUTS
  ID         I  S GROUND SMU2 B
  IB         I  C GROUND SMU1 B
  IG         I  B GROUND SMU4 B
END_HEADER

BEGIN_DB
 ICCAP_VAR VG         0              
 ICCAP_VAR VS         0              
 ICCAP_VAR VB         0              

 #VD              ID              IB              IG             
  0               9.042e-010      1.5241e-008     -4.162e-010    
  0.05            -4.781e-010     8.382e-009      -1.3872e-009   
  0.1             -2.4074e-009    -2.4106e-008    1.3387e-009    
  0.15            2.1187e-009     2.5325e-008     -1.4109e-009   
  0.2             -4.3254e-009    -9.993e-009     -8.242e-010    
  0.25            2.0459e-009     -5.122e-009     2.424e-009     
  0.3             1.5847e-009     2.0765e-008     -1.7066e-009   
  0.35            -4.3321e-009    -1.1779e-008    -4.128e-010    
  0.4             -9.245e-010     -1.6932e-008    2.6483e-009    
  0.45            2.1511e-009     2.5448e-008     -1.4054e-009   
  0.5             -2.1926e-009    -2.3164e-008    1.4103e-009    
  0.55            4.5347e-009     1.0521e-008     6.841e-010     
  0.6             -2.1643e-009    1.817e-009      -2.2779e-009   
  0.65            -1.6619e-009    -1.953e-008     1.8793e-009    
  0.7             4.3549e-009     1.1333e-008     3.153e-010     
  0.75            7.327e-010      1.5218e-008     -2.5169e-009   
  0.8             -3.6365e-009    -9.858e-009     2.254e-010     
  0.85            1.365e-010      -8.935e-009     1.3124e-009    
  0.9             2.6255e-009     2.5678e-008     -1.3848e-009   
  0.95            -2.6381e-009    -2.336e-008     1.3164e-009    
  1               2.3763e-009     2.6238e-008     -1.3861e-009   
  1.05            -4.2598e-009    -9.907e-009     -9.547e-010    
  1.1             2.0421e-009     -7.168e-009     2.5413e-009    
  1.15            1.8037e-009     2.2861e-008     -1.5325e-009   
  1.2             -4.357e-009     -1.1439e-008    -5.997e-010    
  1.25            4.4584e-009     1.1233e-008     4.508e-010     
  1.3             9.405e-010      1.6719e-008     -2.3713e-009   
  1.35            -2.4392e-009    -2.4004e-008    1.3354e-009    
  1.4             4.5346e-009     9.518e-009      8.219e-010     
  1.45            -2.1571e-009    4.346e-009      -2.4354e-009   
  1.5             -1.863e-009     -2.137e-008     1.625e-009     
  1.55            4.4627e-009     1.1115e-008     4.706e-010     
  1.6             9.693e-010      1.6948e-008     -2.3407e-009   
  1.65            -2.4792e-009    -2.3945e-008    1.3291e-009    
  1.7             4.5353e-009     9.532e-009      8.442e-010     
  1.75            -2.1534e-009    4.178e-009      -2.4555e-009   
  1.8             -1.8831e-009    -2.1551e-008    1.609e-009     
END_DB

BEGIN_DB
 ICCAP_VAR VG         0.36           
 ICCAP_VAR VS         0              
 ICCAP_VAR VB         0              

 #VD              ID              IB              IG             
  0               4.4345e-009     1.2732e-008     2.6563e-009    
  0.05            7.6248e-009     9.668e-009      -1.962e-010    
  0.1             4.6422e-009     1.1284e-008     -1.3789e-009   
  0.15            5.6733e-009     -2.2142e-008    1.315e-009     
  0.2             7.601e-009      1.094e-009      -1.6062e-009   
  0.25            7.648e-009      2.4539e-008     -1.9204e-009   
  0.3             1.1578e-008     1.0892e-008     7.125e-010     
  0.35            1.2332e-008     1.1224e-008     7.314e-010     
  0.4             1.0632e-008     1.3397e-008     1.56e-009      
  0.45            1.1192e-008     -1.3369e-008    2.6895e-009    
  0.5             1.1889e-008     -2.3517e-008    2.8975e-009    
  0.55            1.3233e-008     -1.8487e-008    1.3858e-009    
  0.6             1.2256e-008     -1.0394e-008    2.0667e-009    
  0.65            1.4651e-008     -2.1071e-008    2.7422e-009    
  0.7             1.3819e-008     -2.3098e-008    1.3243e-009    
  0.75            1.3729e-008     -9.704e-009     4.31e-011      
  0.8             1.528e-008      -2.2816e-008    2.1501e-009    
  0.85            1.6679e-008     -2.2039e-008    2.1141e-009    
  0.9             1.8243e-008     -2.1714e-008    2.0768e-009    
  0.95            1.9812e-008     -2.1252e-008    2.0419e-009    
  1               2.152e-008      -2.0827e-008    2.0139e-009    
  1.05            2.3313e-008     -2.0341e-008    1.9651e-009    
  1.1             2.5199e-008     -1.9737e-008    1.9374e-009    
  1.15            2.7203e-008     -1.9166e-008    1.8982e-009    
  1.2             2.9166e-008     -1.8473e-008    1.8647e-009    
  1.25            3.1379e-008     -1.8017e-008    1.826e-009     
  1.3             3.3513e-008     -1.7464e-008    1.7934e-009    
  1.35            3.5799e-008     -1.6836e-008    1.7456e-009    
  1.4             3.8078e-008     -1.635e-008     1.7264e-009    
  1.45            4.0527e-008     -1.581e-008     1.6835e-009    
  1.5             4.2896e-008     -1.5397e-008    1.6624e-009    
  1.55            4.5398e-008     -1.4954e-008    1.6322e-009    
  1.6             4.7858e-008     -1.4481e-008    1.6042e-009    
  1.65            5.0358e-008     -1.4141e-008    1.5771e-009    
  1.7             5.2983e-008     -1.3714e-008    1.5487e-009    
  1.75            5.562e-008      -1.3374e-008    1.529e-009     
  1.8             5.8418e-008     -1.3016e-008    1.5033e-009    
END_DB

BEGIN_DB
 ICCAP_VAR VG         0.72           
 ICCAP_VAR VS         0              
 ICCAP_VAR VB         0              

 #VD              ID              IB              IG             
  0               9.33e-009       -1.8377e-008    6.081e-010     
  0.05            2.4123e-005     -1.0895e-008    2.2156e-009    
  0.1             3.3836e-005     -1.4708e-008    2.6396e-009    
  0.15            3.8801e-005     -1.4237e-008    1.5912e-009    
  0.2             4.1852e-005     -2.0192e-008    1.4303e-009    
  0.25            4.4366e-005     -2.2023e-008    1.3441e-009    
  0.3             4.6805e-005     -2.3527e-008    1.315e-009     
  0.35            4.9525e-005     -1.1805e-008    -7.386e-010    
  0.4             5.1947e-005     1.047e-009      -2.1206e-009   
  0.45            5.4346e-005     1.7288e-008     -1.8991e-009   
  0.5             5.6333e-005     9.184e-009      -6.76e-011     
  0.55            5.772e-005      1.1159e-008     8.43e-010      
  0.6             5.9895e-005     1.1317e-008     7.443e-010     
  0.65            6.2009e-005     8.321e-009      2.5988e-009    
  0.7             6.3725e-005     -1.8104e-008    1.862e-009     
  0.75            6.618e-005      -9.916e-009     -2.35e-011     
  0.8             6.9201e-005     -1.1448e-008    -1.0039e-009   
  0.85            7.1586e-005     3.047e-009      -1.677e-009    
  0.9             7.4051e-005     1.9525e-008     -1.5309e-009   
  0.95            7.6347e-005     2.1245e-008     -1.4329e-009   
  1               7.8622e-005     2.3295e-008     -1.3911e-009   
  1.05            8.0879e-005     2.5164e-008     -1.3835e-009   
  1.1             8.2152e-005     1.1236e-008     6.814e-010     
  1.15            8.451e-005      1.1265e-008     5.829e-010     
  1.2             8.7769e-005     1.9228e-008     -1.6624e-009   
  1.25            9.0253e-005     1.9114e-008     -1.5118e-009   
  1.3             9.2744e-005     2.0591e-008     -1.4218e-009   
  1.35            9.5153e-005     1.0174e-008     -2.5797e-009   
  1.4             9.7411e-005     1.003e-008      -2.4408e-009   
  1.45            0.000100021     9.371e-009      -2.2593e-009   
  1.5             0.000102285     7.563e-009      -2.0415e-009   
  1.55            0.000105049     3.653e-009      -1.815e-009    
  1.6             0.000107252     -1.1863e-008    -1.4e-012      
  1.65            0.000108847     -3.0016e-008    2.8813e-009    
  1.7             0.00011188      -6.8605e-008    -1.506e-010    
  1.75            0.00011534      -5.4845e-008    -1.3847e-009   
  1.8             0.00011739      -7.423e-008     5.382e-010     
END_DB

BEGIN_DB
 ICCAP_VAR VG         1.08           
 ICCAP_VAR VS         0              
 ICCAP_VAR VB         0              

 #VD              ID              IB              IG             
  0               1.5778e-007     8.164e-009      -2.7699e-009   
  0.05            0.00016893      9.654e-009      2.0333e-009    
  0.1             0.00031565      -1.1902e-008    2.954e-010     
  0.15            0.00043727      -2.1e-008       1.9816e-009    
  0.2             0.00053108      -1.1058e-008    2.645e-010     
  0.25            0.0006          -1.9836e-008    1.8979e-009    
  0.3             0.00064667      -1.7949e-008    2.0951e-009    
  0.35            0.00067815      -1.2037e-008    3.124e-010     
  0.4             0.00070174      -2.1459e-008    2.0008e-009    
  0.45            0.00071837      -1.1314e-008    2.818e-010     
  0.5             0.0007328       -2.0305e-008    1.9311e-009    
  0.55            0.00074413      -1.0726e-008    2.492e-010     
  0.6             0.00075558      -1.9093e-008    1.852e-009     
  0.65            0.00076543      -1.0137e-008    2.065e-010     
  0.7             0.00077641      -1.1714e-008    -5.042e-010    
  0.75            0.00078447      -2.415e-008     1.3137e-009    
  0.8             0.00079517      -1.1871e-008    -6.961e-010    
  0.85            0.00080256      -2.2628e-008    2.1225e-009    
  0.9             0.00081059      -1.2434e-008    3.289e-010     
  0.95            0.00081986      -2.1777e-008    2.0403e-009    
  1               0.00082758      -1.1664e-008    2.929e-010     
  1.05            0.00083641      -2.0743e-008    1.9707e-009    
  1.1             0.00084341      -1.0942e-008    2.603e-010     
  1.15            0.00085233      -1.9567e-008    1.887e-009     
  1.2             0.00085942      -1.0404e-008    2.235e-010     
  1.25            0.00086824      -1.8481e-008    1.7971e-009    
  1.3             0.00087505      -1.0395e-008    1.834e-010     
  1.35            0.00088512      -1.2918e-008    -5.403e-010    
  1.4             0.00089393      -1.1879e-008    -1.1597e-009   
  1.45            0.00090337      -1.5521e-008    -1.7815e-009   
  1.5             0.00090786      -1.647e-008     -2.2202e-009   
  1.55            0.00091767      -2.245e-009     -2.5763e-009   
  1.6             0.00092436      1.463e-009      -1.374e-009    
  1.65            0.0009306       -3.0118e-008    7.133e-010     
  1.7             0.00093672      -6.6619e-008    2.5617e-009    
  1.75            0.00094572      -1.1975e-007    5.936e-010     
  1.8             0.00095263      -1.518e-007     2.7064e-009    
END_DB

BEGIN_DB
 ICCAP_VAR VG         1.44           
 ICCAP_VAR VS         0              
 ICCAP_VAR VB         0              

 #VD              ID              IB              IG             
  0               1.5666e-007     8.74e-010       -9.8e-010      
  0.05            0.00022089      9.214e-009      2.0952e-009    
  0.1             0.00043386      -8.608e-009     2.8759e-009    
  0.15            0.00063777      -2.4214e-008    1.3169e-009    
  0.2             0.00083051      -1.3445e-008    2.7175e-009    
  0.25            0.00101024      -2.2975e-008    2.1481e-009    
  0.3             0.0011756       -1.1485e-008    2.456e-010     
  0.35            0.001321        2.5366e-008     -1.3833e-009   
  0.4             0.0014444       1.2431e-008     -2.5691e-009   
  0.45            0.0015465       2.6614e-008     -1.3725e-009   
  0.5             0.0016264       1.122e-008      7.251e-010     
  0.55            0.0016902       2.2923e-008     -1.8063e-009   
  0.6             0.0017379       1.107e-008      -2.331e-010    
  0.65            0.0017739       2.1374e-008     -1.738e-009    
  0.7             0.0018023       1.7276e-008     -1.8962e-009   
  0.75            0.0018258       1.2472e-008     -1.4466e-009   
  0.8             0.0018452       1.927e-008      -1.521e-009    
  0.85            0.0018626       1.817e-008      -1.6217e-009   
  0.9             0.0018784       1.7637e-008     -1.7607e-009   
  0.95            0.0018937       1.7243e-008     -1.9272e-009   
  1               0.0019085       1.2714e-008     -1.4556e-009   
  1.05            0.0019211       1.9171e-008     -1.5315e-009   
  1.1             0.0019343       1.8051e-008     -1.6453e-009   
  1.15            0.0019459       1.7569e-008     -1.7878e-009   
  1.2             0.0019579       1.7022e-008     -1.9465e-009   
  1.25            0.001969        1.3091e-008     -1.4667e-009   
  1.3             0.0019815       1.9057e-008     -1.5448e-009   
  1.35            0.0019928       1.7733e-008     -1.6643e-009   
  1.4             0.0020045       1.7257e-008     -1.8072e-009   
  1.45            0.0020146       1.637e-008      -1.9694e-009   
  1.5             0.002026        1.4658e-008     -2.1273e-009   
  1.55            0.002037        1.3915e-008     -1.5591e-009   
  1.6             0.0020472       1.3237e-008     -1.6798e-009   
  1.65            0.0020583       9.013e-009      -1.8273e-009   
  1.7             0.0020679       1.519e-009      -1.9893e-009   
  1.75            0.0020794       -1.2775e-008    -1.4839e-009   
  1.8             0.0020883       -3.5501e-008    3.05e-011      
END_DB

BEGIN_DB
 ICCAP_VAR VG         1.8            
 ICCAP_VAR VS         0              
 ICCAP_VAR VB         0              

 #VD              ID              IB              IG             
  0               1.5588e-007     9.08e-009       -7.714e-010    
  0.05            0.00024039      -1.2326e-008    -1.9083e-009   
  0.1             0.00047746      8.542e-009      -1.384e-009    
  0.15            0.00071012      1.1405e-008     6.075e-010     
  0.2             0.00093951      2.5907e-008     -1.3661e-009   
  0.25            0.0011642       6.71e-009       2.8942e-009    
  0.3             0.0013815       -7.618e-009     1.316e-009     
  0.35            0.0015905       -2.3071e-008    1.3187e-009    
  0.4             0.001791        -2.1983e-008    1.3354e-009    
  0.45            0.0019798       -2.0739e-008    1.3865e-009    
  0.5             0.0021552       -1.9566e-008    1.4657e-009    
  0.55            0.0023159       -1.8661e-008    1.5878e-009    
  0.6             0.0024599       -1.8119e-008    1.737e-009     
  0.65            0.0025847       -1.8112e-008    1.9189e-009    
  0.7             0.0026918       -1.7953e-008    2.1127e-009    
  0.75            0.0027796       -1.2382e-008    3.172e-010     
  0.8             0.0028516       -2.1331e-008    2.0158e-009    
  0.85            0.0029109       -1.1585e-008    2.784e-010     
  0.9             0.0029569       -2.0299e-008    1.9342e-009    
  0.95            0.0029921       -1.0868e-008    2.412e-010     
  1               0.0030251       -1.8876e-008    1.8477e-009    
  1.05            0.0030512       -1.8107e-008    2.0327e-009    
  1.1             0.0030736       -1.1761e-008    2.895e-010     
  1.15            0.0030955       -2.0304e-008    1.9428e-009    
  1.2             0.0031148       -1.7827e-008    2.1296e-009    
  1.25            0.003132        -1.2741e-008    1.4911e-009    
  1.3             0.0031514       -1.866e-008     1.6089e-009    
  1.35            0.0031679       -1.8195e-008    1.7708e-009    
  1.4             0.0031841       -1.801e-008     1.9504e-009    
  1.45            0.0031995       -1.1083e-008    2.555e-010     
  1.5             0.0032158       -1.946e-008     1.8614e-009    
  1.55            0.0032283       -1.0577e-008    2.081e-010     
  1.6             0.0032452       -1.2038e-008    -5.058e-010    
  1.65            0.0032575       -1.1114e-008    -7.18e-011     
  1.7             0.003274        -1.3443e-008    -8.25e-010     
  1.75            0.0032918       -1.3115e-008    -1.4277e-009   
  1.8             0.0033038       -1.7667e-008    -1.9684e-009   
END_DB

BEGIN_DB
 ICCAP_VAR VG         0              
 ICCAP_VAR VS         0              
 ICCAP_VAR VB         -0.9           

 #VD              ID              IB              IG             
  0               -3.8086e-009    -1.9142e-007    -2.7564e-009   
  0.05            -4.2935e-009    -2.012e-007     -8.633e-010    
  0.1             -1.9239e-009    -1.9885e-007    1.5583e-009    
  0.15            2.0592e-009     -1.9036e-007    2.299e-009     
  0.2             4.1186e-009     -1.763e-007     5.21e-011      
  0.25            7.562e-010      -1.5746e-007    -2.5169e-009   
  0.3             -2.9808e-009    -2.0663e-007    -1.7183e-009   
  0.35            -3.1236e-009    -1.9598e-007    1.9427e-009    
  0.4             2.1417e-009     -1.8853e-007    2.0999e-009    
  0.45            3.8654e-009     -1.7596e-007    -1.717e-010    
  0.5             3.835e-010      -1.587e-007     -2.6712e-009   
  0.55            -3.5271e-009    -2.05e-007      -1.4936e-009   
  0.6             -2.9165e-009    -2.0073e-007    1.3143e-009    
  0.65            1.9172e-009     -1.9414e-007    2.7829e-009    
  0.7             4.5301e-009     -1.8037e-007    7.406e-010     
  0.75            1.723e-009      -1.55e-007      -1.582e-009    
  0.8             -2.1621e-009    -2.0608e-007    -2.1695e-009   
  0.85            -4.0313e-009    -1.9748e-007    -9.3e-012      
  0.9             -7.835e-010     -1.8904e-007    2.735e-009     
  0.95            3.2979e-009     -1.8392e-007    1.5826e-009    
  1               3.1119e-009     -1.6629e-007    -1.8975e-009   
  1.05            -2.2321e-009    -2.0609e-007    -2.0156e-009   
  1.1             -3.669e-009     -1.9389e-007    2.072e-010     
  1.15            -3.503e-010     -1.8475e-007    2.8663e-009    
  1.2             3.9151e-009     -1.8443e-007    1.3498e-009    
  1.25            2.7624e-009     -1.5756e-007    -1.3843e-009   
  1.3             -2.0363e-009    -2.0553e-007    -2.7335e-009   
  1.35            -4.3115e-009    -2.007e-007     -7.878e-010    
  1.4             -1.8002e-009    -1.9663e-007    1.6834e-009    
  1.45            2.066e-009      -1.8926e-007    2.225e-009     
  1.5             4.0308e-009     -1.7572e-007    -3.11e-011     
  1.55            6.232e-010      -1.5765e-007    -2.5867e-009   
  1.6             -3.187e-009     -2.0585e-007    -1.6381e-009   
  1.65            -3.0507e-009    -1.9743e-007    2.094e-009     
  1.7             2.2181e-009     -1.8795e-007    2.0177e-009    
  1.75            3.7519e-009     -1.7593e-007    -2.438e-010    
  1.8             2.499e-010      -1.5847e-007    -2.703e-009    
END_DB

BEGIN_DB
 ICCAP_VAR VG         0.36           
 ICCAP_VAR VS         0              
 ICCAP_VAR VB         -0.9           

 #VD              ID              IB              IG             
  0               3.7217e-009     -1.7602e-007    1.7464e-009    
  0.05            2.1379e-009     -1.8942e-007    2.1832e-009    
  0.1             4.0482e-009     -1.7595e-007    -8.98e-011     
  0.15            6.245e-010      -1.5827e-007    -2.6319e-009   
  0.2             -3.2232e-009    -2.0568e-007    -1.5726e-009   
  0.25            -2.8645e-009    -1.9909e-007    1.3057e-009    
  0.3             2.0223e-009     -1.9507e-007    2.8192e-009    
  0.35            4.6946e-009     -1.8155e-007    8.066e-010     
  0.4             2.0162e-009     -1.5445e-007    -1.5172e-009   
  0.45            -1.9454e-009    -2.0641e-007    -2.2309e-009   
  0.5             -3.8642e-009    -1.9827e-007    -7.7e-011      
  0.55            -6.003e-010     -1.8981e-007    2.6891e-009    
