! VERSION = 6.00
BEGIN_HEADER
 ICCAP_INPUTS
  VG         V  B GROUND SMU4 0.001 LIN        2    0          1.8        6    0.36      
  VS         V  E GROUND SMU2 0.1 CON        0
  VD         V  S GROUND SMU1 0.1 LIN        1    0          1.8        37   0.05      
  VB         V  C GROUND SMU3 0.1 LIN        3    0          -0.9       2    -0.9      
 ICCAP_OUTPUTS
  ID         I  S GROUND SMU1 B
  IB         I  C GROUND SMU3 B
  IG         I  B GROUND SMU4 B
END_HEADER

BEGIN_DB
 ICCAP_VAR VG         0              
 ICCAP_VAR VS         0              
 ICCAP_VAR VB         0              

 #VD              ID              IB              IG             
  0               -8.47e-010      -2.6513e-008    -7.954e-010    
  0.05            1.5196e-009     1.9289e-008     -1.3172e-009   
  0.1             1.846e-010      1.1918e-008     -2.6588e-009   
  0.15            -2.2602e-009    5.27e-010       -9.878e-010    
  0.2             -2.171e-009     -9.593e-009     -1.1503e-009   
  0.25            -1.8084e-009    -1.1424e-008    2.972e-010     
  0.3             -8.836e-010     -2.3091e-008    1.7672e-009    
  0.35            1.6576e-009     -8.66e-009      1.6337e-009    
  0.4             2.1705e-009     1.1423e-008     2.825e-010     
  0.45            2.2739e-009     1.1077e-008     4.944e-010     
  0.5             1.4176e-009     2.3019e-008     -1.3404e-009   
  0.55            7.71e-011       1.1327e-008     -2.7199e-009   
  0.6             -2.0541e-009    -1.1806e-008    -4.79e-011     
  0.65            -2.156e-009     -1.2054e-008    -2.912e-010    
  0.7             -2.2242e-009    -1.1601e-008    -5.27e-010     
  0.75            -2.2669e-009    -1.0512e-008    -7.474e-010    
  0.8             -1.5829e-009    -1.5964e-008    1.2519e-009    
  0.85            -2.418e-010     -1.3749e-008    2.8123e-009    
  0.9             2.2381e-009     9.504e-009      1.1507e-009    
  0.95            1.9402e-009     1.0999e-008     -1.955e-010    
  1               8.959e-010      2.5232e-008     -1.5661e-009   
  1.05            -1.4457e-009    7.562e-009      -1.7938e-009   
  1.1             -2.1988e-009    -1.1912e-008    -4.449e-010    
  1.15            -2.2535e-009    -1.085e-008     -6.843e-010    
  1.2             -1.5497e-009    -1.729e-008     1.2658e-009    
  1.25            -1.751e-010     -1.3274e-008    2.8587e-009    
  1.3             2.2812e-009     9.996e-009      1.0965e-009    
  1.35            1.9091e-009     1.1075e-008     -1.4214e-009   
  1.4             -2.214e-009     1.0295e-008     -1.0952e-009   
  1.45            -1.7728e-009    -1.1486e-008    1.4784e-009    
  1.5             2.3791e-009     -8.55e-009      9.406e-010     
  1.55            1.8011e-009     1.2293e-008     -1.5266e-009   
  1.6             -1.4036e-009    8.233e-009      -1.8194e-009   
  1.65            -2.214e-009     -1.1829e-008    -4.993e-010    
  1.7             -2.262e-009     -1.0932e-008    -7.286e-010    
  1.75            -2.2697e-009    -9.838e-009     -8.861e-010    
  1.8             -1.6488e-009    -1.2717e-008    1.7731e-009    
END_DB

BEGIN_DB
 ICCAP_VAR VG         0.36           
 ICCAP_VAR VS         0              
 ICCAP_VAR VB         0              

 #VD              ID              IB              IG             
  0               7.96e-010       -1.1481e-008    7.858e-010     
  0.05            -1.5278e-009    -1.5386e-008    2.0469e-009    
  0.1             1.9609e-009     -7.809e-009     1.4575e-009    
  0.15            1.6846e-009     1.0795e-008     1.6522e-009    
  0.2             2.2621e-009     1.1372e-008     3.035e-010     
  0.25            2.3664e-009     1.0715e-008     5.168e-010     
  0.3             1.5276e-009     2.2531e-008     -1.3379e-009   
  0.35            1.91e-010       1.1358e-008     -2.7158e-009   
  0.4             -2.0995e-009    -9.881e-009     -1.1091e-009   
  0.45            -1.681e-009     -1.1537e-008    1.4682e-009    
  0.5             1.4605e-009     -8.565e-009     1.9113e-009    
  0.55            2.422e-009      1.0844e-008     5.718e-010     
  0.6             2.4902e-009     9.818e-009      7.607e-010     
  0.65            1.7627e-009     1.5973e-008     -1.7574e-009   
  0.7             -2.1313e-009    5.303e-009      -7.46e-010     
  0.75            -2.1313e-009    -9.813e-009     -9.016e-010    
  0.8             -1.5118e-009    -1.2602e-008    1.7528e-009    
  0.85            1.7981e-009     -9.013e-009     1.6472e-009    
  0.9             2.3326e-009     1.1337e-008     2.989e-010     
  0.95            2.4429e-009     1.0799e-008     5.05e-010      
  1               1.6035e-009     2.297e-008      -1.3389e-009   
  1.05            2.75e-010       1.1216e-008     -2.7187e-009   
  1.1             -2.0782e-009    6.85e-010       -8.982e-010    
  1.15            -1.459e-009     -1.2784e-008    1.7667e-009    
  1.2             1.8604e-009     -8.79e-009      1.6429e-009    
  1.25            2.3947e-009     1.1397e-008     2.903e-010     
  1.3             2.5001e-009     1.107e-008      5.089e-010     
  1.35            2.5934e-009     1.0185e-008     6.988e-010     
  1.4             1.8407e-009     1.7551e-008     -1.3036e-009   
  1.45            5.268e-010      1.2344e-008     -2.6005e-009   
  1.5             -1.7367e-009    6.96e-010       2.06e-011      
  1.55            -1.8451e-009    -1.1905e-008    -2.171e-010    
  1.6             -1.9019e-009    -1.1872e-008    -4.617e-010    
  1.65            -1.9433e-009    -1.1232e-008    -6.897e-010    
  1.7             -1.0465e-009    -1.0161e-008    1.3059e-009    
  1.75            1.4865e-009     -9.995e-009     2.2258e-009    
  1.8             1.5843e-009     2.7411e-008     -1.3808e-009   
END_DB

BEGIN_DB
 ICCAP_VAR VG         0.72           
 ICCAP_VAR VS         0              
 ICCAP_VAR VB         0              

 #VD              ID              IB              IG             
  0               4.455e-010      -2.5214e-008    -2.1261e-009   
  0.05            6.2773e-007     1.1194e-008     -2.7105e-009   
  0.1             8.7186e-007     1.2411e-008     -2.167e-010    
  0.15            9.5081e-007     -1.0815e-008    2.8089e-009    
  0.2             1.01405e-006    -1.1557e-008    9.25e-011      
  0.25            1.09818e-006    1.1687e-008     -2.4376e-009   
  0.3             1.14397e-006    2.8004e-008     -1.3488e-009   
  0.35            1.1484e-006     2.8353e-008     2.8998e-009    
  0.4             1.211e-006      -9.431e-009     -1.1547e-009   
  0.45            1.2692e-006     2.7351e-008     -1.384e-009    
  0.5             1.2588e-006     9.341e-009      1.0178e-009    
  0.55            1.3105e-006     -2.5496e-008    1.3654e-009    
  0.6             1.3506e-006     -2.6437e-008    1.3153e-009    
  0.65            1.4142e-006     -9.382e-009     -1.1596e-009   
  0.7             1.4704e-006     2.7564e-008     -1.3847e-009   
  0.75            1.4578e-006     9.304e-009      1.0164e-009    
  0.8             1.5187e-006     -2.5578e-008    1.3641e-009    
  0.85            1.5501e-006     -2.6559e-008    1.3145e-009    
  0.9             1.6176e-006     -9.427e-009     -1.1639e-009   
  0.95            1.677e-006      2.7609e-008     -1.3812e-009   
  1               1.6576e-006     9.2e-009        1.0206e-009    
  1.05            1.7133e-006     -2.5662e-008    1.3638e-009    
  1.1             1.7589e-006     -2.6448e-008    1.3144e-009    
  1.15            1.8309e-006     -9.595e-009     -1.1668e-009   
  1.2             1.8956e-006     2.7618e-008     -1.3827e-009   
  1.25            1.8684e-006     9.37e-009       1.0243e-009    
  1.3             1.9301e-006     -2.5812e-008    1.3608e-009    
  1.35            1.9996e-006     -1.0498e-008    -1.0335e-009   
  1.4             2.075e-006      2.5785e-008     -1.4161e-009   
  1.45            2.0623e-006     1.0128e-008     9.074e-010     
  1.5             2.1131e-006     -2.4371e-008    1.4447e-009    
  1.55            2.1775e-006     -1.1566e-008    -9.091e-010    
  1.6             2.2654e-006     2.2669e-008     -1.4804e-009   
  1.65            2.2654e-006     1.0221e-008     7.843e-010     
  1.7             2.3078e-006     -2.2315e-008    1.5806e-009    
  1.75            2.3662e-006     -1.3281e-008    -7.845e-010    
  1.8             2.4649e-006     1.8005e-008     -1.5962e-009   
END_DB

BEGIN_DB
 ICCAP_VAR VG         1.08           
 ICCAP_VAR VS         0              
 ICCAP_VAR VB         0              

 #VD              ID              IB              IG             
  0               -3.3928e-008    2.234e-008      6.218e-010     
  0.05            1.7883e-005     -1.8328e-008    7.746e-010     
  0.1             3.1485e-005     -2.6194e-008    1.3429e-009    
  0.15            4.1344e-005     -1.1865e-008    -3.492e-010    
  0.2             4.8201e-005     1.9435e-008     -1.6008e-009   
  0.25            5.2316e-005     9.81e-009       9.572e-010     
  0.3             5.5202e-005     -2.6038e-008    1.2933e-009    
  0.35            5.7353e-005     -1.2056e-008    -6.172e-010    
  0.4             5.9225e-005     2.4333e-008     -1.4499e-009   
  0.45            6.0534e-005     2.7403e-008     -1.3365e-009   
  0.5             6.1435e-005     1.1357e-008     6.327e-010     
  0.55            6.2114e-005     -2.4982e-008    1.4037e-009    
  0.6             6.3128e-005     -2.3262e-008    2.1475e-009    
  0.65            6.4117e-005     -1.1711e-008    -7.815e-010    
  0.7             6.5236e-005     2.7054e-008     -1.3991e-009   
  0.75            6.6039e-005     2.4548e-008     -1.8564e-009   
  0.8             6.6538e-005     1.0942e-008     7.799e-010     
  0.85            6.7059e-005     -2.6597e-008    1.3387e-009    
  0.9             6.8462e-005     -9.857e-009     -1.4506e-009   
  0.95            6.9008e-005     1.7964e-008     -1.5872e-009   
  1               6.9323e-005     9.8e-009        9.611e-010     
  1.05            7.0025e-005     -2.5911e-008    1.2927e-009    
  1.1             7.0836e-005     -1.205e-008     -6.228e-010    
  1.15            7.1907e-005     2.4411e-008     -1.4457e-009   
  1.2             7.2629e-005     2.7459e-008     -1.3348e-009   
  1.25            7.3087e-005     1.128e-008      6.446e-010     
  1.3             7.3402e-005     -2.5151e-008    1.4016e-009    
  1.35            7.4194e-005     -2.3357e-008    2.1381e-009    
  1.4             7.5001e-005     -1.2238e-008    -7.912e-010    
  1.45            7.5928e-005     8.272e-009      -1.3545e-009   
  1.5             7.6555e-005     1.5482e-008     -1.5557e-009   
  1.55            7.6774e-005     6.566e-009      9.876e-010     
  1.6             7.7456e-005     -3.018e-008     1.2861e-009    
  1.65            7.8662e-005     -1.8226e-008    -1.6931e-009   
  1.7             7.9232e-005     4.031e-009      -1.8875e-009   
  1.75            7.9543e-005     -6.274e-009     2.2295e-009    
  1.8             8.0148e-005     -3.5131e-008    -4.416e-010    
END_DB

BEGIN_DB
 ICCAP_VAR VG         1.44           
 ICCAP_VAR VS         0              
 ICCAP_VAR VB         0              

 #VD              ID              IB              IG             
  0               -5.9164e-008    2.2515e-008     1.0337e-009    
  0.05            3.8827e-005     -8.824e-009     -1.096e-010    
  0.1             7.3475e-005     -1.462e-008     2.3711e-009    
  0.15            0.000103326     -1.1963e-008    -6.6e-010      
  0.2             0.00012807      2.2855e-008     7.771e-010     
  0.25            0.00014759      -2.33e-008      1.4723e-009    
  0.3             0.00016318      -1.0177e-008    -9.836e-010    
  0.35            0.00017493      2.723e-008      -1.4041e-009   
  0.4             0.00018321      8.854e-009      1.0517e-009    
  0.45            0.00018983      -2.7166e-008    1.32e-009      
  0.5             0.0001949       -2.3367e-008    1.265e-009     
  0.55            0.00019882      -1.1942e-008    -4.955e-010    
  0.6             0.00020247      1.7029e-008     -1.7395e-009   
  0.65            0.00020495      1.1333e-008     6.25e-010      
  0.7             0.00020677      -1.9973e-008    1.6256e-009    
  0.75            0.00020919      -1.1082e-008    -8.54e-010     
  0.8             0.00021141      2.4372e-008     -1.4536e-009   
  0.85            0.00021306      2.8322e-008     -1.3829e-009   
  0.9             0.00021486      2.7237e-008     -1.3322e-009   
  0.95            0.00021629      2.0682e-008     -1.6671e-009   
  1               0.00021762      1.1199e-008     6.825e-010     
  1.05            0.00021871      -2.1439e-008    1.5652e-009    
  1.1             0.00022038      -1.1092e-008    -9.02e-010     
  1.15            0.00022214      2.5473e-008     -1.4288e-009   
  1.2             0.00022288      9.493e-009      9.701e-010     
  1.25            0.00022407      -2.69e-008      1.3473e-009    
  1.3             0.0002262       -9.573e-009     -1.1919e-009   
  1.35            0.00022739      2.8449e-008     -1.3613e-009   
  1.4             0.00022871      2.4341e-008     -1.3032e-009   
  1.45            0.00022979      1.0408e-008     5.242e-010     
  1.5             0.00023043      -2.022e-008     1.7699e-009    
  1.55            0.00023187      -1.4881e-008    -7.687e-010    
  1.6             0.00023336      5.82e-010       -1.4026e-009   
  1.65            0.00023466      5.059e-009      -2.0828e-009   
  1.7             0.00023556      -1.9706e-008    -2.7082e-009   
  1.75            0.00023635      -1.0643e-008    9.864e-010     
  1.8             0.00023746      -5.5837e-008    1.3392e-009    
END_DB

BEGIN_DB
 ICCAP_VAR VG         1.8            
 ICCAP_VAR VS         0              
 ICCAP_VAR VB         0              

 #VD              ID              IB              IG             
  0               -7.983e-008     2.8061e-008     8.084e-010     
  0.05            5.3122e-005     -1.4518e-008    4.459e-010     
  0.1             0.00010283      -2.157e-008     1.5509e-009    
  0.15            0.00014842      -1.0478e-008    -2.683e-009    
  0.2             0.00018872      2.2849e-008     -1.778e-009    
  0.25            0.00022361      1.1256e-008     6.079e-010     
  0.3             0.00025292      -1.9793e-008    1.6553e-009    
  0.35            0.00027792      -1.1231e-008    -8.39e-010     
  0.4             0.00029843      2.3789e-008     -1.4669e-009   
  0.45            0.00031498      2.7725e-008     -1.3817e-009   
  0.5             0.00032831      2.7173e-008     -1.3257e-009   
  0.55            0.00033888      1.1286e-008     3.678e-010     
  0.6             0.00034693      -1.7084e-008    1.994e-009     
  0.65            0.00035399      -1.1839e-008    -6.215e-010    
  0.7             0.00035999      1.8908e-008     -1.6337e-009   
  0.75            0.00036448      1.0894e-008     7.205e-010     
  0.8             0.0003681       -2.2108e-008    1.5254e-009    
  0.85            0.00037181      -1.0538e-008    -9.316e-010    
  0.9             0.00037508      2.5881e-008     -1.4209e-009   
  0.95            0.00037729      9.222e-009      9.993e-010     
  1               0.00037969      -2.6338e-008    1.3362e-009    
  1.05            0.00038209      -2.454e-008     1.2744e-009    
  1.1             0.00038434      -1.1764e-008    -4.175e-010    
  1.15            0.000387        1.6076e-008     -1.8294e-009   
  1.2             0.00038885      1.1283e-008     5.601e-010     
  1.25            0.00039032      -1.9272e-008    1.723e-009     
  1.3             0.00039245      -1.1511e-008    -8.023e-010    
  1.35            0.00039461      2.248e-008      -1.4912e-009   
  1.4             0.00039653      2.6797e-008     -1.3917e-009   
  1.45            0.00039819      2.6848e-008     -1.338e-009    
  1.5             0.00039961      1.7505e-008     -1.6191e-009   
  1.55            0.00040117      8.34e-009       7.353e-010     
  1.6             0.00040229      -2.636e-008     1.5124e-009    
  1.65            0.00040442      -1.7086e-008    -9.453e-010    
  1.7             0.00040614      -2.144e-009     -1.3598e-009   
  1.75            0.00040717      -6.128e-009     2.596e-009     
  1.8             0.00040853      -3.5775e-008    -7.882e-010    
END_DB

BEGIN_DB
 ICCAP_VAR VG         0              
 ICCAP_VAR VS         0              
 ICCAP_VAR VB         -0.9           

 #VD              ID              IB              IG             
  0               4.177e-010      1.0503e-008     9.25e-011      
  0.05            2.1856e-009     1.1238e-008     2.994e-010     
  0.1             2.2843e-009     1.0733e-008     5.004e-010     
  0.15            1.3977e-009     2.3365e-008     -1.335e-009    
  0.2             7.15e-011       1.1372e-008     -2.7157e-009   
  0.25            -2.0392e-009    -1.1665e-008    -1.19e-011     
  0.3             -2.1331e-009    -1.1814e-008    -2.393e-010    
  0.35            -2.2018e-009    -1.1529e-008    -4.759e-010    
  0.4             -2.2488e-009    -1.0584e-008    -7.076e-010    
  0.45            -1.5617e-009    -1.6836e-008    1.2568e-009    
  0.5             -1.809e-010     -1.3475e-008    2.847e-009     
  0.55            2.117e-009      1.1152e-008     1.741e-010     
  0.6             2.2191e-009     1.1171e-008     3.731e-010     
  0.65            2.3139e-009     1.0311e-008     5.733e-010     
  0.7             1.457e-009      2.1552e-008     -1.3205e-009   
  0.75            1.309e-010      1.1479e-008     -2.6906e-009   
  0.8             -1.3214e-009    6.06e-010       -1.8934e-009   
  0.85            -2.243e-009     -1.0885e-008    -6.409e-010    
  0.9             -1.5324e-009    -1.8356e-008    1.267e-009     
  0.95            -1.336e-010     -1.3013e-008    2.8744e-009    
  1               2.0866e-009     1.1187e-008     1.145e-010     
  1.05            2.1922e-009     1.1248e-008     3.164e-010     
  1.1             2.2886e-009     1.0608e-008     5.195e-010     
  1.15            1.417e-009      2.285e-008      -1.3301e-009   
  1.2             8.38e-011       1.1341e-008     -2.7111e-009   
  1.25            -2.2035e-009    -9.841e-009     -1.0987e-009   
  1.3             -1.7686e-009    -1.172e-008     1.495e-009     
  1.35            2.3821e-009     -8.551e-009     9.348e-010     
  1.4             1.7732e-009     1.2633e-008     -1.5536e-009   
  1.45            -1.4309e-009    7.346e-009      -1.8054e-009   
  1.5             -2.1956e-009    -1.1608e-008    -4.625e-010    
  1.55            -2.2527e-009    -1.0605e-008    -6.918e-010    
  1.6             -1.5543e-009    -1.7167e-008    1.2579e-009    
  1.65            -1.742e-010     -1.3447e-008    2.8574e-009    
  1.7             2.1109e-009     1.1204e-008     1.589e-010     
  1.75            2.2143e-009     1.1226e-008     3.565e-010     
  1.8             2.3053e-009     1.0396e-008     5.685e-010     
END_DB

BEGIN_DB
 ICCAP_VAR VG         0.36           
 ICCAP_VAR VS         0              
 ICCAP_VAR VB         -0.9           

 #VD              ID              IB              IG             
  0               -5.869e-010     -3.176e-009     1.752e-010     
  0.05            -9.9e-010       -2.5342e-008    1.583e-009     
  0.1             2.3892e-009     -8.617e-009     8.643e-010     
  0.15            2.3609e-009     9.304e-009      1.0122e-009    
  0.2             2.2403e-009     1.0708e-008     1.168e-009     
  0.25            1.1212e-009     2.8777e-008     -1.4038e-009   
  0.3             -2.1829e-009    1.0531e-008     -1.1566e-009   
  0.35            -1.1118e-009    -2.684e-008     1.4388e-009    
  0.4             2.3753e-009     -8.368e-009     9.886e-010     
  0.45            1.8258e-009     1.1854e-008     -1.4857e-009   
  0.5             -2.2616e-009    8.636e-009      -9.692e-010    
  0.55            -1.6875e-009    -1.1882e-008    1.6359e-009    
