! VERSION = 6.00
BEGIN_HEADER
 ICCAP_INPUTS
  VG         V  B GROUND SMU4 0.001 LIN        1    0          1.8        37   0.05      
  VS         V  E GROUND SMU3 0.1 CON        0
  VB         V  C GROUND SMU1 0.1 LIN        3    0          -1.8       3    -0.9      
  VD         V  S GROUND SMU2 0.1 LIN        2    0.1        1.8        2    1.7       
 ICCAP_OUTPUTS
  IG         I  B GROUND SMU4 B
  ID         I  S GROUND SMU2 B
  IB         I  C GROUND SMU1 B
END_HEADER

BEGIN_DB
 ICCAP_VAR VS         0              
 ICCAP_VAR VB         0              
 ICCAP_VAR VD         0.1            

 #VG              IG              ID              IB             
  0               -2.2507e-009    -4.0771e-009    -9.603e-009    
  0.05            1.3179e-009     -2.5771e-009    -2.382e-008    
  0.1             8.983e-010      4.5096e-009     9.14e-009      
  0.15            -2.5212e-009    -2.1351e-009    4.872e-009     
  0.2             1.5189e-009     -1.9553e-009    -2.2169e-008   
  0.25            5.6e-010        4.6338e-009     1.0922e-008    
  0.3             -2.1718e-009    -1.5743e-009    1.597e-009     
  0.35            2.414e-010      -9.331e-010     -9.776e-009    
  0.4             1.7876e-009     1.7617e-008     6.529e-009     
  0.45            -1.9965e-009    5.3665e-008     1.6636e-008    
  0.5             1.1381e-009     2.0729e-007     -1.8319e-008   
  0.55            -1.3804e-009    7.1983e-007     2.6258e-008    
  0.6             1.3148e-009     1.9872e-006     1.1221e-008    
  0.65            -1.712e-009     4.7504e-006     2.0518e-008    
  0.7             -9.279e-010     9.0634e-006     -1.1256e-008   
  0.75            -1.8641e-009    1.5165e-005     2.363e-008     
  0.8             2.0804e-009     2.2141e-005     -1.7937e-008   
  0.85            7.089e-010      3.0201e-005     1.1248e-008    
  0.9             -1.3811e-009    3.8568e-005     7.279e-009     
  0.95            2.0651e-009     4.6671e-005     -2.192e-008    
  1               7.154e-010      5.4968e-005     1.1225e-008    
  1.05            -1.3812e-009    6.308e-005      7.278e-009     
  1.1             2.0512e-009     7.0603e-005     -2.1927e-008   
  1.15            7.259e-010      7.8064e-005     1.1048e-008    
  1.2             -1.3818e-009    8.523e-005      7.496e-009     
  1.25            2.0316e-009     9.1812e-005     -2.16e-008     
  1.3             7.292e-010      9.8226e-005     1.113e-008     
  1.35            -1.3816e-009    0.000104374     7.402e-009     
  1.4             2.0114e-009     0.000109933     -2.1334e-008   
  1.45            -2.0379e-009    0.0001154       -9.556e-009    
  1.5             1.582e-009      0.00012035      -1.8787e-008   
  1.55            9.68e-010       0.00012519      1.0419e-008    
  1.6             -1.3818e-009    0.00012973      2.5255e-008    
  1.65            1.9829e-009     0.00013385      -2.0897e-008   
  1.7             7.599e-010      0.00013782      1.1345e-008    
  1.75            -1.3824e-009    0.00014147      7.561e-009     
  1.8             1.956e-009      0.00014497      -2.0779e-008   
END_DB

BEGIN_DB
 ICCAP_VAR VS         0              
 ICCAP_VAR VB         0              
 ICCAP_VAR VD         1.8            

 #VG              IG              ID              IB             
  0               4.277e-010      -9.846e-010     -5.938e-009    
  0.05            1.3218e-009     4.963e-010      -7.777e-009    
  0.1             8.625e-010      4.5235e-009     9.44e-009      
  0.15            -2.4835e-009    -2.1423e-009    4.502e-009     
  0.2             1.5555e-009     -1.8913e-009    -2.1885e-008   
  0.25            5.27e-010       4.6804e-009     1.1221e-008    
  0.3             -3.668e-010     -3.438e-009     -1.1867e-008   
  0.35            2.6845e-009     3.1224e-009     -1.6806e-008   
  0.4             2.8537e-009     2.0028e-008     1.7862e-008    
  0.45            -1.5969e-009    8.1139e-008     1.7373e-008    
  0.5             -2.5599e-009    3.0291e-007     9.691e-009     
  0.55            -7.635e-010     1.03792e-006    -1.2884e-008   
  0.6             2.1609e-009     2.9241e-006     1.0627e-008    
  0.65            -2.7134e-009    7.0383e-006     6.136e-009     
  0.7             9.31e-011       1.3719e-005     3.679e-009     
  0.75            2.5824e-009     2.3912e-005     -2.4892e-008   
  0.8             -1.7475e-009    3.819e-005      6.25e-009      
  0.85            -2.2694e-009    5.5332e-005     -2.1162e-008   
  0.9             -4.304e-010     7.6168e-005     -2.5147e-008   
  0.95            1.8145e-009     9.9952e-005     -3.1295e-008   
  1               2.8733e-009     0.00012695      -6.734e-009    
  1.05            -2.3915e-009    0.00015788      2.366e-009     
  1.1             -1.9593e-009    0.00019008      -2.1553e-008   
  1.15            6.02e-011       0.00022387      -1.854e-008    
  1.2             2.5476e-009     0.00026041      -2.3839e-008   
  1.25            -1.7101e-009    0.00030023      1.107e-008     
  1.3             -9.264e-010     0.00033996      -1.6856e-008   
  1.35            1.325e-009      0.00038075      -2.6821e-008   
  1.4             -1.8602e-009    0.00042487      1.3572e-008    
  1.45            -8.428e-010     0.00046839      -1.4331e-008   
  1.5             1.3187e-009     0.00051254      -9.878e-009    
  1.55            -1.8101e-009    0.00055989      2.179e-008     
  1.6             -8.704e-010     0.00060593      -1.2859e-008   
  1.65            1.3189e-009     0.00065226      -8.632e-009    
  1.7             -1.7702e-009    0.0007014       2.1559e-008    
  1.75            -8.944e-010     0.00074926      -1.2125e-008   
  1.8             1.319e-009      0.00079709      -7.614e-009    
END_DB

BEGIN_DB
 ICCAP_VAR VS         0              
 ICCAP_VAR VB         -0.9           
 ICCAP_VAR VD         0.1            

 #VG              IG              ID              IB             
  0               1.196e-009      2.025e-009      -1.5824e-007   
  0.05            1.6207e-009     3.2366e-009     -1.9681e-007   
  0.1             -1.8371e-009    3.1581e-009     -1.6677e-007   
  0.15            -2.0276e-009    -2.21e-009      -2.0518e-007   
  0.2             1.901e-010      -3.718e-009     -1.9447e-007   
  0.25            2.8643e-009     -3.783e-010     -1.8483e-007   
  0.3             1.3582e-009     3.8824e-009     -1.8352e-007   
  0.35            -1.3883e-009    2.7798e-009     -1.568e-007    
  0.4             -2.7247e-009    -1.9644e-009    -2.0449e-007   
  0.45            -7.787e-010     -3.9357e-009    -2.0031e-007   
  0.5             1.6977e-009     1.3e-010        -1.9592e-007   
  0.55            7.546e-010      1.4194e-008     -1.9609e-007   
  0.6             -1.406e-009     4.7568e-008     -1.5368e-007   
  0.65            -1.1141e-009    1.8127e-007     -1.5624e-007   
  0.7             -2.7614e-009    6.0948e-007     -2.0498e-007   
  0.75            1.3237e-009     1.7008e-006     -1.7713e-007   
  0.8             2.8269e-009     4.058e-006      -1.9224e-007   
  0.85            1.0675e-009     8.0657e-006     -1.8136e-007   
  0.9             2.7913e-009     1.3804e-005     -2.006e-007    
  0.95            1.7572e-009     2.0622e-005     -1.8373e-007   
  1               -1.4274e-009    2.8661e-005     -1.714e-007    
  1.05            -2.5909e-009    3.6708e-005     -2.0635e-007   
  1.1             -8.012e-010     4.4878e-005     -1.9976e-007   
  1.15            1.3882e-009     5.2786e-005     -1.9659e-007   
  1.2             2.6273e-009     6.0765e-005     -1.8985e-007   
  1.25            7.346e-010      6.8343e-005     -1.7725e-007   
  1.3             -1.4125e-009    7.5716e-005     -1.5434e-007   
  1.35            -2.6276e-009    8.253e-005      -2.0671e-007   
  1.4             -8.401e-010     8.9066e-005     -1.9992e-007   
  1.45            1.3624e-009     9.5138e-005     -1.9787e-007   
  1.5             2.6545e-009     0.000101015     -1.9035e-007   
  1.55            7.768e-010      0.000106562     -1.7763e-007   
  1.6             -1.398e-009     0.000111813     -1.5406e-007   
  1.65            2.8875e-009     0.00011659      -1.8264e-007   
  1.7             1.4185e-009     0.00012102      -1.8281e-007   
  1.75            -1.7446e-009    0.00012547      -1.5982e-007   
  1.8             -2.2739e-009    0.00012932      -2.0483e-007   
END_DB

BEGIN_DB
 ICCAP_VAR VS         0              
 ICCAP_VAR VB         -0.9           
 ICCAP_VAR VD         1.8            

 #VG              IG              ID              IB             
  0               1.53e-010       -3.156e-010     -1.9576e-007   
  0.05            -2.4064e-009    9.159e-010      -1.5621e-007   
  0.1             -1.7905e-009    -2.7525e-009    -2.0569e-007   
  0.15            1.7733e-009     -3.2039e-009    -1.9408e-007   
  0.2             2.18e-009       2.0839e-009     -1.8864e-007   
  0.25            -1.006e-010     3.9554e-009     -1.751e-007    
  0.3             -2.6304e-009    5.153e-010      -1.5762e-007   
  0.35            -1.5635e-009    -3.3349e-009    -2.0466e-007   
  0.4             2.2322e-009     -2.8745e-009    -1.985e-007    
  0.45            1.9445e-009     2.9127e-009     -1.8703e-007   
  0.5             -1.4681e-009    6.6807e-009     -1.7493e-007   
  0.55            -1.8589e-009    1.7374e-008     -2.0486e-007   
  0.6             -2.2087e-009    6.9858e-008     -2.0484e-007   
  0.65            -2.3239e-009    2.823e-007      -1.8221e-007   
  0.7             -1.9879e-009    9.1528e-007     -2.0614e-007   
  0.75            2.8755e-009     2.5461e-006     -1.5409e-007   
  0.8             1.5104e-009     5.9639e-006     -1.8543e-007   
  0.85            2.254e-010      1.2575e-005     -1.8821e-007   
  0.9             -1.9471e-009    2.2523e-005     -1.62e-007     
  0.95            -2.1582e-009    3.5964e-005     -2.1259e-007   
  1               -2.851e-010     5.3332e-005     -2.0462e-007   
  1.05            2.0439e-009     7.4225e-005     -1.9953e-007   
  1.1             2.2754e-009     9.8994e-005     -1.9575e-007   
  1.15            5.059e-010      0.0001268       -1.6372e-007   
  1.2             -1.5789e-009    0.0001576       -1.6241e-007   
  1.25            -2.4064e-009    0.00019014      -2.1103e-007   
  1.3             -6.028e-010     0.0002255       -2.0402e-007   
  1.35            1.5769e-009     0.00026228      -1.9797e-007   
  1.4             2.496e-009      0.00030194      -1.93e-007     
  1.45            5.641e-010      0.0003429       -1.7911e-007   
  1.5             -1.5303e-009    0.00038556      -1.5795e-007   
  1.55            -2.4656e-009    0.00042845      -2.0754e-007   
  1.6             -6.575e-010     0.0004728       -2.0076e-007   
  1.65            1.5201e-009     0.00051755      -1.9584e-007   
  1.7             2.5341e-009     0.00056432      -1.9047e-007   
  1.75            6.146e-010      0.00061123      -1.7727e-007   
  1.8             -1.4956e-009    0.00065912      -1.558e-007    
END_DB

BEGIN_DB
 ICCAP_VAR VS         0              
 ICCAP_VAR VB         -1.8           
 ICCAP_VAR VD         0.1            

 #VG              IG              ID              IB             
  0               6.331e-010      -4.223e-010     -1.8651e-007   
  0.05            1.331e-009      5.599e-010      -1.808e-007    
  0.1             2.5556e-009     2.0488e-009     -1.9307e-007   
  0.15            3.823e-010      4.3723e-009     -1.794e-007    
  0.2             -2.1034e-009    1.2075e-009     -1.5958e-007   
  0.25            -1.9317e-009    -2.3654e-009    -2.0816e-007   
  0.3             1.4802e-009     -3.4599e-009    -1.9581e-007   
  0.35            2.359e-009      2.0727e-009     -1.922e-007    
  0.4             1.113e-010      4.1722e-009     -1.7812e-007   
  0.45            -2.4624e-009    8.561e-010      -1.5947e-007   
  0.5             -1.7509e-009    -2.769e-009     -2.0864e-007   
  0.55            1.8464e-009     -2.8021e-009    -1.9721e-007   
  0.6             2.1354e-009     4.1273e-009     -1.913e-007    
  0.65            -2.2319e-009    1.0463e-008     -2.0304e-007   
  0.7             -2.0278e-009    4.7272e-008     -2.0822e-007   
  0.75            1.4571e-009     1.8656e-007     -2.0807e-007   
  0.8             1.3218e-009     5.6632e-007     -2.0517e-007   
  0.85            -1.5021e-009    1.5322e-006     -2.0883e-007   
  0.9             -2.4806e-009    3.4814e-006     -2.092e-007    
  0.95            -6.73e-010      7.0192e-006     -2.0269e-007   
  1               -2.7415e-009    1.2274e-005     -1.7919e-007   
  1.05            -1.0866e-009    1.8929e-005     -2.031e-007    
  1.1             1.3246e-009     2.6254e-005     -2.0575e-007   
  1.15            2.7992e-009     3.4243e-005     -1.9487e-007   
  1.2             1.0257e-009     4.2259e-005     -1.8399e-007   
  1.25            -1.3916e-009    5.0434e-005     -1.5459e-007   
  1.3             -2.7494e-009    5.8148e-005     -2.0891e-007   
  1.35            -1.1233e-009    6.5701e-005     -2.0321e-007   
  1.4             1.3232e-009     7.2657e-005     -2.0634e-007   
  1.45            2.8198e-009     7.9536e-005     -1.9547e-007   
  1.5             1.0591e-009     8.5907e-005     -1.8445e-007   
  1.55            -1.3925e-009    9.2205e-005     -1.5473e-007   
  1.6             -2.7545e-009    9.787e-005      -2.0884e-007   
  1.65            -1.1634e-009    0.000103322     -2.0327e-007   
  1.7             1.3233e-009     0.000108232     -2.0629e-007   
  1.75            2.8337e-009     0.000113018     -1.9557e-007   
  1.8             -1.7251e-009    0.00011754      -2.017e-007    
END_DB

BEGIN_DB
 ICCAP_VAR VS         0              
 ICCAP_VAR VB         -1.8           
 ICCAP_VAR VD         1.8            

 #VG              IG              ID              IB             
  0               7.6e-011        8.639e-010      -1.9812e-007   
  0.05            -2.4987e-009    7.862e-010      -1.5936e-007   
  0.1             -1.713e-009     -2.9278e-009    -2.0852e-007   
  0.15            1.9194e-009     -3.1237e-009    -1.9754e-007   
  0.2             2.0883e-009     2.1496e-009     -1.9101e-007   
  0.25            -1.875e-010     3.8413e-009     -1.7779e-007   
  0.3             -2.6959e-009    3.485e-010      -1.6003e-007   
  0.35            -1.4537e-009    -3.5916e-009    -2.0707e-007   
  0.4             1.3216e-009     -2.8525e-009    -2.0324e-007   
  0.45            2.7358e-009     1.9408e-009     -1.9563e-007   
  0.5             6.819e-010      4.6209e-009     -1.8186e-007   
  0.55            -1.6414e-009    2.2214e-009     -1.5729e-007   
  0.6             -2.1144e-009    1.1221e-009     -2.0803e-007   
  0.65            -8.764e-010     1.2996e-008     -1.9863e-007   
  0.7             1.351e-009      7.7754e-008     -2.0152e-007   
  0.75            1.3241e-009     2.8643e-007     -1.9759e-007   
  0.8             2.7427e-009     8.6636e-007     -1.9318e-007   
  0.85            -1.6627e-009    2.2884e-006     -1.9811e-007   
  0.9             -2.3089e-009    5.274e-006      -2.0985e-007   
  0.95            -4.762e-010     1.08894e-005    -2.0399e-007   
  1               -2.3727e-009    1.9906e-005     -1.8161e-007   
  1.05            -5.511e-010     3.2705e-005     -2.0646e-007   
  1.1             1.6295e-009     4.9151e-005     -2.0042e-007   
  1.15            2.4592e-009     6.9816e-005     -1.975e-007    
  1.2             4.985e-010      9.3975e-005     -1.8399e-007   
  1.25            -1.7746e-009    0.00012172      -1.721e-007    
  1.3             -2.2421e-009    0.00015139      -2.1291e-007   
  1.35            -3.89e-010      0.00018407      -2.0453e-007   
  1.4             1.8693e-009     0.00021886      -1.9694e-007   
  1.45            2.3393e-009     0.00025668      -1.9358e-007   
  1.5             3.531e-010      0.00029602      -1.8008e-007   
  1.55            -1.7496e-009    0.00033701      -1.6088e-007   
  1.6             -2.2585e-009    0.00037852      -2.0923e-007   
  1.65            -4.055e-010     0.00042162      -2.0164e-007   
  1.7             1.837e-009      0.00046538      -1.9431e-007   
  1.75            2.354e-009      0.00051123      -1.9172e-007   
  1.8             3.774e-010      0.00055761      -1.784e-007    
END_DB

