! VERSION = 6.00
BEGIN_HEADER
 ICCAP_INPUTS
  VG         V  B GROUND SMU4 0.001 LIN        2    0          1.8        6    0.36      
  VS         V  E GROUND SMU2 0.1 CON        0
  VD         V  S GROUND SMU1 0.1 LIN        1    0          1.8        37   0.05      
  VB         V  C GROUND SMU3 0.1 CON        0
 ICCAP_OUTPUTS
  ID         I  S GROUND SMU1 B
  IG         I  B GROUND SMU4 B
END_HEADER

BEGIN_DB
 ICCAP_VAR VG         0              
 ICCAP_VAR VS         0              
 ICCAP_VAR VB         0              

 #VD              ID              IG             
  0               -3.0211e-009    1.8242e-010    
  0.05            3.6659e-007     2.4321e-010    
  0.1             6.8834e-007     2.5276e-010    
  0.15            9.7591e-007     2.6267e-010    
  0.2             1.243e-006      -4.553e-011    
  0.25            1.4947e-006     -2.3077e-010   
  0.3             1.7329e-006     -2.5119e-010   
  0.35            1.9598e-006     -2.7293e-010   
  0.4             2.1719e-006     -2.9661e-010   
  0.45            2.3716e-006     -3.1949e-010   
  0.5             2.5559e-006     -2.3262e-010   
  0.55            2.7268e-006     -2.5266e-010   
  0.6             2.8843e-006     -2.7421e-010   
  0.65            3.0287e-006     -2.982e-010    
  0.7             3.1616e-006     -3.2143e-010   
  0.75            3.2826e-006     -2.3367e-010   
  0.8             3.3935e-006     -2.5319e-010   
  0.85            3.495e-006      -2.7641e-010   
  0.9             3.5883e-006     -3.0041e-010   
  0.95            3.6739e-006     -3.2247e-010   
  1               3.7569e-006     -2.347e-010    
  1.05            3.8325e-006     -2.5402e-010   
  1.1             3.9049e-006     -2.7792e-010   
  1.15            3.9738e-006     -3.0174e-010   
  1.2             4.0388e-006     -3.2337e-010   
  1.25            4.0994e-006     -2.368e-010    
  1.3             4.1584e-006     -2.5634e-010   
  1.35            4.2132e-006     -2.7928e-010   
  1.4             4.2657e-006     -3.0367e-010   
  1.45            4.3177e-006     -3.2513e-010   
  1.5             4.3659e-006     -2.383e-010    
  1.55            4.4135e-006     -2.5761e-010   
  1.6             4.4583e-006     -2.8113e-010   
  1.65            4.5049e-006     -3.0553e-010   
  1.7             4.5504e-006     -3.2663e-010   
  1.75            4.5938e-006     -2.3884e-010   
  1.8             4.6394e-006     -2.592e-010    
END_DB

BEGIN_DB
 ICCAP_VAR VG         0.36           
 ICCAP_VAR VS         0              
 ICCAP_VAR VB         0              

 #VD              ID              IG             
  0               -3.5658e-008    -1.3121e-010   
  0.05            1.1351e-006     -1.8222e-010   
  0.1             2.0174e-006     -2.368e-010    
  0.15            2.7685e-006     -2.5627e-010   
  0.2             3.4394e-006     -2.7994e-010   
  0.25            4.0559e-006     -3.0392e-010   
  0.3             4.628e-006      -3.2499e-010   
  0.35            5.163e-006      -2.3884e-010   
  0.4             5.6631e-006     -2.5775e-010   
  0.45            6.1318e-006     -2.8116e-010   
  0.5             6.5699e-006     -3.0565e-010   
  0.55            6.9805e-006     -3.2713e-010   
  0.6             7.3608e-006     -2.3946e-010   
  0.65            7.7153e-006     -2.5974e-010   
  0.7             8.0425e-006     -2.8317e-010   
  0.75            8.3474e-006     -3.0747e-010   
  0.8             8.6297e-006     -3.2775e-010   
  0.85            8.8905e-006     -2.4053e-010   
  0.9             9.1333e-006     -2.6225e-010   
  0.95            9.3592e-006     -2.8519e-010   
  1               9.5706e-006     -3.0864e-010   
  1.05            9.7713e-006     -3.2849e-010   
  1.1             9.9609e-006     -2.4149e-010   
  1.15            1.01387e-005    -2.625e-010    
  1.2             1.03087e-005    -2.8669e-010   
  1.25            1.04716e-005    -3.0983e-010   
  1.3             1.06299e-005    -3.2974e-010   
  1.35            1.07804e-005    -2.4227e-010   
  1.4             1.09261e-005    -2.6458e-010   
  1.45            1.10674e-005    -2.8825e-010   
  1.5             1.1215e-005     5.785e-011     
  1.55            1.1345e-005     3.3936e-010    
  1.6             1.1475e-005     2.5265e-010    
  1.65            1.1607e-005     2.4038e-010    
  1.7             1.1738e-005     3.3221e-010    
  1.75            1.1869e-005     3.2195e-010    
  1.8             1.1996e-005     3.0855e-010    
END_DB

BEGIN_DB
 ICCAP_VAR VG         0.72           
 ICCAP_VAR VS         0              
 ICCAP_VAR VB         0              

 #VD              ID              IG             
  0               -2.8352e-006    -3.217e-010    
  0.05            0.00056018      1.0573e-010    
  0.1             0.000819        3.2567e-010    
  0.15            0.0009311       2.2886e-010    
  0.2             0.00099034      2.366e-010     
  0.25            0.00103133      2.4501e-010    
  0.3             0.00106127      2.5338e-010    
  0.35            0.00109115      2.6407e-010    
  0.4             0.00112172      2.7416e-010    
  0.45            0.0011541       3.3575e-010    
  0.5             0.0011873       2.428e-010     
  0.55            0.0012223       2.5163e-010    
  0.6             0.0012591       2.6266e-010    
  0.65            0.0012968       2.7259e-010    
  0.7             0.0013362       2.829e-010     
  0.75            0.0013773       2.9363e-010    
  0.8             0.0014189       3.0472e-010    
  0.85            0.0014619       3.1438e-010    
  0.9             0.0015052       3.2345e-010    
  0.95            0.0015508       2.2693e-010    
  1               0.0015973       2.3531e-010    
  1.05            0.0016454       2.4319e-010    
  1.1             0.0016947       2.5252e-010    
  1.15            0.0017459       2.6208e-010    
  1.2             0.0017988       2.7309e-010    
  1.25            0.001854        2.8325e-010    
  1.3             0.0019111       2.9436e-010    
  1.35            0.0019705       3.051e-010     
  1.4             0.0020327       3.1519e-010    
  1.45            0.0020981       3.2411e-010    
  1.5             0.0021655       2.2777e-010    
  1.55            0.0022367       2.3642e-010    
  1.6             0.0023109       2.4444e-010    
  1.65            0.0023885       2.5359e-010    
  1.7             0.0024686       2.638e-010     
  1.75            0.0025521       2.7171e-010    
  1.8             0.0026389       2.8013e-010    
END_DB

BEGIN_DB
 ICCAP_VAR VG         1.08           
 ICCAP_VAR VS         0              
 ICCAP_VAR VB         0              

 #VD              ID              IG             
  0               -5.3784e-006    -7.672e-011    
  0.05            0.0015079       3.3641e-010    
  0.1             0.0029658       2.8899e-010    
  0.15            0.0043404       2.9911e-010    
  0.2             0.0055997       3.0905e-010    
  0.25            0.0067002       3.184e-010     
  0.3             0.0075858       3.2783e-010    
  0.35            0.0082258       2.3085e-010    
  0.4             0.0086412       2.3892e-010    
  0.45            0.0088926       2.4826e-010    
  0.5             0.009059        2.5773e-010    
  0.55            0.0091752       2.6689e-010    
  0.6             0.0092051       2.7724e-010    
  0.65            0.00923         2.881e-010     
  0.7             0.0092488       2.9851e-010    
  0.75            0.0092653       3.0912e-010    
  0.8             0.0092815       3.1891e-010    
  0.85            0.0092944       3.2709e-010    
  0.9             0.0093079       2.3039e-010    
  0.95            0.009324        2.3862e-010    
  1               0.0093374       2.4652e-010    
  1.05            0.0093507       2.5612e-010    
  1.1             0.0093681       2.6679e-010    
  1.15            0.0093853       2.7595e-010    
  1.2             0.0094059       2.8773e-010    
  1.25            0.009429        2.9867e-010    
  1.3             0.0094534       3.0881e-010    
  1.35            0.0094823       3.1829e-010    
  1.4             0.0095143       3.2718e-010    
  1.45            0.0095523       2.296e-010     
  1.5             0.0095997       2.3812e-010    
  1.55            0.0096519       2.4645e-010    
  1.6             0.0097099       2.5615e-010    
  1.65            0.009778        2.6605e-010    
  1.7             0.0098518       2.7615e-010    
  1.75            0.0099329       2.8735e-010    
  1.8             0.0100217       2.9876e-010    
END_DB

BEGIN_DB
 ICCAP_VAR VG         1.44           
 ICCAP_VAR VS         0              
 ICCAP_VAR VB         0              

 #VD              ID              IG             
  0               -5.8716e-006    1.3977e-010    
  0.05            0.0016198       -2.9235e-010   
  0.1             0.003234        -3.0336e-010   
  0.15            0.0048278       -3.1333e-010   
  0.2             0.0064003       -3.2262e-010   
  0.25            0.0079502       -3.3061e-010   
  0.3             0.0094644       -2.3288e-010   
  0.35            0.0109416       -2.4076e-010   
  0.4             0.012375        2.619e-010     
  0.45            0.013728        2.7455e-010    
  0.5             0.015006        2.8427e-010    
  0.55            0.016161        2.9577e-010    
  0.6             0.017199        3.0669e-010    
  0.65            0.018061        3.1679e-010    
  0.7             0.018719        3.2518e-010    
  0.75            0.019201        2.279e-010     
  0.8             0.019523        2.3508e-010    
  0.85            0.019755        2.4382e-010    
  0.9             0.019916        2.5209e-010    
  0.95            0.020037        2.6189e-010    
  1               0.02007         2.7344e-010    
  1.05            0.020095        2.8413e-010    
  1.1             0.020118        2.945e-010     
  1.15            0.020131        3.0638e-010    
  1.2             0.020153        3.1634e-010    
  1.25            0.020155        3.2482e-010    
  1.3             0.020159        2.2736e-010    
  1.35            0.020162        2.3486e-010    
  1.4             0.020173        2.4357e-010    
  1.45            0.020177        2.5181e-010    
  1.5             0.020175        2.6232e-010    
  1.55            0.020179        2.7261e-010    
  1.6             0.020182        2.8289e-010    
  1.65            0.020183        2.9428e-010    
  1.7             0.020193        3.0521e-010    
  1.75            0.020196        3.158e-010     
  1.8             0.020211        3.2501e-010    
END_DB

BEGIN_DB
 ICCAP_VAR VG         1.8            
 ICCAP_VAR VS         0              
 ICCAP_VAR VB         0              

 #VD              ID              IG             
  0               -5.8987e-006    -2.6545e-010   
  0.05            0.0016594       3.1246e-010    
  0.1             0.0033208       3.2187e-010    
  0.15            0.004972        3.2916e-010    
  0.2             0.006611        2.322e-010     
  0.25            0.0082419       2.3893e-010    
  0.3             0.0098568       2.4769e-010    
  0.35            0.01147         -3.2641e-010   
  0.4             0.013047        -3.1098e-010   
  0.45            0.014597        -3.2013e-010   
  0.5             0.016123        -3.2775e-010   
  0.55            0.017616        -3.3414e-010   
  0.6             0.019077        -2.3945e-010   
  0.65            0.020493        -2.4801e-010   
  0.7             0.021865        -2.5816e-010   
  0.75            0.023174        -2.6878e-010   
  0.8             0.024423        -2.7858e-010   
  0.85            0.025615        -2.8934e-010   
  0.9             0.026709        -2.9915e-010   
  0.95            0.027751        -3.1009e-010   
  1               0.028659        -3.2022e-010   
  1.05            0.029412        -3.2838e-010   
  1.1             0.029977        -3.3479e-010   
  1.15            0.030432        -2.402e-010    
  1.2             0.030758        -2.4734e-010   
  1.25            0.031022        -2.5817e-010   
  1.3             0.031214        -2.6687e-010   
  1.35            0.031372        -2.779e-010    
  1.4             0.031471        -2.8951e-010   
  1.45            0.031509        -3.012e-010    
  1.5             0.031551        -3.0995e-010   
  1.55            0.031595        -3.1956e-010   
  1.6             0.03163         -3.271e-010    
  1.65            0.031678        -2.3216e-010   
  1.7             0.031689        -2.3896e-010   
  1.75            0.031705        -2.4704e-010   
  1.8             0.031727        -2.5569e-010   
END_DB

