! VERSION = 6.00
BEGIN_HEADER
 ICCAP_INPUTS
  VG         V  B GROUND SMU4 0.001 LIN        1    0          1.8        37   0.05      
  VS         V  E GROUND SMU2 0.1 CON        0
  VB         V  C GROUND SMU3 0.1 LIN        3    0          -1.8       3    -0.9      
  VD         V  S GROUND SMU1 0.1 LIN        2    0.1        1.8        2    1.7       
 ICCAP_OUTPUTS
  IG         I  B GROUND SMU4 B
  ID         I  S GROUND SMU1 B
  IB         I  C GROUND SMU3 B
END_HEADER

BEGIN_DB
 ICCAP_VAR VS         0              
 ICCAP_VAR VB         0              
 ICCAP_VAR VD         0.1            

 #VG              IG              ID              IB             
  0               9.82e-010       9.277e-010      2.058e-008     
  0.05            1.3304e-009     -1.2804e-009    -2.4911e-008   
  0.1             1.1386e-009     2.2669e-009     -8.34e-009     
  0.15            -2.179e-010     1.9243e-009     1.0738e-008    
  0.2             -1.6464e-009    9.121e-010      2.3454e-008    
  0.25            -8.308e-010     -2.1638e-009    6.734e-009     
  0.3             1.2585e-009     -8.106e-010     -1.0045e-008   
  0.35            2.8763e-009     2.7167e-009     -1.143e-008    
  0.4             -1.4708e-009    1.1929e-008     1.068e-008     
  0.45            -1.3232e-009    3.4812e-008     9.241e-009     
  0.5             -1.3808e-009    1.8202e-007     -4e-011        
  0.55            -1.2927e-009    5.6646e-007     1.0664e-008    
  0.6             2.6731e-009     1.4372e-006     2.1624e-008    
  0.65            6.213e-010      4.987e-006      1.0521e-008    
  0.7             -2.7329e-009    1.247e-005      1.0414e-008    
  0.75            -1.1718e-009    2.9452e-005     -1.0206e-008   
  0.8             7.62e-011       5.3808e-005     -1.1473e-008   
  0.85            -4.165e-010     8.8531e-005     -1.0725e-008   
  0.9             -2.6139e-009    0.00013449      -1.1258e-008   
  0.95            -7.478e-010     0.00018389      -1.1196e-008   
  1               -1.1108e-009    0.00023522      -1.0488e-008   
  1.05            1.28e-010       0.00028481      -1.1756e-008   
  1.1             1.3709e-009     0.0003351       -2.4432e-008   
  1.15            1.2462e-009     0.00038478      -8.106e-009    
  1.2             2.6983e-009     0.00043066      -1.2375e-008   
  1.25            6.086e-010      0.00047635      1.0515e-008    
  1.3             -1.6863e-009    0.00051791      2.1019e-008    
  1.35            -1.3856e-009    0.000557        6.312e-009     
  1.4             -1.2963e-009    0.00059338      1.046e-008     
  1.45            -2.4809e-009    0.00062731      1.1006e-008    
  1.5             -1.8829e-009    0.00065825      1.459e-009     
  1.55            -1.4558e-009    0.00068764      4.446e-009     
  1.6             -1.3245e-009    0.0007151       9.313e-009     
  1.65            -2.6304e-009    0.00074058      1.0844e-008    
  1.7             -2.1416e-009    0.00076345      5.44e-010      
  1.75            -9.275e-010     0.00078551      -1.1269e-008   
  1.8             1.4752e-009     0.00080515      -1.3311e-008   
END_DB

BEGIN_DB
 ICCAP_VAR VS         0              
 ICCAP_VAR VB         0              
 ICCAP_VAR VD         1.8            

 #VG              IG              ID              IB             
  0               1.2387e-009     1.1357e-009     1.0208e-008    
  0.05            2.8274e-009     -2.085e-010     -1.3783e-008   
  0.1             1.696e-010      2.1395e-009     1.034e-008     
  0.15            3.508e-010      2.2528e-009     1.0706e-008    
  0.2             5.422e-010      2.3825e-009     1.093e-008     
  0.25            7.165e-010      2.6258e-009     1.0515e-008    
  0.3             -1.8813e-009    3.0078e-009     1.8327e-008    
  0.35            -1.6387e-009    5.363e-009      4.771e-009     
  0.4             2.658e-009      2.8247e-008     1.0567e-008    
  0.45            2.3038e-009     7.8372e-008     1.0429e-008    
  0.5             -1.5189e-009    3.6648e-007     2.3115e-008    
  0.55            2.6684e-009     1.2535e-006     1.9834e-008    
  0.6             2.8772e-009     4.3718e-006     3.03e-010      
  0.65            -2.5183e-009    1.5192e-005     -6.335e-009    
  0.7             -1.9349e-009    3.4159e-005     -2.6215e-008   
  0.75            -1.4739e-009    7.3494e-005     -4.3335e-008   
  0.8             -1.4626e-009    0.00013257      -7.5151e-008   
  0.85            -2.6882e-009    0.00021568      -9.426e-008    
  0.9             -2.316e-009     0.00031989      -1.3449e-007   
  0.95            -1.7182e-009    0.00044204      -1.5966e-007   
  1               -1.3917e-009    0.00057719      -1.7967e-007   
  1.05            -1.3068e-009    0.00072277      -1.9423e-007   
  1.1             -2.5336e-009    0.00087715      -2.0774e-007   
  1.15            1.089e-010      0.0010304       -2.1815e-007   
  1.2             5.657e-010      0.0011951       -2.2412e-007   
  1.25            9.478e-010      0.0013563       -2.2771e-007   
  1.3             1.3207e-009     0.0015213       -2.2901e-007   
  1.35            1.7436e-009     0.0016898       -2.27e-007     
  1.4             2.1304e-009     0.0018619       -2.2443e-007   
  1.45            2.4151e-009     0.0020316       -2.2115e-007   
  1.5             2.728e-009      0.0022014       -2.1546e-007   
  1.55            2.883e-009      0.0023706       -2.1328e-007   
  1.6             2.6833e-009     0.0025389       -2.0921e-007   
  1.65            2.0667e-009     0.0027067       -2.0307e-007   
  1.7             1.4682e-009     0.0028727       -2.0013e-007   
  1.75            1.2712e-009     0.0030414       -1.9182e-007   
  1.8             2.834e-009      0.0032043       -1.8349e-007   
END_DB

BEGIN_DB
 ICCAP_VAR VS         0              
 ICCAP_VAR VB         -0.9           
 ICCAP_VAR VD         0.1            

 #VG              IG              ID              IB             
  0               8.024e-010      8.209e-010      1.0145e-008    
  0.05            1.2436e-009     -1.5636e-009    -1.7866e-008   
  0.1             2.8505e-009     -1.639e-010     -1.3138e-008   
  0.15            1.193e-010      2.1029e-009     1.0187e-008    
  0.2             2.996e-010      2.2046e-009     1.0626e-008    
  0.25            4.797e-010      2.2966e-009     1.0629e-008    
  0.3             -2.2299e-009    5.576e-010      1.7055e-008    
  0.35            -6.539e-010     -2.2637e-009    -1.1385e-008   
  0.4             -8.269e-010     -2.2364e-009    -1.0795e-008   
  0.45            1.9803e-009     -1.4357e-009    -1.5218e-008   
  0.5             2.4529e-009     1.8877e-009     -8.632e-009    
  0.55            1.365e-010      6.0145e-009     1.0246e-008    
  0.6             -2.1952e-009    1.6829e-008     -2.2189e-008   
  0.65            -1.6218e-009    8.2634e-008     2.921e-009     
  0.7             1.1531e-009     3.4228e-007     -1.9196e-008   
  0.75            -1.3795e-009    1.4067e-006     -1.088e-008    
  0.8             -1.3013e-009    4.6895e-006     1.0294e-008    
  0.85            2.8417e-009     1.2331e-005     -1.0151e-008   
  0.9             -1.6817e-009    2.9031e-005     2.0968e-008    
  0.95            -1.3784e-009    5.5268e-005     6.206e-009     
  1               -1.3017e-009    9.2019e-005     1.0222e-008    
  1.05            -1.55e-010      0.0001372       1.0845e-008    
  1.1             -1.4087e-009    0.0001867       2.4595e-008    
  1.15            -1.3089e-009    0.00023824      9.909e-009     
  1.2             -2.5667e-009    0.00028944      1.0863e-008    
  1.25            -2.011e-009     0.00033936      8.19e-010      
  1.3             -1.5127e-009    0.00038729      3.839e-009     
  1.35            -1.3404e-009    0.00043273      8.42e-009      
  1.4             -2.6918e-009    0.00047537      1.0803e-008    
  1.45            -2.2993e-009    0.00051501      3.42e-010      
  1.5             -1.7028e-009    0.00055228      2.367e-009     
  1.55            -1.3908e-009    0.00058676      6.035e-009     
  1.6             -1.3022e-009    0.00061901      1.0172e-008    
  1.65            -2.5321e-009    0.0006489       1.1019e-008    
  1.7             -1.9587e-009    0.00067625      1.267e-009     
  1.75            -1.4873e-009    0.00070186      4.075e-009     
  1.8             -1.3338e-009    0.00072564      8.756e-009     
END_DB

BEGIN_DB
 ICCAP_VAR VS         0              
 ICCAP_VAR VB         -0.9           
 ICCAP_VAR VD         1.8            

 #VG              IG              ID              IB             
  0               1.2586e-009     1.1987e-009     -1.0849e-008   
  0.05            2.8861e-009     -4.73e-011      -1.1414e-008   
  0.1             -2.0378e-009    6.609e-010      1.8558e-008    
  0.15            -1.4739e-009    -1.9055e-009    3.804e-009     
  0.2             3.71e-011       -2.0191e-009    -1.0781e-008   
  0.25            -1.637e-010     -2.1274e-009    -1.0876e-008   
  0.3             -3.688e-010     -2.19e-009      -1.1237e-008   
  0.35            -5.809e-010     -2.1894e-009    -1.1423e-008   
  0.4             1.3136e-009     -9.586e-010     -1.0687e-008   
  0.45            2.8647e-009     2.5378e-009     -8.417e-009    
  0.5             2.8865e-009     8.4669e-009     3.88e-010      
  0.55            -1.9935e-009    3.4438e-008     -1.899e-008    
  0.6             -1.3547e-009    1.7358e-007     9.843e-009     
  0.65            -2.7066e-009    7.7437e-007     9.699e-009     
  0.7             -1.5027e-009    2.9156e-006     -1.1984e-008   
  0.75            -1.8417e-009    9.332e-006      -1.9731e-008   
  0.8             2.4443e-009     2.4865e-005     -3.0838e-008   
  0.85            1.7575e-009     5.7069e-005     -4.0588e-008   
  0.9             -1.6384e-009    0.00011338      -7.913e-008    
  0.95            1.5047e-009     0.00018916      -9.6566e-008   
  1               -1.7158e-009    0.00028897      -1.0315e-007   
  1.05            -1.395e-009     0.00041021      -1.3418e-007   
  1.1             -1.3062e-009    0.00054194      -1.5165e-007   
  1.15            -2.5343e-009    0.00068702      -1.6887e-007   
  1.2             -1.968e-009     0.00083625      -1.9283e-007   
  1.25            -1.4921e-009    0.00099605      -2.0023e-007   
  1.3             1.1759e-009     0.0011579       -2.1938e-007   
  1.35            1.9731e-009     0.0013228       -2.3256e-007   
  1.4             1.4186e-009     0.0014878       -2.244e-007    
  1.45            1.2633e-009     0.001656        -2.2276e-007   
  1.5             2.801e-009      0.001824        -2.2212e-007   
  1.55            2.2785e-009     0.0019941       -2.082e-007    
  1.6             1.6087e-009     0.0021628       -2.0768e-007   
  1.65            1.3049e-009     0.0023318       -2.0366e-007   
  1.7             2.8827e-009     0.0024998       -1.966e-007    
  1.75            2.5604e-009     0.0026686       -1.812e-007    
  1.8             1.8892e-009     0.0028342       -1.762e-007    
END_DB

BEGIN_DB
 ICCAP_VAR VS         0              
 ICCAP_VAR VB         -1.8           
 ICCAP_VAR VD         0.1            

 #VG              IG              ID              IB             
  0               -1.1081e-009    -1.0177e-009    -1.8409e-008   
  0.05            -1.5627e-009    9.286e-010      2.4991e-008    
  0.1             -1.7943e-009    -1.4778e-009    8.014e-009     
  0.15            -4.169e-010     -2.2142e-009    -1.1132e-008   
  0.2             -6.188e-010     -2.2639e-009    -1.0898e-008   
  0.25            -7.954e-010     -2.2813e-009    -1.0518e-008   
  0.3             -9.333e-010     -2.2698e-009    -1.0204e-008   
  0.35            1.7865e-009     -1.6671e-009    -1.3423e-008   
  0.4             1.6386e-009     1.7164e-009     -8.888e-009    
  0.45            1.8073e-009     1.4881e-009     1.0587e-008    
  0.5             4.325e-010      2.3227e-009     1.0707e-008    
  0.55            6.042e-010      2.608e-009      1.0645e-008    
  0.6             7.653e-010      3.6943e-009     1.0145e-008    
  0.65            -1.8117e-009    8.3375e-009     1.7398e-008    
  0.7             2.7868e-009     3.2288e-008     1.072e-008     
  0.75            -3.27e-011      1.4125e-007     9.66e-009      
  0.8             -5.354e-010     5.9158e-007     -1.0966e-008   
  0.85            1.2736e-009     2.1541e-006     1.0696e-008    
  0.9             2.8297e-009     6.6159e-006     -9.87e-009     
  0.95            -1.6236e-009    1.7419e-005     -2.53e-010     
  1               -1.3713e-009    3.7245e-005     7.03e-009      
  1.05            -1.2934e-009    6.749e-005      1.0633e-008    
  1.1             -2.4439e-009    0.000107244     1.1458e-008    
  1.15            -1.6686e-009    0.00015386      5.3e-010       
  1.2             -1.3846e-009    0.00020414      6.345e-009     
  1.25            -1.2996e-009    0.00025508      1.0442e-008    
  1.3             -2.4916e-009    0.00030594      1.1254e-008    
  1.35            -1.9264e-009    0.00035432      1.373e-009     
  1.4             -1.4805e-009    0.00040051      4.283e-009     
  1.45            -1.3351e-009    0.00044418      9.143e-009     
  1.5             -2.6569e-009    0.00048508      1.0977e-008    
  1.55            -2.2175e-009    0.00052285      3.64e-010      
  1.6             -8.765e-010     0.00055814      -1.1354e-008   
  1.65            1.5523e-009     0.00059         -1.415e-008    
  1.7             1.2906e-009     0.00062087      -8.495e-009    
  1.75            2.862e-009      0.00064894      -9.107e-009    
  1.8             -1.7407e-009    0.00067571      2.2342e-008    
END_DB

BEGIN_DB
 ICCAP_VAR VS         0              
 ICCAP_VAR VB         -1.8           
 ICCAP_VAR VD         1.8            

 #VG              IG              ID              IB             
  0               -7.601e-010     -7.886e-010     -2.5218e-008   
  0.05            -1.2874e-009    1.583e-009      1.8779e-008    
  0.1             -2.6292e-009    2.282e-010      1.2329e-008    
  0.15            -1.9284e-009    -1.2848e-009    6.9e-010       
  0.2             -7.072e-010     -2.2721e-009    -1.1228e-008   
  0.25            -8.561e-010     -2.2705e-009    -1.0575e-008   
  0.3             1.9347e-009     -1.6301e-009    -1.4538e-008   
  0.35            1.5418e-009     1.8574e-009     -8.767e-009    
  0.4             1.7053e-009     1.6398e-009     1.0789e-008    
  0.45            3.243e-010      2.4109e-009     1.0634e-008    
  0.5             5.005e-010      3.2703e-009     1.0787e-008    
  0.55            6.684e-010      7.1204e-009     1.0457e-008    
  0.6             -2.5157e-009    2.2462e-008     -2.5823e-008   
  0.65            -1.7123e-009    1.202e-007      -5.392e-009    
  0.7             -1.389e-009     5.187e-007      5.44e-009      
  0.75            -3.11e-010      2.0611e-006     -2.332e-009    
  0.8             -7.913e-010     7.2059e-006     -1.7891e-008   
  0.85            2.329e-009      2.0325e-005     -2.6838e-008   
  0.9             2.6241e-009     4.8434e-005     -2.1197e-008   
  0.95            2.8597e-009     9.7375e-005     -4.6548e-008   
  1               2.8861e-009     0.00016981      -7.0233e-008   
  1.05            -8.95e-011      0.0002667       -9.904e-008    
  1.1             -6.028e-010     0.00038016      -1.4124e-007   
  1.15            -9.942e-010     0.00051084      -1.6293e-007   
  1.2             -1.3795e-009    0.00065472      -1.8049e-007   
  1.25            -1.7507e-009    0.00080501      -1.9508e-007   
  1.3             -1.9883e-009    0.00095996      -2.0535e-007   
  1.35            3.58e-011       0.0011212       -2.2294e-007   
  1.4             4.696e-010      0.0012864       -1.9515e-007   
  1.45            8.665e-010      0.0014504       -1.9663e-007   
  1.5             1.2196e-009     0.0016151       -1.9655e-007   
  1.55            1.6298e-009     0.0017825       -1.9228e-007   
  1.6             2.0272e-009     0.0019536       -1.8962e-007   
  1.65            2.3298e-009     0.0021238       -1.8589e-007   
  1.7             2.6245e-009     0.0022916       -1.792e-007    
  1.75            2.8642e-009     0.0024589       -1.7593e-007   
  1.8             2.8179e-009     0.0026262       -1.7459e-007   
END_DB

