! VERSION = 6.00
BEGIN_HEADER
 ICCAP_INPUTS
  VG         V  B GROUND SMU4 0.001 LIN        1    0          1.8        37   0.05      
  VS         V  E GROUND SMU3 0.1 CON        0
  VB         V  C GROUND SMU1 0.1 LIN        3    0          -1.8       3    -0.9      
  VD         V  S GROUND SMU2 0.1 LIN        2    0.1        1.8        2    1.7       
 ICCAP_OUTPUTS
  IG         I  B GROUND SMU4 B
  ID         I  S GROUND SMU2 B
  IB         I  C GROUND SMU1 B
END_HEADER

BEGIN_DB
 ICCAP_VAR VS         0              
 ICCAP_VAR VB         0              
 ICCAP_VAR VD         0.1            

 #VG              IG              ID              IB             
  0               3.527e-010      -1.1198e-009    -1.6861e-008   
  0.05            1.3161e-009     3.477e-010      -8.027e-009    
  0.1             -2.3619e-009    9.536e-010      1.6638e-008    
  0.15            1.3273e-009     -2.4762e-009    -2.3958e-008   
  0.2             8.575e-010      4.5679e-009     9.359e-009     
  0.25            -2.4846e-009    -1.9405e-009    4.604e-009     
  0.3             1.931e-009      -6.08e-010      -1.9378e-008   
  0.35            1.8693e-009     7.029e-009      9.425e-009     
  0.4             1.576e-009      2.197e-008      1.1888e-008    
  0.45            9.754e-010      8.4371e-008     1.0354e-008    
  0.5             8.684e-010      2.8065e-007     -1.6078e-008   
  0.55            -1.3807e-009    8.408e-007      8.331e-009     
  0.6             2.893e-009      2.1048e-006     1.1141e-008    
  0.65            -1.4481e-009    4.7425e-006     1.2731e-008    
  0.7             -1.1929e-009    8.8999e-006     -9.889e-009    
  0.75            -2.1596e-009    1.4599e-005     1.0952e-008    
  0.8             1.3964e-009     2.1469e-005     -2.0928e-008   
  0.85            -1.3801e-009    2.9504e-005     2.6278e-008    
  0.9             -5.858e-010     3.7549e-005     -1.1832e-008   
  0.95            1.595e-009      4.5647e-005     -1.8836e-008   
  1               -1.3834e-009    5.4077e-005     2.4597e-008    
  1.05            2.0106e-009     6.1834e-005     -2.1246e-008   
  1.1             7.578e-010      6.9589e-005     1.1016e-008    
  1.15            -1.3853e-009    7.7096e-005     7.97e-009      
  1.2             1.9052e-009     8.3972e-005     -1.9752e-008   
  1.25            8.035e-010      9.0733e-005     1.1284e-008    
  1.3             -1.3846e-009    9.7259e-005     8.009e-009     
  1.35            1.8121e-009     0.000103208     -1.8147e-008   
  1.4             8.572e-010      0.000108921     1.126e-008     
  1.45            -1.405e-009     0.0001144       -1.2642e-008   
  1.5             1.3076e-009     0.0001194       -2.3818e-008   
  1.55            5.814e-010      0.00012424      1.1358e-008    
  1.6             -1.391e-009     0.00012881      6.235e-009     
  1.65            2.2338e-009     0.00013295      -2.3389e-008   
  1.7             6.409e-010      0.00013697      1.1404e-008    
  1.75            -1.3863e-009    0.00014073      6.737e-009     
  1.8             2.1429e-009     0.0001441       -2.2636e-008   
END_DB

BEGIN_DB
 ICCAP_VAR VS         0              
 ICCAP_VAR VB         0              
 ICCAP_VAR VD         1.8            

 #VG              IG              ID              IB             
  0               -4.397e-010     6.464e-010      1.3482e-008    
  0.05            -1.3871e-009    -4.79e-010      8.792e-009     
  0.1             -9.542e-010     -4.2488e-009    -9.918e-009    
  0.15            2.5462e-009     2.058e-009      -7.559e-009    
  0.2             -1.5053e-009    1.9075e-009     2.2907e-008    
  0.25            -6.417e-010     -4.0619e-009    -1.1822e-008   
  0.3             2.3839e-009     9.28e-011       -1.8315e-008   
  0.35            -1.3847e-009    8.7435e-009     2.6495e-008    
  0.4             1.9669e-009     2.9805e-008     1.7963e-008    
  0.45            2.8899e-009     1.1502e-007     6.412e-009     
  0.5             -7.057e-010     3.9047e-007     -1.2364e-008   
  0.55            -2.4805e-009    1.1743e-006     -1.788e-008    
  0.6             -3.46e-010      3.0666e-006     -1.3268e-008   
  0.65            1.9292e-009     6.886e-006      -2.2091e-008   
  0.7             1.6216e-009     1.3447e-005     -1.6907e-008   
  0.75            -2.4032e-009    2.3722e-005     5.057e-009     
  0.8             -1.9558e-009    3.7107e-005     -2.2015e-008   
  0.85            7.09e-011       5.3742e-005     -2.2052e-008   
  0.9             2.5478e-009     7.4066e-005     -2.9253e-008   
  0.95            -2.7712e-009    9.8174e-005     -1.9198e-008   
  1               -2.689e-009     0.0001248       -2.2466e-008   
  1.05            -1.6788e-009    0.00015489      -2.2474e-008   
  1.1             1.5937e-009     0.00018554      -2.5588e-008   
  1.15            -2.3625e-009    0.00022063      4.476e-009     
  1.2             -1.9717e-009    0.00025656      -1.922e-008    
  1.25            3.96e-011       0.00029365      -1.6455e-008   
  1.3             2.4996e-009     0.0003331       -2.172e-008    
  1.35            -1.6682e-009    0.0003754       1.3372e-008    
  1.4             -9.649e-010     0.00041726      -1.5283e-008   
  1.45            1.3222e-009     0.00045978      -2.5931e-008   
  1.5             -1.7795e-009    0.00050578      1.5571e-008    
  1.55            -8.96e-010      0.0005504       -1.3484e-008   
  1.6             1.3393e-009     0.00059569      -2.347e-008    
  1.65            -1.8961e-009    0.00064378      1.603e-008     
  1.7             -8.29e-010      0.0006903       -1.2624e-008   
  1.75            1.321e-009      0.00073725      -8.405e-009    
  1.8             -1.8169e-009    0.00078692      2.282e-008     
END_DB

BEGIN_DB
 ICCAP_VAR VS         0              
 ICCAP_VAR VB         -0.9           
 ICCAP_VAR VD         0.1            

 #VG              IG              ID              IB             
  0               1.134e-010      8.107e-010      -1.6966e-007   
  0.05            -2.4331e-009    8.646e-010      -1.5647e-007   
  0.1             -1.7672e-009    -2.8369e-009    -2.0586e-007   
  0.15            1.8322e-009     -3.1867e-009    -1.9498e-007   
  0.2             2.16e-009       2.1189e-009     -1.8848e-007   
  0.25            -1.249e-010     3.921e-009      -1.7533e-007   
  0.3             -2.6425e-009    4.728e-010      -1.578e-007    
  0.35            -1.533e-009     -3.3767e-009    -2.0407e-007   
  0.4             2.2783e-009     -2.8033e-009    -1.9917e-007   
  0.45            1.9294e-009     3.2938e-009     -1.8671e-007   
  0.5             -1.496e-009     8.208e-009      -1.7457e-007   
  0.55            2.047e-009      2.1478e-008     -1.8309e-007   
  0.6             -1.9951e-009    8.5958e-008     -1.9052e-007   
  0.65            2.8444e-009     2.8175e-007     -2.0582e-007   
  0.7             1.6516e-009     7.7887e-007     -1.8309e-007   
  0.75            -2.5879e-009    1.9105e-006     -2.0114e-007   
  0.8             -1.8306e-009    4.19e-006       -2.0518e-007   
  0.85            2.591e-010      7.8607e-006     -1.9418e-007   
  0.9             -1.4332e-009    1.3457e-005     -1.5326e-007   
  0.95            1.9985e-009     1.9999e-005     -2.0149e-007   
  1               2.295e-009      2.7671e-005     -1.8837e-007   
  1.05            3.01e-010       3.5763e-005     -1.7581e-007   
  1.1             -1.8462e-009    4.3919e-005     -1.565e-007    
  1.15            -2.219e-009     5.1858e-005     -2.0527e-007   
  1.2             -3.604e-010     5.9661e-005     -1.9755e-007   
  1.25            1.9117e-009     6.711e-005      -1.9218e-007   
  1.3             2.3352e-009     7.4463e-005     -1.8858e-007   
  1.35            3.53e-010       8.14e-005       -1.7585e-007   
  1.4             -1.765e-009     8.7969e-005     -1.5621e-007   
  1.45            -2.2665e-009    9.4106e-005     -2.0548e-007   
  1.5             -4.281e-010     9.9939e-005     -1.9786e-007   
  1.55            1.817e-009      0.000105366     -1.9235e-007   
  1.6             2.376e-009      0.000110628     -1.8866e-007   
  1.65            -1.2406e-009    0.00011557      -2.0229e-007   
  1.7             1.3099e-009     0.00012005      -2.035e-007    
  1.75            2.8775e-009     0.00012437      -1.9403e-007   
  1.8             1.1764e-009     0.00012834      -1.8237e-007   
END_DB

BEGIN_DB
 ICCAP_VAR VS         0              
 ICCAP_VAR VB         -0.9           
 ICCAP_VAR VD         1.8            

 #VG              IG              ID              IB             
  0               3.788e-010      -1.0917e-009    -1.8969e-007   
  0.05            1.3082e-009     5.68e-011       -1.7924e-007   
  0.1             2.781e-009      1.9143e-009     -1.9337e-007   
  0.15            7.321e-010      4.5409e-009     -1.7973e-007   
  0.2             -1.6158e-009    1.6847e-009     -1.545e-007    
  0.25            -2.1509e-009    -2.171e-009     -2.0569e-007   
  0.3             3.52e-011       -3.9617e-009    -1.9666e-007   
  0.35            2.7691e-009     -6.454e-010     -1.8743e-007   
  0.4             1.5185e-009     3.6874e-009     -1.8338e-007   
  0.45            -1.3633e-009    4.2623e-009     -1.6318e-007   
  0.5             -2.7658e-009    4.5762e-009     -2.0347e-007   
  0.55            2.463e-009      3.2208e-008     -1.545e-007    
  0.6             2.7446e-009     1.2076e-007     -2.0654e-007   
  0.65            1.7999e-009     3.9427e-007     -1.9248e-007   
  0.7             2.8314e-009     1.1145e-006     -1.5518e-007   
  0.75            -1.3851e-009    2.8413e-006     -1.5408e-007   
  0.8             -2.7704e-009    6.2473e-006     -2.0835e-007   
  0.85            1.4312e-009     1.2308e-005     -1.9742e-007   
  0.9             2.5962e-009     2.1943e-005     -1.9543e-007   
  0.95            6.894e-010      3.5263e-005     -1.843e-007    
  1               -1.4481e-009    5.263e-005      -1.6278e-007   
  1.05            -2.5764e-009    7.3039e-005     -2.1449e-007   
  1.1             -7.848e-010     9.7065e-005     -2.0834e-007   
  1.15            -1.7273e-009    0.00012484      -2.0732e-007   
  1.2             1.5472e-009     0.00015375      -2.0303e-007   
  1.25            2.5196e-009     0.00018649      -1.9636e-007   
  1.3             5.846e-010      0.0002215       -1.8194e-007   
  1.35            -1.5238e-009    0.00025873      -1.6031e-007   
  1.4             -2.4723e-009    0.00029658      -2.0968e-007   
  1.45            -6.567e-010     0.00033688      -2.026e-007    
  1.5             1.5281e-009     0.00037774      -1.9694e-007   
  1.55            2.5328e-009     0.00042098      -1.9173e-007   
  1.6             5.988e-010      0.00046505      -1.7791e-007   
  1.65            -1.5064e-009    0.00051036      -1.5652e-007   
  1.7             -2.4859e-009    0.00055534      -2.0693e-007   
  1.75            -6.77e-010      0.0006016       -2.0036e-007   
  1.8             1.5089e-009     0.00064758      -1.9536e-007   
END_DB

BEGIN_DB
 ICCAP_VAR VS         0              
 ICCAP_VAR VB         -1.8           
 ICCAP_VAR VD         0.1            

 #VG              IG              ID              IB             
  0               -3.813e-010     7.947e-010      -2.0342e-007   
  0.05            -1.379e-009     -4.52e-011      -1.6122e-007   
  0.1             -2.7349e-009    -2.0162e-009    -2.0764e-007   
  0.15            -7.991e-010     -4.3196e-009    -2.0397e-007   
  0.2             1.6925e-009     -1.8036e-009    -1.9996e-007   
  0.25            2.2255e-009     2.081e-009      -1.9228e-007   
  0.3             -6.63e-011      4.0008e-009     -1.7864e-007   
  0.35            -2.6104e-009    5.52e-010       -1.6048e-007   
  0.4             -1.5745e-009    -3.311e-009     -2.0815e-007   
  0.45            2.2307e-009     -2.9726e-009    -2.0156e-007   
  0.5             1.939e-009      2.5459e-009     -1.8999e-007   
  0.55            -1.488e-009     4.589e-009      -1.7767e-007   
  0.6             -2.2684e-009    3.1258e-009     -2.0897e-007   
  0.65            2.7287e-009     2.6672e-008     -1.5582e-007   
  0.7             -2.6104e-009    9.5045e-008     -2.0015e-007   
  0.75            2.5286e-009     2.9852e-007     -1.9705e-007   
  0.8             5.838e-010      7.6346e-007     -1.7954e-007   
  0.85            -2.4139e-009    1.7285e-006     -1.9292e-007   
  0.9             -5.901e-010     3.6181e-006     -2.0252e-007   
  0.95            1.6137e-009     6.8712e-006     -1.9667e-007   
  1               -1.4042e-009    1.1864e-005     -1.8648e-007   
  1.05            -2.659e-009     1.8252e-005     -2.097e-007    
  1.1             -8.771e-010     2.5573e-005     -2.0383e-007   
  1.15            1.3562e-009     3.3237e-005     -2.0151e-007   
  1.2             2.6723e-009     4.1354e-005     -1.9398e-007   
  1.25            7.946e-010      4.931e-005      -1.81e-007     
  1.3             -1.4062e-009    5.7195e-005     -1.5688e-007   
  1.35            -2.6531e-009    6.4576e-005     -2.0997e-007   
  1.4             -8.688e-010     7.1705e-005     -2.0351e-007   
  1.45            1.3618e-009     7.8362e-005     -2.0144e-007   
  1.5             2.6664e-009     8.4885e-005     -1.9419e-007   
  1.55            7.886e-010      9.0985e-005     -1.8082e-007   
  1.6             -1.4089e-009    9.6821e-005     -1.5696e-007   
  1.65            -2.6517e-009    0.000102195     -2.097e-007    
  1.7             -8.625e-010     0.000107264     -2.0362e-007   
  1.75            1.3628e-009     0.000111921     -2.0146e-007   
  1.8             -2.7417e-009    0.00011644      -2.0399e-007   
END_DB

BEGIN_DB
 ICCAP_VAR VS         0              
 ICCAP_VAR VB         -1.8           
 ICCAP_VAR VD         1.8            

 #VG              IG              ID              IB             
  0               1.6278e-009     -1.012e-010     -1.6192e-007   
  0.05            2.2529e-009     2.073e-009      -1.9239e-007   
  0.1             -2.43e-011      4.0362e-009     -1.787e-007    
  0.15            -2.5858e-009    6.178e-010      -1.6017e-007   
  0.2             -1.6152e-009    -3.2298e-009    -2.0779e-007   
  0.25            2.1625e-009     -3.0338e-009    -2.0059e-007   
  0.3             1.9729e-009     2.3202e-009     -1.9009e-007   
  0.35            -1.4642e-009    3.6748e-009     -1.7811e-007   
  0.4             -2.3035e-009    -2.1634e-009    -2.0911e-007   
  0.45            -1.481e-010     -4.1383e-009    -2.0142e-007   
  0.5             2.612e-009      -7.407e-010     -1.9236e-007   
  0.55            1.6812e-009     4.3419e-009     -1.8725e-007   
  0.6             9.49e-011       1.0418e-008     -2.0367e-007   
  0.65            -2.1472e-009    3.5441e-008     -1.5986e-007   
  0.7             1.3354e-009     1.3708e-007     -1.9744e-007   
  0.75            2.6712e-009     4.197e-007      -1.9411e-007   
  0.8             7.948e-010      1.09342e-006    -1.8174e-007   
  0.85            -2.072e-009     2.5751e-006     -1.8712e-007   
  0.9             -9.74e-011      5.5221e-006     -2.001e-007    
  0.95            2.3084e-009     1.09699e-005    -1.9476e-007   
  1               2.3102e-009     1.9705e-005     -2.0788e-007   
  1.05            2.1363e-009     3.224e-005      -1.947e-007    
  1.1             9.74e-011       4.8887e-005     -1.8383e-007   
  1.15            -2.1451e-009    6.9067e-005     -1.6565e-007   
  1.2             -2.0664e-009    9.2368e-005     -2.1416e-007   
  1.25            -2.4852e-009    0.00011914      -2.0703e-007   
  1.3             -6.718e-010     0.00014884      -2.0776e-007   
  1.35            1.5109e-009     0.00018061      -2.0187e-007   
  1.4             2.5365e-009     0.0002156       -1.9686e-007   
  1.45            6.004e-010      0.00025258      -1.8269e-007   
  1.5             -1.512e-009     0.00029142      -1.6078e-007   
  1.55            -2.4759e-009    0.00033091      -2.1104e-007   
  1.6             -6.609e-010     0.00037241      -2.0414e-007   
  1.65            1.5241e-009     0.00041435      -1.9905e-007   
  1.7             2.5281e-009     0.00045863      -1.9378e-007   
  1.75            5.899e-010      0.0005034       -1.8023e-007   
  1.8             -1.5199e-009    0.00054948      -1.5888e-007   
END_DB

