! VERSION = 6.00
BEGIN_HEADER
 ICCAP_INPUTS
  VG         V  B GROUND SMU4 0.001 LIN        1    0          1.8        37   0.05      
  VS         V  E GROUND SMU2 0.1 CON        0
  VB         V  C GROUND SMU3 0.1 LIN        3    0          -1.8       3    -0.9      
  VD         V  S GROUND SMU1 0.1 LIN        2    0.1        1.8        2    1.7       
 ICCAP_OUTPUTS
  IG         I  B GROUND SMU4 B
  ID         I  S GROUND SMU1 B
  IB         I  C GROUND SMU3 B
END_HEADER

BEGIN_DB
 ICCAP_VAR VS         0              
 ICCAP_VAR VB         0              
 ICCAP_VAR VD         0.1            

 #VG              IG              ID              IB             
  0               -7.031e-010     -7.848e-010     1.1132e-008    
  0.05            -1.8038e-009    1.6097e-009     1.7249e-008    
  0.1             -1.6278e-009    -1.6546e-009    5.535e-009     
  0.15            -2.139e-010     -2.0986e-009    -1.096e-008    
  0.2             -4.577e-010     -2.1561e-009    -1.1166e-008   
  0.25            -6.877e-010     -2.1256e-009    -1.1309e-008   
  0.3             1.2633e-009     -9.514e-010     -1.0651e-008   
  0.35            2.8539e-009     2.5305e-009     -9.764e-009    
  0.4             2.815e-009      7.7417e-009     -2.13e-010     
  0.45            -2.2921e-009    2.7135e-008     -2.4618e-008   
  0.5             -1.5336e-009    1.3884e-007     -6.695e-009    
  0.55            -1.332e-009     5.1027e-007     8.339e-009     
  0.6             -2.5633e-009    1.7437e-006     -2.0214e-008   
  0.65            -7.097e-010     5.5634e-006     -1.129e-008    
  0.7             2.8417e-009     1.4349e-005     -1.1206e-008   
  0.75            2.7251e-009     3.114e-005      2.54e-010      
  0.8             5.681e-010      5.7331e-005     1.0618e-008    
  0.85            9.68e-010       9.0883e-005     1.0241e-008    
  0.9             2.7384e-009     0.0001312       1.0674e-008    
  0.95            -1.3342e-009    0.00017511      2.7132e-008    
  1               -2.6531e-009    0.0002196       1.1104e-008    
  1.05            -2.2013e-009    0.00026375      6.85e-010      
  1.1             -8.982e-010     0.00030687      -1.0936e-008   
  1.15            1.4515e-009     0.00034778      -1.3307e-008   
  1.2             1.2548e-009     0.00038847      -8.259e-009    
  1.25            2.7591e-009     0.00042659      -1.0879e-008   
  1.3             5.379e-010      0.00046386      1.0537e-008    
  1.35            9.403e-010      0.00049763      1.0387e-008    
  1.4             -1.774e-010     0.00052987      1.26e-008      
  1.45            -1.402e-009     0.00056044      2.4333e-008    
  1.5             -1.2956e-009    0.00058872      1.0043e-008    
  1.55            -2.4883e-009    0.00061523      1.1067e-008    
  1.6             -1.8814e-009    0.00063956      1.483e-009     
  1.65            -1.4321e-009    0.00066263      4.855e-009     
  1.7             -1.3089e-009    0.00068404      9.635e-009     
  1.75            -2.5626e-009    0.00070407      1.0903e-008    
  1.8             -2.0081e-009    0.00072236      8.45e-010      
END_DB

BEGIN_DB
 ICCAP_VAR VS         0              
 ICCAP_VAR VB         0              
 ICCAP_VAR VD         1.8            

 #VG              IG              ID              IB             
  0               -2.2342e-009    -2.1858e-009    1.7082e-008    
  0.05            -1.3136e-009    -1.9887e-009    2.393e-009     
  0.1             1.3183e-009     -1.2349e-009    -2.5185e-008   
  0.15            1.1432e-009     2.226e-009      -8.335e-009    
  0.2             -1.752e-010     1.955e-009      1.0857e-008    
  0.25            -1.5704e-009    1.1301e-009     2.453e-008     
  0.3             -1.4273e-009    6.003e-010      7.875e-009     
  0.35            -1.3541e-009    4.0352e-009     9.932e-009     
  0.4             1.2777e-009     1.8354e-008     1.0421e-008    
  0.45            2.807e-009      8.0035e-008     -9.497e-009    
  0.5             -2.55e-011      3.2607e-007     8.739e-009     
  0.55            2.4323e-009     1.204e-006      1.5981e-008    
  0.6             -1.5063e-009    4.672e-006      1.7193e-008    
  0.65            -8.422e-010     1.292e-005      7.205e-009     
  0.7             -1.2299e-009    3.2223e-005     -3.2155e-008   
  0.75            -1.6519e-009    6.6979e-005     -5.0015e-008   
  0.8             -2.4413e-009    0.00011936      -6.979e-008    
  0.85            -1.8478e-009    0.00019229      -7.7131e-008   
  0.9             -2.4865e-009    0.00028188      -7.155e-008    
  0.95            -1.909e-009     0.00038776      -1.1369e-007   
  1               -1.4489e-009    0.00050647      -1.2383e-007   
  1.05            -1.3096e-009    0.00063542      -1.288e-007    
  1.1             -2.5663e-009    0.00077144      -1.3396e-007   
  1.15            -2.0259e-009    0.00091233      -1.481e-007    
  1.2             -1.5053e-009    0.00105981      -1.4705e-007   
  1.25            -1.651e-010     0.001208        -1.5918e-007   
  1.3             -7e-010         0.0013607       -1.5687e-007   
  1.35            -1.0834e-009    0.0015177       -1.5205e-007   
  1.4             -1.5095e-009    0.001676        -1.4814e-007   
  1.45            -1.8477e-009    0.0018302       -1.4217e-007   
  1.5             -2.1216e-009    0.0019859       -1.3411e-007   
  1.55            -2.5083e-009    0.0021433       -1.262e-007    
  1.6             -2.7001e-009    0.0023007       -1.1799e-007   
  1.65            -2.6012e-009    0.0024577       -1.0615e-007   
  1.7             -1.3342e-009    0.0026149       -9.037e-008    
  1.75            2.4498e-009     0.0027661       -1.08355e-007  
  1.8             -1.3982e-009    0.0029281       -9.5765e-008   
END_DB

BEGIN_DB
 ICCAP_VAR VS         0              
 ICCAP_VAR VB         -0.9           
 ICCAP_VAR VD         0.1            

 #VG              IG              ID              IB             
  0               1.3165e-009     1.4833e-009     -1.0822e-008   
  0.05            1.1384e-009     2.2097e-009     -8.21e-009     
  0.1             -1.3904e-009    1.1103e-009     2.7087e-008    
  0.15            -1.1467e-009    -2.1108e-009    1.0549e-008    
  0.2             2.718e-010      -1.7619e-009    -1.1682e-008   
  0.25            1.7801e-009     -8.731e-010     -2.2463e-008   
  0.3             1.6428e-009     1.6587e-009     -8.968e-009    
  0.35            3.052e-010      2.1697e-009     1.0494e-008    
  0.4             5.136e-010      2.2908e-009     1.0718e-008    
  0.45            7.125e-010      2.4461e-009     1.0281e-008    
  0.5             -1.8226e-009    2.2489e-009     1.806e-008     
  0.55            -1.5826e-009    2.745e-009      5.245e-009     
  0.6             1.2586e-009     1.5511e-008     1.0206e-008    
  0.65            2.7564e-009     7.5364e-008     -1.0285e-008   
  0.7             -5.583e-010     3.2092e-007     1.0758e-008    
  0.75            2.837e-009      1.3038e-006     1.0322e-008    
  0.8             2.5437e-009     4.325e-006      -4.22e-010     
  0.85            -1.3225e-009    1.2578e-005     -3.531e-009    
  0.9             -2.5954e-009    2.8173e-005     1.0853e-008    
  0.95            -2.1109e-009    5.2808e-005     3.95e-010      
  1               -1.5624e-009    8.6575e-005     2.963e-009     
  1.05            -1.8368e-009    0.00012681      8.307e-009     
  1.1             -1.4196e-009    0.00017002      5.213e-009     
  1.15            -1.2963e-009    0.00021446      1.0062e-008    
  1.2             -2.5021e-009    0.0002589       1.0848e-008    
  1.25            -1.9315e-009    0.00030167      1.048e-009     
  1.3             -1.4651e-009    0.00034311      4.314e-009     
  1.35            -1.3091e-009    0.00038252      9.281e-009     
  1.4             -2.5644e-009    0.00041998      1.0727e-008    
  1.45            -2.0553e-009    0.00045471      4.58e-010      
  1.5             -1.5277e-009    0.00048761      3.586e-009     
  1.55            -1.328e-009     0.0005185       8.492e-009     
  1.6             -2.6185e-009    0.00054727      1.1053e-008    
  1.65            -2.1757e-009    0.00057378      4.31e-010      
  1.7             -1.6038e-009    0.0005989       2.655e-009     
  1.75            -1.3496e-009    0.0006222       7.541e-009     
  1.8             -2.6581e-009    0.00064377      1.0905e-008    
END_DB

BEGIN_DB
 ICCAP_VAR VS         0              
 ICCAP_VAR VB         -0.9           
 ICCAP_VAR VD         1.8            

 #VG              IG              ID              IB             
  0               -6.63e-010      -7.502e-010     -2.5006e-008   
  0.05            -1.7273e-009    1.6455e-009     1.5993e-008    
  0.1             -1.6692e-009    -1.5765e-009    5.869e-009     
  0.15            -2.767e-010     -2.1069e-009    -1.102e-008    
  0.2             -5.105e-010     -2.173e-009     -1.0975e-008   
  0.25            -7.373e-010     -2.2083e-009    -1.1007e-008   
  0.3             -8.959e-010     -2.1996e-009    -1.0385e-008   
  0.35            1.7583e-009     -1.5918e-009    -1.345e-008    
  0.4             1.6523e-009     1.7703e-009     -9.147e-009    
  0.45            3.159e-010      2.8024e-009     1.0554e-008    
  0.5             5.22e-010       5.4066e-009     1.0407e-008    
  0.55            -2.3856e-009    1.4621e-008     -2.5417e-008   
  0.6             -7.737e-010     7.7603e-008     -1.1287e-008   
  0.65            -2.6929e-009    3.5844e-007     1.0079e-008    
  0.7             -1.6746e-009    1.5846e-006     -9.957e-009    
  0.75            -1.9405e-009    5.5163e-006     -1.5463e-008   
  0.8             1.7347e-009     1.6074e-005     -2.281e-008    
  0.85            1.3243e-009     3.919e-005      -3.1315e-008   
  0.9             2.8472e-009     7.9523e-005     -4.5398e-008   
  0.95            2.7211e-009     0.00014077      -4.6295e-008   
  1               2.8467e-009     0.00022124      -7.0633e-008   
  1.05            1.3758e-009     0.00031974      -9.8061e-008   
  1.1             1.231e-010      0.00043291      -9.9652e-008   
  1.15            2.551e-010      0.00055735      -1.3624e-007   
  1.2             7.132e-010      0.00069073      -1.0762e-007   
  1.25            1.0835e-009     0.00082951      -1.1316e-007   
  1.3             1.5065e-009     0.00097267      -1.1338e-007   
  1.35            2.83e-011       0.0011273       -1.4194e-007   
  1.4             -5.01e-010      0.0012775       -1.339e-007    
  1.45            -9.405e-010     0.0014342       -1.3075e-007   
  1.5             -1.3433e-009    0.0015909       -1.2657e-007   
  1.55            -1.744e-009     0.0017469       -1.2327e-007   
  1.6             -1.9907e-009    0.0019016       -1.163e-007    
  1.65            -2.3549e-009    0.002058        -1.0958e-007   
  1.7             -1.3033e-009    0.0022158       -6.783e-008    
  1.75            8.091e-010      0.0023693       -1.03724e-007  
  1.8             1.3545e-009     0.0025223       -7.4527e-008   
END_DB

BEGIN_DB
 ICCAP_VAR VS         0              
 ICCAP_VAR VB         -1.8           
 ICCAP_VAR VD         0.1            

 #VG              IG              ID              IB             
  0               4.201e-010      5.917e-010      2.2593e-008    
  0.05            2.0706e-009     -7.529e-010     -1.9388e-008   
  0.1             1.4599e-009     1.9054e-009     -8.143e-009    
  0.15            -2.0458e-009    6.481e-010      1.8287e-008    
  0.2             -1.4675e-009    -1.854e-009     3.755e-009     
  0.25            -3.6e-012       -1.9862e-009    -1.0886e-008   
  0.3             -2.287e-010     -2.0958e-009    -1.0966e-008   
  0.35            -4.711e-010     -2.1642e-009    -1.12e-008     
  0.4             -6.954e-010     -2.2092e-009    -1.1021e-008   
  0.45            1.2239e-009     -1.5287e-009    -1.7534e-008   
  0.5             2.7935e-009     -1.797e-010     -1.3929e-008   
  0.55            2.112e-010      2.2338e-009     1.0359e-008    
  0.6             4.125e-010      2.8156e-009     1.0601e-008    
  0.65            -2.2578e-009    3.9814e-009     1.6149e-008    
  0.7             2.8418e-009     1.715e-008      1.0197e-008    
  0.75            2.6759e-009     7.7865e-008     -7.7e-011      
  0.8             -6.885e-010     3.5774e-007     1.1102e-008    
  0.85            2.8362e-009     1.4571e-006     1.0308e-008    
  0.9             -1.7055e-009    5.0663e-006     2.2283e-008    
  0.95            1.306e-009      1.3218e-005     1.462e-009     
  1               2.8486e-009     2.9081e-005     -8.322e-009    
  1.05            3.053e-010      5.5363e-005     1.0195e-008    
  1.1             7.513e-010      8.9212e-005     1.0421e-008    
  1.15            2.8349e-009     0.00012942      9.591e-009     
  1.2             2.7439e-009     0.00017261      1.04e-010      
  1.25            5.389e-010      0.00021712      1.0503e-008    
  1.3             -1.7305e-009    0.00026089      2.2843e-008    
  1.35            -1.3761e-009    0.00030332      6.149e-009     
  1.4             -1.2835e-009    0.00034371      1.0201e-008    
  1.45            -2.4617e-009    0.00038216      1.1495e-008    
  1.5             -1.8374e-009    0.00041804      1.902e-009     
  1.55            -1.418e-009     0.00045204      5.01e-009      
  1.6             -1.2969e-009    0.00048381      9.511e-009     
  1.65            -2.5456e-009    0.00051346      1.0759e-008    
  1.7             -1.9842e-009    0.00054081      1.112e-009     
  1.75            -1.4735e-009    0.00056654      4.054e-009     
  1.8             -1.3126e-009    0.00059043      8.754e-009     
END_DB

BEGIN_DB
 ICCAP_VAR VS         0              
 ICCAP_VAR VB         -1.8           
 ICCAP_VAR VD         1.8            

 #VG              IG              ID              IB             
  0               1.9088e-009     2.1636e-009     1.065e-009     
  0.05            1.5533e-009     1.7963e-009     -8.977e-009    
  0.1             1.7415e-009     1.5227e-009     1.0245e-008    
  0.15            4.127e-010      2.2219e-009     1.0573e-008    
  0.2             -1.3055e-009    1.3632e-009     2.5465e-008    
  0.25            -1.2732e-009    5.63e-011       1.0846e-008    
  0.3             -2.6063e-009    2.147e-010      1.209e-008     
  0.35            -9.961e-010     -2.184e-009     5e-010         
  0.4             1.6006e-009     -1.6618e-009    -1.24e-008     
  0.45            1.7721e-009     1.5384e-009     -8.779e-009    
  0.5             4.487e-010      2.4289e-009     1.0511e-008    
  0.55            -1.298e-009     2.5095e-009     2.501e-008     
  0.6             -2.6685e-009    6.1485e-009     1.0836e-008    
  0.65            2.7615e-009     3.0658e-008     1.0594e-008    
  0.7             1.2449e-009     1.5015e-007     4.97e-010      
  0.75            2.7362e-009     6.7152e-007     -1.2136e-008   
  0.8             1.8051e-009     2.5371e-006     8.263e-009     
  0.85            -2.5323e-009    9.2257e-006     4.327e-009     
  0.9             1.6032e-009     2.3767e-005     -2.5153e-008   
  0.95            1.2819e-009     5.3756e-005     -3.4788e-008   
  1               2.8274e-009     0.000102479     -5.0212e-008   
  1.05            1.2419e-009     0.00017233      -4.89e-008     
  1.1             2.7209e-009     0.00026129      -8.5548e-008   
  1.15            1.4417e-009     0.00036774      -9.7304e-008   
  1.2             1.78e-011       0.00048636      -9.7302e-008   
  1.25            -2.5391e-009    0.00061557      -1.1733e-007   
  1.3             -2.6966e-009    0.00075311      -1.1711e-007   
  1.35            -2.5671e-009    0.00089602      -1.1509e-007   
  1.4             -2.0452e-009    0.00104426      -1.147e-007    
  1.45            -1.4201e-009    0.001194        -1.2546e-007   
  1.5             1.4285e-009     0.0013445       -1.3508e-007   
  1.55            1.2492e-009     0.0014982       -1.1754e-007   
  1.6             2.7464e-009     0.001653        -1.1644e-007   
  1.65            2.1644e-009     0.0018097       -1.0246e-007   
  1.7             1.5047e-009     0.0019654       -1.0325e-007   
  1.75            1.2645e-009     0.0021198       -9.924e-008    
  1.8             2.8024e-009     0.0022755       -9.533e-008    
END_DB

