,VG,IB,ID,IG,IS,VD,VS,VB
0,0.0,3.29e-11,-2.4823e-10,-2.42e-13,7.196e-11,-1.8,0,0.0
1,-0.0225,3.4385e-11,-4.4346e-10,-2.16e-13,1.2139e-10,-1.8,0,0.0
2,-0.045,3.4659e-11,-3.4269e-10,-4.32e-13,1.9967e-10,-1.8,0,0.0
3,-0.0675,4.2835e-11,-6.7416e-10,2.7e-13,3.2726e-10,-1.8,0,0.0
4,-0.09,3.954e-11,-8.0474e-10,-4.88e-13,5.4991e-10,-1.8,0,0.0
5,-0.1125,3.9472e-11,-1.08613e-09,3.13e-13,9.054e-10,-1.8,0,0.0
6,-0.135,3.3695e-11,-1.5966e-09,-4.6e-13,1.5092e-09,-1.8,0,0.0
7,-0.1575,3.6587e-11,-2.7865e-09,-2.09e-13,2.4896e-09,-1.8,0,0.0
8,-0.18,3.6118e-11,-4.1492e-09,1.23e-13,4.0981e-09,-1.8,0,0.0
9,-0.2025,3.9904e-11,-6.7615e-09,7.7e-14,6.6885e-09,-1.8,0,0.0
10,-0.225,3.8845e-11,-1.09939e-08,2.11e-13,1.0892e-08,-1.8,0,0.0
11,-0.2475,3.9568e-11,-1.7828e-08,3.1e-14,1.7647e-08,-1.8,0,0.0
12,-0.27,3.9265e-11,-2.8405e-08,-5.09e-13,2.8279e-08,-1.8,0,0.0
13,-0.2925,4.4742e-11,-4.5222e-08,-2.39e-13,4.5008e-08,-1.8,0,0.0
14,-0.315,4.4287e-11,-7.0994e-08,2.75e-13,7.0761e-08,-1.8,0,0.0
15,-0.3375,4.3597e-11,-1.0987e-07,-4.16e-13,1.09691e-07,-1.8,0,0.0
16,-0.36,4.4444e-11,-1.6746e-07,-3.45e-13,1.6712e-07,-1.8,0,0.0
17,-0.3825,4.9945e-11,-2.5084e-07,-3.15e-13,2.5126e-07,-1.8,0,0.0
18,-0.405,5.1446e-11,-3.706e-07,-5.22e-13,3.711e-07,-1.8,0,0.0
19,-0.4275,5.2918e-11,-5.389e-07,5.6e-14,5.392e-07,-1.8,0,0.0
20,-0.45,5.0402e-11,-7.6882e-07,-3.38e-13,7.6872e-07,-1.8,0,0.0
21,-0.4725,4.7188e-11,-1.07918e-06,1.17e-13,1.07946e-06,-1.8,0,0.0
22,-0.495,5.0629e-11,-1.4902e-06,-4.53e-13,1.4894e-06,-1.8,0,0.0
23,-0.5175,5.3793e-11,-2.0229e-06,3.68e-13,2.023e-06,-1.8,0,0.0
24,-0.54,5.6912e-11,-2.7051e-06,-5.4e-14,2.7051e-06,-1.8,0,0.0
25,-0.5625,6.0628e-11,-3.5648e-06,-4.73e-13,3.5648e-06,-1.8,0,0.0
26,-0.585,6.7669e-11,-4.6286e-06,-5.32e-13,4.6297e-06,-1.8,0,0.0
27,-0.6075,7.9518e-11,-5.9263e-06,-4.53e-13,5.9264e-06,-1.8,0,0.0
28,-0.63,8.6993e-11,-7.4922e-06,-6.64e-13,7.4907e-06,-1.8,0,0.0
29,-0.6525,9.5323e-11,-9.3529e-06,-3.41e-13,9.3535e-06,-1.8,0,0.0
30,-0.675,1.04608e-10,-1.1538e-05,-5.9e-14,1.1536e-05,-1.8,0,0.0
31,-0.6975,1.08365e-10,-1.406e-05,4.2e-14,1.4056e-05,-1.8,0,0.0
32,-0.72,1.1334e-10,-1.696e-05,-9.1e-14,1.6968e-05,-1.8,0,0.0
33,-0.7425,1.2416e-10,-2.0272e-05,-1.6e-14,2.027e-05,-1.8,0,0.0
34,-0.765,1.3358e-10,-2.3988e-05,-3.62e-13,2.3988e-05,-1.8,0,0.0
35,-0.7875,1.1649e-10,-2.8122e-05,-6.82e-13,2.8122e-05,-1.8,0,0.0
36,-0.81,1.2714e-10,-3.2722e-05,-6.48e-13,3.2718e-05,-1.8,0,0.0
37,-0.8325,1.2259e-10,-3.7764e-05,-1.65e-13,3.7756e-05,-1.8,0,0.0
38,-0.855,1.1929e-10,-4.3288e-05,-1.68e-13,4.3278e-05,-1.8,0,0.0
39,-0.8775,1.3355e-10,-4.9222e-05,-4.46e-13,4.9224e-05,-1.8,0,0.0
40,-0.9,1.3882e-10,-5.5648e-05,-8.09e-13,5.5636e-05,-1.8,0,0.0
41,-0.9225,1.3221e-10,-6.2536e-05,-1.56e-13,6.2534e-05,-1.8,0,0.0
42,-0.945,1.3533e-10,-6.988e-05,1.63e-13,6.988e-05,-1.8,0,0.0
43,-0.9675,1.3305e-10,-7.7648e-05,-5.5e-14,7.7648e-05,-1.8,0,0.0
44,-0.99,1.3368e-10,-8.5886e-05,-4.23e-13,8.5886e-05,-1.8,0,0.0
45,-1.0125,1.3079e-10,-9.4546e-05,-1.1e-12,9.4526e-05,-1.8,0,0.0
46,-1.035,1.4394e-10,-0.000103632,-7.7e-13,0.000103612,-1.8,0,0.0
47,-1.0575,1.3598e-10,-0.000113096,-3.59e-13,0.000113098,-1.8,0,0.0
48,-1.08,1.2888e-10,-0.00012288,-2.07e-13,0.00012284,-1.8,0,0.0
49,-1.1025,1.2704e-10,-0.00013312,-7.59e-13,0.00013308,-1.8,0,0.0
50,-1.125,1.207e-10,-0.00014374,-2.33e-13,0.0001437,-1.8,0,0.0
51,-1.1475,1.3518e-10,-0.0001547,-4.98e-13,0.0001547,-1.8,0,0.0
52,-1.17,1.2203e-10,-0.00016602,-4.06e-13,0.00016602,-1.8,0,0.0
53,-1.1925,1.1408e-10,-0.00017764,-9.8e-14,0.00017762,-1.8,0,0.0
54,-1.215,1.1284e-10,-0.00018956,-4e-13,0.00018958,-1.8,0,0.0
55,-1.2375,1.055e-10,-0.00020184,-2.08e-13,0.00020184,-1.8,0,0.0
56,-1.26,1.089e-10,-0.00021438,-1.93e-13,0.00021436,-1.8,0,0.0
57,-1.2825,1.0414e-10,-0.00022714,-6.8e-13,0.00022712,-1.8,0,0.0
58,-1.305,1.0555e-10,-0.0002402,2.04e-13,0.00024022,-1.8,0,0.0
59,-1.3275,1.1035e-10,-0.00025356,-6.5e-13,0.00025358,-1.8,0,0.0
60,-1.35,1.0622e-10,-0.00026714,-8.84e-13,0.00026712,-1.8,0,0.0
61,-1.3725,9.993e-11,-0.0002809,-9.76e-13,0.00028088,-1.8,0,0.0
62,-1.395,9.592e-11,-0.00029488,-6.08e-13,0.00029486,-1.8,0,0.0
63,-1.4175,8.5746e-11,-0.00030912,-5.95e-13,0.0003091,-1.8,0,0.0
64,-1.44,8.2684e-11,-0.00032348,-1.57e-13,0.00032348,-1.8,0,0.0
65,-1.4625,7.8125e-11,-0.00033808,-4.06e-13,0.00033808,-1.8,0,0.0
66,-1.485,8.3253e-11,-0.00035288,-2.56e-13,0.00035284,-1.8,0,0.0
67,-1.5075,8.4712e-11,-0.0003678,-1.07e-12,0.00036778,-1.8,0,0.0
68,-1.53,6.1736e-11,-0.00038288,-6.31e-13,0.00038286,-1.8,0,0.0
69,-1.5525,5.7365e-11,-0.00039806,-9.17e-13,0.00039802,-1.8,0,0.0
70,-1.575,6.1486e-11,-0.00041348,-1.98e-13,0.00041342,-1.8,0,0.0
71,-1.5975,5.5708e-11,-0.00042902,-6.14e-13,0.00042902,-1.8,0,0.0
72,-1.62,5.2553e-11,-0.00044468,-2.49e-13,0.00044462,-1.8,0,0.0
73,-1.6425,5.4724e-11,-0.00046044,-1.024e-12,0.0004604,-1.8,0,0.0
74,-1.665,4.8032e-11,-0.00047628,-7.32e-13,0.0004763,-1.8,0,0.0
75,-1.6875,4.5228e-11,-0.00049226,-1.76e-13,0.00049226,-1.8,0,0.0
76,-1.71,4.3072e-11,-0.00050834,-8.83e-13,0.00050836,-1.8,0,0.0
77,-1.7325,4.2534e-11,-0.00052438,-6.08e-13,0.00052438,-1.8,0,0.0
78,-1.755,4.4774e-11,-0.00054076,-4.33e-13,0.00054072,-1.8,0,0.0
79,-1.7775,4.1587e-11,-0.00055716,-7.96e-13,0.00055714,-1.8,0,0.0
80,-1.8,3.1873e-11,-0.0005735,-9.18e-13,0.0005735,-1.8,0,0.0
