,VD,IB,ID,IG,IS,VG,VB,VS
0,0.0,1.237e-13,2.1249e-10,2.66e-14,-2.7187e-10,-0.6,0.0,0.0
1,-0.0225,-4.61e-14,-3.95e-07,9.12e-14,3.95e-07,-0.6,0.0,0.0
2,-0.045,4.34e-13,-6.87e-07,-9.6e-15,6.8716e-07,-0.6,0.0,0.0
3,-0.0675,8.997e-13,-9.0866e-07,2.55e-14,9.0872e-07,-0.6,0.0,0.0
4,-0.09,6.76e-13,-1.08178e-06,-1.27e-14,1.08182e-06,-0.6,0.0,0.0
5,-0.1125,1.2243e-12,-1.2223e-06,2.86e-14,1.2216e-06,-0.6,0.0,0.0
6,-0.135,1.0611e-12,-1.3403e-06,-1.211e-13,1.3402e-06,-0.6,0.0,0.0
7,-0.1575,5.514e-13,-1.4454e-06,-1.634e-13,1.4456e-06,-0.6,0.0,0.0
8,-0.18,7.41e-13,-1.5403e-06,-1.966e-13,1.54e-06,-0.6,0.0,0.0
9,-0.2025,1.073e-13,-1.6294e-06,-1.033e-13,1.6294e-06,-0.6,0.0,0.0
10,-0.225,1.1734e-12,-1.7137e-06,-4.08e-14,1.7133e-06,-0.6,0.0,0.0
11,-0.2475,4.543e-13,-1.7948e-06,-2.06e-14,1.7945e-06,-0.6,0.0,0.0
12,-0.27,1.3195e-12,-1.8739e-06,5.81e-14,1.8726e-06,-0.6,0.0,0.0
13,-0.2925,1.4583e-12,-1.9509e-06,-3.2e-15,1.9508e-06,-0.6,0.0,0.0
14,-0.315,9.414e-13,-2.0267e-06,-2.6e-14,2.0265e-06,-0.6,0.0,0.0
15,-0.3375,9.043e-13,-2.1023e-06,-8.96e-14,2.1017e-06,-0.6,0.0,0.0
16,-0.36,1.2856e-12,-2.1757e-06,-1.854e-13,2.1755e-06,-0.6,0.0,0.0
17,-0.3825,8.714e-13,-2.2502e-06,-1.346e-13,2.2503e-06,-0.6,0.0,0.0
18,-0.405,2.444e-13,-2.3238e-06,-1.08e-13,2.3237e-06,-0.6,0.0,0.0
19,-0.4275,8.628e-13,-2.3965e-06,-1.63e-13,2.3971e-06,-0.6,0.0,0.0
20,-0.45,7.594e-13,-2.4697e-06,-3.64e-14,2.4703e-06,-0.6,0.0,0.0
21,-0.4725,7.024e-13,-2.5431e-06,1.45e-14,2.5435e-06,-0.6,0.0,0.0
22,-0.495,1.158e-12,-2.6168e-06,-7.03e-14,2.6168e-06,-0.6,0.0,0.0
23,-0.5175,1.4857e-12,-2.6906e-06,-6.36e-14,2.6907e-06,-0.6,0.0,0.0
24,-0.54,4.677e-13,-2.7638e-06,-8.07e-14,2.7638e-06,-0.6,0.0,0.0
25,-0.5625,7.686e-13,-2.8382e-06,-9.99e-14,2.8386e-06,-0.6,0.0,0.0
26,-0.585,9.722e-13,-2.9122e-06,-1.933e-13,2.9115e-06,-0.6,0.0,0.0
27,-0.6075,6.763e-13,-2.986e-06,-8.05e-14,2.9856e-06,-0.6,0.0,0.0
28,-0.63,1.0918e-12,-3.061e-06,-6.85e-14,3.0615e-06,-0.6,0.0,0.0
29,-0.6525,3.877e-13,-3.1357e-06,-5.79e-14,3.1362e-06,-0.6,0.0,0.0
30,-0.675,4.534e-13,-3.2115e-06,-5.82e-14,3.2114e-06,-0.6,0.0,0.0
31,-0.6975,1.4078e-12,-3.2873e-06,-2.43e-14,3.2876e-06,-0.6,0.0,0.0
32,-0.72,1.0144e-12,-3.364e-06,-9.11e-14,3.3629e-06,-0.6,0.0,0.0
33,-0.7425,8.859e-13,-3.4399e-06,-8.33e-14,3.4399e-06,-0.6,0.0,0.0
34,-0.765,3.582e-13,-3.5171e-06,-1.361e-13,3.5179e-06,-0.6,0.0,0.0
35,-0.7875,8.154e-13,-3.5951e-06,-1.953e-13,3.5948e-06,-0.6,0.0,0.0
36,-0.81,1.3236e-12,-3.6734e-06,-1.079e-13,3.6737e-06,-0.6,0.0,0.0
37,-0.8325,1.3802e-12,-3.7521e-06,-2.14e-14,3.7529e-06,-0.6,0.0,0.0
38,-0.855,2.1196e-12,-3.8311e-06,-1.62e-14,3.8305e-06,-0.6,0.0,0.0
39,-0.8775,4.1054e-12,-3.9109e-06,-4.93e-14,3.9104e-06,-0.6,0.0,0.0
40,-0.9,4.1254e-12,-3.9915e-06,-5.03e-14,3.9909e-06,-0.6,0.0,0.0
41,-0.9225,4.3783e-12,-4.0718e-06,-4.05e-14,4.071e-06,-0.6,0.0,0.0
42,-0.945,4.9186e-12,-4.1545e-06,-2.057e-13,4.1518e-06,-0.6,0.0,0.0
43,-0.9675,4.905e-12,-4.2352e-06,-1.962e-13,4.236e-06,-0.6,0.0,0.0
44,-0.99,4.6078e-12,-4.3177e-06,-1.446e-13,4.318e-06,-0.6,0.0,0.0
45,-1.0125,5.2646e-12,-4.4008e-06,-1.642e-13,4.4011e-06,-0.6,0.0,0.0
46,-1.035,5.32e-12,-4.4863e-06,-1.222e-13,4.4844e-06,-0.6,0.0,0.0
47,-1.0575,5.6053e-12,-4.569e-06,-7.93e-14,4.5687e-06,-0.6,0.0,0.0
48,-1.08,5.4418e-12,-4.6538e-06,-6.75e-14,4.6546e-06,-0.6,0.0,0.0
49,-1.1025,5.5706e-12,-4.7393e-06,-1.356e-13,4.74e-06,-0.6,0.0,0.0
50,-1.125,5.2315e-12,-4.8258e-06,-1.15e-13,4.8253e-06,-0.6,0.0,0.0
51,-1.1475,5.4253e-12,-4.9148e-06,-1.624e-13,4.9127e-06,-0.6,0.0,0.0
52,-1.17,5.9919e-12,-5.0006e-06,-1.886e-13,4.9999e-06,-0.6,0.0,0.0
53,-1.1925,6.0884e-12,-5.089e-06,-1.185e-13,5.0879e-06,-0.6,0.0,0.0
54,-1.215,6.2002e-12,-5.1771e-06,-1.301e-13,5.1776e-06,-0.6,0.0,0.0
55,-1.2375,6.7341e-12,-5.2672e-06,-9.77e-14,5.269e-06,-0.6,0.0,0.0
56,-1.26,6.705e-12,-5.3576e-06,-4.05e-14,5.358e-06,-0.6,0.0,0.0
57,-1.2825,6.8154e-12,-5.4485e-06,-9.06e-14,5.4482e-06,-0.6,0.0,0.0
58,-1.305,7.2529e-12,-5.5392e-06,-4.74e-14,5.5395e-06,-0.6,0.0,0.0
59,-1.3275,7.3233e-12,-5.6326e-06,-1.479e-13,5.6325e-06,-0.6,0.0,0.0
60,-1.35,5.424e-12,-5.7269e-06,-1.429e-13,5.7251e-06,-0.6,0.0,0.0
61,-1.3725,6.6815e-12,-5.8206e-06,-1.083e-13,5.8197e-06,-0.6,0.0,0.0
62,-1.395,7.9134e-12,-5.9144e-06,-1.303e-13,5.9155e-06,-0.6,0.0,0.0
63,-1.4175,6.5245e-12,-6.0113e-06,-5.4e-15,6.011e-06,-0.6,0.0,0.0
64,-1.44,9.6317e-12,-6.1054e-06,-9.19e-14,6.1051e-06,-0.6,0.0,0.0
65,-1.4625,7.3358e-12,-6.2044e-06,-1.07e-13,6.2043e-06,-0.6,0.0,0.0
66,-1.485,1.0939e-11,-6.2997e-06,-1.945e-13,6.3003e-06,-0.6,0.0,0.0
67,-1.5075,1.2674e-11,-6.3995e-06,-1.444e-13,6.4003e-06,-0.6,0.0,0.0
68,-1.53,1.3129e-11,-6.5003e-06,-7.19e-14,6.4972e-06,-0.6,0.0,0.0
69,-1.5525,1.5852e-11,-6.598e-06,3.91e-14,6.5974e-06,-0.6,0.0,0.0
70,-1.575,1.8307e-11,-6.6993e-06,-1.437e-13,6.7001e-06,-0.6,0.0,0.0
71,-1.5975,1.7944e-11,-6.7999e-06,-4.54e-14,6.8021e-06,-0.6,0.0,0.0
72,-1.62,2.3837e-11,-6.9036e-06,-1.39e-14,6.9029e-06,-0.6,0.0,0.0
73,-1.6425,2.1386e-11,-7.0082e-06,-2.3e-14,7.0077e-06,-0.6,0.0,0.0
74,-1.665,2.6056e-11,-7.1105e-06,-2.93e-14,7.1118e-06,-0.6,0.0,0.0
75,-1.6875,2.9201e-11,-7.2149e-06,-1.965e-13,7.218e-06,-0.6,0.0,0.0
76,-1.71,3.4042e-11,-7.3219e-06,7.73e-14,7.3237e-06,-0.6,0.0,0.0
77,-1.7325,3.7568e-11,-7.4287e-06,-1.442e-13,7.431e-06,-0.6,0.0,0.0
78,-1.755,4.4204e-11,-7.5361e-06,1.01e-14,7.5363e-06,-0.6,0.0,0.0
79,-1.7775,4.8489e-11,-7.6442e-06,-1.589e-13,7.6455e-06,-0.6,0.0,0.0
80,-1.8,5.5708e-11,-7.7543e-06,-9.51e-14,7.7542e-06,-0.6,0.0,0.0
