,VG,IB,ID,IG,IS,VD,VS,VB
0,0.0,-3.629e-13,-1.67e-14,-2.26e-13,-6.251e-13,-0.05,0,0.0
1,-0.0225,9.1e-13,1.356e-13,2.11e-13,-9.133e-13,-0.05,0,0.0
2,-0.045,5.761e-13,2.625e-13,5.47e-13,-1.4456e-12,-0.05,0,0.0
3,-0.0675,6.98e-14,1.723e-13,-6.9e-14,-1.759e-12,-0.05,0,0.0
4,-0.09,2.938e-13,3.178e-13,-3.66e-13,-2.1556e-12,-0.05,0,0.0
5,-0.1125,1.513e-13,3.748e-13,-7e-14,-2.0031e-12,-0.05,0,0.0
6,-0.135,2.733e-13,8.35e-14,3.72e-13,-2.0118e-12,-0.05,0,0.0
7,-0.1575,-2.65e-13,2.114e-13,1.77e-13,-5.471e-13,-0.05,0,0.0
8,-0.18,1.236e-13,1.289e-13,3.46e-13,3.562e-13,-0.05,0,0.0
9,-0.2025,2.572e-13,1.452e-13,2.01e-13,1.1362e-12,-0.05,0,0.0
10,-0.225,8.845e-13,2.68e-14,3.82e-13,1.436e-13,-0.05,0,0.0
11,-0.2475,3.478e-13,-1.275e-13,2.6e-14,1.04e-14,-0.05,0,0.0
12,-0.27,3.404e-13,-4.638e-13,-4.6e-14,2.5621e-12,-0.05,0,0.0
13,-0.2925,-7.122e-13,-9.777e-13,3.27e-13,5.422e-13,-0.05,0,0.0
14,-0.315,-2.315e-13,-1.8186e-12,-1.59e-13,1.9488e-12,-0.05,0,0.0
15,-0.3375,5.895e-13,-4.0097e-12,-6.21e-13,4.7635e-12,-0.05,0,0.0
16,-0.36,4.209e-13,-6.9207e-12,-2.7e-14,4.4609e-12,-0.05,0,0.0
17,-0.3825,4.778e-13,-1.1968e-11,-1.97e-13,2.6989e-11,-0.05,0,0.0
18,-0.405,-2.141e-13,-2.5841e-11,2.16e-13,3.0546e-11,-0.05,0,0.0
19,-0.4275,2.789e-13,-4.6454e-11,-2.25e-13,5.6113e-11,-0.05,0,0.0
20,-0.45,7.702e-13,-8.8536e-11,-5.61e-13,8.0993e-11,-0.05,0,0.0
21,-0.4725,1.242e-13,-1.6662e-10,4.3e-14,1.8971e-10,-0.05,0,0.0
22,-0.495,6.56e-13,-3.1923e-10,2.94e-13,2.9538e-10,-0.05,0,0.0
23,-0.5175,-1.425e-13,-5.8937e-10,-5.9e-13,5.9836e-10,-0.05,0,0.0
24,-0.54,2.827e-13,-1.10096e-09,2e-14,1.06471e-09,-0.05,0,0.0
25,-0.5625,6.54e-14,-2.0422e-09,-5.63e-13,2.0525e-09,-0.05,0,0.0
26,-0.585,7.271e-13,-3.7939e-09,-4.17e-13,3.7871e-09,-0.05,0,0.0
27,-0.6075,-7.41e-13,-6.9333e-09,-7.55e-13,7.0403e-09,-0.05,0,0.0
28,-0.63,6.219e-13,-1.2578e-08,-6.58e-13,1.2599e-08,-0.05,0,0.0
29,-0.6525,8.868e-13,-2.2382e-08,3.37e-13,2.236e-08,-0.05,0,0.0
30,-0.675,8.304e-13,-3.9008e-08,-3.3e-14,3.8975e-08,-0.05,0,0.0
31,-0.6975,1.32e-13,-6.6183e-08,-1e-14,6.6206e-08,-0.05,0,0.0
32,-0.72,4.58e-14,-1.09496e-07,-4.89e-13,1.09556e-07,-0.05,0,0.0
33,-0.7425,1.3034e-12,-1.7576e-07,-4.62e-13,1.7618e-07,-0.05,0,0.0
34,-0.765,8.338e-13,-2.735e-07,-2.97e-13,2.7352e-07,-0.05,0,0.0
35,-0.7875,5.326e-13,-4.1072e-07,-4.11e-13,4.11e-07,-0.05,0,0.0
36,-0.81,8.19e-13,-5.9828e-07,-6.4e-13,5.987e-07,-0.05,0,0.0
37,-0.8325,6.127e-13,-8.4344e-07,9.4e-14,8.4378e-07,-0.05,0,0.0
38,-0.855,1.782e-13,-1.1533e-06,-2.83e-13,1.1532e-06,-0.05,0,0.0
39,-0.8775,1.0938e-12,-1.5294e-06,-3.2e-13,1.5291e-06,-0.05,0,0.0
40,-0.9,-8.06e-14,-1.9764e-06,-3.94e-13,1.9762e-06,-0.05,0,0.0
41,-0.9225,6.841e-13,-2.4932e-06,-5.95e-13,2.4937e-06,-0.05,0,0.0
42,-0.945,9.252e-13,-3.0779e-06,1.71e-13,3.0778e-06,-0.05,0,0.0
43,-0.9675,-1.925e-13,-3.7231e-06,-3.19e-13,3.7237e-06,-0.05,0,0.0
44,-0.99,4.024e-13,-4.4303e-06,-5.76e-13,4.4303e-06,-0.05,0,0.0
45,-1.0125,5.883e-13,-5.1907e-06,-5.48e-13,5.1922e-06,-0.05,0,0.0
46,-1.035,9.215e-13,-6.0002e-06,-4.36e-13,6.0003e-06,-0.05,0,0.0
47,-1.0575,-7.97e-14,-6.8523e-06,-3.64e-13,6.8523e-06,-0.05,0,0.0
48,-1.08,1.4404e-12,-7.739e-06,1.91e-13,7.7401e-06,-0.05,0,0.0
49,-1.1025,-3.822e-13,-8.6596e-06,-5.18e-13,8.66e-06,-0.05,0,0.0
50,-1.125,-5.649e-13,-9.6098e-06,-1.35e-13,9.6122e-06,-0.05,0,0.0
51,-1.1475,4.248e-13,-1.0583e-05,-1.98e-13,1.05855e-05,-0.05,0,0.0
52,-1.17,1.2215e-12,-1.1576e-05,1.32e-13,1.1576e-05,-0.05,0,0.0
53,-1.1925,4.612e-13,-1.2582e-05,-6.19e-13,1.2582e-05,-0.05,0,0.0
54,-1.215,1.0805e-12,-1.36e-05,-5.3e-14,1.36e-05,-0.05,0,0.0
55,-1.2375,1.2532e-12,-1.4628e-05,-7.46e-13,1.4626e-05,-0.05,0,0.0
56,-1.26,1.497e-13,-1.5654e-05,-2.17e-13,1.5656e-05,-0.05,0,0.0
57,-1.2825,7.45e-13,-1.6682e-05,-1.01e-13,1.6678e-05,-0.05,0,0.0
58,-1.305,9.839e-13,-1.7706e-05,-1.049e-12,1.7708e-05,-0.05,0,0.0
59,-1.3275,2.597e-13,-1.873e-05,-3.55e-13,1.8732e-05,-0.05,0,0.0
60,-1.35,9.131e-13,-1.9748e-05,-4.41e-13,1.9748e-05,-0.05,0,0.0
61,-1.3725,7.8e-13,-2.0752e-05,-6.79e-13,2.075e-05,-0.05,0,0.0
62,-1.395,2.4e-15,-2.1744e-05,-7.08e-13,2.175e-05,-0.05,0,0.0
63,-1.4175,9.857e-13,-2.2732e-05,-6.31e-13,2.2736e-05,-0.05,0,0.0
64,-1.44,2.543e-13,-2.371e-05,-2.74e-13,2.3704e-05,-0.05,0,0.0
65,-1.4625,4.745e-13,-2.4668e-05,-5.66e-13,2.4666e-05,-0.05,0,0.0
66,-1.485,9.68e-13,-2.5612e-05,-6.31e-13,2.5614e-05,-0.05,0,0.0
67,-1.5075,1.0248e-12,-2.6554e-05,-3.39e-13,2.655e-05,-0.05,0,0.0
68,-1.53,-2.397e-13,-2.747e-05,-7.85e-13,2.747e-05,-0.05,0,0.0
69,-1.5525,1.2659e-12,-2.837e-05,-1.92e-13,2.837e-05,-0.05,0,0.0
70,-1.575,-3.13e-13,-2.926e-05,-2.17e-13,2.9262e-05,-0.05,0,0.0
71,-1.5975,3.815e-13,-3.0142e-05,2.2e-13,3.0142e-05,-0.05,0,0.0
72,-1.62,1.3621e-12,-3.1004e-05,-5.95e-13,3.1e-05,-0.05,0,0.0
73,-1.6425,1.4059e-12,-3.1852e-05,-4.19e-13,3.1848e-05,-0.05,0,0.0
74,-1.665,7.597e-13,-3.2678e-05,-2.42e-13,3.2686e-05,-0.05,0,0.0
75,-1.6875,9.949e-13,-3.3496e-05,1.33e-13,3.3498e-05,-0.05,0,0.0
76,-1.71,4.16e-13,-3.43e-05,-6.19e-13,3.43e-05,-0.05,0,0.0
77,-1.7325,5.79e-14,-3.5088e-05,-2.22e-13,3.5092e-05,-0.05,0,0.0
78,-1.755,2.523e-13,-3.5866e-05,-7.87e-13,3.587e-05,-0.05,0,0.0
79,-1.7775,2.281e-13,-3.6632e-05,-2.69e-13,3.6638e-05,-0.05,0,0.0
80,-1.8,8.573e-13,-3.738e-05,-3.73e-13,3.7378e-05,-0.05,0,0.0
