,VD,IB,ID,IG,IS,VG,VB,VS
0,0.0,-2.85e-14,2.2029e-08,-3.301e-13,-1.5907e-08,-1.8,0.0,0.0
1,-0.0225,1.0119e-12,-0.00010964,-3.672e-13,0.0001096,-1.8,0.0,0.0
2,-0.045,8.428e-13,-0.0002173,-3.293e-13,0.00021732,-1.8,0.0,0.0
3,-0.0675,7.293e-13,-0.00032378,-3.584e-13,0.00032378,-1.8,0.0,0.0
4,-0.09,9.133e-13,-0.00042858,-3.347e-13,0.00042858,-1.8,0.0,0.0
5,-0.1125,3.785e-13,-0.00053152,-4.173e-13,0.0005316,-1.8,0.0,0.0
6,-0.135,9.948e-13,-0.00063284,-3.536e-13,0.00063278,-1.8,0.0,0.0
7,-0.1575,-4.2e-14,-0.00073212,-3.853e-13,0.00073214,-1.8,0.0,0.0
8,-0.18,9.786e-13,-0.0008293,-3.831e-13,0.00082934,-1.8,0.0,0.0
9,-0.2025,2.01e-13,-0.0009248,-3.656e-13,0.00092488,-1.8,0.0,0.0
10,-0.225,2.86e-14,-0.00101836,-4.16e-13,0.00101844,-1.8,0.0,0.0
11,-0.2475,1.955e-13,-0.00110992,-4.495e-13,0.00111,-1.8,0.0,0.0
12,-0.27,2.5e-15,-0.0011994,-2.945e-13,0.0011992,-1.8,0.0,0.0
13,-0.2925,1.2901e-12,-0.0012862,-3.606e-13,0.001286,-1.8,0.0,0.0
14,-0.315,6.591e-13,-0.001371,-3.066e-13,0.001371,-1.8,0.0,0.0
15,-0.3375,6.798e-13,-0.0014538,-3.545e-13,0.0014538,-1.8,0.0,0.0
16,-0.36,1.019e-12,-0.0015344,-2.962e-13,0.0015342,-1.8,0.0,0.0
17,-0.3825,1.309e-13,-0.001612,-4.11e-13,0.0016118,-1.8,0.0,0.0
18,-0.405,2.081e-13,-0.0016876,-4.414e-13,0.0016876,-1.8,0.0,0.0
19,-0.4275,1.656e-13,-0.0017608,-2.58e-13,0.0017606,-1.8,0.0,0.0
20,-0.45,1.895e-13,-0.0018312,-2.199e-13,0.001831,-1.8,0.0,0.0
21,-0.4725,7.865e-13,-0.0018988,-3.52e-13,0.001899,-1.8,0.0,0.0
22,-0.495,9.218e-13,-0.001965,-3.476e-13,0.0019648,-1.8,0.0,0.0
23,-0.5175,1.239e-13,-0.0020278,-2.956e-13,0.002028,-1.8,0.0,0.0
24,-0.54,9.428e-13,-0.0020886,-2.798e-13,0.0020886,-1.8,0.0,0.0
25,-0.5625,4.504e-13,-0.0021464,-2.471e-13,0.0021466,-1.8,0.0,0.0
26,-0.585,6.148e-13,-0.0022024,-2.756e-13,0.0022024,-1.8,0.0,0.0
27,-0.6075,5.093e-13,-0.0022556,-2.767e-13,0.0022554,-1.8,0.0,0.0
28,-0.63,1.17e-14,-0.0023068,-2.385e-13,0.0023064,-1.8,0.0,0.0
29,-0.6525,5.956e-13,-0.0023554,-2.122e-13,0.0023552,-1.8,0.0,0.0
30,-0.675,1.0259e-12,-0.0024018,-2.043e-13,0.0024016,-1.8,0.0,0.0
31,-0.6975,-1.079e-13,-0.0024456,-2.796e-13,0.0024458,-1.8,0.0,0.0
32,-0.72,4.264e-13,-0.0024882,-3.119e-13,0.002488,-1.8,0.0,0.0
33,-0.7425,4.664e-13,-0.0025278,-1.718e-13,0.0025276,-1.8,0.0,0.0
34,-0.765,4.892e-13,-0.0025664,-1.6e-13,0.002566,-1.8,0.0,0.0
35,-0.7875,9.387e-13,-0.0026028,-1.795e-13,0.0026026,-1.8,0.0,0.0
36,-0.81,7.936e-13,-0.0026372,-3.246e-13,0.0026372,-1.8,0.0,0.0
37,-0.8325,3.61e-13,-0.0026706,-4.449e-13,0.0026706,-1.8,0.0,0.0
38,-0.855,1.0737e-12,-0.002702,-2.267e-13,0.0027018,-1.8,0.0,0.0
39,-0.8775,9.013e-13,-0.002732,-3.21e-13,0.0027318,-1.8,0.0,0.0
40,-0.9,-1.71e-14,-0.0027602,-4.117e-13,0.0027606,-1.8,0.0,0.0
41,-0.9225,5.051e-13,-0.0027878,-3.643e-13,0.002788,-1.8,0.0,0.0
42,-0.945,4.63e-13,-0.002814,-3.403e-13,0.0028142,-1.8,0.0,0.0
43,-0.9675,4.163e-13,-0.0028394,-3.644e-13,0.002839,-1.8,0.0,0.0
44,-0.99,4.813e-13,-0.0028632,-3.633e-13,0.002863,-1.8,0.0,0.0
45,-1.0125,7.907e-13,-0.0028864,-3.22e-13,0.002886,-1.8,0.0,0.0
46,-1.035,9.782e-13,-0.0029084,-3.015e-13,0.0029082,-1.8,0.0,0.0
47,-1.0575,7.347e-13,-0.0029296,-3.044e-13,0.0029296,-1.8,0.0,0.0
48,-1.08,3.241e-13,-0.0029502,-2.339e-13,0.0029504,-1.8,0.0,0.0
49,-1.1025,7.911e-13,-0.0029696,-2.584e-13,0.00297,-1.8,0.0,0.0
50,-1.125,2.908e-13,-0.0029892,-2.223e-13,0.002989,-1.8,0.0,0.0
51,-1.1475,6.203e-13,-0.0030076,-3.56e-13,0.003007,-1.8,0.0,0.0
52,-1.17,1.093e-13,-0.0030252,-2.391e-13,0.0030254,-1.8,0.0,0.0
53,-1.1925,1.0389e-12,-0.0030428,-1.704e-13,0.0030424,-1.8,0.0,0.0
54,-1.215,6.689e-13,-0.0030596,-1.896e-13,0.0030594,-1.8,0.0,0.0
55,-1.2375,7.638e-13,-0.0030762,-1.726e-13,0.003076,-1.8,0.0,0.0
56,-1.26,1.2553e-12,-0.003092,-2.226e-13,0.0030916,-1.8,0.0,0.0
57,-1.2825,8.14e-14,-0.0031078,-2.338e-13,0.0031074,-1.8,0.0,0.0
58,-1.305,3.496e-13,-0.0031228,-3.576e-13,0.0031228,-1.8,0.0,0.0
59,-1.3275,3.649e-13,-0.003138,-1.164e-13,0.0031378,-1.8,0.0,0.0
60,-1.35,1.0601e-12,-0.0031524,-2.017e-13,0.0031522,-1.8,0.0,0.0
61,-1.3725,1.2298e-12,-0.0031672,-3.344e-13,0.0031668,-1.8,0.0,0.0
62,-1.395,5.049e-13,-0.0031812,-3.209e-13,0.0031808,-1.8,0.0,0.0
63,-1.4175,5.456e-13,-0.0031948,-3.004e-13,0.0031948,-1.8,0.0,0.0
64,-1.44,1.688e-13,-0.0032084,-3.34e-13,0.0032082,-1.8,0.0,0.0
65,-1.4625,1.6084e-12,-0.0032218,-3.81e-13,0.0032216,-1.8,0.0,0.0
66,-1.485,6.351e-13,-0.003235,-3.848e-13,0.0032348,-1.8,0.0,0.0
67,-1.5075,1.0195e-12,-0.0032478,-3.714e-13,0.0032474,-1.8,0.0,0.0
68,-1.53,6.935e-13,-0.0032602,-3.477e-13,0.0032604,-1.8,0.0,0.0
69,-1.5525,1.2502e-12,-0.003273,-3.705e-13,0.0032728,-1.8,0.0,0.0
70,-1.575,9.609e-13,-0.0032854,-3.316e-13,0.0032854,-1.8,0.0,0.0
71,-1.5975,1.8077e-12,-0.0032974,-3.352e-13,0.0032974,-1.8,0.0,0.0
72,-1.62,1.8474e-12,-0.0033098,-3.142e-13,0.0033098,-1.8,0.0,0.0
73,-1.6425,2.9813e-12,-0.003322,-2.954e-13,0.0033218,-1.8,0.0,0.0
74,-1.665,4.41e-12,-0.0033338,-2.496e-13,0.0033338,-1.8,0.0,0.0
75,-1.6875,5.1322e-12,-0.0033454,-2.715e-13,0.0033456,-1.8,0.0,0.0
76,-1.71,7.7385e-12,-0.003357,-2.483e-13,0.0033572,-1.8,0.0,0.0
77,-1.7325,1.14474e-11,-0.0033684,-2.287e-13,0.0033682,-1.8,0.0,0.0
78,-1.755,1.4944e-11,-0.0033802,-3.565e-13,0.0033798,-1.8,0.0,0.0
79,-1.7775,2.094e-11,-0.0033916,-1.743e-13,0.0033908,-1.8,0.0,0.0
80,-1.8,2.7984e-11,-0.0034026,-4.029e-13,0.0034026,-1.8,0.0,0.0
