! VERSION = 6.00
BEGIN_HEADER
 ICCAP_INPUTS
  VG         V  B GROUND SMU4 0.001 LIN        1    0          -5         101  -0.05     
  VS         V  E GROUND SMU2 0.1 CON        0
  VB         V  C GROUND SMU3 0.1 LIN        3    0          5          3    2.5       
  VD         V  S GROUND SMU1 0.1 LIN        2    -0.1       -5         2    -4.9      
 ICCAP_OUTPUTS
  IG         I  B GROUND SMU4 B
  ID         I  S GROUND SMU1 B
  IB         I  C GROUND SMU3 B
END_HEADER

BEGIN_DB
 ICCAP_VAR VS         0              
 ICCAP_VAR VB         0              
 ICCAP_VAR VD         -0.1           

 #VG              IG              ID              IB             
  0               1.2976e-009     1.301e-009      7.763e-009     
  -0.05           1.3848e-009     2.1209e-009     1.1186e-008    
  -0.1            1.5573e-009     1.9345e-009     1.2e-008       
  -0.15           6.18e-011       2.1855e-009     1.1943e-008    
  -0.2            2.553e-010      2.2591e-009     1.2504e-008    
  -0.25           4.434e-010      2.3049e-009     1.2698e-008    
  -0.3            6.286e-010      2.3188e-009     1.2045e-008    
  -0.35           7.98e-010       2.3151e-009     1.0634e-008    
  -0.4            9.519e-010      2.2676e-009     9.621e-009     
  -0.45           -1.4042e-009    1.3892e-009     9.255e-009     
  -0.5            -2.453e-009     -1.8615e-009    1.1847e-008    
  -0.55           2.4523e-009     -3.9321e-009    -2.5312e-008   
  -0.6            2.1527e-009     -7.9353e-009    -5.022e-009    
  -0.65           -2.6026e-009    -2.8849e-008    -2.6783e-008   
  -0.7            -2.1297e-009    -8.597e-008     1.526e-009     
  -0.75           1.0127e-009     -2.3208e-007    -1.9566e-008   
  -0.8            1.397e-009      -5.6545e-007    9.06e-009      
  -0.85           -1.4096e-009    -1.1658e-006    -1.2796e-008   
  -0.9            -2.5531e-009    -2.1995e-006    1.0762e-008    
  -0.95           -2.0051e-009    -3.6726e-006    1.519e-009     
  -1              -1.4986e-009    -5.5472e-006    4.952e-009     
  -1.05           -1.409e-009     -7.6995e-006    8.25e-009      
  -1.1            -1.3843e-009    -1.00146e-005   1.004e-008     
  -1.15           -4.634e-010     -1.2461e-005    1.4187e-008    
  -1.2            -9.198e-010     -1.4882e-005    -1.2571e-008   
  -1.25           1.4954e-009     -1.7343e-005    -1.5238e-008   
  -1.3            2.8573e-009     -1.9697e-005    -8.347e-009    
  -1.35           2.089e-009      -2.2012e-005    1.25e-008      
  -1.4            9.009e-010      -2.4251e-005    1.2277e-008    
  -1.45           1.2794e-009     -2.6484e-005    9.23e-009      
  -1.5            2.99e-011       -2.8572e-005    1.025e-008     
  -1.55           -1.4076e-009    -3.0628e-005    2.7125e-008    
  -1.6            -1.3926e-009    -3.2654e-005    9.865e-009     
  -1.65           -2.4039e-009    -3.4621e-005    1.3023e-008    
  -1.7            -8.38e-010      -3.6569e-005    -1.2973e-008   
  -1.75           1.6159e-009     -3.8474e-005    -1.781e-008    
  -1.8            2.8419e-009     -4.0264e-005    -8.676e-009    
  -1.85           8.959e-010      -4.2039e-005    1.1954e-008    
  -1.9            1.2729e-009     -4.3782e-005    9.315e-009     
  -1.95           1.6918e-009     -4.5474e-005    1.1593e-008    
  -2              2.118e-009      -4.708e-005     1.2449e-008    
  -2.05           9.23e-010       -4.8667e-005    1.2002e-008    
  -2.1            1.3063e-009     -5.0254e-005    9.21e-009      
  -2.15           5.28e-011       -5.1738e-005    1.0348e-008    
  -2.2            -1.4093e-009    -5.3206e-005    2.7457e-008    
  -2.25           -1.3879e-009    -5.4668e-005    1.007e-008     
  -2.3            -2.3797e-009    -5.6094e-005    1.3474e-008    
  -2.35           -8.639e-010     -5.752e-005     -1.2903e-008   
  -2.4            1.5855e-009     -5.8935e-005    -1.7207e-008   
  -2.45           2.8448e-009     -6.0242e-005    -8.582e-009    
  -2.5            9.177e-010      -6.1544e-005    1.1845e-008    
  -2.55           1.2954e-009     -6.2858e-005    9.301e-009     
  -2.6            4.75e-011       -6.4088e-005    1.0327e-008    
  -2.65           5.22e-010       -6.5337e-005    1.2661e-008    
  -2.7            9.43e-010       -6.6555e-005    1.1453e-008    
  -2.75           1.322e-009      -6.7769e-005    9.186e-009     
  -2.8            7.78e-011       -6.8912e-005    1.0509e-008    
  -2.85           -1.4088e-009    -7.0054e-005    2.7713e-008    
  -2.9            -1.384e-009     -7.1177e-005    1.0151e-008    
  -2.95           -2.3547e-009    -7.2291e-005    1.3777e-008    
  -3              2.064e-010      -7.3469e-005    -1.1577e-008   
  -3.05           1.4218e-009     -7.4505e-005    -2.0997e-008   
  -3.1            2.8583e-009     -7.5573e-005    -8.426e-009    
  -3.15           2.1668e-009     -7.6606e-005    1.2021e-008    
  -3.2            9.693e-010      -7.7622e-005    1.1399e-008    
  -3.25           1.3492e-009     -7.8651e-005    9.332e-009     
  -3.3            1.075e-010      -7.9615e-005    1.067e-008     
  -3.35           5.823e-010      -8.0601e-005    1.2737e-008    
  -3.4            9.978e-010      -8.1572e-005    1.1098e-008    
  -3.45           1.3757e-009     -8.254e-005     9.104e-009     
  -3.5            1.7984e-009     -8.347e-005     1.1437e-008    
  -3.55           6.168e-010      -8.4355e-005    1.273e-008     
  -3.6            1.0207e-009     -8.5275e-005    1.1094e-008    
  -3.65           1.4046e-009     -8.6183e-005    9.09e-009      
  -3.7            1.8306e-009     -8.706e-005     1.1717e-008    
  -3.75           6.442e-010      -8.7904e-005    1.2737e-008    
  -3.8            1.0436e-009     -8.8767e-005    1.0793e-008    
  -3.85           1.4306e-009     -8.9622e-005    9.051e-009     
  -3.9            1.8536e-009     -9.0443e-005    1.2101e-008    
  -3.95           6.765e-010      -9.1245e-005    1.2828e-008    
  -4              1.0708e-009     -9.2041e-005    1.0512e-008    
  -4.05           1.4606e-009     -9.2853e-005    9.178e-009     
  -4.1            1.8866e-009     -9.3633e-005    1.2238e-008    
  -4.15           7.026e-010      -9.4385e-005    1.2805e-008    
  -4.2            1.0999e-009     -9.5146e-005    1.0207e-008    
  -4.25           1.4879e-009     -9.5909e-005    9.248e-009     
  -4.3            2.735e-010      -9.6622e-005    1.1405e-008    
  -4.35           7.362e-010      -9.7354e-005    1.2781e-008    
  -4.4            1.1225e-009     -9.8078e-005    9.97e-009      
  -4.45           1.5195e-009     -9.8798e-005    9.345e-009     
  -4.5            3.145e-010      -9.9471e-005    1.1453e-008    
  -4.55           7.673e-010      -0.000100162    1.2569e-008    
  -4.6            1.1531e-009     -0.000100851    9.688e-009     
  -4.65           1.5513e-009     -0.000101533    1.0533e-008    
  -4.7            3.447e-010      -0.000102174    1.1753e-008    
  -4.75           7.941e-010      -0.000102818    1.2466e-008    
  -4.8            1.1748e-009     -0.000103476    9.58e-009      
  -4.85           1.578e-009      -0.000104119    1.0656e-008    
  -4.9            3.787e-010      -0.000104725    1.194e-008     
  -4.95           8.255e-010      -0.000105343    1.2652e-008    
  -5              1.2044e-009     -0.000105962    9.647e-009     
END_DB

BEGIN_DB
 ICCAP_VAR VS         0              
 ICCAP_VAR VB         0              
 ICCAP_VAR VD         -5             

 #VG              IG              ID              IB             
  0               1.4556e-009     1.7374e-009     4.909e-009     
  -0.05           9.747e-010      2.3192e-009     9.774e-009     
  -0.1            1.126e-009      2.2907e-009     9.251e-009     
  -0.15           1.278e-009      2.211e-009      9.599e-009     
  -0.2            -2.277e-010     2.0294e-009     1.0188e-008    
  -0.25           -1.6287e-009    9.143e-010      2.3103e-008    
  -0.3            -1.7798e-009    -1.631e-009     7.248e-009     
  -0.35           2.194e-009      -1.8691e-009    -2.0193e-008   
  -0.4            1.8649e-009     -3.625e-010     -7.052e-009    
  -0.45           1.5902e-009     -2.8061e-009    -8.567e-009    
  -0.5            -2.415e-009     -1.2032e-008    -2.7411e-008   
  -0.55           -8.113e-010     -3.8648e-008    -1.2413e-008   
  -0.6            1.727e-010      -1.1114e-007    -7.505e-009    
  -0.65           6.459e-010      -3.1025e-007    1.7551e-008    
  -0.7            1.048e-009      -7.8252e-007    2.1987e-008    
  -0.75           -1.3991e-009    -1.7101e-006    1.7069e-008    
  -0.8            -2.6672e-009    -3.4025e-006    5.6236e-008    
  -0.85           -2.3455e-009    -6.1762e-006    8.0607e-008    
  -0.9            -6.264e-010     -1.0232e-005    1.1621e-007    
  -0.95           -1.0184e-009    -1.5594e-005    1.7083e-007    
  -1              -1.392e-009     -2.2254e-005    2.3804e-007    
  -1.05           -1.7643e-009    -3.0345e-005    3.0875e-007    
  -1.1            -2.0244e-009    -3.988e-005     3.8748e-007    
  -1.15           -2.42e-009      -5.0424e-005    4.6632e-007    
  -1.2            -2.6902e-009    -6.2009e-005    5.4607e-007    
  -1.25           -2.6756e-009    -7.4611e-005    6.2706e-007    
  -1.3            -2.5238e-009    -8.8149e-005    7.0561e-007    
  -1.35           -2.0189e-009    -0.000102394    7.7973e-007    
  -1.4            -1.5623e-009    -0.00011739     8.4906e-007    
  -1.45           -1.3644e-009    -0.00013322     9.1833e-007    
  -1.5            -2.6644e-009    -0.00014963     9.7912e-007    
  -1.55           -2.4349e-009    -0.00016695     1.02233e-006   
  -1.6            -1.8564e-009    -0.00018447     1.0709e-006    
  -1.65           -1.4245e-009    -0.00020258     1.11529e-006   
  -1.7            1.903e-010      -0.00022145     1.1358e-006    
  -1.75           6.662e-010      -0.00024054     1.1913e-006    
  -1.8            1.0629e-009     -0.00026013     1.2144e-006    
  -1.85           1.4488e-009     -0.0002807      1.2311e-006    
  -1.9            1.8771e-009     -0.00030093     1.2473e-006    
  -1.95           2.289e-009      -0.00032111     1.2557e-006    
  -2              2.6294e-009     -0.00034194     1.2557e-006    
  -2.05           2.8346e-009     -0.00036317     1.2575e-006    
  -2.1            2.8664e-009     -0.00038465     1.2455e-006    
  -2.15           2.7265e-009     -0.00040631     1.2285e-006    
  -2.2            2.1515e-009     -0.00042832     1.2119e-006    
  -2.25           1.4645e-009     -0.00045055     1.1892e-006    
  -2.3            2.8583e-009     -0.00047297     1.1668e-006    
  -2.35           2.8304e-009     -0.00049538     1.1534e-006    
  -2.4            2.4969e-009     -0.00051823     1.1241e-006    
  -2.45           1.7655e-009     -0.00054127     1.0951e-006    
  -2.5            1.3179e-009     -0.00056442     1.0584e-006    
  -2.55           2.862e-009      -0.00058779     1.0265e-006    
  -2.6            -2.1332e-009    -0.00061088     9.9388e-007    
  -2.65           -2.5404e-009    -0.00063448     9.6026e-007    
  -2.7            -2.7511e-009    -0.00065812     9.2585e-007    
  -2.75           -2.7047e-009    -0.00068203     8.931e-007     
  -2.8            -2.508e-009     -0.00070601     8.6039e-007    
  -2.85           -1.9431e-009    -0.00072998     8.2625e-007    
  -2.9            -1.4672e-009    -0.00075407     7.934e-007     
  -2.95           -1.4107e-009    -0.00077834     7.6052e-007    
  -3              -2.6489e-009    -0.00080265     7.2658e-007    
  -3.05           -2.2703e-009    -0.00082744     6.8255e-007    
  -3.1            -1.6508e-009    -0.00085185     6.505e-007     
  -3.15           -1.4079e-009    -0.00087649     6.1955e-007    
  -3.2            -1.4067e-009    -0.00090119     5.885e-007     
  -3.25           -2.5271e-009    -0.00092595     5.5853e-007    
  -3.3            -1.9573e-009    -0.00095111     5.1835e-007    
  -3.35           -1.4759e-009    -0.00097608     4.9206e-007    
  -3.4            -1.4083e-009    -0.00100094     4.6584e-007    
  -3.45           -1.3759e-009    -0.00102598     4.3952e-007    
  -3.5            -2.2943e-009    -0.0010512      4.1688e-007    
  -3.55           -1.6647e-009    -0.00107657     3.8088e-007    
  -3.6            -1.4088e-009    -0.00110173     3.5944e-007    
  -3.65           -1.4096e-009    -0.00112691     3.3808e-007    
  -3.7            -6.788e-010     -0.0011519      3.1867e-007    
  -3.75           -1.0698e-009    -0.0011776      2.7474e-007    
  -3.8            -1.4492e-009    -0.0012025      2.5621e-007    
  -3.85           -1.8198e-009    -0.0012282      2.3667e-007    
  -3.9            -2.087e-009     -0.0012541      2.2165e-007    
  -3.95           -2.482e-009     -0.0012794      2.0547e-007    
  -4              -2.7415e-009    -0.0013051      1.9028e-007    
  -4.05           -2.7161e-009    -0.0013307      1.7881e-007    
  -4.1            -2.5578e-009    -0.0013563      1.6822e-007    
  -4.15           -2.035e-009     -0.001382       1.5701e-007    
  -4.2            -1.5008e-009    -0.0014074      1.4846e-007    
  -4.25           -1.4089e-009    -0.001433       1.4018e-007    
  -4.3            -1.386e-009     -0.0014584      1.3143e-007    
  -4.35           -2.3553e-009    -0.0014843      1.2523e-007    
  -4.4            -1.7293e-009    -0.0015102      1.0568e-007    
  -4.45           -1.419e-009     -0.0015357      1.001e-007     
  -4.5            -1.4133e-009    -0.0015613      9.493e-008     
  -4.55           -2.5716e-009    -0.0015871      8.973e-008     
  -4.6            1.9818e-009     -0.0016135      5.3008e-008    
  -4.65           1.3759e-009     -0.0016389      5.7835e-008    
  -4.7            2.8584e-009     -0.0016648      5.2005e-008    
  -4.75           2.7939e-009     -0.0016903      5.5371e-008    
  -4.8            2.3389e-009     -0.001716       4.8998e-008    
  -4.85           1.599e-009      -0.0017421      4.0174e-008    
  -4.9            2.8399e-009     -0.0017676      3.3198e-008    
  -4.95           2.8475e-009     -0.0017933      4.031e-008     
  -5              2.6316e-009     -0.0018187      3.4175e-008    
END_DB

BEGIN_DB
 ICCAP_VAR VS         0              
 ICCAP_VAR VB         2.5            
 ICCAP_VAR VD         -0.1           

 #VG              IG              ID              IB             
  0               1.2849e-009     1.1189e-009     -1.1423e-008   
  -0.05           1.587e-009      1.8987e-009     1.2215e-008    
  -0.1            9.97e-011       2.2006e-009     1.2101e-008    
  -0.15           2.951e-010      2.2725e-009     1.2625e-008    
  -0.2            4.859e-010      2.3132e-009     1.2571e-008    
  -0.25           6.725e-010      2.3277e-009     1.1716e-008    
  -0.3            8.355e-010      2.3274e-009     1.0193e-008    
  -0.35           -1.3805e-009    1.702e-009      1.5629e-008    
  -0.4            -2.5752e-009    3.297e-010      1.413e-008     
  -0.45           -1.1142e-009    -2.1994e-009    1.625e-009     
  -0.5            1.5173e-009     -1.8026e-009    -1.0453e-008   
  -0.55           9.312e-010      2.3244e-009     -8.479e-009    
  -0.6            1.0855e-009     2.3007e-009     9.241e-009     
  -0.65           1.2359e-009     2.2409e-009     9.961e-009     
  -0.7            1.3962e-009     2.1147e-009     1.139e-008     
  -0.75           1.5627e-009     1.9295e-009     1.2194e-008    
  -0.8            6.79e-011       2.1893e-009     1.1894e-008    
  -0.85           2.624e-010      2.2578e-009     1.2593e-008    
  -0.9            4.551e-010      2.2859e-009     1.2679e-008    
  -0.95           6.408e-010      2.2233e-009     1.1841e-008    
  -1              -1.4089e-009    8.554e-010      1.0468e-008    
  -1.05           -1.4136e-009    -2.2128e-009    9.978e-009     
  -1.1            -1.3995e-009    -9.1777e-009    1.0271e-008    
  -1.15           2.863e-009      -3.6195e-008    1.1551e-008    
  -1.2            -2.543e-010     -1.2625e-007    9.082e-009     
  -1.25           -7.464e-010     -3.5195e-007    -1.3072e-008   
  -1.3            1.75e-009       -8.5598e-007    -2.046e-008    
  -1.35           1.4197e-009     -1.7522e-006    6.89e-009      
  -1.4            1.8458e-009     -3.1275e-006    1.2358e-008    
  -1.45           6.75e-010       -4.879e-006     1.2688e-008    
  -1.5            1.068e-009      -7.008e-006     1.0452e-008    
  -1.55           1.4592e-009     -9.3206e-006    9.162e-009     
  -1.6            -2.4066e-009    -1.1581e-005    9.352e-009     
  -1.65           -8.277e-010     -1.3907e-005    -1.3124e-008   
  -1.7            1.635e-009      -1.6222e-005    -1.8015e-008   
  -1.75           2.8426e-009     -1.8408e-005    -8.73e-009     
  -1.8            8.9e-010        -2.0515e-005    1.2339e-008    
  -1.85           1.2717e-009     -2.2634e-005    9.38e-009      
  -1.9            2.1e-011        -2.4571e-005    1.0158e-008    
  -1.95           -1.4067e-009    -2.648e-005     2.7197e-008    
  -2              -1.3949e-009    -2.8347e-005    9.827e-009     
  -2.05           -2.4161e-009    -3.0154e-005    1.3051e-008    
  -2.1            -8.425e-010     -3.1946e-005    -1.3095e-008   
  -2.15           1.6174e-009     -3.3692e-005    -1.7845e-008   
  -2.2            2.8472e-009     -3.5341e-005    -8.687e-009    
  -2.25           9.043e-010      -3.6947e-005    1.2185e-008    
  -2.3            1.2813e-009     -3.8549e-005    9.308e-009     
  -2.35           1.6989e-009     -4.0112e-005    1.0592e-008    
  -2.4            2.1268e-009     -4.1587e-005    1.2462e-008    
  -2.45           9.341e-010      -4.305e-005     1.2016e-008    
  -2.5            1.3098e-009     -4.4513e-005    9.214e-009     
  -2.55           6.93e-011       -4.5893e-005    1.0444e-008    
  -2.6            5.486e-010      -4.7276e-005    1.2568e-008    
  -2.65           9.673e-010      -4.8641e-005    1.1275e-008    
  -2.7            1.3505e-009     -4.9989e-005    9.327e-009     
  -2.75           1.777e-009      -5.1295e-005    1.2031e-008    
  -2.8            2.2008e-009     -5.2538e-005    1.2054e-008    
  -2.85           1.0035e-009     -5.3789e-005    1.1047e-008    
  -2.9            1.3909e-009     -5.5041e-005    9.108e-009     
  -2.95           1.8111e-009     -5.6238e-005    1.1697e-008    
  -3              6.331e-010      -5.7394e-005    1.2649e-008    
  -3.05           1.037e-009      -5.8563e-005    1.0747e-008    
  -3.1            1.4237e-009     -5.9724e-005    9.113e-009     
  -3.15           1.8525e-009     -6.084e-005     1.2024e-008    
  -3.2            6.746e-010      -6.1916e-005    1.2755e-008    
  -3.25           1.0717e-009     -6.3009e-005    1.0419e-008    
  -3.3            1.4653e-009     -6.4093e-005    9.209e-009     
  -3.35           1.8852e-009     -6.5132e-005    1.2328e-008    
  -3.4            7.155e-010      -6.6151e-005    1.2713e-008    
  -3.45           1.1094e-009     -6.7174e-005    1.0149e-008    
  -3.5            1.5069e-009     -6.8188e-005    9.332e-009     
  -3.55           2.939e-010      -6.914e-005     1.151e-008     
  -3.6            7.571e-010      -7.0114e-005    1.2731e-008    
  -3.65           1.1426e-009     -7.1076e-005    9.882e-009     
  -3.7            1.5473e-009     -7.2022e-005    9.516e-009     
  -3.75           3.447e-010      -7.293e-005     1.1702e-008    
  -3.8            7.894e-010      -7.3841e-005    1.2609e-008    
  -3.85           1.1746e-009     -7.4749e-005    9.752e-009     
  -3.9            1.5841e-009     -7.5638e-005    9.627e-009     
  -3.95           3.823e-010      -7.649e-005     1.2024e-008    
  -4              8.322e-010      -7.7342e-005    1.2665e-008    
  -4.05           -1.5328e-009    -7.8204e-005    1.5458e-008    
  -4.1            -1.408e-009     -7.9003e-005    8.016e-009     
  -4.15           -1.3904e-009    -7.982e-005     9.988e-009     
