! VERSION = 6.00
BEGIN_HEADER
 ICCAP_INPUTS
  VG         V  B GROUND SMU4 0.001 LIN        1    0          -5         101  -0.05     
  VS         V  E GROUND SMU2 0.1 CON        0
  VB         V  C GROUND SMU3 0.1 LIN        3    0          5          3    2.5       
  VD         V  S GROUND SMU1 0.1 LIN        2    -0.1       -5         2    -4.9      
 ICCAP_OUTPUTS
  IG         I  B GROUND SMU4 B
  ID         I  S GROUND SMU1 B
  IB         I  C GROUND SMU3 B
END_HEADER

BEGIN_DB
 ICCAP_VAR VS         0              
 ICCAP_VAR VB         0              
 ICCAP_VAR VD         -0.1           

 #VG              IG              ID              IB             
  0               -3.84e-010      -5.379e-010     1.0424e-008    
  -0.05           -1.3196e-009    1.178e-010      1.1612e-008    
  -0.1            -2.6469e-009    2.751e-010      1.3412e-008    
  -0.15           -2.0321e-009    -1.2758e-009    8.68e-010      
  -0.2            -7.971e-010     -2.3159e-009    -1.1309e-008   
  -0.25           2.0618e-009     -1.6525e-009    -1.6323e-008   
  -0.3            1.5419e-009     1.9134e-009     -8.344e-009    
  -0.35           1.355e-010      2.142e-009      1.043e-008     
  -0.4            3.2e-010        2.2195e-009     1.0475e-008    
  -0.45           5.107e-010      2.1735e-009     1.0849e-008    
  -0.5            -1.3475e-009    7.744e-010      2.4173e-008    
  -0.55           -1.3201e-009    -2.4173e-009    1.1585e-008    
  -0.6            -2.6456e-009    -8.6436e-009    1.3398e-008    
  -0.65           1.2586e-009     -2.9931e-008    1.043e-008     
  -0.7            2.7048e-009     -1.06567e-007   -1.3181e-008   
  -0.75           -7.063e-010     -3.0686e-007    1.1675e-008    
  -0.8            1.7828e-009     -9.6031e-007    -1.8371e-008   
  -0.85           2.6052e-009     -2.244e-006     2.0173e-008    
  -0.9            5.263e-010      -5.0256e-006    1.0441e-008    
  -0.95           -1.8319e-009    -9.6922e-006    2.3764e-008    
  -1              1.2648e-009     -1.6406e-005    3.928e-009     
  -1.05           2.7492e-009     -2.4749e-005    -1.2434e-008   
  -1.1            6.035e-010      -3.4102e-005    1.0429e-008    
  -1.15           -1.7329e-009    -4.4277e-005    2.1836e-008    
  -1.2            -1.4143e-009    -5.5062e-005    6.866e-009     
  -1.25           -1.3315e-009    -6.5821e-005    1.102e-008     
  -1.3            -2.5091e-009    -7.6514e-005    1.2193e-008    
  -1.35           -1.8958e-009    -8.7288e-005    2.066e-009     
  -1.4            -1.4688e-009    -9.764e-005     5.249e-009     
  -1.45           -1.3506e-009    -0.000107685    1.0319e-008    
  -1.5            -1.3194e-009    -0.00011751     8.776e-009     
  -1.55           -2.3849e-009    -0.00012704     1.3452e-008    
  -1.6            -1.7556e-009    -0.00013646     2.832e-009     
  -1.65           -1.4217e-009    -0.00014541     6.488e-009     
  -1.7            -1.3365e-009    -0.0001541      1.101e-008     
  -1.75           -2.5514e-009    -0.00016258     1.1704e-008    
  -1.8            -1.9558e-009    -0.00017104     1.75e-009      
  -1.85           -1.4873e-009    -0.00017899     4.941e-009     
  -1.9            -1.3571e-009    -0.00018679     9.957e-009     
  -1.95           -2.6639e-009    -0.00019431     1.116e-008     
  -2              -2.1593e-009    -0.00020175     7.74e-010      
  -2.05           -1.5929e-009    -0.00020893     3.678e-009     
  -2.1            -1.3815e-009    -0.00021588     8.525e-009     
  -2.15           -2.74e-009      -0.00022273     1.139e-008     
  -2.2            -2.3488e-009    -0.00022943     6.58e-010      
  -2.25           -1.7443e-009    -0.00023589     2.788e-009     
  -2.3            -1.4171e-009    -0.00024225     6.781e-009     
  -2.35           -1.3344e-009    -0.0002484      1.113e-008     
  -2.4            -2.5308e-009    -0.00025444     1.2022e-008    
  -2.45           -1.9314e-009    -0.00026044     1.879e-009     
  -2.5            -1.4769e-009    -0.00026625     5.14e-009      
  -2.55           -1.3511e-009    -0.00027194     1.0091e-008    
  -2.6            -2.6497e-009    -0.00027748     1.1224e-008    
  -2.65           -2.1275e-009    -0.00028302     9.01e-010      
  -2.7            -1.5741e-009    -0.00028832     4.02e-009      
  -2.75           -1.3779e-009    -0.00029358     8.742e-009     
  -2.8            -2.7317e-009    -0.00029874     1.1511e-008    
  -2.85           -2.3339e-009    -0.00030381     6.43e-010      
  -2.9            -1.7173e-009    -0.00030876     2.995e-009     
  -2.95           -1.4118e-009    -0.00031363     6.964e-009     
  -3              -1.3282e-009    -0.00031836     1.0945e-008    
  -3.05           -2.5094e-009    -0.000323       1.1998e-008    
  -3.1            -1.8981e-009    -0.00032767     2.134e-009     
  -3.15           -1.4631e-009    -0.00033224     5.38e-009      
  -3.2            -1.3491e-009    -0.00033665     1.0262e-008    
  -3.25           -2.6367e-009    -0.00034096     1.1114e-008    
  -3.3            -2.1047e-009    -0.00034534     9.09e-010      
  -3.35           -1.5586e-009    -0.00034954     4.244e-009     
  -3.4            -1.372e-009     -0.00035367     8.917e-009     
  -3.45           -2.7184e-009    -0.00035777     1.1472e-008    
  -3.5            -2.2931e-009    -0.00036182     6.85e-010      
  -3.55           -1.6901e-009    -0.00036575     2.932e-009     
  -3.6            -1.4039e-009    -0.00036964     7.258e-009     
  -3.65           -1.3274e-009    -0.00037342     1.13e-008      
  -3.7            -2.4841e-009    -0.00037719     1.2567e-008    
  -3.75           -1.874e-009     -0.00038099     2.151e-009     
  -3.8            -1.4567e-009    -0.00038458     5.548e-009     
  -3.85           -1.3461e-009    -0.00038816     1.0385e-008    
  -3.9            -2.6232e-009    -0.00039168     1.132e-008     
  -3.95           -2.0705e-009    -0.00039522     1.045e-009     
  -4              -1.5422e-009    -0.00039864     4.453e-009     
  -4.05           -1.3698e-009    -0.00040198     9.013e-009     
  -4.1            -2.717e-009     -0.00040534     1.1506e-008    
  -4.15           -2.276e-009     -0.00040865     7.04e-010      
  -4.2            -1.6759e-009    -0.00041184     3.31e-009      
  -4.25           -1.4035e-009    -0.00041498     7.504e-009     
  -4.3            -1.326e-009     -0.00041812     1.1336e-008    
  -4.35           -2.4717e-009    -0.00042112     1.261e-008     
  -4.4            -1.8502e-009    -0.00042431     2.124e-009     
  -4.45           -1.4512e-009    -0.00042727     5.782e-009     
  -4.5            -1.3441e-009    -0.00043023     1.051e-008     
  -4.55           -2.6108e-009    -0.00043307     1.1232e-008    
  -4.6            -2.0532e-009    -0.00043604     1.258e-009     
  -4.65           -1.5384e-009    -0.00043883     4.164e-009     
  -4.7            -1.3669e-009    -0.0004416      9.252e-009     
  -4.75           -2.7093e-009    -0.0004443      1.1383e-008    
  -4.8            -2.2618e-009    -0.00044705     7.76e-010      
  -4.85           -1.6626e-009    -0.00044969     3.138e-009     
  -4.9            -1.3971e-009    -0.00045237     7.482e-009     
  -4.95           -1.3247e-009    -0.00045496     1.1214e-008    
  -5              -2.4598e-009    -0.00045742     1.2614e-008    
END_DB

BEGIN_DB
 ICCAP_VAR VS         0              
 ICCAP_VAR VB         0              
 ICCAP_VAR VD         -5             

 #VG              IG              ID              IB             
  0               -2.1119e-009    -2.1902e-009    1.3277e-008    
  -0.05           -5.145e-010     -2.2961e-009    -1.1154e-008   
  -0.1            1.2794e-009     -1.5108e-009    -2.2156e-008   
  -0.15           2.9182e-009     -8.6e-011       -1.1085e-008   
  -0.2            7.644e-010      2.3563e-009     -4.66e-010     
  -0.25           -1.3141e-009    1.4914e-009     1.7635e-008    
  -0.3            -2.535e-009     -1.7025e-009    1.4259e-008    
  -0.35           -2.042e-010     -4.0732e-009    -1.0839e-008   
  -0.4            -4.19e-010      -8.4542e-009    -1.0841e-008   
  -0.45           2.9063e-009     -1.8759e-008    2.1699e-008    
  -0.5            9.652e-010      -6.4496e-008    1.2533e-008    
  -0.55           7.766e-010      -2.0945e-007    -9.58e-009     
  -0.6            1.1633e-009     -6.4596e-007    2.5389e-008    
  -0.65           -1.3123e-009    -1.8417e-006    3.178e-008     
  -0.7            2.8738e-009     -4.425e-006     8.9896e-008    
  -0.75           2.6971e-009     -1.03214e-005   2.1128e-007    
  -0.8            -2.3548e-009    -1.9692e-005    3.9726e-007    
  -0.85           -1.6973e-009    -3.5215e-005    6.5521e-007    
  -0.9            -2.4952e-009    -5.743e-005     1.0139e-006    
  -0.95           -9.338e-010     -8.6295e-005    1.4366e-006    
  -1              -8.605e-010     -0.00012213     1.9115e-006    
  -1.05           -1.2468e-009    -0.00016329     2.4647e-006    
  -1.1            -1.551e-009     -0.00021105     3.0279e-006    
  -1.15           -1.8056e-009    -0.00026432     3.6058e-006    
  -1.2            -2.1846e-009    -0.00032198     4.1715e-006    
  -1.25           -2.3806e-009    -0.00038323     4.7287e-006    
  -1.3            -1.4306e-009    -0.00044889     5.272e-006     
  -1.35           -1.7152e-009    -0.00051734     5.7831e-006    
  -1.4            -2.1013e-009    -0.0005878      6.2627e-006    
  -1.45           -2.4123e-009    -0.00066317     6.7261e-006    
  -1.5            -2.4456e-009    -0.00073973     7.1519e-006    
  -1.55           -2.1689e-009    -0.00081875     7.5367e-006    
  -1.6            -1.5936e-009    -0.00089994     7.8852e-006    
  -1.65           -2.4569e-009    -0.00098317     8.1941e-006    
  -1.7            -2.6005e-009    -0.00106966     8.4535e-006    
  -1.75           3.0157e-009     -0.0011565      8.6841e-006    
  -1.8            3.0834e-009     -0.0012468      8.8985e-006    
  -1.85           2.7668e-009     -0.0013383      9.0429e-006    
  -1.9            2.1039e-009     -0.0014308      9.162e-006     
  -1.95           1.5402e-009     -0.0015244      9.233e-006     
  -2              1.358e-009      -0.0016188      9.2773e-006    
  -2.05           2.8605e-009     -0.0017147      9.2833e-006    
  -2.1            2.2877e-009     -0.001811       9.2712e-006    
  -2.15           1.6285e-009     -0.0019091      9.2184e-006    
  -2.2            1.3429e-009     -0.0020078      9.1391e-006    
  -2.25           2.9096e-009     -0.002108       9.0392e-006    
  -2.3            2.4878e-009     -0.0022071      8.9212e-006    
  -2.35           1.7972e-009     -0.0023088      8.7721e-006    
  -2.4            1.3723e-009     -0.002411       8.601e-006     
  -2.45           1.2616e-009     -0.0025138      8.4177e-006    
  -2.5            2.6709e-009     -0.0026175      8.2182e-006    
  -2.55           2.0179e-009     -0.0027207      8.0128e-006    
  -2.6            1.4552e-009     -0.0028253      7.7861e-006    
  -2.65           1.2791e-009     -0.0029303      7.55e-006      
  -2.7            2.7944e-009     -0.0030364      7.3116e-006    
  -2.75           2.2562e-009     -0.0031414      7.0704e-006    
  -2.8            1.5993e-009     -0.0032481      6.8192e-006    
  -2.85           1.3086e-009     -0.0033548      6.5605e-006    
  -2.9            2.8872e-009     -0.0034626      6.3041e-006    
  -2.95           2.4795e-009     -0.0035689      6.058e-006     
  -3              1.8052e-009     -0.003677       5.8014e-006    
  -3.05           1.3663e-009     -0.0037852      5.5412e-006    
  -3.1            1.2507e-009     -0.0038939      5.2927e-006    
  -3.15           2.6782e-009     -0.0040027      5.0459e-006    
  -3.2            2.0382e-009     -0.0041107      4.8115e-006    
  -3.25           1.4635e-009     -0.0042201      4.5705e-006    
  -3.3            1.2761e-009     -0.0043301      4.3368e-006    
  -3.35           2.8124e-009     -0.00444        4.1115e-006    
  -3.4            2.2777e-009     -0.0045491      3.9006e-006    
  -3.45           1.6215e-009     -0.0046589      3.6876e-006    
  -3.5            1.3137e-009     -0.0047693      3.4776e-006    
  -3.55           2.8926e-009     -0.0048806      3.2802e-006    
  -3.6            2.5051e-009     -0.0049897      3.0974e-006    
  -3.65           1.8226e-009     -0.0051006      2.9146e-006    
  -3.7            1.373e-009      -0.0052132      2.7309e-006    
  -3.75           1.2537e-009     -0.0053242      2.5669e-006    
  -3.8            2.6879e-009     -0.0054355      2.4029e-006    
  -3.85           2.0471e-009     -0.0055455      2.264e-006     
  -3.9            1.4774e-009     -0.0056567      2.1156e-006    
  -3.95           1.2783e-009     -0.0057683      1.9743e-006    
  -4              2.8088e-009     -0.0058793      1.845e-006     
  -4.05           2.2902e-009     -0.0059899      1.7326e-006    
  -4.1            1.6292e-009     -0.0061013      1.613e-006     
  -4.15           1.3149e-009     -0.0062127      1.4999e-006    
  -4.2            2.8922e-009     -0.0063247      1.3976e-006    
  -4.25           2.5036e-009     -0.0064346      1.3073e-006    
  -4.3            1.8285e-009     -0.0065462      1.2146e-006    
  -4.35           1.3805e-009     -0.0066577      1.1222e-006    
  -4.4            1.2553e-009     -0.0067686      1.0408e-006    
  -4.45           -2.1762e-009    -0.006877       9.7922e-007    
  -4.5            -1.6232e-009    -0.0069882      9.1132e-007    
  -4.55           -1.3968e-009    -0.0070993      8.4995e-007    
  -4.6            -1.3183e-009    -0.00721        7.9169e-007    
  -4.65           -2.3898e-009    -0.0073207      7.3544e-007    
  -4.7            -1.786e-009     -0.0074318      6.7236e-007    
  -4.75           -1.4384e-009    -0.0075421      6.2617e-007    
  -4.8            -1.337e-009     -0.0076527      5.8414e-007    
  -4.85           -2.5537e-009    -0.0077628      5.4133e-007    
  -4.9            -1.9771e-009    -0.0078752      4.9179e-007    
  -4.95           -1.5137e-009    -0.0079842      4.5751e-007    
  -5              -1.3648e-009    -0.0080951      4.2823e-007    
END_DB

BEGIN_DB
 ICCAP_VAR VS         0              
 ICCAP_VAR VB         2.5            
 ICCAP_VAR VD         -0.1           

 #VG              IG              ID              IB             
  0               7.384e-010      8.018e-010      -1.1789e-008   
  -0.05           1.9716e-009     1.3854e-009     -8.86e-009     
  -0.1            5.613e-010      2.3827e-009     1.0835e-008    
  -0.15           -1.334e-009     1.5239e-009     2.3011e-008    
  -0.2            -2.7258e-009    1.586e-010      1.1853e-008    
  -0.25           -1.9575e-009    -1.363e-009     6.76e-010      
  -0.3            -6.461e-010     -2.3155e-009    -1.135e-008    
  -0.35           -8.497e-010     -2.3123e-009    -1.1362e-008   
  -0.4            1.9892e-009     -1.6707e-009    -1.5865e-008   
  -0.45           1.5898e-009     1.8624e-009     -9.116e-009    
  -0.5            1.882e-010      2.1893e-009     1.0348e-008    
  -0.55           3.744e-010      2.3026e-009     1.0447e-008    
  -0.6            5.649e-010      2.3819e-009     1.091e-008     
  -0.65           -1.3353e-009    1.5261e-009     2.3153e-008    
  -0.7            -2.7284e-009    1.614e-010      1.1682e-008    
  -0.75           -1.9603e-009    -1.3619e-009    7.87e-010      
  -0.8            -6.433e-010     -2.3198e-009    -1.1325e-008   
  -0.85           -8.505e-010     -2.3345e-009    -1.1382e-008   
  -0.9            -1.0126e-009    -2.3786e-009    -1.1148e-008   
  -0.95           1.6958e-009     -2.2275e-009    -1.3077e-008   
  -1              1.4673e-009     -1.8154e-009    -9.325e-009    
  -1.05           1.3477e-009     -9.2206e-009    -8.798e-009    
  -1.1            -1.3912e-009    -3.6929e-008    -1.1299e-008   
  -1.15           -2.812e-009     -1.3551e-007    1.0246e-008    
  -1.2            -5.8e-011       -5.0225e-007    -1.1395e-008   
  -1.25           1.3618e-009     -1.4535e-006    1.0271e-008    
  -1.3            1.2524e-009     -3.677e-006     -8.756e-009    
  -1.35           2.7016e-009     -7.7287e-006    -1.2961e-008   
  -1.4            -1.3393e-009    -1.3514e-005    8.391e-009     
  -1.45           -2.5859e-009    -2.1326e-005    1.1457e-008    
  -1.5            -2.0191e-009    -3.0528e-005    1.439e-009     
  -1.55           -1.5189e-009    -4.0401e-005    4.671e-009     
  -1.6            -1.3604e-009    -5.0566e-005    9.656e-009     
  -1.65           -2.6909e-009    -6.0699e-005    1.1324e-008    
  -1.7            -2.2096e-009    -7.0832e-005    8.76e-010      
  -1.75           -1.6309e-009    -8.0583e-005    3.476e-009     
  -1.8            -1.3906e-009    -9.0154e-005    8.141e-009     
  -1.85           -1.3219e-009    -9.9285e-005    1.1438e-008    
  -1.9            -2.4151e-009    -0.000108116    1.3259e-008    
  -1.95           -2.8118e-009    -0.00011691     -1.1204e-008   
  -2              -1.1822e-009    -0.00012515     -1.1153e-008   
  -2.05           5.77e-011       -0.00013349     -1.1797e-008   
  -2.1            -4.073e-010     -0.00014122     -1.0694e-008   
  -2.15           -8.916e-010     -0.00014871     -1.1353e-008   
  -2.2            -1.2858e-009    -0.00015606     -1.0976e-008   
  -2.25           -4.39e-011      -0.00016352     -1.1478e-008   
  -2.3            -5.412e-010     -0.0001704      -1.0808e-008   
  -2.35           -9.922e-010     -0.00017715     -1.1487e-008   
  -2.4            2.407e-010      -0.00018409     -1.3317e-008   
  -2.45           -1.62e-010      -0.00019046     -1.1106e-008   
  -2.5            -6.649e-010     -0.00019679     -1.0865e-008   
  -2.55           -1.094e-009     -0.00020291     -1.1311e-008   
  -2.6            1.468e-010      -0.00020926     -1.2354e-008   
  -2.65           -2.895e-010     -0.00021507     -1.0801e-008   
  -2.7            -7.988e-010     -0.00022079     -1.1124e-008   
  -2.75           1.6699e-009     -0.00022662     -1.6736e-008   
  -2.8            1.3154e-009     -0.00023217     -9.144e-009    
  -2.85           2.9021e-009     -0.00023765     -8.773e-009    
  -2.9            1.2843e-009     -0.00024303     1.0504e-008    
  -2.95           1.348e-010      -0.00024809     1.0788e-008    
  -3              5.82e-010       -0.00025327     1.0405e-008    
  -3.05           -1.7661e-009    -0.0002583      2.2581e-008    
  -3.1            -1.4229e-009    -0.00026328     6.638e-009     
  -3.15           -1.3388e-009    -0.0002681      1.0967e-008    
  -3.2            -2.5322e-009    -0.00027283     1.1854e-008    
  -3.25           -1.9317e-009    -0.00027763     1.945e-009     
  -3.3            -1.4833e-009    -0.00028223     5.109e-009     
  -3.35           -1.3579e-009    -0.00028677     1.0172e-008    
  -3.4            -2.6512e-009    -0.00029119     1.1217e-008    
  -3.45           -2.1269e-009    -0.00029563     1.069e-009     
  -3.5            -1.5754e-009    -0.00029992     3.763e-009     
  -3.55           -1.38e-009      -0.00030414     8.757e-009     
  -3.6            -2.7343e-009    -0.00030832     1.1511e-008    
  -3.65           -2.31e-009      -0.00031244     6.54e-010      
  -3.7            -1.7062e-009    -0.0003165      3.027e-009     
  -3.75           -1.4145e-009    -0.00032046     6.943e-009     
  -3.8            -1.3301e-009    -0.00032431     1.1068e-008    
  -3.85           -2.4918e-009    -0.00032808     1.2394e-008    
  -3.9            -1.8726e-009    -0.00033195     2.28e-009      
  -3.95           -1.4626e-009    -0.00033565     5.442e-009     
  -4              -1.3509e-009    -0.00033934     1.0336e-008    
  -4.05           -2.6229e-009    -0.00034291     1.1494e-008    
  -4.1            -2.0674e-009    -0.00034651     1.203e-009     
  -4.15           -1.5467e-009    -0.00034999     4.235e-009     
