! VERSION = 6.00
BEGIN_HEADER
 ICCAP_INPUTS
  VG         V  B GROUND SMU4 0.001 LIN        2    0          -5         6    -1        
  VS         V  E GROUND SMU2 0.1 CON        0
  VD         V  S GROUND SMU1 0.1 LIN        1    0          -5         101  -0.05     
  VB         V  C GROUND SMU3 0.1 LIN        3    0          2.5        2    2.5       
 ICCAP_OUTPUTS
  ID         I  S GROUND SMU1 B
  IB         I  C GROUND SMU3 B
  IG         I  B GROUND SMU4 B
END_HEADER

BEGIN_DB
 ICCAP_VAR VG         0              
 ICCAP_VAR VS         0              
 ICCAP_VAR VB         0              

 #VD              ID              IB              IG             
  0               -7.523e-010     -2.7959e-008    -6.957e-010    
  -0.05           -2.1951e-009    8.515e-009      -1.1644e-009   
  -0.1            -1.8335e-009    -9.853e-009     3.194e-010     
  -0.15           -8.733e-010     -1.927e-008     1.8604e-009    
  -0.2            1.7824e-009     -8.258e-009     1.6364e-009    
  -0.25           1.4842e-009     1.1148e-008     1.7999e-009    
  -0.3            2.2702e-009     1.2837e-008     4.042e-010     
  -0.35           2.2906e-009     1.1725e-008     5.913e-010     
  -0.4            1.5055e-009     2.2658e-008     -1.4075e-009   
  -0.45           1.338e-010      1.2657e-008     -2.6999e-009   
  -0.5            -2.1574e-009    -1.3095e-008    -9.02e-011     
  -0.55           -2.2192e-009    -1.3313e-008    -3.103e-010    
  -0.6            -2.2297e-009    -1.29e-008      -5.237e-010    
  -0.65           -1.4639e-009    -2.5156e-008    2.4858e-009    
  -0.7            2.2149e-009     -4.8e-009       1.2991e-009    
  -0.75           2.0019e-009     1.0544e-008     1.47e-009      
  -0.8            1.7419e-009     1.146e-008      1.6481e-009    
  -0.85           1.4628e-009     1.114e-008      1.8175e-009    
  -0.9            2.2728e-009     1.2844e-008     4.152e-010     
  -0.95           2.2954e-009     1.1995e-008     6.042e-010     
  -1              2.3159e-009     1.0179e-008     7.811e-010     
  -1.05           1.645e-009      1.5224e-008     -1.3754e-009   
  -1.1            3.172e-010      1.4829e-008     -2.6276e-009   
  -1.15           -2.2117e-009    1.549e-009      -1.1038e-009   
  -1.2            -1.7854e-009    -9.897e-009     1.4763e-009    
  -1.25           2.3308e-009     -7.966e-009     9.199e-010     
  -1.3            1.7699e-009     1.1537e-008     -1.6055e-009   
  -1.35           -1.521e-009     6.446e-009      -1.7728e-009   
  -1.4            -2.2264e-009    -1.3361e-008    -3.7e-010      
  -1.45           -2.2268e-009    -1.2975e-008    -5.815e-010    
  -1.5            -1.4954e-009    -2.3591e-008    2.4201e-009    
  -1.55           2.1779e-009     -5.335e-009     1.3459e-009    
  -1.6            1.9348e-009     1.0782e-008     1.5194e-009    
  -1.65           2.1821e-009     1.2624e-008     7.47e-011      
  -1.7            2.2446e-009     1.2874e-008     2.72e-010      
  -1.75           2.2813e-009     1.2654e-008     4.732e-010     
  -1.8            2.3023e-009     1.1178e-008     6.566e-010     
  -1.85           2.3247e-009     9.573e-009      8.238e-010     
  -1.9            1.6869e-009     1.3952e-008     -1.7512e-009   
  -1.95           -1.6648e-009    5.514e-009      -1.6838e-009   
  -2              -2.2094e-009    -1.3413e-008    -2.373e-010    
  -2.05           -2.2333e-009    -1.3244e-008    -4.551e-010    
  -2.1            -2.2262e-009    -1.2294e-008    -6.581e-010    
  -2.15           -1.536e-009     -2.1511e-008    2.3064e-009    
  -2.2            2.1045e-009     -6.217e-009     1.412e-009     
  -2.25           1.8387e-009     1.1225e-008     1.585e-009     
  -2.3            2.2073e-009     1.2841e-008     1.459e-010     
  -2.35           2.2661e-009     1.286e-008      3.498e-010     
  -2.4            2.2921e-009     1.2421e-008     5.392e-010     
  -2.45           2.3113e-009     1.0756e-008     7.171e-010     
  -2.5            2.3303e-009     9.246e-009      8.846e-010     
  -2.55           1.7423e-009     1.2483e-008     -1.6617e-009   
  -2.6            -1.5794e-009    5.962e-009      -1.737e-009    
  -2.65           -2.2223e-009    -1.3283e-008    -3.155e-010    
  -2.7            -2.2292e-009    -1.2994e-008    -5.293e-010    
  -2.75           -1.4648e-009    -2.4992e-008    2.4786e-009    
  -2.8            2.2108e-009     -4.824e-009     1.3044e-009    
  -2.85           1.2216e-009     2.9766e-008     -1.4021e-009   
  -2.9            -2.1744e-009    9.361e-009      -1.2279e-009   
  -2.95           -1.8871e-009    -1.0183e-008    2.649e-010     
  -3              -9.225e-010     -2.0758e-008    1.7308e-009    
  -3.05           1.6676e-009     -8.518e-009     1.7007e-009    
  -3.1            2.1422e-009     1.0868e-008     -3.7e-012      
  -3.15           1.0931e-009     2.8573e-008     -1.436e-009    
  -3.2            -2.2224e-009    8.162e-009      -1.0799e-009   
  -3.25           -1.7711e-009    -1.0296e-008    1.5132e-009    
  -3.3            2.3438e-009     -8.103e-009     8.984e-010     
  -3.35           1.7513e-009     1.2258e-008     -1.6425e-009   
  -3.4            -1.5523e-009    6.187e-009      -1.7466e-009   
  -3.45           -2.218e-009     -1.3102e-008    -3.294e-010    
  -3.5            -2.2295e-009    -1.2778e-008    -5.407e-010    
  -3.55           -1.4722e-009    -2.3773e-008    2.4459e-009    
  -3.6            2.1883e-009     -4.867e-009     1.3112e-009    
  -3.65           2.0727e-009     1.1276e-008     -1.527e-010    
  -3.7            9.88e-010       2.5971e-008     -1.5186e-009   
  -3.75           -1.4024e-009    7.413e-009      -1.8411e-009   
  -3.8            -2.2283e-009    -1.2769e-008    -4.897e-010    
  -3.85           -1.4362e-009    -2.5215e-008    2.5214e-009    
  -3.9            2.2276e-009     -4.23e-009      1.2663e-009    
  -3.95           2.0292e-009     1.1622e-008     1.4338e-009    
  -4              1.7804e-009     1.1587e-008     1.6068e-009    
  -4.05           2.2036e-009     1.2756e-008     1.802e-010     
  -4.1            2.2598e-009     1.2507e-008     3.747e-010     
  -4.15           2.2928e-009     1.1716e-008     5.6e-010       
  -4.2            2.3226e-009     1.0372e-008     7.372e-010     
  -4.25           2.3419e-009     9.424e-009      8.989e-010     
  -4.3            1.7534e-009     1.238e-008      -1.6386e-009   
  -4.35           -1.5511e-009    6.143e-009      -1.7481e-009   
  -4.4            -2.217e-009     -1.3089e-008    -3.367e-010    
  -4.45           -2.2299e-009    -1.27e-008      -5.458e-010    
  -4.5            -1.4741e-009    -2.3855e-008    2.4344e-009    
  -4.55           2.1855e-009     -4.849e-009     1.314e-009     
  -4.6            1.229e-009      2.9254e-008     -1.4054e-009   
  -4.65           -2.1654e-009    9.804e-009      -1.2369e-009   
  -4.7            -1.8973e-009    -1.0556e-008    2.524e-010     
  -4.75           -9.319e-010     -2.1489e-008    1.718e-009     
  -4.8            1.6557e-009     -8.642e-009     1.7023e-009    
  -4.85           2.1429e-009     1.0941e-008     1.3e-011       
  -4.9            1.0937e-009     2.8441e-008     -1.436e-009    
  -4.95           -2.2255e-009    8.198e-009      -1.0855e-009   
  -5              -1.7733e-009    -1.0318e-008    1.5135e-009    
END_DB

BEGIN_DB
 ICCAP_VAR VG         -1             
 ICCAP_VAR VS         0              
 ICCAP_VAR VB         0              

 #VD              ID              IB              IG             
  0               -5.2546e-008    9.785e-009      -5.92e-011     
  -0.05           -2.2901e-006    -8.823e-009     -1.8111e-009   
  -0.1            -3.4812e-006    2.4076e-008     -1.8149e-009   
  -0.15           -4.1168e-006    1.213e-008      3.684e-010     
  -0.2            -4.5555e-006    -1.9525e-008    2.5198e-009    
  -0.25           -4.8028e-006    -2.6839e-008    2.6353e-009    
  -0.3            -5.0197e-006    -9.67e-009      9.67e-011      
  -0.35           -5.0834e-006    1.0672e-008     -2.6747e-009   
  -0.4            -5.3379e-006    9.456e-009      1.1955e-009    
  -0.45           -5.4988e-006    -7.908e-009     2.834e-009     
  -0.5            -5.6424e-006    -2.5716e-008    2.077e-009     
  -0.55           -5.7841e-006    -2.7344e-008    2.2529e-009    
  -0.6            -5.9258e-006    -2.7774e-008    2.4296e-009    
  -0.65           -6.0557e-006    -2.7569e-008    2.5685e-009    
  -0.7            -6.1968e-006    -9.965e-009     4.17e-011      
  -0.75           -6.1902e-006    1.1177e-008     -2.6612e-009   
  -0.8            -6.4341e-006    9.305e-009      1.2508e-009    
  -0.85           -6.5585e-006    -8.073e-009     2.8423e-009    
  -0.9            -6.6749e-006    -2.4e-008       1.957e-009     
  -0.95           -6.8024e-006    -2.6529e-008    2.1473e-009    
  -1              -6.9248e-006    -2.7646e-008    2.3267e-009    
  -1.05           -7.0492e-006    -2.7705e-008    2.4858e-009    
  -1.1            -7.1741e-006    -2.7251e-008    2.6205e-009    
  -1.15           -7.3056e-006    -9.752e-009     9.44e-011      
  -1.2            -7.2684e-006    1.0884e-008     -2.6748e-009   
  -1.25           -7.5136e-006    9.389e-009      1.2069e-009    
  -1.3            -7.649e-006     -7.901e-009     2.8345e-009    
  -1.35           -7.7567e-006    -2.5231e-008    2.0484e-009    
  -1.4            -7.8804e-006    -2.7124e-008    2.2415e-009    
  -1.45           -8.0074e-006    -2.7839e-008    2.4033e-009    
  -1.5            -8.1283e-006    -2.7623e-008    2.5602e-009    
  -1.55           -8.2451e-006    -2.6752e-008    2.673e-009     
  -1.6            -8.1755e-006    -9.869e-009     -1.542e-009    
  -1.65           -8.3509e-006    2.9271e-008     -1.4032e-009   
  -1.7            -8.5757e-006    9.637e-009      1.1681e-009    
  -1.75           -8.7121e-006    -7.951e-009     2.8304e-009    
  -1.8            -8.8323e-006    -2.6394e-008    2.1329e-009    
  -1.85           -8.9477e-006    -2.7532e-008    2.3173e-009    
  -1.9            -9.0737e-006    -2.7777e-008    2.4781e-009    
  -1.95           -9.2103e-006    -2.7228e-008    2.6112e-009    
  -2              -9.3276e-006    -9.825e-009     8.63e-011      
  -2.05           -9.2698e-006    1.0922e-008     -2.6691e-009   
  -2.1            -9.4378e-006    1.4535e-008     -1.4818e-009   
  -2.15           -9.5783e-006    1.2909e-008     6.667e-010     
  -2.2            -9.7965e-006    -1.8908e-008    2.0288e-009    
  -2.25           -9.9011e-006    -2.7189e-008    2.2243e-009    
  -2.3            -1.00391e-005   -2.7768e-008    2.3983e-009    
  -2.35           -1.01623e-005   -2.7632e-008    2.547e-009     
  -2.4            -1.02907e-005   -1.014e-008     2.82e-011      
  -2.45           -1.02328e-005   1.1148e-008     -2.653e-009    
  -2.5            -1.05331e-005   9.174e-009      1.2686e-009    
  -2.55           -1.06691e-005   -2.5777e-008    2.7345e-009    
  -2.6            -1.05663e-005   -9.533e-009     -1.4887e-009   
  -2.65           -1.0743e-005    2.9126e-008     -1.3995e-009   
  -2.7            -1.09787e-005   1e-008          1.1118e-009    
  -2.75           -1.11441e-005   -8.047e-009     2.8196e-009    
  -2.8            -1.11724e-005   -1.2999e-008    -8.752e-010    
  -2.85           -1.1265e-005    1.2772e-008     -2.7203e-009   
  -2.9            -1.1561e-005    9.524e-009      1.3446e-009    
  -2.95           -1.1644e-005    -2.0598e-008    1.8018e-009    
  -3              -1.1809e-005    -9.958e-009     2.56e-010      
  -3.05           -1.1737e-005    1.4571e-008     -2.4232e-009   
  -3.1            -1.2e-005       1.0598e-008     2.0447e-009    
  -3.15           -1.2181e-005    -1.8267e-008    1.5004e-009    
  -3.2            -1.2295e-005    -2.6478e-008    2.5201e-009    
  -3.25           -1.2316e-005    -1.1653e-008    -5.96e-010     
  -3.3            -1.2374e-005    8.799e-009      -1.3886e-009   
  -3.35           -1.2728e-005    1.1587e-008     1.4047e-009    
  -3.4            -1.281e-005     -1.6027e-008    1.7069e-009    
  -3.45           -1.2974e-005    -1.5726e-008    2.5489e-009    
  -3.5            -1.3069e-005    -1.7924e-008    1.8283e-009    
  -3.55           -1.3237e-005    -1.3338e-008    2.6386e-009    
  -3.6            -1.3341e-005    -1.2983e-008    1.7426e-009    
  -3.65           -1.3502e-005    -1.2151e-008    2.5756e-009    
  -3.7            -1.3647e-005    -1.481e-009     2.843e-009     
  -3.75           -1.3776e-005    -9.866e-009     2.5001e-009    
  -3.8            -1.3762e-005    2.1579e-008     2.3661e-009    
  -3.85           -1.4058e-005    -3.321e-009     2.7288e-009    
  -3.9            -1.4073e-005    2.77e-009       -3.619e-010    
  -3.95           -1.4117e-005    3.6907e-008     -1.6209e-009   
  -4              -1.4323e-005    3.2006e-008     2.5354e-009    
  -4.05           -1.4461e-005    1.0806e-008     -7.248e-010    
  -4.1            -1.453e-005     5.2148e-008     -1.4048e-009   
  -4.15           -1.477e-005     4.4749e-008     2.721e-009     
  -4.2            -1.4882e-005    2.5826e-008     -1.0033e-009   
  -4.25           -1.496e-005     7.2505e-008     -1.3972e-009   
  -4.3            -1.5241e-005    5.8928e-008     2.8204e-009    
  -4.35           -1.5238e-005    4.7301e-008     -1.2728e-009   
  -4.4            -1.5415e-005    9.2682e-008     -1.9394e-009   
  -4.45           -1.5636e-005    8.488e-008      2.3523e-009    
  -4.5            -1.581e-005     7.1638e-008     -4.658e-010    
  -4.55           -1.5967e-005    9.789e-008      1.3105e-009    
  -4.6            -1.607e-005     1.0212e-007     -2.73e-009     
  -4.65           -1.6389e-005    1.3324e-007     1.2002e-009    
  -4.7            -1.6554e-005    1.1229e-007     2.1475e-009    
  -4.75           -1.662e-005     1.4877e-007     -2.1782e-009   
  -4.8            -1.676e-005     1.8909e-007     4.09e-010      
  -4.85           -1.7082e-005    1.7856e-007     1.6117e-009    
  -4.9            -1.7115e-005    2.1124e-007     -2.4666e-009   
  -4.95           -1.731e-005     2.6097e-007     7.503e-010     
  -5              -1.7623e-005    2.5017e-007     1.3733e-009    
END_DB

BEGIN_DB
 ICCAP_VAR VG         -2             
 ICCAP_VAR VS         0              
 ICCAP_VAR VB         0              

 #VD              ID              IB              IG             
  0               -3.0878e-007    -1.1942e-008    1.2182e-009    
  -0.05           -2.4711e-005    1.2214e-008     -1.7919e-009   
  -0.1            -4.833e-005     1.1793e-008     8.859e-010     
  -0.15           -7.1025e-005    -2.6487e-008    2.6579e-009    
  -0.2            -9.2826e-005    -2.4881e-008    2.0306e-009    
  -0.25           -0.000113522    -1.3162e-008    -8.979e-010    
  -0.3            -0.00013329     9.732e-009      -1.4826e-009   
  -0.35           -0.00015218     9.151e-009      1.2521e-009    
  -0.4            -0.00016972     -2.0383e-008    1.782e-009     
  -0.45           -0.00018615     -2.6924e-008    2.5929e-009    
  -0.5            -0.00020152     -1.9024e-008    1.6911e-009    
  -0.55           -0.00021556     -2.7367e-008    2.5259e-009    
  -0.6            -0.00022849     -1.3413e-008    -7.335e-010    
  -0.65           -0.00024003     8.397e-009      -1.3992e-009   
  -0.7            -0.0002508      1.29e-008       7.045e-010     
  -0.75           -0.00026025     -2.5575e-008    2.7198e-009    
  -0.8            -0.00026855     -2.3178e-008    1.9206e-009    
  -0.85           -0.00027559     -1.0988e-008    -1.0508e-009   
  -0.9            -0.00028191     2.8873e-008     -1.3946e-009   
  -0.95           -0.0002884      1.2096e-008     1.8778e-009    
  -1              -0.00029339     -1.9192e-008    1.5733e-009    
  -1.05           -0.00029788     -2.76e-008      2.4146e-009    
  -1.1            -0.0003018      -1.3072e-008    -8.209e-010    
  -1.15           -0.00030515     2.7522e-008     -1.3876e-009   
  -1.2            -0.0003095      1.1087e-008     1.6153e-009    
  -1.25           -0.00031261     -1.0735e-008    2.395e-010     
  -1.3            -0.00031473     1.5542e-008     -2.2934e-009   
  -1.35           -0.00031776     1.2811e-008     7.12e-010      
  -1.4            -0.00032068     -2.5772e-008    1.2981e-009    
  -1.45           -0.00032272     -1.2961e-008    -5.349e-010    
  -1.5            -0.00032472     7.823e-009      -1.3864e-009   
  -1.55           -0.00032792     1.1047e-008     1.6122e-009    
  -1.6            -0.00032974     -1.0712e-008    2.364e-010     
  -1.65           -0.00033109     1.5766e-008     -2.2874e-009   
  -1.7            -0.00033339     1.2756e-008     7.181e-010     
  -1.75           -0.00033571     -2.5771e-008    1.2981e-009    
  -1.8            -0.00033714     -1.304e-008     -5.419e-010    
  -1.85           -0.00033863     7.777e-009      -1.3868e-009   
  -1.9            -0.00034152     1.1196e-008     1.6193e-009    
  -1.95           -0.00034296     -1.0649e-008    2.341e-010     
  -2              -0.00034382     1.5669e-008     -2.2899e-009   
  -2.05           -0.00034588     1.2722e-008     7.17e-010      
  -2.1            -0.00034802     -2.5796e-008    1.2979e-009    
  -2.15           -0.00034923     -1.304e-008     -5.427e-010    
  -2.2            -0.00035049     7.797e-009      -1.3889e-009   
  -2.25           -0.00035309     1.1221e-008     1.6266e-009    
  -2.3            -0.00035444     -1.0678e-008    2.301e-010     
  -2.35           -0.00035499     1.5637e-008     -2.2813e-009   
  -2.4            -0.00035696     1.2727e-008     7.219e-010     
  -2.45           -0.00035889     -2.5811e-008    1.2983e-009    
  -2.5            -0.00035993     -1.3022e-008    -5.437e-010    
  -2.55           -0.00036104     7.835e-009      -1.3885e-009   
  -2.6            -0.00036357     1.1114e-008     1.6204e-009    
  -2.65           -0.00036476     -1.0577e-008    2.283e-010     
  -2.7            -0.00036519     1.5707e-008     -2.2767e-009   
  -2.75           -0.00036704     1.2886e-008     7.2e-010       
  -2.8            -0.00036887     -2.5787e-008    1.2976e-009    
  -2.85           -0.0003698      -1.2838e-008    -5.487e-010    
  -2.9            -0.00037085     8.181e-009      -1.3891e-009   
  -2.95           -0.00037328     1.1549e-008     1.6327e-009    
  -3              -0.00037431     -1.0042e-008    2.242e-010     
  -3.05           -0.00037478     1.6411e-008     -2.2688e-009   
  -3.1            -0.00037652     1.3579e-008     7.283e-010     
  -3.15           -0.00037814     -7.329e-009     2.8492e-009    
  -3.2            -0.00037963     -1.7745e-008    2.5264e-009    
  -3.25           -0.00038038     -1.1272e-008    -7.33e-010     
  -3.3            -0.00038126     2.8802e-008     -1.3856e-009   
  -3.35           -0.0003837      1.3699e-008     1.526e-009     
  -3.4            -0.00038451     -1.5171e-008    2.207e-009     
  -3.45           -0.00038588     -1.1363e-008    2.6969e-009    
  -3.5            -0.00038725     -2.81e-009      2.8411e-009    
  -3.55           -0.00038828     -1.0655e-008    2.2943e-009    
  -3.6            -0.00038964     -4.651e-009     2.7357e-009    
  -3.65           -0.00039048     2.1384e-008     2.8387e-009    
  -3.7            -0.00039206     5.07e-010       2.6944e-009    
  -3.75           -0.00039255     1.2135e-008     -2.0006e-009   
  -3.8            -0.00039367     3.8147e-008     2.44e-010      
  -3.85           -0.00039548     1.4097e-008     1.5997e-009    
  -3.9            -0.00039621     3.2732e-008     -2.612e-009    
  -3.95           -0.00039753     6.1058e-008     9.408e-010     
  -4              -0.000399       3.3249e-008     2.4069e-009    
  -4.05           -0.00039989     6.4091e-008     -2.1723e-009   
  -4.1            -0.00040096     1.00717e-007    4.969e-010     
  -4.15           -0.00040266     8.4585e-008     -1.0783e-009   
