! VERSION = 6.00
BEGIN_HEADER
 ICCAP_INPUTS
  VG         V  B GROUND SMU4 0.001 LIN        2    0          -5         6    -1        
  VS         V  E GROUND SMU2 0.1 CON        0
  VD         V  S GROUND SMU1 0.1 LIN        1    0          -5         101  -0.05     
  VB         V  C GROUND SMU3 0.1 LIN        3    0          2.5        2    2.5       
 ICCAP_OUTPUTS
  ID         I  S GROUND SMU1 B
  IB         I  C GROUND SMU3 B
  IG         I  B GROUND SMU4 B
END_HEADER

BEGIN_DB
 ICCAP_VAR VG         0              
 ICCAP_VAR VS         0              
 ICCAP_VAR VB         0              

 #VD              ID              IB              IG             
  0               4.618e-010      1.158e-008      2.904e-010     
  -0.05           -1.527e-010     -1.5183e-008    2.8539e-009    
  -0.1            2.2768e-009     1.0944e-008     1.1135e-009    
  -0.15           2.1592e-009     1.1269e-008     1.2806e-009    
  -0.2            1.9743e-009     1.0815e-008     -1.76e-010     
  -0.25           9.359e-010      2.5175e-008     -1.5815e-009   
  -0.3            -1.473e-009     8.218e-009      -1.7957e-009   
  -0.35           -2.2341e-009    -1.1486e-008    -4.204e-010    
  -0.4            -1.4244e-009    -2.5411e-008    2.5309e-009    
  -0.45           2.1981e-009     -4.146e-009     1.2427e-009    
  -0.5            1.9512e-009     1.0919e-008     -2.127e-010    
  -0.55           2.0365e-009     1.0458e-008     -5.39e-011     
  -0.6            2.1299e-009     1.0549e-008     1.246e-010     
  -0.65           2.2296e-009     1.0944e-008     3.143e-010     
  -0.7            2.3045e-009     1.1473e-008     5.143e-010     
  -0.75           2.3463e-009     1.1555e-008     7.109e-010     
  -0.8            2.3482e-009     1.1159e-008     8.841e-010     
  -0.85           2.3107e-009     1.081e-008      1.0391e-009    
  -0.9            1.8411e-009     1.1907e-008     -1.5388e-009   
  -0.95           -1.4183e-009    8.678e-009      -1.8297e-009   
  -1              -2.247e-009     -1.1634e-008    -4.98e-010     
  -1.05           -1.4692e-009    -2.4398e-008    2.4531e-009    
  -1.1            2.1575e-009     -4.927e-009     1.2961e-009    
  -1.15           1.9793e-009     1.0797e-008     -1.669e-010    
  -1.2            2.0615e-009     1.038e-008      5.1e-012       
  -1.25           2.1629e-009     1.0607e-008     1.805e-010     
  -1.3            2.2578e-009     1.1144e-008     3.779e-010     
  -1.35           2.3211e-009     1.152e-008      5.791e-010     
  -1.4            2.3478e-009     1.1479e-008     7.634e-010     
  -1.45           2.3389e-009     1.1083e-008     9.304e-010     
  -1.5            2.2882e-009     1.0919e-008     1.0873e-009    
  -1.55           2.1847e-009     1.1413e-008     1.2455e-009    
  -1.6            1.9564e-009     1.0901e-008     -2.128e-010    
  -1.65           2.0341e-009     1.0416e-008     -4.4e-011      
  -1.7            2.1332e-009     1.0465e-008     1.368e-010     
  -1.75           2.2348e-009     1.0946e-008     3.297e-010     
  -1.8            2.3062e-009     1.1473e-008     5.293e-010     
  -1.85           1.4601e-009     2.2614e-008     -1.3713e-009   
  -1.9            8.16e-011       8.17e-009       -1.3522e-009   
  -1.95           2.304e-010      1.0437e-008     -2.6131e-009   
  -2              -1.2847e-009    8.37e-010       -1.9384e-009   
  -2.05           -1.7206e-009    -1.2939e-008    1.6011e-009    
  -2.1            1.5051e-009     -9.041e-009     1.8489e-009    
  -2.15           2.255e-009      1.1091e-008     3.919e-010     
  -2.2            2.3185e-009     1.1545e-008     5.914e-010     
  -2.25           2.3409e-009     1.1495e-008     7.765e-010     
  -2.3            2.3308e-009     1.1073e-008     9.401e-010     
  -2.35           2.276e-009      1.1025e-008     1.0912e-009    
  -2.4            2.1684e-009     1.1437e-008     1.2613e-009    
  -2.45           1.955e-009      1.0838e-008     -2.004e-010    
  -2.5            2.0295e-009     1.0458e-008     -3.66e-011     
  -2.55           2.1323e-009     1.0515e-008     1.37e-010      
  -2.6            2.2306e-009     1.0981e-008     3.35e-010      
  -2.65           2.2972e-009     1.126e-008      5.344e-010     
  -2.7            2.3359e-009     1.1219e-008     7.232e-010     
  -2.75           2.3293e-009     1.0873e-008     8.911e-010     
  -2.8            2.2914e-009     1.0866e-008     1.0446e-009    
  -2.85           1.8276e-009     1.1878e-008     -1.5315e-009   
  -2.9            -1.4361e-009    8.692e-009      -1.8382e-009   
  -2.95           -2.2783e-009    -1.1604e-008    -5.074e-010    
  -3              -1.5019e-009    -2.4138e-008    2.4387e-009    
  -3.05           2.1229e-009     -4.991e-009     1.3059e-009    
  -3.1            1.9534e-009     1.0732e-008     -1.625e-010    
  -3.15           2.0333e-009     1.0389e-008     8.8e-012       
  -3.2            2.1341e-009     1.0617e-008     1.845e-010     
  -3.25           2.2207e-009     1.1153e-008     3.867e-010     
  -3.3            2.2794e-009     1.1255e-008     5.8e-010       
  -3.35           2.3062e-009     1.1158e-008     7.679e-010     
  -3.4            2.2863e-009     1.0787e-008     9.336e-010     
  -3.45           2.2313e-009     1.1049e-008     1.0876e-009    
  -3.5            2.1222e-009     1.2124e-008     1.2484e-009    
  -3.55           1.8924e-009     1.0809e-008     -2.084e-010    
  -3.6            1.9636e-009     1.0411e-008     -4.54e-011     
  -3.65           2.0583e-009     1.0506e-008     1.283e-010     
  -3.7            2.1476e-009     1.0988e-008     3.276e-010     
  -3.75           2.2137e-009     1.1454e-008     5.238e-010     
  -3.8            2.2432e-009     1.1614e-008     7.152e-010     
  -3.85           2.2289e-009     1.1181e-008     8.867e-010     
  -3.9            1.4092e-009     1.0784e-008     -1.3597e-009   
  -3.95           2.47e-011       9.046e-009      -1.3406e-009   
  -4              1.671e-010      1.1975e-008     -2.5356e-009   
  -4.05           -2.3706e-009    -1.1266e-008    -3.515e-010    
  -4.1            -1.5576e-009    -2.634e-008     1.284e-009     
  -4.15           -1.635e-010     -1.1156e-008    2.8976e-009    
  -4.2            2.1221e-009     1.78e-010       6.312e-010     
  -4.25           2.1187e-009     1.1015e-008     8.124e-010     
  -4.3            1.2172e-009     1.0667e-008     -1.3676e-009   
  -4.35           -1.4507e-009    8.186e-009      -2.2452e-009   
  -4.4            -2.2801e-009    -1.1048e-008    3.32e-011      
  -4.45           -2.4293e-009    -1.0903e-008    -1.114e-010    
  -4.5            -2.5519e-009    -1.1234e-008    -3.109e-010    
  -4.55           -2.6375e-009    -1.1702e-008    -5.127e-010    
  -4.6            -1.9145e-009    -2.3923e-008    2.4291e-009    
  -4.65           1.7584e-009     -5.148e-009     3.191e-010     
  -4.7            1.7941e-009     1.1424e-008     5.188e-010     
  -4.75           6.921e-010      1.1578e-008     -1.408e-009    
  -4.8            -1.638e-009     9.197e-009      -2.7644e-009   
  -4.85           -2.5196e-009    -1.1473e-008    1.648e-010     
  -4.9            -2.7049e-009    -1.1059e-008    2.24e-011      
  -4.95           -2.8875e-009    -1.0896e-008    -1.4e-010      
  -5              -3.0417e-009    -1.1193e-008    -3.328e-010    
END_DB

BEGIN_DB
 ICCAP_VAR VG         -1             
 ICCAP_VAR VS         0              
 ICCAP_VAR VB         0              

 #VD              ID              IB              IG             
  0               -1.833e-008     2.7712e-008     8.118e-010     
  -0.05           -1.1453e-006    -2.358e-009     -8.499e-010    
  -0.1            -2.0261e-006    1.9485e-008     -1.6902e-009   
  -0.15           -2.7214e-006    1.2254e-008     2.0578e-009    
  -0.2            -3.2499e-006    -1.611e-008     1.561e-009     
  -0.25           -3.6437e-006    -1.1357e-008    -6.604e-010    
  -0.3            -3.952e-006     1.6183e-008     -1.9096e-009   
  -0.35           -4.2539e-006    1.2414e-008     1.8796e-009    
  -0.4            -4.4844e-006    -2.0244e-008    1.8165e-009    
  -0.45           -4.6874e-006    -1.0965e-008    -4.52e-010     
  -0.5            -4.8529e-006    1.2415e-008     -2.1732e-009   
  -0.55           -5.0353e-006    1.0981e-008     3.71e-011      
  -0.6            -5.2428e-006    -1.3709e-008    2.7667e-009    
  -0.65           -5.4047e-006    -1.3548e-008    2.052e-010     
  -0.7            -5.5176e-006    9.41e-009       -1.364e-009    
  -0.75           -5.711e-006     1.0771e-008     1.2534e-009    
  -0.8            -5.8579e-006    -2.6058e-008    1.318e-009     
  -0.85           -6.0054e-006    -1.2752e-008    1.464e-010     
  -0.9            -6.1025e-006    9.314e-009      -1.3492e-009   
  -0.95           -6.2896e-006    1.1273e-008     1.328e-009     
  -1              -6.4224e-006    -2.6889e-008    1.2883e-009    
  -1.05           -6.5643e-006    -1.2253e-008    8.97e-011      
  -1.1            -6.651e-006     9.01e-009       -1.3376e-009   
  -1.15           -6.8423e-006    1.0228e-008     1.4046e-009    
  -1.2            -6.965e-006     -2.7401e-008    2.5466e-009    
  -1.25           -7.104e-006     -1.2033e-008    3.36e-011      
  -1.3            -7.1853e-006    8.505e-009      -2.6602e-009   
  -1.35           -7.3693e-006    1.0747e-008     1.2209e-009    
  -1.4            -7.5006e-006    -2.5929e-008    1.3274e-009    
  -1.45           -7.6379e-006    -1.3152e-008    2.028e-010     
  -1.5            -7.7106e-006    9.34e-009       -1.3535e-009   
  -1.55           -7.9022e-006    1.0821e-008     1.2934e-009    
  -1.6            -8.0274e-006    -2.645e-008     1.3043e-009    
  -1.65           -8.1624e-006    -1.2509e-008    1.427e-010     
  -1.7            -8.2401e-006    9.241e-009      -1.3466e-009   
  -1.75           -8.4335e-006    1.1028e-008     1.3685e-009    
  -1.8            -8.5506e-006    -2.7139e-008    1.2809e-009    
  -1.85           -8.6862e-006    -1.2093e-008    3.7e-011       
  -1.9            -8.7621e-006    8.75e-009       -2.6843e-009   
  -1.95           -8.9454e-006    1.087e-008      1.1854e-009    
  -2              -9.0768e-006    -2.5543e-008    1.3532e-009    
  -2.05           -9.2112e-006    -1.3602e-008    1.97e-010      
  -2.1            -9.2881e-006    9.244e-009      -1.3662e-009   
  -2.15           -9.4785e-006    1.0746e-008     1.2247e-009    
  -2.2            -9.6049e-006    -2.6215e-008    1.3182e-009    
  -2.25           -9.7395e-006    -1.2773e-008    1.424e-010     
  -2.3            -9.8113e-006    9.155e-009      -1.353e-009    
  -2.35           -1.00068e-005   1.093e-008      1.3277e-009    
  -2.4            -1.0127e-005    -2.6824e-008    1.2934e-009    
  -2.45           -1.02699e-005   -1.2221e-008    8.04e-011      
  -2.5            -1.03376e-005   8.984e-009      -1.3469e-009   
  -2.55           -1.05424e-005   1.1246e-008     1.3858e-009    
  -2.6            -1.06557e-005   -2.7214e-008    1.2757e-009    
  -2.65           -1.0797e-005    -1.1899e-008    2.05e-011      
  -2.7            -1.08664e-005   8.638e-009      -2.6598e-009   
  -2.75           -1.10661e-005   1.0929e-008     1.2275e-009    
  -2.8            -1.11938e-005   -2.5817e-008    1.3294e-009    
  -2.85           -1.1319e-005    7.918e-009      1.6944e-009    
  -2.9            -1.1464e-005    -1.2176e-008    1.124e-010     
  -2.95           -1.1534e-005    1.1718e-008     -2.2497e-009   
  -3              -1.1717e-005    1.2472e-008     2.1396e-009    
  -3.05           -1.1861e-005    -1.0986e-008    -1.586e-010    
  -3.1            -1.1941e-005    1.7902e-008     -1.8234e-009   
  -3.15           -1.2111e-005    1.1957e-008     8.444e-010     
  -3.2            -1.2274e-005    -2.5929e-008    1.3039e-009    
  -3.25           -1.2402e-005    -2.0512e-008    1.8623e-009    
  -3.3            -1.2555e-005    -1.239e-008     1.952e-010     
  -3.35           -1.2618e-005    1.1164e-008     -2.3828e-009   
  -3.4            -1.2818e-005    1.3743e-008     2.0413e-009    
  -3.45           -1.2966e-005    -1.9345e-008    1.5851e-009    
  -3.5            -1.31e-005      -1.4915e-008    2.3168e-009    
  -3.55           -1.3244e-005    -1.9213e-008    1.5244e-009    
  -3.6            -1.3378e-005    -1.4225e-008    2.2417e-009    
  -3.65           -1.3528e-005    -8.539e-009     2.8034e-009    
  -3.7            -1.3663e-005    -1.305e-008     2.1634e-009    
  -3.75           -1.3816e-005    -7.823e-009     2.777e-009     
  -3.8            -1.3947e-005    -1.1435e-008    2.0765e-009    
  -3.85           -1.4102e-005    -6.115e-009     2.733e-009     
  -3.9            -1.4237e-005    -9.414e-009     1.9975e-009    
  -3.95           -1.4393e-005    -3.681e-009     2.6906e-009    
  -4              -1.4502e-005    2.226e-008      2.8447e-009    
  -4.05           -1.4652e-005    2.7966e-008     2.3901e-009    
  -4.1            -1.4796e-005    2.7847e-008     2.6481e-009    
  -4.15           -1.493e-005     9.265e-009      -9.547e-010    
  -4.2            -1.5053e-005    5.2263e-008     -1.3973e-009   
  -4.25           -1.5245e-005    3.7729e-008     2.8296e-009    
  -4.3            -1.5357e-005    2.1733e-008     -1.2203e-009   
  -4.35           -1.5508e-005    6.2499e-008     -1.3547e-009   
  -4.4            -1.5712e-005    4.7931e-008     2.8988e-009    
  -4.45           -1.5807e-005    3.9024e-008     -1.5038e-009   
  -4.5            -1.5989e-005    7.458e-008      -1.6034e-009   
  -4.55           -1.6181e-005    7.634e-008      2.4896e-009    
  -4.6            -1.6337e-005    6.2951e-008     -7.393e-010    
  -4.65           -1.6465e-005    1.10484e-007    -1.4414e-009   
  -4.7            -1.6687e-005    1.07468e-007    1.8791e-009    
  -4.75           -1.6864e-005    1.004e-007      2.6533e-009    
  -4.8            -1.7016e-005    1.1063e-007     -9.403e-010    
  -4.85           -1.7184e-005    1.6605e-007     -1.3868e-009   
  -4.9            -1.7406e-005    1.6475e-007     2.8455e-009    
  -4.95           -1.7538e-005    1.6356e-007     -1.1793e-009   
  -5              -1.7734e-005    2.2075e-007     -1.333e-009    
END_DB

BEGIN_DB
 ICCAP_VAR VG         -2             
 ICCAP_VAR VS         0              
 ICCAP_VAR VB         0              

 #VD              ID              IB              IG             
  0               -6.8265e-008    -1.1331e-008    -7.71e-010     
  -0.05           -4.4947e-006    4.69e-010       5.559e-010     
  -0.1            -8.7408e-006    -1.8251e-008    2.1587e-009    
  -0.15           -1.2786e-005    -1.1148e-008    2.5621e-009    
  -0.2            -1.6639e-005    -2.5499e-008    2.2104e-009    
  -0.25           -2.027e-005     -1.1457e-008    -7.487e-010    
  -0.3            -2.3676e-005    2.5726e-008     -1.4509e-009   
  -0.35           -2.6902e-005    1.1077e-008     1.2999e-009    
  -0.4            -2.9886e-005    -1.5094e-008    2.6488e-009    
  -0.45           -3.2639e-005    -1.0961e-008    -3.865e-010    
  -0.5            -3.5159e-005    2.1274e-008     -1.6206e-009   
  -0.55           -3.7512e-005    1.1955e-008     -1.707e-010    
  -0.6            -3.9702e-005    -1.6836e-008    2.4017e-009    
  -0.65           -4.1642e-005    -1.1152e-008    -6.032e-010    
  -0.7            -4.3389e-005    2.4224e-008     -1.4955e-009   
  -0.75           -4.5029e-005    1.1181e-008     3.62e-011      
  -0.8            -4.6568e-005    -1.8713e-008    2.1089e-009    
  -0.85           -4.7888e-005    -1.1606e-008    -8.169e-010    
  -0.9            -4.909e-005     2.646e-008      -1.4294e-009   
  -0.95           -5.0299e-005    1.1313e-008     1.3686e-009    
  -1              -5.1314e-005    -2.0081e-008    1.8081e-009    
  -1.05           -5.2291e-005    -1.3186e-008    1.814e-010     
  -1.1            -5.3081e-005    1.0373e-008     -2.3318e-009   
  -1.15           -5.3993e-005    1.044e-008      2.0821e-009    
  -1.2            -5.4773e-005    -1.1596e-008    -8.3e-011      
  -1.25           -5.5415e-005    1.615e-008      -1.9217e-009   
  -1.3            -5.6151e-005    1.1259e-008     7.705e-010     
  -1.35           -5.6842e-005    -2.5711e-008    1.338e-009     
  -1.4            -5.7447e-005    -1.1079e-008    -2.927e-010    
  -1.45           -5.7974e-005    1.998e-008      -1.691e-009    
  -1.5            -5.8609e-005    1.1635e-008     9.438e-010     
  -1.55           -5.9176e-005    -2.6954e-008    2.5057e-009    
  -1.6            -5.9681e-005    -1.0983e-008    -5.166e-010    
  -1.65           -6.013e-005     2.3139e-008     -1.5359e-009   
  -1.7            -6.0731e-005    1.1204e-008     1.1119e-009    
  -1.75           -6.1205e-005    -2.5416e-008    2.2261e-009    
  -1.8            -6.1651e-005    -1.141e-008     -7.372e-010    
  -1.85           -6.2066e-005    2.5685e-008     -1.4525e-009   
  -1.9            -6.2639e-005    1.1018e-008     1.2976e-009    
  -1.95           -6.3082e-005    -1.508e-008     2.6503e-009    
  -2              -6.3487e-005    -1.0897e-008    -3.675e-010    
  -2.05           -6.3848e-005    2.1256e-008     -1.6257e-009   
  -2.1            -6.4299e-005    1.2005e-008     -1.779e-010    
  -2.15           -6.4801e-005    -1.6841e-008    2.419e-009     
  -2.2            -6.5163e-005    -1.1094e-008    -5.884e-010    
  -2.25           -6.5514e-005    2.4224e-008     -1.5019e-009   
  -2.3            -6.5922e-005    1.118e-008      2.63e-011      
  -2.35           -6.6408e-005    -1.8607e-008    2.1224e-009    
  -2.4            -6.6747e-005    -1.156e-008     -8.077e-010    
  -2.45           -6.709e-005     2.6385e-008     -1.4357e-009   
  -2.5            -6.7607e-005    1.1287e-008     1.363e-009     
  -2.55           -6.7956e-005    -2.0363e-008    1.8198e-009    
  -2.6            -6.8355e-005    -1.3219e-008    1.95e-010      
  -2.65           -6.8597e-005    1.02e-008       -2.3429e-009   
  -2.7            -6.9078e-005    1.0485e-008     2.0768e-009    
  -2.75           -6.9462e-005    -1.1732e-008    -7.03e-011     
  -2.8            -6.9713e-005    1.6006e-008     -1.9339e-009   
  -2.85           -7.0134e-005    1.1234e-008     7.586e-010     
  -2.9            -7.0549e-005    -2.5475e-008    1.3453e-009    
  -2.95           -7.0884e-005    -1.0915e-008    -2.812e-010    
  -3              -7.1151e-005    1.9883e-008     -1.7004e-009   
  -3.05           -7.158e-005     1.1876e-008     9.383e-010     
  -3.1            -7.1957e-005    -2.6715e-008    2.5209e-009    
  -3.15           -7.2271e-005    -1.0509e-008    -5.014e-010    
  -3.2            -7.2543e-005    2.3563e-008     -1.54e-009     
  -3.25           -7.2998e-005    1.1912e-008     1.102e-009     
  -3.3            -7.3328e-005    -2.4609e-008    2.2381e-009    
  -3.35           -7.3628e-005    -1.0289e-008    -7.276e-010    
  -3.4            -7.3906e-005    2.7034e-008     -1.4557e-009   
  -3.45           -7.4377e-005    1.2796e-008     1.2823e-009    
  -3.5            -7.4698e-005    -1.2729e-008    2.6654e-009    
  -3.55           -7.5022e-005    -1.6909e-008    1.9078e-009    
  -3.6            -7.5371e-005    -1.1686e-008    2.6164e-009    
  -3.65           -7.5689e-005    -1.5451e-008    1.8398e-009    
  -3.7            -7.6037e-005    -1.0149e-008    2.5668e-009    
  -3.75           -7.635e-005     -1.3687e-008    1.7716e-009    
  -3.8            -7.6698e-005    -7.934e-009     2.5138e-009    
  -3.85           -7.7018e-005    -6.3e-011       2.8831e-009    
  -3.9            -7.7351e-005    -4.246e-009     2.4589e-009    
  -3.95           -7.7587e-005    7.619e-009      -1.9491e-009   
  -4              -7.789e-005     2.8871e-008     9.78e-011      
  -4.05           -7.8276e-005    2.6033e-008     2.8904e-009    
  -4.1            -7.8497e-005    1.4732e-008     -1.557e-009    
  -4.15           -7.8861e-005    4.6949e-008     -1.564e-009    
