! VERSION = 6.00
BEGIN_HEADER
 ICCAP_INPUTS
  VG         V  B GROUND SMU4 0.001 LIN        2    0          -5         6    -1        
  VS         V  E GROUND SMU2 0.1 CON        0
  VD         V  S GROUND SMU1 0.1 LIN        1    0          -5         101  -0.05     
  VB         V  C GROUND SMU3 0.1 LIN        3    0          2.5        2    2.5       
 ICCAP_OUTPUTS
  ID         I  S GROUND SMU1 B
  IB         I  C GROUND SMU3 B
  IG         I  B GROUND SMU4 B
END_HEADER

BEGIN_DB
 ICCAP_VAR VG         0              
 ICCAP_VAR VS         0              
 ICCAP_VAR VB         0              

 #VD              ID              IB              IG             
  0               1.784e-010      1.1818e-008     -7.99e-010     
  -0.05           -1.3139e-009    8.036e-009      -1.9371e-009   
  -0.1            -2.2616e-009    -1.2674e-008    -6.375e-010    
  -0.15           -1.5402e-009    -2.3696e-008    2.3786e-009    
  -0.2            2.1389e-009     -5.868e-009     1.4009e-009    
  -0.25           1.9364e-009     1.2298e-008     1.5673e-009    
  -0.3            2.1957e-009     1.1858e-008     7.08e-011      
  -0.35           2.2714e-009     1.2669e-008     2.675e-010     
  -0.4            2.3158e-009     1.278e-008      4.601e-010     
  -0.45           2.3326e-009     1.229e-008      6.476e-010     
  -0.5            2.3381e-009     1.0649e-008     8.17e-010      
  -0.55           1.6803e-009     1.619e-008      -1.3849e-009   
  -0.6            3.058e-010      1.3793e-008     -2.6049e-009   
  -0.65           -2.2096e-009    1.584e-009      -1.0882e-009   
  -0.7            -1.7859e-009    -1.0632e-008    1.5393e-009    
  -0.75           2.3344e-009     -8.483e-009     9.106e-010     
  -0.8            1.7623e-009     1.3226e-008     -1.3625e-009   
  -0.85           4.045e-010      1.5244e-008     -2.5187e-009   
  -0.9            -2.2692e-009    -1.3096e-008    -4.366e-010    
  -0.95           -2.2633e-009    -1.2658e-008    -6.303e-010    
  -1              -1.5395e-009    -2.3809e-008    2.3836e-009    
  -1.05           2.137e-009      -5.746e-009     1.391e-009     
  -1.1            1.935e-009      1.1825e-008     1.564e-009     
  -1.15           2.1904e-009     1.1875e-008     6.4e-011       
  -1.2            1.1462e-009     2.7652e-008     -1.4291e-009   
  -1.25           -2.2016e-009    8.234e-009      -1.1236e-009   
  -1.3            -1.8103e-009    -1.0306e-008    1.4997e-009    
  -1.35           2.3291e-009     -8.406e-009     9.497e-010     
  -1.4            2.3074e-009     9.378e-009      1.098e-009     
  -1.45           2.2407e-009     1.003e-008      1.2541e-009    
  -1.5            2.1014e-009     1.1607e-008     1.4083e-009    
  -1.55           1.9054e-009     1.2252e-008     1.5847e-009    
  -1.6            2.1999e-009     1.2025e-008     9.08e-011      
  -1.65           2.2734e-009     1.2647e-008     2.91e-010      
  -1.7            2.3132e-009     1.264e-008      4.841e-010     
  -1.75           2.3304e-009     1.1699e-008     6.679e-010     
  -1.8            2.3344e-009     1.0405e-008     8.328e-010     
  -1.85           1.6981e-009     1.5789e-008     -1.3797e-009   
  -1.9            3.313e-010      1.4039e-008     -2.5862e-009   
  -1.95           -2.2061e-009    1.684e-009      -1.107e-009    
  -2              -1.8011e-009    -1.0342e-008    1.5219e-009    
  -2.05           2.3312e-009     -8.434e-009     9.33e-010      
  -2.1            2.3108e-009     9.281e-009      1.085e-009     
  -2.15           2.2489e-009     9.968e-009      1.2373e-009    
  -2.2            2.1218e-009     1.1452e-008     1.3976e-009    
  -2.25           1.9272e-009     1.2241e-008     1.5677e-009    
  -2.3            2.1929e-009     1.1934e-008     7.29e-011      
  -2.35           2.2673e-009     1.2601e-008     2.718e-010     
  -2.4            2.3154e-009     1.2587e-008     4.632e-010     
  -2.45           2.3251e-009     1.1716e-008     6.498e-010     
  -2.5            2.3358e-009     1.0273e-008     8.218e-010     
  -2.55           1.6859e-009     1.6048e-008     -1.3824e-009   
  -2.6            3.18e-010       1.3889e-008     -2.5958e-009   
  -2.65           -2.207e-009     1.631e-009      -1.0952e-009   
  -2.7            -1.7928e-009    -1.06e-008      1.5341e-009    
  -2.75           2.3305e-009     -8.499e-009     9.203e-010     
  -2.8            2.3112e-009     9.185e-009      1.0728e-009    
  -2.85           2.2549e-009     9.931e-009      1.2257e-009    
  -2.9            2.1286e-009     1.1356e-008     1.3839e-009    
  -2.95           1.9416e-009     1.2209e-008     1.5569e-009    
  -3              2.1891e-009     1.1865e-008     5.91e-011      
  -3.05           2.2622e-009     1.26e-008       2.579e-010     
  -3.1            2.3083e-009     1.2707e-008     4.502e-010     
  -3.15           2.3271e-009     1.1862e-008     6.363e-010     
  -3.2            2.3333e-009     1.0417e-008     8.097e-010     
  -3.25           1.6723e-009     1.6384e-008     -1.3846e-009   
  -3.3            3.056e-010      1.3666e-008     -2.5961e-009   
  -3.35           -2.2082e-009    1.648e-009      -1.0858e-009   
  -3.4            -1.7873e-009    -1.0689e-008    1.5585e-009    
  -3.45           2.3342e-009     -8.473e-009     9.075e-010     
  -3.5            1.7588e-009     1.3476e-008     -1.7199e-009   
  -3.55           -1.65e-009      6.133e-009      -1.7278e-009   
  -3.6            -1.5674e-009    -2.2508e-008    2.3129e-009    
  -3.65           2.0981e-009     -6.164e-009     1.428e-009     
  -3.7            1.8873e-009     1.2191e-008     1.6018e-009    
  -3.75           2.2075e-009     1.2201e-008     1.065e-010     
  -3.8            1.1764e-009     2.7961e-008     -1.4196e-009   
  -3.85           -2.1922e-009    8.403e-009      -1.1623e-009   
  -3.9            -1.8421e-009    -1.0171e-008    3.006e-010     
  -3.95           -8.68e-010      -1.9471e-008    1.9753e-009    
  -4              1.8756e-009     -8.298e-009     1.6294e-009    
  -4.05           1.6069e-009     1.2723e-008     1.7946e-009    
  -4.1            2.2864e-009     1.2626e-008     3.34e-010      
  -4.15           2.3186e-009     1.2755e-008     5.263e-010     
  -4.2            2.3321e-009     1.1704e-008     7.059e-010     
  -4.25           2.3321e-009     1.0061e-008     8.729e-010     
  -4.3            1.7265e-009     1.466e-008      -1.3601e-009   
  -4.35           3.652e-010      1.4532e-008     -2.5559e-009   
  -4.4            -2.195e-009     1.681e-009      -1.1404e-009   
  -4.45           -1.8245e-009    -1.0216e-008    1.4755e-009    
  -4.5            2.3235e-009     -8.389e-009     9.685e-010     
  -4.55           2.3008e-009     9.288e-009      1.1197e-009    
  -4.6            2.2246e-009     1.0297e-008     1.2716e-009    
  -4.65           2.0923e-009     1.0833e-008     1.4228e-009    
  -4.7            2.1239e-009     1.1203e-008     -7.47e-011     
  -4.75           1.0475e-009     2.5975e-008     -1.4869e-009   
  -4.8            -1.3795e-009    8.12e-009       -1.8797e-009   
  -4.85           -2.2659e-009    -1.3125e-008    -5.675e-010    
  -4.9            -2.255e-009     -1.1995e-008    -7.632e-010    
  -4.95           -1.6088e-009    -2.0149e-008    2.2022e-009    
  -5              2.0204e-009     -7.073e-009     1.4978e-009    
END_DB

BEGIN_DB
 ICCAP_VAR VG         -1             
 ICCAP_VAR VS         0              
 ICCAP_VAR VB         0              

 #VD              ID              IB              IG             
  0               -6.6905e-008    1.269e-009      2.6168e-009    
  -0.05           -4.1633e-006    1.1137e-008     2.8546e-009    
  -0.1            -6.8656e-006    -1.8034e-008    1.6274e-009    
  -0.15           -8.5514e-006    -2.1485e-008    1.7989e-009    
  -0.2            -9.609e-006     -2.4607e-008    1.9872e-009    
  -0.25           -1.03109e-005   -2.7063e-008    2.1819e-009    
  -0.3            -1.08204e-005   -2.7629e-008    2.3602e-009    
  -0.35           -1.12156e-005   -2.733e-008     2.5232e-009    
  -0.4            -1.1548e-005    -2.131e-008     1.9548e-009    
  -0.45           -1.1834e-005    -1.0328e-008    4.71e-011      
  -0.5            -1.1932e-005    1.5303e-008     -2.1967e-009   
  -0.55           -1.2231e-005    1.2704e-008     6.558e-010     
  -0.6            -1.252e-005     -8.551e-009     2.8571e-009    
  -0.65           -1.2779e-005    -1.4531e-008    3.041e-010     
  -0.7            -1.2802e-005    1.0516e-008     -2.5572e-009   
  -0.75           -1.307e-005     1.1568e-008     3.079e-010     
  -0.8            -1.3372e-005    -1.9089e-008    1.754e-009     
  -0.85           -1.359e-005     -1.0509e-008    1.536e-010     
  -0.9            -1.3589e-005    1.3565e-008     -2.3604e-009   
  -0.95           -1.3909e-005    1.2378e-008     2.1383e-009    
  -1              -1.413e-005     -2.0129e-008    1.481e-009     
  -1.05           -1.4303e-005    -2.748e-008     2.4792e-009    
  -1.1            -1.4392e-005    -1.3046e-008    -6.28e-010     
  -1.15           -1.4496e-005    7.406e-009      -1.404e-009    
  -1.2            -1.489e-005     9.72e-009       1.4487e-009    
  -1.25           -1.5017e-005    -1.9326e-008    1.7072e-009    
  -1.3            -1.5197e-005    -2.6098e-008    2.6752e-009    
  -1.35           -1.5346e-005    -2.6216e-008    2.0858e-009    
  -1.4            -1.5426e-005    -1.2683e-008    -8.821e-010    
  -1.45           -1.5531e-005    2.6473e-008     -1.4049e-009   
  -1.5            -1.5924e-005    9.655e-009      1.4299e-009    
  -1.55           -1.6046e-005    -1.9891e-008    1.7419e-009    
  -1.6            -1.6244e-005    -1.0509e-008    1.539e-010     
  -1.65           -1.6201e-005    1.3767e-008     -2.3481e-009   
  -1.7            -1.6517e-005    1.2354e-008     2.1392e-009    
  -1.75           -1.6732e-005    -2.0163e-008    1.4739e-009    
  -1.8            -1.6883e-005    -2.7513e-008    2.47e-009      
  -1.85           -1.6944e-005    -1.3062e-008    -6.333e-010    
  -1.9            -1.7035e-005    7.433e-009      -1.4046e-009   
  -1.95           -1.7445e-005    9.696e-009      1.4614e-009    
  -2              -1.7546e-005    -1.8997e-008    1.6951e-009    
  -2.05           -1.7756e-005    -2.6317e-008    2.6687e-009    
  -2.1            -1.7855e-005    -2.5775e-008    2.0732e-009    
  -2.15           -1.7923e-005    -1.2731e-008    -8.839e-010    
  -2.2            -1.8011e-005    2.6546e-008     -1.4054e-009   
  -2.25           -1.8432e-005    9.732e-009      1.4416e-009    
  -2.3            -1.8534e-005    -1.9563e-008    1.72e-009      
  -2.35           -1.8734e-005    -1.0448e-008    1.433e-010     
  -2.4            -1.8659e-005    1.384e-008      -2.3381e-009   
  -2.45           -1.8982e-005    1.2288e-008     2.1467e-009    
  -2.5            -1.9199e-005    -2.0195e-008    1.4669e-009    
  -2.55           -1.9346e-005    -2.7529e-008    2.4529e-009    
  -2.6            -1.9509e-005    -2.0493e-008    1.7614e-009    
  -2.65           -1.9713e-005    -1.0445e-008    1.559e-010     
  -2.7            -1.9635e-005    1.3758e-008     -2.3584e-009   
  -2.75           -1.9971e-005    1.2384e-008     2.1327e-009    
  -2.8            -2.0176e-005    -1.9803e-008    1.4836e-009    
  -2.85           -2.0323e-005    -2.7354e-008    2.4853e-009    
  -2.9            -2.0482e-005    -2.0912e-008    1.7856e-009    
  -2.95           -2.067e-005     -2.5019e-008    2.7207e-009    
  -3              -2.0792e-005    -2.64e-008      2.1712e-009    
  -3.05           -2.085e-005     -1.2289e-008    -8.419e-010    
  -3.1            -2.0929e-005    2.6542e-008     -1.4066e-009   
  -3.15           -2.1357e-005    1.0546e-008     1.3834e-009    
  -3.2            -2.1459e-005    -2.0147e-008    1.8145e-009    
  -3.25           -2.1672e-005    -1.7381e-008    2.6125e-009    
  -3.3            -2.1778e-005    -2.2601e-008    1.968e-009     
  -3.35           -2.1995e-005    -1.5389e-008    2.6953e-009    
  -3.4            -2.213e-005     -1.6354e-008    1.8861e-009    
  -3.45           -2.2328e-005    -1.4986e-008    2.6594e-009    
  -3.5            -2.2457e-005    -1.5031e-008    1.8169e-009    
  -3.55           -2.2661e-005    -1.3952e-008    2.6011e-009    
  -3.6            -2.2795e-005    -1.3074e-008    1.7382e-009    
  -3.65           -2.2998e-005    -1.2304e-008    2.5538e-009    
  -3.7            -2.3166e-005    -1.965e-009     2.8522e-009    
  -3.75           -2.3335e-005    -9.572e-009     2.4964e-009    
  -3.8            -2.3329e-005    2.2981e-008     2.4161e-009    
  -3.85           -2.3665e-005    -3.162e-009     2.726e-009     
  -3.9            -2.3702e-005    4.224e-009      -3.699e-010    
  -3.95           -2.3746e-005    3.8736e-008     -1.6523e-009   
  -4              -2.4026e-005    3.3351e-008     2.5726e-009    
  -4.05           -2.4166e-005    1.3275e-008     -7.159e-010    
  -4.1            -2.425e-005     5.455e-008      -1.4335e-009   
  -4.15           -2.4551e-005    4.6575e-008     2.7516e-009    
  -4.2            -2.4662e-005    2.9427e-008     -9.943e-010    
  -4.25           -2.476e-005     7.595e-008      -1.4068e-009   
  -4.3            -2.5101e-005    6.4437e-008     2.8507e-009    
  -4.35           -2.5107e-005    5.3321e-008     -1.2457e-009   
  -4.4            -2.5292e-005    9.9537e-008     -1.3995e-009   
  -4.45           -2.5629e-005    8.7819e-008     2.8674e-009    
  -4.5            -2.5582e-005    8.4208e-008     -1.527e-009    
  -4.55           -2.5983e-005    1.2043e-007     9.031e-010     
  -4.6            -2.6054e-005    1.2635e-007     -1.4769e-009   
  -4.65           -2.6358e-005    1.4951e-007     2.6954e-009    
  -4.7            -2.6513e-005    1.4334e-007     -8.876e-010    
  -4.75           -2.6607e-005    2.0413e-007     -1.3933e-009   
  -4.8            -2.6977e-005    2.1023e-007     2.8394e-009    
  -4.85           -2.7055e-005    2.1286e-007     -1.1247e-009   
  -4.9            -2.7235e-005    2.8076e-007     -1.3819e-009   
  -4.95           -2.761e-005     2.8776e-007     2.9002e-009    
  -5              -2.7593e-005    3.0334e-007     -1.3674e-009   
END_DB

BEGIN_DB
 ICCAP_VAR VG         -2             
 ICCAP_VAR VS         0              
 ICCAP_VAR VB         0              

 #VD              ID              IB              IG             
  0               -3.1505e-007    1.1765e-008     -9.986e-010    
  -0.05           -2.5938e-005    -2.6974e-008    1.4514e-009    
  -0.1            -5.0286e-005    -1.9185e-008    1.7052e-009    
  -0.15           -7.3299e-005    -2.6073e-008    2.6709e-009    
  -0.2            -9.5008e-005    -2.6105e-008    2.0903e-009    
  -0.25           -0.00011525     -1.0585e-008    -4.044e-010    
  -0.3            -0.00013404     6.61e-009       -1.4096e-009   
  -0.35           -0.00015165     1.0002e-008     1.5135e-009    
  -0.4            -0.00016754     -1.3928e-008    2.922e-010     
  -0.45           -0.00018176     1.2476e-008     -2.4326e-009   
  -0.5            -0.00019511     1.2214e-008     2.1993e-009    
  -0.55           -0.0002069      -2.363e-008     1.3331e-009    
  -0.6            -0.00021726     -2.3823e-008    1.9329e-009    
  -0.65           -0.00022657     -2.6083e-008    2.6768e-009    
  -0.7            -0.00023458     -2.2377e-008    1.8562e-009    
  -0.75           -0.0002418      -2.6593e-008    2.6331e-009    
  -0.8            -0.000248       -2.0895e-008    1.7838e-009    
  -0.85           -0.00025318     -1.0635e-008    -1.1201e-009   
  -0.9            -0.00025781     2.7163e-008     -1.4018e-009   
  -0.95           -0.00026232     1.2361e-008     8.859e-010     
  -1              -0.00026626     -2.7407e-008    2.5457e-009    
  -1.05           -0.00026963     -1.8404e-008    1.6414e-009    
  -1.1            -0.00027264     -2.7608e-008    2.487e-009     
  -1.15           -0.00027546     -1.7138e-008    1.5867e-009    
  -1.2            -0.0002779      -2.7689e-008    2.4158e-009    
  -1.25           -0.00028036     -1.5998e-008    1.5265e-009    
  -1.3            -0.00028252     -2.7777e-008    2.3504e-009    
  -1.35           -0.00028424     -1.3046e-008    -8.563e-010    
  -1.4            -0.00028594     2.7601e-008     -1.406e-009    
  -1.45           -0.00028865     1.1303e-008     1.6652e-009    
  -1.5            -0.00029015     -1.0994e-008    1.907e-010     
  -1.55           -0.0002912      1.4763e-008     -2.2551e-009   
  -1.6            -0.00029314     1.2589e-008     7.36e-010      
  -1.65           -0.000295       -2.5937e-008    2.7019e-009    
  -1.7            -0.0002962      -1.2947e-008    -5.466e-010    
  -1.75           -0.0002974      7.795e-009      -1.4045e-009   
  -1.8            -0.00029969     1.1072e-008     1.6355e-009    
  -1.85           -0.00030089     -1.1475e-008    2.09e-010      
  -1.9            -0.00030153     1.4349e-008     -2.2854e-009   
  -1.95           -0.00030324     1.2633e-008     7.178e-010     
  -2              -0.00030484     -2.545e-008     2.724e-009     
  -2.05           -0.00030599     -2.4004e-008    1.945e-009     
  -2.1            -0.0003074      -2.5836e-008    2.6877e-009    
  -2.15           -0.00030849     -2.2716e-008    1.8638e-009    
  -2.2            -0.00030985     -2.6504e-008    2.6399e-009    
  -2.25           -0.00031094     -2.1365e-008    1.7997e-009    
  -2.3            -0.00031222     -2.6968e-008    2.6031e-009    
  -2.35           -0.00031332     -1.9912e-008    1.7259e-009    
  -2.4            -0.00031453     -2.7279e-008    2.5439e-009    
  -2.45           -0.00031532     -1.3125e-008    -7.083e-010    
  -2.5            -0.00031615     8.191e-009      -1.4123e-009   
  -2.55           -0.00031758     1.2643e-008     6.921e-010     
  -2.6            -0.00031903     -2.5247e-008    2.746e-009     
  -2.65           -0.00031994     -2.4653e-008    1.9993e-009    
  -2.7            -0.00032116     -2.5496e-008    2.7091e-009    
  -2.75           -0.00032214     -2.3537e-008    1.9189e-009    
  -2.8            -0.00032324     -2.6068e-008    2.6695e-009    
  -2.85           -0.0003242      -2.2092e-008    1.8397e-009    
  -2.9            -0.0003253      -2.6396e-008    2.6239e-009    
  -2.95           -0.00032625     -2.0505e-008    1.7658e-009    
  -3              -0.0003273      -2.6521e-008    2.5839e-009    
  -3.05           -0.00032829     -1.8854e-008    1.7044e-009    
  -3.1            -0.0003293      -2.6512e-008    2.5319e-009    
  -3.15           -0.0003303      -1.6857e-008    1.6411e-009    
  -3.2            -0.0003312      -1.8076e-008    2.2698e-009    
  -3.25           -0.00033237     -1.4728e-008    2.731e-009     
  -3.3            -0.00033311     -2.1483e-008    1.9706e-009    
  -3.35           -0.0003342      -1.5578e-008    2.5582e-009    
  -3.4            -0.00033506     -1.4036e-008    1.6722e-009    
  -3.45           -0.00033603     -1.3906e-008    2.3135e-009    
  -3.5            -0.0003371      -8.882e-009     2.7478e-009    
  -3.55           -0.00033789     -9.64e-009      1.7743e-009    
  -3.6            -0.00033846     4.898e-009      -2.5215e-009   
  -3.65           -0.00033946     2.6833e-008     8.653e-010     
  -3.7            -0.00034047     2.52e-008       2.8605e-009    
  -3.75           -0.00034069     1.2892e-008     -1.5093e-009   
  -3.8            -0.00034187     4.2106e-008     -1.5062e-009   
  -3.85           -0.00034309     4.4644e-008     2.7412e-009    
  -3.9            -0.00034375     3.0651e-008     -1.0852e-009   
  -3.95           -0.0003445      7.808e-008      -1.4065e-009   
  -4              -0.00034579     6.3685e-008     2.8596e-009    
  -4.05           -0.00034604     6.2625e-008     -1.7017e-009   
  -4.1            -0.00034737     9.7585e-008     -2.7268e-009   
  -4.15           -0.00034808     1.0837e-007     -1.7081e-009   
