! VERSION = 6.00
BEGIN_HEADER
 ICCAP_INPUTS
  VG         V  B GROUND SMU4 0.001 LIN        1    0          -5         101  -0.05     
  VS         V  E GROUND SMU2 0.1 CON        0
  VB         V  C GROUND SMU3 0.1 LIN        3    0          5          3    2.5       
  VD         V  S GROUND SMU1 0.1 LIN        2    -0.1       -5         2    -4.9      
 ICCAP_OUTPUTS
  IG         I  B GROUND SMU4 B
  ID         I  S GROUND SMU1 B
  IB         I  C GROUND SMU3 B
END_HEADER

BEGIN_DB
 ICCAP_VAR VS         0              
 ICCAP_VAR VB         0              
 ICCAP_VAR VD         -0.1           

 #VG              IG              ID              IB             
  0               -2.929e-010     -3.0552e-008    -1.2244e-008   
  -0.05           -2.3157e-009    -4.6389e-008    1.1054e-008    
  -0.1            2.147e-010      -7.296e-008     -1.323e-008    
  -0.15           1.4214e-009     -1.05914e-007   -2.3198e-008   
  -0.2            -1.7316e-009    -1.5333e-007    2.6955e-008    
  -0.25           -6.134e-010     -2.1786e-007    -1.108e-008    
  -0.3            1.8457e-009     -3.0525e-007    -2.1694e-008   
  -0.35           1.3533e-009     -4.1595e-007    -9.23e-009     
  -0.4            2.8848e-009     -5.6049e-007    -9.66e-009     
  -0.45           2.6843e-009     -7.3015e-007    -7e-011        
  -0.5            2.072e-009      -9.2407e-007    -2.3e-009      
  -0.55           1.4602e-009     -1.14407e-006   -8.085e-009    
  -0.6            2.8616e-009     -1.3644e-006    2.6387e-008    
  -0.65           2.0954e-009     -1.597e-006     1.07e-008      
  -0.7            9.278e-010      -1.8478e-006    1.1487e-008    
  -0.75           -3.361e-010     -2.0685e-006    1.3264e-008    
  -0.8            1.17e-010       -2.3162e-006    1.0691e-008    
  -0.85           6.007e-010      -2.5461e-006    1.0985e-008    
  -0.9            1.0157e-009     -2.7536e-006    1.1347e-008    
  -0.95           1.4301e-009     -2.99e-006      1.1722e-008    
  -1              1.8738e-009     -3.1865e-006    1.1946e-008    
  -1.05           7.117e-010      -3.3963e-006    1.1229e-008    
  -1.1            1.1072e-009     -3.5832e-006    1.115e-008     
  -1.15           1.5334e-009     -3.7904e-006    1.1924e-008    
  -1.2            3.503e-010      -3.9698e-006    1.0519e-008    
  -1.25           8.134e-010      -4.1483e-006    1.1426e-008    
  -1.3            -1.5306e-009    -4.3231e-006    1.5405e-008    
  -1.35           -1.3888e-009    -4.476e-006     8.685e-009     
  -1.4            -2.6587e-009    -4.6415e-006    8.473e-009     
  -1.45           -2.216e-009     -4.8052e-006    4.28e-010      
  -1.5            1.679e-010      -4.9696e-006    -1.2531e-008   
  -1.55           -2.816e-010     -5.1195e-006    -1.1032e-008   
  -1.6            -7.811e-010     -5.2629e-006    -1.1625e-008   
  -1.65           1.6441e-009     -5.4123e-006    -1.8289e-008   
  -1.7            1.296e-009      -5.5454e-006    -9.091e-009    
  -1.75           2.858e-009      -5.6933e-006    -1.0461e-008   
  -1.8            2.918e-010      -5.8252e-006    1.0464e-008    
  -1.85           7.596e-010      -5.961e-006     1.1358e-008    
  -1.9            1.1514e-009     -6.1023e-006    1.1041e-008    
  -1.95           1.5839e-009     -6.2194e-006    1.2045e-008    
  -2              4.021e-010      -6.347e-006     1.0451e-008    
  -2.05           8.59e-010       -6.4816e-006    1.1602e-008    
  -2.1            -1.4989e-009    -6.5989e-006    1.4546e-008    
  -2.15           -1.3795e-009    -6.7195e-006    8.892e-009     
  -2.2            -2.6302e-009    -6.8361e-006    8.263e-009     
  -2.25           -2.1395e-009    -6.9647e-006    7.18e-010      
  -2.3            1.196e-010      -7.0718e-006    -1.2108e-008   
  -2.35           -3.386e-010     -7.1987e-006    -1.0867e-008   
  -2.4            2.254e-009      -7.3096e-006    -2.6322e-008   
  -2.45           1.5555e-009     -7.4194e-006    -6.942e-009    
  -2.5            1.282e-009      -7.5206e-006    -9.032e-009    
  -2.55           2.8444e-009     -7.6364e-006    -1.1213e-008   
  -2.6            1.3454e-009     -7.7408e-006    1.1222e-008    
  -2.65           1.7852e-009     -7.8449e-006    1.1846e-008    
  -2.7            6.202e-010      -7.9435e-006    1.1049e-008    
  -2.75           1.0327e-009     -8.0346e-006    1.1325e-008    
  -2.8            1.4483e-009     -8.1505e-006    1.1627e-008    
  -2.85           2.508e-010      -8.2479e-006    1.0394e-008    
  -2.9            7.266e-010      -8.3463e-006    1.1283e-008    
  -2.95           -1.5877e-009    -8.4489e-006    1.7354e-008    
  -3              -1.4034e-009    -8.5324e-006    8.017e-009     
  -3.05           -1.3448e-009    -8.6239e-006    8.971e-009     
  -3.1            -2.3283e-009    -8.7289e-006    1.0741e-008    
  -3.15           2.072e-010      -8.8266e-006    -1.3444e-008   
  -3.2            -1.959e-010     -8.9143e-006    -1.1207e-008   
  -3.25           -6.97e-010      -9.0041e-006    -1.1454e-008   
  -3.3            1.7468e-009     -9.1004e-006    -1.9729e-008   
  -3.35           1.3274e-009     -9.1761e-006    -8.975e-009    
  -3.4            2.8785e-009     -9.2683e-006    -9.842e-009    
  -3.45           2.6119e-009     -9.3572e-006    -3.1e-010      
  -3.5            1.9572e-009     -9.4326e-006    -3.029e-009    
  -3.55           1.4136e-009     -9.5192e-006    -8.908e-009    
  -3.6            2.8826e-009     -9.595e-006     -9.431e-009    
  -3.65           2.7573e-009     -9.6803e-006    3.47e-010      
  -3.7            1.4913e-009     -9.7608e-006    1.1717e-008    
  -3.75           3.067e-010      -9.8334e-006    1.0445e-008    
  -3.8            7.778e-010      -9.9223e-006    1.132e-008     
  -3.85           1.1608e-009     -1.00006e-005   1.0989e-008    
  -3.9            1.5951e-009     -1.00822e-005   1.1871e-008    
  -3.95           2.037e-009      -1.0156e-005    1.1081e-008    
  -4              8.711e-010      -1.02294e-005   1.1415e-008    
  -4.05           1.2556e-009     -1.03066e-005   1.0949e-008    
  -4.1            5.84e-011       -1.03823e-005   1.0957e-008    
  -4.15           5.358e-010      -1.04556e-005   1.0755e-008    
  -4.2            -1.3371e-009    -1.05304e-005   2.2048e-008    
  -4.25           -2.2177e-009    -1.06002e-005   1.1869e-008    
  -4.3            1.28e-010       -1.06803e-005   -1.2686e-008   
  -4.35           -2.9e-010       -1.07471e-005   -1.1063e-008   
  -4.4            -7.872e-010     -1.08194e-005   -1.1548e-008   
  -4.45           1.627e-009      -1.08842e-005   -1.7895e-008   
  -4.5            1.2971e-009     -1.09527e-005   -9.086e-009    
  -4.55           2.8635e-009     -1.10176e-005   -1.0639e-008   
  -4.6            1.2866e-009     -1.10848e-005   1.0862e-008    
  -4.65           8.45e-011       -1.11508e-005   1.089e-008     
  -4.7            5.617e-010      -1.12135e-005   1.0865e-008    
  -4.75           -1.7439e-009    -1.12806e-005   2.1152e-008    
  -4.8            -1.4409e-009    -1.13359e-005   6.351e-009     
  -4.85           2.0526e-009     -1.1409e-005    9.015e-009     
  -4.9            1.4487e-009     -1.1468e-005    -8.44e-009     
  -4.95           2.8736e-009     -1.1534e-005    -9.304e-009    
  -5              2.7846e-009     -1.1592e-005    4.26e-010      
END_DB

BEGIN_DB
 ICCAP_VAR VS         0              
 ICCAP_VAR VB         0              
 ICCAP_VAR VD         -5             

 #VG              IG              ID              IB             
  0               1.0468e-009     -1.0163e-005    1.2824e-007    
  -0.05           1.8066e-009     -1.115e-005     1.4495e-007    
  -0.1            1.3836e-009     -1.2135e-005    1.4934e-007    
  -0.15           2.924e-009      -1.3204e-005    1.5832e-007    
  -0.2            2.6853e-009     -1.427e-005     1.7729e-007    
  -0.25           2.0588e-009     -1.5374e-005    1.8319e-007    
  -0.3            1.4704e-009     -1.6529e-005    1.8722e-007    
  -0.35           1.2935e-009     -1.7745e-005    1.9529e-007    
  -0.4            2.8272e-009     -1.8995e-005    1.9896e-007    
  -0.45           2.2991e-009     -2.0308e-005    2.1857e-007    
  -0.5            1.6168e-009     -2.1636e-005    2.2182e-007    
  -0.55           1.3188e-009     -2.3033e-005    2.2751e-007    
  -0.6            2.8844e-009     -2.4465e-005    2.3291e-007    
  -0.65           2.5247e-009     -2.5977e-005    2.5035e-007    
  -0.7            1.8303e-009     -2.7522e-005    2.5173e-007    
  -0.75           1.3725e-009     -2.9112e-005    2.532e-007     
  -0.8            2.9009e-009     -3.0699e-005    2.5826e-007    
  -0.85           2.6911e-009     -3.2312e-005    2.7238e-007    
  -0.9            2.0706e-009     -3.3975e-005    2.7464e-007    
  -0.95           1.4699e-009     -3.5658e-005    2.7266e-007    
  -1              1.2735e-009     -3.7423e-005    2.7526e-007    
  -1.05           2.8175e-009     -3.9254e-005    2.7471e-007    
  -1.1            2.3233e-009     -4.1e-005       2.8707e-007    
  -1.15           1.6358e-009     -4.2859e-005    2.833e-007     
  -1.2            1.3088e-009     -4.4721e-005    2.8115e-007    
  -1.25           2.8694e-009     -4.6626e-005    2.7871e-007    
  -1.3            2.54e-009       -4.8519e-005    2.8834e-007    
  -1.35           1.8536e-009     -5.0537e-005    2.8314e-007    
  -1.4            1.3715e-009     -5.2468e-005    2.7753e-007    
  -1.45           2.8888e-009     -5.4479e-005    2.7515e-007    
  -1.5            2.7158e-009     -5.6509e-005    2.8264e-007    
  -1.55           2.108e-009      -5.8535e-005    2.7727e-007    
  -1.6            1.491e-009      -6.0567e-005    2.6826e-007    
  -1.65           1.2688e-009     -6.2761e-005    2.6258e-007    
  -1.7            2.8263e-009     -6.4847e-005    2.5491e-007    
  -1.75           2.3689e-009     -6.6923e-005    2.626e-007     
  -1.8            1.671e-009      -6.9033e-005    2.5226e-007    
  -1.85           1.3082e-009     -7.1303e-005    2.4444e-007    
  -1.9            2.8713e-009     -7.3524e-005    2.39e-007      
  -1.95           2.578e-009      -7.5657e-005    2.4329e-007    
  -2              1.9065e-009     -7.793e-005     2.3484e-007    
  -2.05           1.388e-009      -8.0223e-005    2.2301e-007    
  -2.1            2.8845e-009     -8.2566e-005    2.1601e-007    
  -2.15           2.7325e-009     -8.4858e-005    2.193e-007     
  -2.2            2.167e-009      -8.7174e-005    2.1094e-007    
  -2.25           1.5187e-009     -8.9555e-005    1.9862e-007    
  -2.3            1.2703e-009     -9.1949e-005    1.9078e-007    
  -2.35           2.8349e-009     -9.4335e-005    1.8093e-007    
  -2.4            2.4131e-009     -9.6769e-005    1.8507e-007    
  -2.45           1.7156e-009     -9.9133e-005    1.7433e-007    
  -2.5            1.3205e-009     -0.000101584    1.6356e-007    
  -2.55           2.8777e-009     -0.00010405     1.5648e-007    
  -2.6            2.6097e-009     -0.000106482    1.5953e-007    
  -2.65           1.9583e-009     -0.000108944    1.5096e-007    
  -2.7            1.4114e-009     -0.000111408    1.387e-007     
  -2.75           2.8814e-009     -0.000113974    1.3238e-007    
  -2.8            2.4212e-009     -0.00011633     1.4755e-007    
  -2.85           1.7223e-009     -0.00011889     1.2484e-007    
  -2.9            1.3192e-009     -0.00012137     1.1479e-007    
  -2.95           -1.4264e-009    -0.00012383     1.4416e-007    
  -3              -1.3532e-009    -0.00012645     1.2231e-007    
  -3.05           -2.4719e-009    -0.00012895     1.169e-007     
  -3.1            -1.8784e-009    -0.00013152     1.0456e-007    
  -3.15           -1.4756e-009    -0.0001341      1.0353e-007    
  -3.2            -1.3721e-009    -0.00013667     1.0256e-007    
  -3.25           -2.6088e-009    -0.00013923     9.709e-008     
  -3.3            2.0742e-009     -0.00014191     6.5609e-008    
  -3.35           1.4465e-009     -0.00014449     7.1582e-008    
  -3.4            2.8724e-009     -0.00014712     6.7001e-008    
  -3.45           2.7918e-009     -0.00014973     7.2471e-008    
  -3.5            2.2996e-009     -0.00015238     6.7074e-008    
  -3.55           1.6197e-009     -0.00015494     5.8323e-008    
  -3.6            1.2903e-009     -0.00015759     5.1912e-008    
  -3.65           2.863e-009      -0.00016022     4.7266e-008    
  -3.7            2.5244e-009     -0.00016296     5.3981e-008    
  -3.75           1.8408e-009     -0.00016563     4.7384e-008    
  -3.8            1.3562e-009     -0.00016819     3.9062e-008    
  -3.85           2.8832e-009     -0.00017076     3.6252e-008    
  -3.9            2.6981e-009     -0.00017345     4.2864e-008    
  -3.95           2.1077e-009     -0.00017608     3.8418e-008    
  -4              1.4783e-009     -0.00017869     3.0323e-008    
  -4.05           2.8691e-009     -0.00018144     2.6993e-008    
  -4.1            2.8096e-009     -0.00018407     3.4517e-008    
  -4.15           2.3518e-009     -0.00018677     3.0953e-008    
  -4.2            1.6593e-009     -0.0001894      2.429e-008     
  -4.25           2.8835e-009     -0.00019197     3.437e-008     
  -4.3            2.7437e-009     -0.00019465     2.6652e-008    
  -4.35           2.1911e-009     -0.00019736     2.3195e-008    
  -4.4            2.7814e-009     -0.00019991     3.3668e-008    
  -4.45           2.8768e-009     -0.00020265     2.6762e-008    
  -4.5            2.2709e-009     -0.0002053      3.209e-008     
  -4.55           2.558e-009      -0.00020798     2.998e-008     
  -4.6            2.8281e-009     -0.00021064     2.7314e-008    
  -4.65           1.9916e-009     -0.00021337     2.9879e-008    
  -4.7            2.3434e-009     -0.00021592     2.7693e-008    
  -4.75           2.6291e-009     -0.00021863     2.4584e-008    
  -4.8            2.861e-009      -0.00022129     2.1962e-008    
  -4.85           2.0837e-009     -0.00022393     2.5774e-008    
  -4.9            2.4034e-009     -0.00022663     2.3768e-008    
  -4.95           2.7021e-009     -0.00022918     2.2366e-008    
  -5              1.7482e-009     -0.0002319      2.2797e-008    
END_DB

BEGIN_DB
 ICCAP_VAR VS         0              
 ICCAP_VAR VB         2.5            
 ICCAP_VAR VD         -0.1           

 #VG              IG              ID              IB             
  0               7.83e-011       2.949e-010      1.0688e-008    
  -0.05           2.6568e-009     -4.23e-010      -1.7295e-008   
  -0.1            1.1258e-009     2.25e-009       -2.759e-009    
  -0.15           1.2992e-009     2.1144e-009     1.1365e-008    
  -0.2            -1.508e-010     1.9519e-009     1.0791e-008    
  -0.25           2.27e-011       1.9897e-009     1.0407e-008    
  -0.3            2.037e-010      1.9486e-009     1.066e-008     
  -0.35           4.075e-010      1.6029e-009     1.1244e-008    
  -0.4            -1.5202e-009    -2.33e-009      1.1383e-008    
  -0.45           -1.4404e-009    -5.509e-009     8.777e-009     
  -0.5            -1.4633e-009    -1.4665e-008    -1.213e-008    
  -0.55           -1.3701e-009    -3.3555e-008    8.948e-009     
  -0.6            -2.5849e-009    -7.2387e-008    8.083e-009     
  -0.65           7.625e-010      -1.3964e-007    -1.6213e-008   
  -0.7            1.1501e-009     -2.4731e-007    1.0863e-008    
  -0.75           1.5848e-009     -3.9569e-007    1.1278e-008    
  -0.8            2.0231e-009     -5.7757e-007    1.2481e-008    
  -0.85           8.543e-010      -7.8939e-007    1.1407e-008    
  -0.9            1.2406e-009     -1.02453e-006   1.0692e-008    
  -0.95           -2.0215e-009    -1.2629e-006    -1.3731e-008   
  -1              -2.6901e-009    -1.5123e-006    -6e-009        
  -1.05           1.802e-010      -1.7621e-006    -1.3244e-008   
  -1.1            -2.031e-010     -1.9984e-006    -1.1144e-008   
  -1.15           -7.065e-010     -2.2268e-006    -1.1387e-008   
  -1.2            1.7452e-009     -2.4498e-006    -1.9869e-008   
  -1.25           1.3226e-009     -2.6569e-006    -9.124e-009    
  -1.3            2.8779e-009     -2.8597e-006    -1.0047e-008   
  -1.35           2.6281e-009     -3.052e-006     -2.82e-010     
  -1.4            1.9781e-009     -3.2389e-006    -2.956e-009    
  -1.45           1.4163e-009     -3.4158e-006    -8.737e-009    
  -1.5            2.8788e-009     -3.588e-006     -9.547e-009    
  -1.55           2.7676e-009     -3.7518e-006    3.53e-010      
  -1.6            1.4778e-009     -3.9127e-006    1.1181e-008    
  -1.65           2.836e-010      -4.0648e-006    1.0463e-008    
  -1.7            7.588e-010      -4.2168e-006    1.1299e-008    
  -1.75           1.1429e-009     -4.3673e-006    1.091e-008     
  -1.8            1.5728e-009     -4.5117e-006    1.1321e-008    
  -1.85           3.913e-010      -4.651e-006     1.0514e-008    
  -1.9            8.422e-010      -4.7882e-006    1.1257e-008    
  -1.95           1.2291e-009     -4.9251e-006    1.0662e-008    
  -2              2.21e-011       -5.0511e-006    1.0928e-008    
  -2.05           4.839e-010      -5.1812e-006    1.0712e-008    
  -2.1            9.263e-010      -5.3081e-006    1.1397e-008    
  -2.15           1.3165e-009     -5.4322e-006    1.0822e-008    
  -2.2            1.074e-010      -5.5508e-006    1.0655e-008    
  -2.25           5.875e-010      -5.6715e-006    1.0964e-008    
  -2.3            1.0014e-009     -5.7897e-006    1.1296e-008    
  -2.35           1.4103e-009     -5.9059e-006    1.1594e-008    
  -2.4            1.8505e-009     -6.0188e-006    1.2575e-008    
  -2.45           6.83e-010       -6.1289e-006    1.1134e-008    
  -2.5            1.0751e-009     -6.2411e-006    1.0825e-008    
  -2.55           1.496e-009      -6.353e-006     1.2085e-008    
  -2.6            3.069e-010      -6.4557e-006    1.0542e-008    
  -2.65           7.736e-010      -6.5672e-006    1.1154e-008    
  -2.7            1.1601e-009     -6.6661e-006    1.0707e-008    
  -2.75           1.5913e-009     -6.7689e-006    1.2224e-008    
  -2.8            2.0284e-009     -6.8674e-006    1.2386e-008    
  -2.85           8.528e-010      -6.9732e-006    1.1422e-008    
  -2.9            1.2412e-009     -7.0695e-006    1.0688e-008    
  -2.95           3.44e-011       -7.1633e-006    1.0813e-008    
  -3              4.97e-010       -7.2622e-006    1.0724e-008    
  -3.05           9.337e-010      -7.3578e-006    1.1358e-008    
  -3.1            1.3309e-009     -7.45e-006      1.0895e-008    
  -3.15           1.24e-010       -7.5421e-006    1.0692e-008    
  -3.2            6.001e-010      -7.6323e-006    1.1003e-008    
  -3.25           1.0089e-009     -7.7303e-006    1.1304e-008    
  -3.3            1.4125e-009     -7.8118e-006    1.114e-008     
  -3.35           1.8616e-009     -7.8999e-006    1.2341e-008    
  -3.4            6.979e-010      -7.9868e-006    1.1182e-008    
  -3.45           1.0848e-009     -8.0685e-006    1.1076e-008    
  -3.5            1.5029e-009     -8.1562e-006    1.1354e-008    
  -3.55           3.155e-010      -8.2398e-006    1.0549e-008    
  -3.6            7.809e-010      -8.3204e-006    1.1292e-008    
  -3.65           1.1643e-009     -8.4054e-006    1.0801e-008    
  -3.7            1.5937e-009     -8.4831e-006    1.1355e-008    
  -3.75           2.0312e-009     -8.5635e-006    1.2536e-008    
  -3.8            8.591e-010      -8.6441e-006    1.1162e-008    
  -3.85           1.2451e-009     -8.724e-006     1.0769e-008    
  -3.9            3.76e-011       -8.7993e-006    1.0852e-008    
  -3.95           5.083e-010      -8.8759e-006    1.0679e-008    
  -4              9.393e-010      -8.9485e-006    1.1122e-008    
  -4.05           1.3353e-009     -9.0239e-006    1.1136e-008    
  -4.1            1.288e-010      -9.0967e-006    1.0659e-008    
  -4.15           6.054e-010      -9.1735e-006    1.096e-008     
