! VERSION = 6.00
BEGIN_HEADER
 ICCAP_INPUTS
  VG         V  B GROUND SMU4 0.001 LIN        1    0          -5         101  -0.05     
  VS         V  E GROUND SMU2 0.1 CON        0
  VB         V  C GROUND SMU3 0.1 LIN        3    0          5          3    2.5       
  VD         V  S GROUND SMU1 0.1 LIN        2    -0.1       -5         2    -4.9      
 ICCAP_OUTPUTS
  IG         I  B GROUND SMU4 B
  ID         I  S GROUND SMU1 B
  IB         I  C GROUND SMU3 B
END_HEADER

BEGIN_DB
 ICCAP_VAR VS         0              
 ICCAP_VAR VB         0              
 ICCAP_VAR VD         -0.1           

 #VG              IG              ID              IB             
  0               2.4923e-009     2.3611e-009     -1.5244e-008   
  -0.05           3.034e-010      2.2635e-009     1.0401e-008    
  -0.1            5.059e-010      2.3488e-009     1.0692e-008    
  -0.15           6.944e-010      2.3979e-009     1.1243e-008    
  -0.2            8.502e-010      2.4034e-009     1.1151e-008    
  -0.25           9.829e-010      2.3602e-009     1.1212e-008    
  -0.3            1.1389e-009     2.2748e-009     1.1932e-008    
  -0.35           -1.4755e-009    1.971e-009      1.1342e-008    
  -0.4            -1.9533e-009    -1.3169e-009    9.266e-009     
  -0.45           1.6912e-009     -1.7245e-009    -1.3926e-008   
  -0.5            1.8211e-009     1.5966e-009     -9.388e-009    
  -0.55           3.737e-010      2.2942e-009     1.0506e-008    
  -0.6            5.735e-010      2.3514e-009     1.0868e-008    
  -0.65           7.581e-010      2.3387e-009     1.1218e-008    
  -0.7            -1.3807e-009    1.1891e-009     1.1119e-008    
  -0.75           -2.7599e-009    -1.9331e-009    8.715e-009     
  -0.8            -3.27e-011      -5.3927e-009    -1.1143e-008   
  -0.85           2.5802e-009     -9.963e-009     1.1201e-008    
  -0.9            1.8683e-009     -2.5619e-008    -3.282e-009    
  -0.95           1.387e-009      -5.6804e-008    -9.526e-009    
  -1              2.9475e-009     -1.0508e-007    -9.788e-009    
  -1.05           -2.812e-010     -1.6956e-007    9.563e-009     
  -1.1            -7.481e-010     -2.4366e-007    -1.1075e-008   
  -1.15           1.7122e-009     -3.2645e-007    -1.89e-008     
  -1.2            1.3235e-009     -4.108e-007     -9.502e-009    
  -1.25           2.9271e-009     -5.0092e-007    -1.0315e-008   
  -1.3            2.6148e-009     -5.9018e-007    2.52e-010      
  -1.35           1.9406e-009     -6.8173e-007    -2.497e-009    
  -1.4            1.4098e-009     -7.7339e-007    -9.149e-009    
  -1.45           2.9456e-009     -8.6422e-007    -9.594e-009    
  -1.5            2.7717e-009     -9.5208e-007    2.81e-010      
  -1.55           5.873e-010      -1.03868e-006   1.0407e-008    
  -1.6            9.65e-010       -1.12583e-006   1.1269e-008    
  -1.65           -2.1087e-009    -1.2136e-006    -1.4631e-008   
  -1.7            4.37e-011       -1.3003e-006    -1.2275e-008   
  -1.75           -4.03e-010      -1.3833e-006    -1.0811e-008   
  -1.8            2.2281e-009     -1.4649e-006    -2.5952e-008   
  -1.85           1.5463e-009     -1.5441e-006    -6.978e-009    
  -1.9            1.2869e-009     -1.6237e-006    -9.256e-009    
  -1.95           2.8808e-009     -1.7015e-006    -1.1341e-008   
  -2              1.3444e-009     -1.7758e-006    1.1543e-008    
  -2.05           1.8367e-009     -1.8517e-006    1.2795e-008    
  -2.1            6.652e-010      -1.9243e-006    1.0574e-008    
  -2.15           1.0192e-009     -1.9979e-006    1.1166e-008    
  -2.2            1.4538e-009     -2.0701e-006    1.2201e-008    
  -2.25           2.933e-010      -2.1401e-006    1.0477e-008    
  -2.3            7.57e-010       -2.2099e-006    1.0737e-008    
  -2.35           1.0978e-009     -2.2789e-006    1.1167e-008    
  -2.4            1.5667e-009     -2.3473e-006    1.2553e-008    
  -2.45           2.0141e-009     -2.4144e-006    1.2572e-008    
  -2.5            8.315e-010      -2.4789e-006    1.0949e-008    
  -2.55           1.1806e-009     -2.5448e-006    1.116e-008     
  -2.6            2.53e-011       -2.6091e-006    1.1243e-008    
  -2.65           4.97e-010       -2.6718e-006    1.0445e-008    
  -2.7            8.957e-010      -2.7343e-006    1.1165e-008    
  -2.75           1.2739e-009     -2.7958e-006    1.1257e-008    
  -2.8            1.7626e-009     -2.8568e-006    1.2748e-008    
  -2.85           5.926e-010      -2.9161e-006    1.0464e-008    
  -2.9            9.559e-010      -2.9752e-006    1.1171e-008    
  -2.95           1.3748e-009     -3.0332e-006    1.1733e-008    
  -3              2.2e-010        -3.0912e-006    1.0688e-008    
  -3.05           6.873e-010      -3.1478e-006    1.0614e-008    
  -3.1            1.0359e-009     -3.2042e-006    1.1086e-008    
  -3.15           1.4866e-009     -3.2595e-006    1.2246e-008    
  -3.2            3.225e-010      -3.3148e-006    1.0449e-008    
  -3.25           7.736e-010      -3.3682e-006    1.0743e-008    
  -3.3            1.1143e-009     -3.4225e-006    1.1164e-008    
  -3.35           1.5898e-009     -3.4751e-006    1.2699e-008    
  -3.4            2.0381e-009     -3.5277e-006    1.2475e-008    
  -3.45           8.476e-010      -3.5785e-006    1.0932e-008    
  -3.5            1.2028e-009     -3.6298e-006    1.1196e-008    
  -3.55           4.9e-011        -3.6806e-006    1.1217e-008    
  -3.6            5.21e-010       -3.7294e-006    1.0455e-008    
  -3.65           9.083e-010      -3.7788e-006    1.1082e-008    
  -3.7            1.2904e-009     -3.8284e-006    1.1417e-008    
  -3.75           1.782e-009      -3.8765e-006    1.2771e-008    
  -3.8            6.188e-010      -3.924e-006     1.0494e-008    
  -3.85           9.697e-010      -3.97e-006      1.1086e-008    
  -3.9            1.399e-009      -4.0163e-006    1.1857e-008    
  -3.95           2.414e-010      -4.0618e-006    1.0661e-008    
  -4              7.093e-010      -4.1067e-006    1.0591e-008    
  -4.05           1.0539e-009     -4.1517e-006    1.1072e-008    
  -4.1            1.5022e-009     -4.196e-006     1.2498e-008    
  -4.15           3.454e-010      -4.2397e-006    1.0468e-008    
  -4.2            7.887e-010      -4.2827e-006    1.0823e-008    
  -4.25           1.1354e-009     -4.3253e-006    1.1212e-008    
  -4.3            1.6122e-009     -4.368e-006     1.2716e-008    
  -4.35           2.0588e-009     -4.4094e-006    1.2455e-008    
  -4.4            8.663e-010      -4.4503e-006    1.1023e-008    
  -4.45           1.2256e-009     -4.4911e-006    1.1193e-008    
  -4.5            7.13e-011       -4.5323e-006    1.1177e-008    
  -4.55           5.504e-010      -4.5719e-006    1.0463e-008    
  -4.6            9.32e-010       -4.6103e-006    1.1113e-008    
  -4.65           1.3249e-009     -4.6492e-006    1.1506e-008    
  -4.7            1.8082e-009     -4.6882e-006    1.2806e-008    
  -4.75           6.463e-010      -4.7266e-006    1.0468e-008    
  -4.8            9.99e-010       -4.7641e-006    1.1101e-008    
  -4.85           1.4247e-009     -4.8013e-006    1.2039e-008    
  -4.9            2.71e-010       -4.8375e-006    1.0528e-008    
  -4.95           7.38e-010       -4.8741e-006    1.0691e-008    
  -5              1.0774e-009     -4.9103e-006    1.1085e-008    
END_DB

BEGIN_DB
 ICCAP_VAR VS         0              
 ICCAP_VAR VB         0              
 ICCAP_VAR VD         -5             

 #VG              IG              ID              IB             
  0               -1.4313e-009    -1.4443e-009    1.0388e-008    
  -0.05           -6.13e-011      -2.0851e-009    -1.1012e-008   
  -0.1            -2.639e-010     -2.2041e-009    -1.0963e-008   
  -0.15           -4.624e-010     -2.281e-009     -1.1018e-008   
  -0.2            1.275e-009      -1.4533e-009    -2.5208e-008   
  -0.25           2.9319e-009     -2.98e-011      -1.2497e-008   
  -0.3            1.8639e-009     1.5529e-009     3.81e-010      
  -0.35           4.226e-010      2.3192e-009     1.0582e-008    
  -0.4            6.24e-010       2.3818e-009     1.1085e-008    
  -0.45           7.977e-010      2.4026e-009     1.1135e-008    
  -0.5            9.352e-010      2.3748e-009     1.1114e-008    
  -0.55           1.0823e-009     2.3048e-009     1.1407e-008    
  -0.6            1.2556e-009     2.1686e-009     1.2469e-008    
  -0.65           -1.5407e-009    1.8145e-009     1.2714e-008    
  -0.7            -1.8842e-009    -1.6797e-009    8.967e-009     
  -0.75           -5.5e-010       -3.3187e-009    -1.1197e-008   
  -0.8            1.2558e-009     -5.23e-009      -2.3739e-008   
  -0.85           -2.5813e-009    -1.2653e-008    -2.7144e-008   
  -0.9            -2.0418e-009    -3.1414e-008    2.26e-010      
  -0.95           -2.7631e-009    -6.9157e-008    -5.283e-009    
  -1              -1.734e-010     -1.346e-007     1.0711e-008    
  -1.05           -6.502e-010     -2.3044e-007    -8.853e-009    
  -1.1            1.8539e-009     -3.6408e-007    -1.7431e-008   
  -1.15           1.3625e-009     -5.3324e-007    -5.277e-009    
  -1.2            2.934e-009      -7.4659e-007    -4.396e-009    
  -1.25           1.1494e-009     -9.9605e-007    1.7882e-008    
  -1.3            -1.9074e-009    -1.2835e-006    -2.554e-009    
  -1.35           2.734e-009      -1.622e-006     -5.278e-009    
  -1.4            2.5996e-009     -1.986e-006     2.1362e-008    
  -1.45           2.8816e-009     -2.3956e-006    2.0536e-008    
  -1.5            1.996e-009      -2.8486e-006    2.583e-008     
  -1.55           2.3741e-009     -3.3273e-006    2.6182e-008    
  -1.6            2.6745e-009     -3.8469e-006    2.5029e-008    
  -1.65           2.9177e-009     -4.4045e-006    2.2356e-008    
  -1.7            2.096e-009      -5.0011e-006    2.8797e-008    
  -1.75           2.4417e-009     -5.6195e-006    2.8028e-008    
  -1.8            2.7482e-009     -6.2868e-006    2.8054e-008    
  -1.85           2.9385e-009     -6.978e-006     2.3114e-008    
  -1.9            2.184e-009      -7.704e-006     2.9651e-008    
  -1.95           2.5142e-009     -8.4507e-006    2.8711e-008    
  -2              2.8138e-009     -9.2329e-006    2.7127e-008    
  -2.05           2.9401e-009     -1.00461e-005   2.1188e-008    
  -2.1            2.2716e-009     -1.08889e-005   2.8402e-008    
  -2.15           -1.5817e-009    -1.1738e-005    2.8499e-008    
  -2.2            -1.4058e-009    -1.2629e-005    2.4208e-008    
  -2.25           -1.3434e-009    -1.355e-005     2.4739e-008    
  -2.3            -2.3324e-009    -1.4498e-005    2.6155e-008    
  -2.35           -1.7231e-009    -1.5476e-005    1.6892e-008    
  -2.4            -1.4394e-009    -1.647e-005     2.0198e-008    
  -2.45           -1.3644e-009    -1.7494e-005    2.207e-008     
  -2.5            -2.5086e-009    -1.8536e-005    2.1066e-008    
  -2.55           -1.9027e-009    -1.9616e-005    1.1494e-008    
  -2.6            -1.4915e-009    -2.0705e-005    1.5895e-008    
  -2.65           -1.3866e-009    -2.1818e-005    1.8952e-008    
  -2.7            -2.6434e-009    -2.2949e-005    1.8088e-008    
  -2.75           -2.1109e-009    -2.4117e-005    8.306e-009     
  -2.8            -1.5872e-009    -2.5302e-005    1.1992e-008    
  -2.85           -1.4092e-009    -2.6489e-005    1.5502e-008    
  -2.9            -1.3485e-009    -2.7707e-005    1.6072e-008    
  -2.95           -2.3417e-009    -2.8945e-005    1.7122e-008    
  -3              -1.7224e-009    -3.0208e-005    8.404e-009     
  -3.05           -1.4412e-009    -3.149e-005     1.1657e-008    
  -3.1            -1.3663e-009    -3.2782e-005    1.4011e-008    
  -3.15           -2.5116e-009    -3.4093e-005    1.3139e-008    
  -3.2            -1.9115e-009    -3.5436e-005    3.877e-009     
  -3.25           -1.4978e-009    -3.6783e-005    8.59e-009      
  -3.3            -1.3865e-009    -3.8143e-005    1.2147e-008    
  -3.35           -2.6418e-009    -3.9521e-005    1.153e-008     
  -3.4            -2.1201e-009    -4.0934e-005    2.124e-009     
  -3.45           -1.588e-009     -4.2347e-005    6.052e-009     
  -3.5            -1.412e-009     -4.3768e-005    9.978e-009     
  -3.55           -1.3488e-009    -4.5206e-005    1.1194e-008    
  -3.6            -2.3548e-009    -4.6674e-005    1.2532e-008    
  -3.65           1.689e-010      -4.8197e-005    -1.2288e-008   
  -3.7            1.4498e-009     -4.9703e-005    -2.2341e-008   
  -3.75           1.2649e-009     -5.1201e-005    -8.659e-009    
  -3.8            2.8096e-009     -5.2731e-005    -1.2487e-008   
  -3.85           1.4849e-009     -5.4272e-005    1.2786e-008    
  -3.9            3.288e-010      -5.576e-005     1.0978e-008    
  -3.95           7.914e-010      -5.7328e-005    1.1313e-008    
  -4              1.1321e-009     -5.8922e-005    1.1581e-008    
  -4.05           -2.01e-011      -6.0466e-005    1.1753e-008    
  -4.1            4.468e-010      -6.2057e-005    1.0656e-008    
  -4.15           8.796e-010      -6.3675e-005    1.1308e-008    
  -4.2            1.2329e-009     -6.5318e-005    1.1328e-008    
  -4.25           1.7219e-009     -6.6955e-005    1.2855e-008    
  -4.3            5.596e-010      -6.8543e-005    1.0593e-008    
  -4.35           9.525e-010      -7.0205e-005    1.1327e-008    
  -4.4            1.3379e-009     -7.1885e-005    1.1694e-008    
  -4.45           1.8303e-009     -7.3549e-005    1.27e-008      
  -4.5            6.68e-010       -7.5196e-005    1.0633e-008    
  -4.55           1.0259e-009     -7.6897e-005    1.1075e-008    
  -4.6            1.449e-009      -7.8638e-005    1.2145e-008    
  -4.65           2.956e-010      -8.0271e-005    1.0557e-008    
  -4.7            7.721e-010      -8.2003e-005    1.0707e-008    
  -4.75           1.1153e-009     -8.3739e-005    1.1089e-008    
  -4.8            1.5701e-009     -8.5491e-005    1.2656e-008    
  -4.85           2.0397e-009     -8.7217e-005    1.239e-008     
  -4.9            8.622e-010      -8.8944e-005    1.1043e-008    
  -4.95           1.2071e-009     -9.0727e-005    1.1166e-008    
  -5              4.82e-011       -9.244e-005     1.1142e-008    
END_DB

BEGIN_DB
 ICCAP_VAR VS         0              
 ICCAP_VAR VB         2.5            
 ICCAP_VAR VD         -0.1           

 #VG              IG              ID              IB             
  0               8.694e-010      8.834e-010      2.5012e-008    
  -0.05           1.664e-009      1.7882e-009     -9.408e-009    
  -0.1            1.8646e-009     1.5255e-009     1.2265e-008    
  -0.15           4.278e-010      2.3213e-009     1.0486e-008    
  -0.2            6.253e-010      2.3848e-009     1.0966e-008    
  -0.25           8.137e-010      2.4076e-009     1.1166e-008    
  -0.3            9.53e-010       2.3757e-009     1.111e-008     
  -0.35           1.0893e-009     2.3025e-009     1.1561e-008    
  -0.4            1.2621e-009     2.1705e-009     1.2497e-008    
  -0.45           1.4715e-009     1.9775e-009     1.2602e-008    
  -0.5            4.75e-011       2.1217e-009     1.0439e-008    
  -0.55           2.453e-010      2.2302e-009     1.0389e-008    
  -0.6            4.503e-010      2.3288e-009     1.0601e-008    
  -0.65           6.446e-010      2.3875e-009     1.0999e-008    
  -0.7            8.191e-010      2.4035e-009     1.1131e-008    
  -0.75           9.511e-010      2.3745e-009     1.1185e-008    
  -0.8            1.1113e-009     2.294e-009      1.1658e-008    
  -0.85           1.2848e-009     2.1551e-009     1.2668e-008    
  -0.9            1.4961e-009     1.9521e-009     1.2543e-008    
  -0.95           6.88e-011       2.1315e-009     1.0388e-008    
  -1              2.675e-010      2.2419e-009     1.0402e-008    
  -1.05           4.781e-010      2.337e-009      1.0569e-008    
  -1.1            6.704e-010      2.3932e-009     1.104e-008     
  -1.15           8.334e-010      2.4048e-009     1.1164e-008    
  -1.2            9.631e-010      2.3595e-009     1.1176e-008    
  -1.25           1.1209e-009     2.2469e-009     1.1747e-008    
  -1.3            -1.4788e-009    1.8021e-009     1.15e-008      
  -1.35           -2.7851e-009    -1.8307e-009    9.38e-009      
  -1.4            1.5377e-009     -5.0358e-009    -1.2742e-008   
  -1.45           -1.3584e-009    -1.1996e-008    -1.0964e-008   
  -1.5            -2.4585e-009    -3.1167e-008    9.525e-009     
  -1.55           -7.499e-010     -6.8214e-008    -1.1019e-008   
  -1.6            -2.6932e-009    -1.1857e-007    1.1313e-008    
  -1.65           -7.312e-010     -1.8333e-007    -1.1022e-008   
  -1.7            1.7214e-009     -2.5542e-007    -1.9138e-008   
  -1.75           1.3274e-009     -3.2913e-007    -9.402e-009    
  -1.8            2.9228e-009     -4.0899e-007    -1.018e-008    
  -1.85           2.5873e-009     -4.8708e-007    2.42e-010      
  -1.9            1.919e-009      -5.6678e-007    -3.017e-009    
  -1.95           1.3991e-009     -6.4607e-007    -9.367e-009    
  -2              2.9432e-009     -7.2482e-007    -9.654e-009    
  -2.05           2.7477e-009     -8.0071e-007    6.61e-010      
  -2.1            6.114e-010      -8.7526e-007    1.0458e-008    
  -2.15           9.796e-010      -9.5039e-007    1.1128e-008    
  -2.2            1.4041e-009     -1.02443e-006   1.1932e-008    
  -2.25           2.574e-010      -1.0968e-006    1.0514e-008    
  -2.3            -1.4584e-009    -1.1708e-006    -1.0891e-008   
  -2.35           -1.3701e-009    -1.2416e-006    9.456e-009     
  -2.4            -2.5558e-009    -1.3107e-006    8.771e-009     
  -2.45           -1.9636e-009    -1.3806e-006    8e-012         
  -2.5            -2.7783e-009    -1.4488e-006    -5.688e-009    
  -2.55           1.181e-010      -1.5175e-006    -1.29e-008     
  -2.6            -3.051e-010     -1.5828e-006    -1.1118e-008   
  -2.65           -7.675e-010     -1.6482e-006    -1.1069e-008   
  -2.7            1.6635e-009     -1.7119e-006    -1.8163e-008   
  -2.75           1.3146e-009     -1.7725e-006    -9.439e-009    
  -2.8            2.9098e-009     -1.8355e-006    -1.0588e-008   
  -2.85           1.2697e-009     -1.8951e-006    1.126e-008     
  -2.9            1.7684e-009     -1.9557e-006    1.2629e-008    
  -2.95           6.032e-010      -2.0159e-006    1.0371e-008    
  -3              9.719e-010      -2.0746e-006    1.1152e-008    
  -3.05           1.3913e-009     -2.1337e-006    1.1826e-008    
  -3.1            2.404e-010      -2.1916e-006    1.065e-008     
  -3.15           7.158e-010      -2.2485e-006    1.058e-008     
  -3.2            1.0619e-009     -2.305e-006     1.1082e-008    
  -3.25           1.5219e-009     -2.3607e-006    1.2365e-008    
  -3.3            3.651e-010      -2.4157e-006    1.0414e-008    
  -3.35           8.081e-010      -2.4695e-006    1.0924e-008    
  -3.4            1.1584e-009     -2.524e-006     1.1172e-008    
  -3.45           1.17e-011       -2.5772e-006    1.1324e-008    
  -3.5            4.888e-010      -2.6294e-006    1.0474e-008    
  -3.55           8.876e-010      -2.681e-006     1.1154e-008    
  -3.6            1.268e-009      -2.7321e-006    1.1334e-008    
  -3.65           1.7605e-009     -2.782e-006     1.2646e-008    
  -3.7            6.022e-010      -2.8329e-006    1.0447e-008    
  -3.75           9.659e-010      -2.8817e-006    1.1101e-008    
  -3.8            1.3906e-009     -2.9312e-006    1.176e-008     
  -3.85           2.317e-010      -2.9796e-006    1.067e-008     
  -3.9            7.1e-010        -3.0262e-006    1.0524e-008    
  -3.95           1.0572e-009     -3.0729e-006    1.1096e-008    
  -4              1.5151e-009     -3.1198e-006    1.2359e-008    
  -4.05           3.549e-010      -3.1665e-006    1.0485e-008    
  -4.1            8.047e-010      -3.2122e-006    1.0787e-008    
  -4.15           1.1557e-009     -3.2569e-006    1.1136e-008    
