! VERSION = 6.00
BEGIN_HEADER
 ICCAP_INPUTS
  VG         V  B GROUND SMU4 0.001 LIN        2    0          -5         6    -1        
  VS         V  E GROUND SMU2 0.1 CON        0
  VD         V  S GROUND SMU1 0.1 LIN        1    0          -5         101  -0.05     
  VB         V  C GROUND SMU3 0.1 LIN        3    0          2.5        2    2.5       
 ICCAP_OUTPUTS
  ID         I  S GROUND SMU1 B
  IB         I  C GROUND SMU3 B
  IG         I  B GROUND SMU4 B
END_HEADER

BEGIN_DB
 ICCAP_VAR VG         0              
 ICCAP_VAR VS         0              
 ICCAP_VAR VB         0              

 #VD              ID              IB              IG             
  0               9.598e-010      2.0031e-008     1.0599e-009    
  -0.05           2.1951e-009     -3.887e-009     1.1987e-009    
  -0.1            1.9358e-009     1.1214e-008     -1.735e-010    
  -0.15           2.0137e-009     1.0635e-008     -1.17e-011     
  -0.2            2.1107e-009     1.0442e-008     1.586e-010     
  -0.25           2.2141e-009     1.038e-008      3.351e-010     
  -0.3            2.2965e-009     1.0712e-008     5.112e-010     
  -0.35           1.4322e-009     2.4368e-008     -1.3319e-009   
  -0.4            1.002e-010      1.1397e-008     -1.3037e-009   
  -0.45           2.429e-010      1.2903e-008     -2.6362e-009   
  -0.5            -1.2713e-009    7.72e-010       -1.9729e-009   
  -0.55           -2.2602e-009    -1.1235e-008    -7.281e-010    
  -0.6            -1.5791e-009    -1.8047e-008    1.2338e-009    
  -0.65           -2.207e-010     -1.3916e-008    2.8274e-009    
  -0.7            2.1196e-009     1.0392e-008     1.738e-010     
  -0.75           2.2223e-009     1.0414e-008     3.515e-010     
  -0.8            2.2994e-009     1.0738e-008     5.278e-010     
  -0.85           1.4417e-009     2.4089e-008     -1.3295e-009   
  -0.9            1.078e-010      1.1607e-008     -1.3004e-009   
  -0.95           2.518e-010      1.3069e-008     -2.623e-009    
  -1              -1.2653e-009    8.37e-010       -1.9812e-009   
  -1.05           -2.2587e-009    -1.1259e-008    -7.476e-010    
  -1.1            -1.5839e-009    -1.7636e-008    2.1238e-009    
  -1.15           1.9538e-009     -7.503e-009     1.4446e-009    
  -1.2            2.0542e-009     1.0464e-008     6.38e-011      
  -1.25           2.1569e-009     1.0444e-008     2.34e-010      
  -1.3            2.2517e-009     1.0434e-008     4.157e-010     
  -1.35           2.3218e-009     1.0749e-008     5.859e-010     
  -1.4            1.4914e-009     2.241e-008      -1.3198e-009   
  -1.45           1.562e-010      1.1896e-008     -2.6914e-009   
  -1.5            -1.3314e-009    6.96e-010       -1.9216e-009   
  -1.55           -2.2484e-009    -1.1288e-008    -6.148e-010    
  -1.6            -2.2561e-009    -1.1199e-008    -8.07e-010     
  -1.65           -1.6115e-009    -1.6397e-008    2.0269e-009    
  -1.7            1.8787e-009     -8.614e-009     1.5134e-009    
  -1.75           2.0846e-009     1.0466e-008     1.205e-010     
  -1.8            2.1917e-009     1.0451e-008     2.963e-010     
  -1.85           2.2786e-009     1.0652e-008     4.727e-010     
  -1.9            1.399e-009      2.5267e-008     -1.3374e-009   
  -1.95           6.83e-011       1.1363e-008     -1.3079e-009   
  -2              2.073e-010      1.228e-008      -2.6604e-009   
  -2.05           -1.2943e-009    8.73e-010       -1.9494e-009   
  -2.1            -2.2571e-009    -1.1375e-008    -6.776e-010    
  -2.15           -1.5553e-009    -1.9172e-008    1.2385e-009    
  -2.2            -1.805e-010     -1.302e-008     2.8438e-009    
  -2.25           2.0897e-009     1.0462e-008     1.265e-010     
  -2.3            2.1945e-009     1.0434e-008     3.009e-010     
  -2.35           2.2765e-009     1.0592e-008     4.759e-010     
  -2.4            1.4056e-009     2.5196e-008     -1.3365e-009   
  -2.45           7.42e-011       1.1313e-008     -1.3074e-009   
  -2.5            2.101e-010      1.2248e-008     -2.6573e-009   
  -2.55           -1.2954e-009    6.18e-010       -1.9519e-009   
  -2.6            -2.2547e-009    -1.125e-008     -6.846e-010    
  -2.65           -1.5593e-009    -1.8975e-008    1.2395e-009    
  -2.7            -1.846e-010     -1.3003e-008    2.844e-009     
  -2.75           2.088e-009      1.0455e-008     1.33e-010      
  -2.8            2.1947e-009     1.0392e-008     3.09e-010      
  -2.85           2.2814e-009     1.0585e-008     4.838e-010     
  -2.9            1.4041e-009     2.5234e-008     -1.3352e-009   
  -2.95           7.13e-011       1.1409e-008     -1.3074e-009   
  -3              2.095e-010      1.2304e-008     -2.6576e-009   
  -3.05           -1.2926e-009    7.56e-010       -1.9536e-009   
  -3.1            -2.2534e-009    -1.1311e-008    -6.897e-010    
  -3.15           -1.5618e-009    -1.8985e-008    1.2375e-009    
  -3.2            -1.813e-010     -1.3059e-008    2.8435e-009    
  -3.25           2.0933e-009     1.0494e-008     1.349e-010     
  -3.3            2.1951e-009     1.0455e-008     3.071e-010     
  -3.35           2.2845e-009     1.0624e-008     4.84e-010      
  -3.4            1.4065e-009     2.5121e-008     -1.3373e-009   
  -3.45           7.31e-011       1.1213e-008     -1.3063e-009   
  -3.5            2.092e-010      1.2382e-008     -2.6599e-009   
  -3.55           -1.2927e-009    8.15e-010       -1.9543e-009   
  -3.6            -2.2548e-009    -1.1302e-008    -6.925e-010    
  -3.65           -1.5563e-009    -1.9033e-008    1.2406e-009    
  -3.7            -1.87e-010      -1.3299e-008    2.8442e-009    
  -3.75           2.0923e-009     1.047e-008      1.293e-010     
  -3.8            2.1969e-009     1.0428e-008     3.059e-010     
  -3.85           2.2809e-009     1.0719e-008     4.798e-010     
  -3.9            1.4061e-009     2.5178e-008     -1.3362e-009   
  -3.95           7.25e-011       1.1354e-008     -1.306e-009    
  -4              2.106e-010      1.2403e-008     -2.6611e-009   
  -4.05           -1.2944e-009    8.12e-010       -1.9525e-009   
  -4.1            -2.2559e-009    -1.1237e-008    -6.829e-010    
  -4.15           -1.5585e-009    -1.9039e-008    1.2389e-009    
  -4.2            -1.828e-010     -1.3231e-008    2.845e-009     
  -4.25           2.0926e-009     1.0335e-008     1.365e-010     
  -4.3            2.1983e-009     1.0459e-008     2.989e-010     
  -4.35           2.2836e-009     1.0673e-008     4.796e-010     
  -4.4            1.4068e-009     2.5044e-008     -1.3361e-009   
  -4.45           7.22e-011       1.147e-008      -1.308e-009    
  -4.5            2.114e-010      1.2473e-008     -2.6582e-009   
  -4.55           -1.2928e-009    8.23e-010       -1.9519e-009   
  -4.6            -2.2551e-009    -1.1303e-008    -6.862e-010    
  -4.65           -1.5598e-009    -1.9025e-008    1.2388e-009    
  -4.7            -1.85e-010      -1.3144e-008    2.8446e-009    
  -4.75           2.0893e-009     1.0503e-008     1.298e-010     
  -4.8            2.1969e-009     1.048e-008      3.081e-010     
  -4.85           2.2817e-009     1.0715e-008     4.776e-010     
  -4.9            1.4046e-009     2.5126e-008     -1.3359e-009   
  -4.95           6.99e-011       1.1223e-008     -1.3083e-009   
  -5              2.06e-010       1.2565e-008     -2.66e-009     
END_DB

BEGIN_DB
 ICCAP_VAR VG         -1             
 ICCAP_VAR VS         0              
 ICCAP_VAR VB         0              

 #VD              ID              IB              IG             
  0               -4.1272e-008    -2.4906e-008    -7.81e-010     
  -0.05           -2.246e-006     1.275e-009      7.27e-010      
  -0.1            -3.5476e-006    -1.9969e-008    1.8723e-009    
  -0.15           -4.245e-006     -1.0925e-008    -4.401e-010    
  -0.2            -4.6285e-006    1.4363e-008     -2.2617e-009   
  -0.25           -4.9315e-006    1.126e-008      4.59e-011      
  -0.3            -5.2344e-006    -1.0615e-008    2.7899e-009    
  -0.35           -5.4211e-006    -1.3291e-008    2.623e-010     
  -0.4            -5.4924e-006    1.0577e-008     -1.3262e-009   
  -0.45           -5.6624e-006    1.1076e-008     1.087e-010     
  -0.5            -5.9018e-006    -1.1771e-008    2.742e-009     
  -0.55           -6.0542e-006    -1.2791e-008    2.055e-010     
  -0.6            -6.0748e-006    1.1132e-008     -1.3163e-009   
  -0.65           -6.2957e-006    1.0636e-008     1.2346e-009    
  -0.7            -6.4368e-006    -2.5786e-008    1.315e-009     
  -0.75           -6.4714e-006    -1.1256e-008    -1.0149e-009   
  -0.8            -6.5901e-006    2.2339e-008     -1.5375e-009   
  -0.85           -6.7262e-006    1.0388e-008     6.151e-010     
  -0.9            -6.9231e-006    -1.8597e-008    2.069e-009     
  -0.95           -7.0141e-006    -1.104e-008     -3.011e-010    
  -1              -7.0629e-006    1.3018e-008     -2.4156e-009   
  -1.05           -7.1974e-006    1.1854e-008     -6.7e-011      
  -1.1            -7.4123e-006    -9.246e-009     2.8521e-009    
  -1.15           -7.4e-006       -1.1068e-008    -1.2419e-009   
  -1.2            -7.5369e-006    2.6068e-008     -1.4042e-009   
  -1.25           -7.6861e-006    1.0765e-008     8.549e-010     
  -1.3            -7.865e-006     -2.1164e-008    1.6644e-009    
  -1.35           -7.9172e-006    -1.0904e-008    -5.953e-010    
  -1.4            -7.9798e-006    1.6662e-008     -2.0604e-009   
  -1.45           -8.0954e-006    1.0785e-008     1.695e-010     
  -1.5            -8.3343e-006    -1.3198e-008    2.6786e-009    
  -1.55           -8.2712e-006    -1.1707e-008    -1.4977e-009   
  -1.6            -8.447e-006     2.8379e-008     -1.3467e-009   
  -1.65           -8.631e-006     1.0554e-008     1.0723e-009    
  -1.7            -8.799e-006     -2.4002e-008    1.402e-009     
  -1.75           -8.8008e-006    -1.1281e-008    -8.567e-010    
  -1.8            -8.8907e-006    2.014e-008      -1.7155e-009   
  -1.85           -9.01e-006      1.0471e-008     4.334e-010     
  -1.9            -9.2638e-006    -1.6645e-008    2.3665e-009    
  -1.95           -9.3415e-006    -1.1569e-008    -9.37e-011     
  -2              -9.3275e-006    1.1463e-008     -2.5952e-009   
  -2.05           -9.5852e-006    1.0757e-008     1.3078e-009    
  -2.1            -9.6962e-006    -2.6296e-008    1.2913e-009    
  -2.15           -9.6791e-006    -1.1151e-008    -1.077e-009    
  -2.2            -9.7911e-006    2.3402e-008     -1.489e-009    
  -2.25           -9.9443e-006    1.05e-008       6.827e-010     
  -2.3            -1.01488e-005   -1.9555e-008    1.9447e-009    
  -2.35           -1.02305e-005   -1.0871e-008    -3.84e-010     
  -2.4            -1.02433e-005   1.3839e-008     -2.3267e-009   
  -2.45           -1.03768e-005   1.1476e-008     -4e-013        
  -2.5            -1.06353e-005   -1.0001e-008    2.8175e-009    
  -2.55           -1.05546e-005   -1.0977e-008    -1.3161e-009   
  -2.6            -1.07148e-005   2.7095e-008     -1.3847e-009   
  -2.65           -1.08544e-005   1.3079e-008     -1.748e-010    
  -2.7            -1.10769e-005   -8.544e-009     2.8813e-009    
  -2.75           -1.11851e-005   -1.7288e-008    1.7115e-009    
  -2.8            -1.1211e-005    1.0625e-008     -2.6911e-009   
  -2.85           -1.1296e-005    2.1869e-008     -1.7128e-009   
  -2.9            -1.1479e-005    1.1081e-008     9.158e-010     
  -2.95           -1.1661e-005    -2.6174e-008    1.2743e-009    
  -3              -1.1711e-005    -1.0533e-008    -5.327e-010    
  -3.05           -1.1756e-005    2.3224e-008     -1.5243e-009   
  -3.1            -1.1985e-005    1.129e-008      1.0828e-009    
  -3.15           -1.2175e-005    -9.041e-009     2.8175e-009    
  -3.2            -1.2235e-005    -1.0345e-008    -1.723e-010    
  -3.25           -1.2246e-005    1.9967e-008     -1.8648e-009   
  -3.3            -1.2419e-005    1.2302e-008     8.081e-010     
  -3.35           -1.2633e-005    -2.4106e-008    1.3061e-009    
  -3.4            -1.2754e-005    -1.8308e-008    1.7088e-009    
  -3.45           -1.2887e-005    -1.2802e-008    2.4702e-009    
  -3.5            -1.2998e-005    -1.7661e-008    1.6471e-009    
  -3.55           -1.3145e-005    -1.2079e-008    2.4089e-009    
  -3.6            -1.3258e-005    -4.268e-009     2.8503e-009    
  -3.65           -1.3375e-005    -1.0951e-008    2.352e-009     
  -3.7            -1.3507e-005    -2.732e-009     2.8359e-009    
  -3.75           -1.3625e-005    -9.08e-009      2.2773e-009    
  -3.8            -1.3764e-005    -4.97e-010      2.816e-009     
  -3.85           -1.388e-005     -6.453e-009     2.2149e-009    
  -3.9            -1.4018e-005    2.482e-009      2.7897e-009    
  -3.95           -1.4024e-005    2.3721e-008     2.755e-009     
  -4              -1.4175e-005    2.2662e-008     2.8888e-009    
  -4.05           -1.4156e-005    8.776e-009      -1.5369e-009   
  -4.1            -1.4385e-005    4.2926e-008     -1.6104e-009   
  -4.15           -1.4573e-005    3.7128e-008     2.4329e-009    
  -4.2            -1.4678e-005    2.1032e-008     -7.573e-010    
  -4.25           -1.4747e-005    6.2789e-008     -1.4199e-009   
  -4.3            -1.4957e-005    5.1178e-008     2.6544e-009    
  -4.35           -1.5046e-005    3.7559e-008     -1.0196e-009   
  -4.4            -1.5164e-005    8.4903e-008     -1.347e-009    
  -4.45           -1.5378e-005    7.1356e-008     2.836e-009     
  -4.5            -1.5429e-005    6.1654e-008     -1.2845e-009   
  -4.55           -1.5594e-005    1.08741e-007    -1.2987e-009   
  -4.6            -1.5828e-005    9.8369e-008     1.3179e-009    
  -4.65           -1.5977e-005    9.929e-008      2.8929e-009    
  -4.7            -1.5961e-005    1.0807e-007     -1.49e-009     
  -4.75           -1.6203e-005    1.5571e-007     -1.6371e-009   
  -4.8            -1.6424e-005    1.6214e-007     2.4217e-009    
  -4.85           -1.6564e-005    1.5966e-007     -6.954e-010    
  -4.9            -1.6637e-005    2.1752e-007     -1.4089e-009   
  -4.95           -1.6877e-005    2.2301e-007     2.6475e-009    
  -5              -1.7014e-005    2.2709e-007     -9.473e-010    
END_DB

BEGIN_DB
 ICCAP_VAR VG         -2             
 ICCAP_VAR VS         0              
 ICCAP_VAR VB         0              

 #VD              ID              IB              IG             
  0               -2.6672e-007    3.513e-009      -4.675e-010    
  -0.05           -2.198e-005     -1.9689e-008    7.299e-010     
  -0.1            -4.2598e-005    -2.5228e-008    1.3361e-009    
  -0.15           -6.204e-005     -1.101e-008     -3.076e-010    
  -0.2            -8.0259e-005    1.9928e-008     -1.7206e-009   
  -0.25           -9.7346e-005    1.3062e-008     -1.83e-010     
  -0.3            -0.000113271    -1.501e-008     2.5413e-009    
  -0.35           -0.00012772     -1.102e-008     -2.6019e-009   
  -0.4            -0.00014096     2.2437e-008     -1.7385e-009   
  -0.45           -0.00015309     1.194e-008      -8.43e-011     
  -0.5            -0.00016417     -1.7791e-008    2.1947e-009    
  -0.55           -0.00017376     -1.1368e-008    -8.967e-010    
  -0.6            -0.0001823      2.8218e-008     -1.3494e-009   
  -0.65           -0.00019008     1.0419e-008     6.014e-010     
  -0.7            -0.00019707     -2.5232e-008    1.3402e-009    
  -0.75           -0.0002025      -1.1854e-008    -1.5453e-009   
  -0.8            -0.00020788     1.5409e-008     -1.4975e-009   
  -0.85           -0.00021245     1.0895e-008     1.572e-010     
  -0.9            -0.00021685     -2.0372e-008    1.7638e-009    
  -0.95           -0.00022048     -1.184e-008     3.3e-011       
  -1              -0.00022324     1.7347e-008     -1.9826e-009   
  -1.05           -0.00022646     1.0827e-008     8.436e-010     
  -1.1            -0.00022936     -2.6314e-008    1.2629e-009    
  -1.15           -0.00023159     -1.0908e-008    -7.297e-010    
  -1.2            -0.00023355     2.6772e-008     -1.3865e-009   
  -1.25           -0.00023588     1.0384e-008     4.188e-010     
  -1.3            -0.0002383      -2.3059e-008    1.4608e-009    
  -1.35           -0.00024009     -1.1184e-008    -2.357e-010    
  -1.4            -0.00024151     2.0875e-008     -1.6513e-009   
  -1.45           -0.00024365     1.0523e-008     1.0703e-009    
  -1.5            -0.00024527     -2.2298e-008    2.0599e-009    
  -1.55           -0.00024702     -1.2692e-008    1.977e-010     
  -1.6            -0.00024806     1.4798e-008     -2.2396e-009   
  -1.65           -0.00024979     1.0567e-008     6.763e-010     
  -1.7            -0.00025158     -2.5925e-008    1.308e-009     
  -1.75           -0.00025276     -1.0979e-008    -5.27e-010     
  -1.8            -0.00025387     2.438e-008      -1.4491e-009   
  -1.85           -0.00025587     1.0754e-008     1.3081e-009    
  -1.9            -0.00025704     -1.6431e-008    1.6553e-009    
  -1.95           -0.0002584      -1.1721e-008    -3.87e-011     
  -2              -0.0002592      1.8672e-008     -1.8718e-009   
  -2.05           -0.00026054     1.2958e-008     -1.719e-010    
  -2.1            -0.00026228     -1.6767e-008    2.3499e-009    
  -2.15           -0.00026311     -1.1148e-008    -8.103e-010    
  -2.2            -0.00026414     2.7463e-008     -1.3692e-009   
  -2.25           -0.00026609     1.167e-008      1.5617e-009    
  -2.3            -0.00026707     -1.2713e-008    2.094e-010     
  -2.35           -0.00026766     1.4731e-008     -2.2604e-009   
  -2.4            -0.00026905     1.0479e-008     6.647e-010     
  -2.45           -0.00027051     -2.5773e-008    1.3106e-009    
  -2.5            -0.00027146     -1.092e-008     -5.196e-010    
  -2.55           -0.0002722      2.3964e-008     -1.4593e-009   
  -2.6            -0.00027394     1.0816e-008     1.2941e-009    
  -2.65           -0.00027485     -1.6457e-008    1.6764e-009    
  -2.7            -0.0002761      -1.156e-008     -3.09e-011     
  -2.75           -0.00027653     1.8493e-008     -1.8935e-009   
  -2.8            -0.0002777      1.3268e-008     -1.845e-010    
  -2.85           -0.00027921     -1.6367e-008    2.3763e-009    
  -2.9            -0.0002799      -1.0709e-008    -8.009e-010    
  -2.95           -0.0002807      2.795e-008      -1.3704e-009   
  -3              -0.00028248     1.2382e-008     1.5483e-009    
  -3.05           -0.00028338     -1.1909e-008    2.212e-010     
  -3.1            -0.00028372     1.5701e-008     -2.2821e-009   
  -3.15           -0.00028498     1.2153e-008     6.503e-010     
  -3.2            -0.00028625     -6.419e-009     1.2531e-009    
  -3.25           -0.00028735     -1.0285e-008    2.6771e-009    
  -3.3            -0.00028825     -1.695e-008     1.7209e-009    
  -3.35           -0.0002892      -1.2707e-008    2.2985e-009    
  -3.4            -0.00029024     -6.162e-009     2.7312e-009    
  -3.45           -0.00029111     -1.412e-009     2.8822e-009    
  -3.5            -0.00029216     -7.348e-009     2.3902e-009    
  -3.55           -0.0002931      6.89e-010       2.7785e-009    
  -3.6            -0.0002937      2.132e-008      2.8274e-009    
  -3.65           -0.00029467     2.6737e-008     2.412e-009     
  -3.7            -0.00029579     -3.212e-009     1.2391e-009    
  -3.75           -0.0002964      2.2999e-008     -2.7489e-009   
  -3.8            -0.00029793     4.4095e-008     1.6025e-009    
  -3.85           -0.00029862     2.7084e-008     1.752e-010     
  -3.9            -0.00029892     6.3414e-008     -2.2033e-009   
  -3.95           -0.00030026     6.7804e-008     2.2241e-009    
  -4              -0.00030118     5.9211e-008     -5.438e-010    
  -4.05           -0.00030197     7.232e-008      2.1691e-009    
  -4.1            -0.00030313     9.7443e-008     2.1079e-009    
  -4.15           -0.00030406     1.112e-007      1.8447e-009    
