! VERSION = 6.00
BEGIN_HEADER
 ICCAP_INPUTS
  VG         V  B GROUND SMU4 0.001 LIN        2    0          -5         6    -1        
  VS         V  E GROUND SMU2 0.1 CON        0
  VD         V  S GROUND SMU1 0.1 LIN        1    0          -5         101  -0.05     
  VB         V  C GROUND SMU3 0.1 LIN        3    0          2.5        2    2.5       
 ICCAP_OUTPUTS
  ID         I  S GROUND SMU1 B
  IB         I  C GROUND SMU3 B
  IG         I  B GROUND SMU4 B
END_HEADER

BEGIN_DB
 ICCAP_VAR VG         0              
 ICCAP_VAR VS         0              
 ICCAP_VAR VB         0              

 #VD              ID              IB              IG             
  0               -5.87e-010      -1.8743e-008    -4.926e-010    
  -0.05           -2.0113e-009    1.138e-008      -1.3891e-009   
  -0.1            -1.928e-009     -1.1397e-008    9.64e-011      
  -0.15           -2.0486e-009    -1.088e-008     -5.24e-011     
  -0.2            -2.154e-009     -1.0899e-008    -2.287e-010    
  -0.25           -2.2243e-009    -1.103e-008     -4.187e-010    
  -0.3            -2.2622e-009    -1.1311e-008    -5.928e-010    
  -0.35           -2.2716e-009    -1.1294e-008    -7.774e-010    
  -0.4            -1.5919e-009    -1.7805e-008    2.1194e-009    
  -0.45           1.9688e-009     -7.714e-009     1.4573e-009    
  -0.5            2.0515e-009     1.038e-008      4.41e-011      
  -0.55           2.1481e-009     1.0398e-008     2.026e-010     
  -0.6            2.2394e-009     1.0435e-008     3.627e-010     
  -0.65           2.3036e-009     1.0749e-008     5.28e-010      
  -0.7            1.4457e-009     2.4471e-008     -1.3297e-009   
  -0.75           9.11e-011       1.1374e-008     -1.3048e-009   
  -0.8            2.19e-010       1.2776e-008     -2.6517e-009   
  -0.85           -1.3019e-009    6.99e-010       -1.9512e-009   
  -0.9            -2.2669e-009    -1.1363e-008    -6.718e-010    
  -0.95           -2.264e-009     -1.1294e-008    -8.463e-010    
  -1              -1.6199e-009    -1.624e-008     2.0089e-009    
  -1.05           1.8844e-009     -8.532e-009     1.5238e-009    
  -1.1            2.0912e-009     1.0299e-008     1.13e-010      
  -1.15           2.1927e-009     1.037e-008      2.729e-010     
  -1.2            2.273e-009      1.0539e-008     4.364e-010     
  -1.25           2.324e-009      1.0744e-008     6.026e-010     
  -1.3            1.5021e-009     2.2682e-008     -1.3189e-009   
  -1.35           1.402e-010      1.1667e-008     -2.6961e-009   
  -1.4            -1.3652e-009    5.78e-010       -1.9047e-009   
  -1.45           -2.258e-009     -1.1253e-008    -5.723e-010    
  -1.5            -2.2699e-009    -1.1221e-008    -7.525e-010    
  -1.55           -1.5821e-009    -1.8216e-008    2.1699e-009    
  -1.6            1.988e-009      -7.524e-009     1.4353e-009    
  -1.65           2.0377e-009     1.0474e-008     2.14e-011      
  -1.7            2.1352e-009     1.0356e-008     1.755e-010     
  -1.75           2.2302e-009     1.0415e-008     3.465e-010     
  -1.8            2.3021e-009     1.0659e-008     5.028e-010     
  -1.85           1.4279e-009     2.4952e-008     -1.3309e-009   
  -1.9            7.22e-011       1.1347e-008     -1.3059e-009   
  -1.95           1.97e-010       1.2457e-008     -2.6665e-009   
  -2              -1.3163e-009    7.69e-010       -1.9405e-009   
  -2.05           -2.266e-009     -1.1264e-008    -6.456e-010    
  -2.1            -2.2662e-009    -1.1344e-008    -8.235e-010    
  -2.15           -1.6112e-009    -1.6693e-008    2.0551e-009    
  -2.2            1.9136e-009     -8.42e-009      1.4996e-009    
  -2.25           2.0762e-009     1.0266e-008     8.88e-011      
  -2.3            2.178e-009      1.031e-008      2.46e-010      
  -2.35           2.2643e-009     1.0479e-008     4.18e-010      
  -2.4            2.3222e-009     1.0828e-008     5.686e-010     
  -2.45           1.485e-009      2.3389e-008     -1.3212e-009   
  -2.5            1.252e-010      1.1463e-008     -2.7097e-009   
  -2.55           -2.0652e-009    -1.0842e-008    -7.21e-011     
  -2.6            -2.1651e-009    -1.0872e-008    -2.523e-010    
  -2.65           -2.2299e-009    -1.0996e-008    -4.43e-010     
  -2.7            -2.2627e-009    -1.122e-008     -6.234e-010    
  -2.75           -2.2689e-009    -1.1259e-008    -8.015e-010    
  -2.8            -1.6039e-009    -1.7152e-008    2.0954e-009    
  -2.85           1.9365e-009     -8.153e-009     1.4766e-009    
  -2.9            2.0642e-009     1.0364e-008     6.47e-011      
  -2.95           2.1614e-009     1.0432e-008     2.196e-010     
  -3              2.2527e-009     1.0399e-008     3.87e-010      
  -3.05           2.3169e-009     1.0812e-008     5.546e-010     
  -3.1            1.4618e-009     2.3918e-008     -1.3262e-009   
  -3.15           1.06e-010       1.1334e-008     -1.2994e-009   
  -3.2            2.375e-010      1.3108e-008     -2.6383e-009   
  -3.25           -1.2878e-009    8.26e-010       -1.9639e-009   
  -3.3            -2.2683e-009    -1.1379e-008    -6.947e-010    
  -3.35           -1.5603e-009    -1.9476e-008    1.2388e-009    
  -3.4            -1.659e-010     -1.2916e-008    2.8423e-009    
  -3.45           2.0839e-009     1.0368e-008     1.02e-010      
  -3.5            2.1826e-009     1.0364e-008     2.623e-010     
  -3.55           2.2691e-009     1.0493e-008     4.196e-010     
  -3.6            2.3275e-009     1.0811e-008     5.864e-010     
  -3.65           1.4922e-009     2.2861e-008     -1.321e-009    
  -3.7            1.314e-010      1.1654e-008     -2.7052e-009   
  -3.75           -1.3708e-009    5.89e-010       -1.8988e-009   
  -3.8            -2.2545e-009    -1.113e-008     -5.585e-010    
  -3.85           -2.2704e-009    -1.1463e-008    -7.38e-010     
  -3.9            -1.5788e-009    -1.8366e-008    1.2341e-009    
  -3.95           -2.043e-010     -1.3708e-008    2.8316e-009    
  -4              2.1088e-009     1.0277e-008     1.347e-010     
  -4.05           2.2071e-009     1.0396e-008     2.952e-010     
  -4.1            2.2856e-009     1.0595e-008     4.621e-010     
  -4.15           1.3915e-009     2.5825e-008     -1.3409e-009   
  -4.2            3.48e-011       1.1344e-008     -1.3119e-009   
  -4.25           1.605e-010      1.1873e-008     -2.6844e-009   
  -4.3            -1.3467e-009    6.65e-010       -1.9231e-009   
  -4.35           -2.2599e-009    -1.1241e-008    -5.985e-010    
  -4.4            -2.2667e-009    -1.1334e-008    -7.762e-010    
  -4.45           -1.6008e-009    -1.7453e-008    2.1213e-009    
  -4.5            1.9597e-009     -7.825e-009     1.4584e-009    
  -4.55           2.0621e-009     1.039e-008      5.77e-011      
  -4.6            2.1534e-009     1.0473e-008     2.041e-010     
  -4.65           2.244e-009      1.046e-008      3.799e-010     
  -4.7            2.3094e-009     1.0805e-008     5.375e-010     
  -4.75           1.4529e-009     2.4186e-008     -1.3267e-009   
  -4.8            9.79e-011       1.1488e-008     -1.3032e-009   
  -4.85           2.282e-010      1.3023e-008     -2.6408e-009   
  -4.9            -1.2973e-009    6.75e-010       -1.9624e-009   
  -4.95           -2.2648e-009    -1.1286e-008    -6.889e-010    
  -5              -1.5623e-009    -1.9611e-008    1.2382e-009    
END_DB

BEGIN_DB
 ICCAP_VAR VG         -1             
 ICCAP_VAR VS         0              
 ICCAP_VAR VB         0              

 #VD              ID              IB              IG             
  0               -8.889e-009     -2.626e-008     -2.7616e-009   
  -0.05           -4.1488e-007    -1.1472e-008    2.6209e-009    
  -0.1            -7.2229e-007    -1.1002e-008    -7.499e-010    
  -0.15           -9.3644e-007    2.1677e-008     -1.5903e-009   
  -0.2            -1.09252e-006   1.0736e-008     8.027e-010     
  -0.25           -1.2057e-006    2.7623e-008     2.859e-009     
  -0.3            -1.2993e-006    -1.6559e-008    1.6618e-009    
  -0.35           -1.3679e-006    -1.088e-008     -6.024e-010    
  -0.4            -1.4213e-006    1.6825e-008     -2.0704e-009   
  -0.45           -1.4749e-006    1.0722e-008     1.743e-010     
  -0.5            -1.5377e-006    -1.2993e-008    2.6824e-009    
  -0.55           -1.5855e-006    -1.2477e-008    1.493e-010     
  -0.6            -1.6119e-006    1.1518e-008     -1.3077e-009   
  -0.65           -1.6625e-006    1.0693e-008     1.2937e-009    
  -0.7            -1.702e-006     -2.597e-008     1.2966e-009    
  -0.75           -1.7281e-006    -1.1124e-008    -1.0648e-009   
  -0.8            -1.7585e-006    2.2918e-008     -1.5063e-009   
  -0.85           -1.795e-006     1.0478e-008     6.558e-010     
  -0.9            -1.8393e-006    -1.9383e-008    2.0039e-009    
  -0.95           -1.8686e-006    -1.0989e-008    -3.481e-010    
  -1              -1.8858e-006    1.3839e-008     -2.3712e-009   
  -1.05           -1.9369e-006    1.1528e-008     1.5272e-009    
  -1.1            -1.9649e-006    -2.5217e-008    1.248e-009     
  -1.15           -1.9811e-006    -1.0898e-008    -1.2766e-009   
  -1.2            -2.0106e-006    2.6055e-008     -1.3978e-009   
  -1.25           -2.0423e-006    1.3726e-008     -2.221e-010    
  -1.3            -2.0904e-006    -8.365e-009     2.8826e-009    
  -1.35           -2.1133e-006    -1.8973e-008    1.8023e-009    
  -1.4            -2.1393e-006    -1.0911e-008    -4.892e-010    
  -1.45           -2.1558e-006    1.5352e-008     -2.2151e-009   
  -1.5            -2.1845e-006    1.1116e-008     7.37e-011      
  -1.55           -2.2318e-006    -1.1503e-008    2.761e-009     
  -1.6            -2.2597e-006    -1.3214e-008    2.347e-010     
  -1.65           -2.2677e-006    1.0942e-008     -1.3209e-009   
  -1.7            -2.2967e-006    1.0936e-008     1.245e-010     
  -1.75           -2.3445e-006    -1.25e-008      2.7271e-009    
  -1.8            -2.3709e-006    -1.278e-008     1.891e-010     
  -1.85           -2.3782e-006    1.1263e-008     -1.3143e-009   
  -1.9            -2.4244e-006    1.0455e-008     1.2469e-009    
  -1.95           -2.4532e-006    -2.5561e-008    1.3099e-009    
  -2              -2.4841e-006    -1.1342e-008    -1.0232e-009   
  -2.05           -2.504e-006     2.2106e-008     -1.5387e-009   
  -2.1            -2.5342e-006    1.0349e-008     6.126e-010     
  -2.15           -2.5746e-006    -1.9026e-008    2.087e-009     
  -2.2            -2.5847e-006    -1.0919e-008    -3.013e-010    
  -2.25           -2.5963e-006    1.2876e-008     -2.4297e-009   
  -2.3            -2.6257e-006    1.202e-008      -8.05e-011     
  -2.35           -2.6691e-006    -8.971e-009     2.8459e-009    
  -2.4            -2.6775e-006    -1.102e-008     -1.2291e-009   
  -2.45           -2.7023e-006    2.541e-008      -1.4136e-009   
  -2.5            -2.7379e-006    1.0714e-008     8.289e-010     
  -2.55           -2.7764e-006    -2.0863e-008    1.7101e-009    
  -2.6            -2.7956e-006    -1.0873e-008    -5.643e-010    
  -2.65           -2.8105e-006    1.6211e-008     -2.1266e-009   
  -2.7            -2.8377e-006    1.0903e-008     1.334e-010     
  -2.75           -2.8852e-006    -1.2369e-008    2.7142e-009    
  -2.8            -2.9127e-006    -1.2662e-008    1.805e-010     
  -2.85           -2.9152e-006    1.1225e-008     -1.3113e-009   
  -2.9            -2.963e-006     1.064e-008      1.2599e-009    
  -2.95           -2.9941e-006    -2.5577e-008    1.3058e-009    
  -3              -3.0078e-006    -1.1237e-008    -1.0314e-009   
  -3.05           -3.0264e-006    2.2447e-008     -1.5322e-009   
  -3.1            -3.0551e-006    1.0479e-008     6.219e-010     
  -3.15           -3.0978e-006    -1.9004e-008    2.0704e-009    
  -3.2            -3.1239e-006    -1.0823e-008    -3.114e-010    
  -3.25           -3.1327e-006    1.3425e-008     -2.4199e-009   
  -3.3            -3.1657e-006    1.2168e-008     -7.19e-011     
  -3.35           -3.21e-006      -8.678e-009     2.8398e-009    
  -3.4            -3.2417e-006    -1.4986e-008    1.5812e-009    
  -3.45           -3.2538e-006    -1.035e-008     -6.763e-010    
  -3.5            -3.2716e-006    1.827e-008      -1.9818e-009   
  -3.55           -3.3025e-006    1.133e-008      2.345e-010     
  -3.6            -3.3463e-006    -1.3255e-008    2.6225e-009    
  -3.65           -3.3815e-006    -1.1057e-008    9.15e-011      
  -3.7            -3.3803e-006    1.2803e-008     -2.7088e-009   
  -3.75           -3.426e-006     1.2114e-008     1.1222e-009    
  -3.8            -3.4664e-006    -2.2291e-008    1.3762e-009    
  -3.85           -3.49e-006      -2.2312e-008    1.3642e-009    
  -3.9            -3.5178e-006    -1.0531e-008    2.658e-009     
  -3.95           -3.5489e-006    -1.0476e-008    2.6394e-009    
  -4              -3.5782e-006    -1.0176e-008    2.6201e-009    
  -4.05           -3.6065e-006    -9.853e-009     2.5983e-009    
  -4.1            -3.6353e-006    -9.35e-009      2.5861e-009    
  -4.15           -3.6653e-006    -9.076e-009     2.5679e-009    
  -4.2            -3.6923e-006    -8.326e-009     2.5474e-009    
  -4.25           -3.7225e-006    -7.457e-009     2.5278e-009    
  -4.3            -3.7521e-006    -6.565e-009     2.5003e-009    
  -4.35           -3.7819e-006    -5.299e-009     2.4806e-009    
  -4.4            -3.8116e-006    -4.176e-009     2.4549e-009    
  -4.45           -3.842e-006     -2.658e-009     2.4318e-009    
  -4.5            -3.8736e-006    -9.61e-010      2.4057e-009    
  -4.55           -3.8882e-006    2.5508e-008     2.6584e-009    
  -4.6            -3.9216e-006    2.7992e-008     2.5712e-009    
  -4.65           -3.9614e-006    1.189e-008      -3.942e-010    
  -4.7            -3.9728e-006    3.9709e-008     -2.3265e-009   
  -4.75           -4.0382e-006    4.0538e-008     1.5602e-009    
  -4.8            -4.063e-006     7.963e-009      1.2439e-009    
  -4.85           -4.087e-006     2.8562e-008     -2.6189e-009   
  -4.9            -4.116e-006     5.1646e-008     4.087e-010     
  -4.95           -4.1739e-006    2.9689e-008     2.4107e-009    
  -5              -4.1847e-006    3.9469e-008     -1.6964e-009   
END_DB

BEGIN_DB
 ICCAP_VAR VG         -2             
 ICCAP_VAR VS         0              
 ICCAP_VAR VB         0              

 #VD              ID              IB              IG             
  0               -2.7991e-008    1.1456e-008     1.2076e-009    
  -0.05           -2.0898e-006    1.0539e-008     2.7745e-009    
  -0.1            -4.0595e-006    -1.3275e-008    2.509e-010     
  -0.15           -5.9175e-006    1.0761e-008     -1.3241e-009   
  -0.2            -7.6787e-006    1.1054e-008     1.129e-010     
  -0.25           -9.3445e-006    -1.2099e-008    2.7322e-009    
  -0.3            -1.08934e-005   -1.2892e-008    2.031e-010     
  -0.35           -1.2312e-005    -1.0936e-008    2.6634e-009    
  -0.4            -1.3636e-005    -1.122e-008     -1.0278e-009   
  -0.45           -1.4845e-005    2.8001e-008     -1.3494e-009   
  -0.5            -1.5961e-005    1.0398e-008     4.895e-010     
  -0.55           -1.6988e-005    -2.2219e-008    1.5254e-009    
  -0.6            -1.7902e-005    -1.1786e-008    -3.06e-011     
  -0.65           -1.8691e-005    1.6511e-008     -2.0801e-009   
  -0.7            -1.9439e-005    1.0538e-008     6.682e-010     
  -0.75           -2.0111e-005    -2.4427e-008    1.3771e-009    
  -0.8            -2.0699e-005    -1.1195e-008    -2.193e-010    
  -0.85           -2.119e-005     1.928e-008      -1.8327e-009   
  -0.9            -2.1679e-005    1.0765e-008     8.412e-010     
  -0.95           -2.2116e-005    -2.6016e-008    1.2972e-009    
  -1              -2.2492e-005    -1.0891e-008    -4.252e-010    
  -1.05           -2.2814e-005    2.1338e-008     -1.6174e-009   
  -1.1            -2.3127e-005    2.76e-008       -1.3625e-009   
  -1.15           -2.3431e-005    1.0444e-008     4.172e-010     
  -1.2            -2.3743e-005    -2.1417e-008    1.6022e-009    
  -1.25           -2.4005e-005    -1.1946e-008    3.92e-011      
  -1.3            -2.4192e-005    1.5599e-008     -2.1888e-009   
  -1.35           -2.4434e-005    1.0413e-008     5.953e-010     
  -1.4            -2.4683e-005    -2.3607e-008    1.4271e-009    
  -1.45           -2.4842e-005    -1.0964e-008    -1.284e-009    
  -1.5            -2.5032e-005    1.1446e-008     -2.5679e-009   
  -1.55           -2.5232e-005    1.0555e-008     2.697e-010     
  -1.6            -2.545e-005     -2.0265e-008    1.8058e-009    
  -1.65           -2.5593e-005    -1.1201e-008    -9.947e-010    
  -1.7            -2.5754e-005    2.7917e-008     -1.3539e-009   
  -1.75           -2.5934e-005    1.0435e-008     4.488e-010     
  -1.8            -2.6129e-005    -2.1806e-008    1.5645e-009    
  -1.85           -2.629e-005     -1.182e-008     4e-012         
  -1.9            -2.6389e-005    1.5959e-008     -2.1422e-009   
  -1.95           -2.657e-005     1.0407e-008     6.327e-010     
  -2              -2.6742e-005    -2.4033e-008    1.4026e-009    
  -2.05           -2.6837e-005    -1.1091e-008    -1.3211e-009   
  -2.1            -2.6984e-005    1.1806e-008     -2.5374e-009   
  -2.15           -2.7132e-005    1.0532e-008     3.1e-010       
  -2.2            -2.7314e-005    -2.0487e-008    1.7579e-009    
  -2.25           -2.7416e-005    -1.1186e-008    -1.0218e-009   
  -2.3            -2.7533e-005    2.8079e-008     -1.3497e-009   
  -2.35           -2.7683e-005    1.0397e-008     4.884e-010     
  -2.4            -2.7852e-005    -2.2213e-008    1.524e-009     
  -2.45           -2.7983e-005    -1.1739e-008    -2.5e-011      
  -2.5            -2.8057e-005    1.6553e-008     -2.0865e-009   
  -2.55           -2.8209e-005    1.0409e-008     6.628e-010     
  -2.6            -2.8366e-005    -2.4387e-008    1.3792e-009    
  -2.65           -2.8482e-005    -1.1198e-008    -2.168e-010    
  -2.7            -2.8564e-005    1.9344e-008     -1.8281e-009   
  -2.75           -2.8713e-005    1.0783e-008     8.411e-010     
  -2.8            -2.8859e-005    -2.5799e-008    1.2995e-009    
  -2.85           -2.8964e-005    -1.0899e-008    -4.251e-010    
  -2.9            -2.9046e-005    2.1449e-008     -1.62e-009     
  -2.95           -2.9175e-005    1.2125e-008     -9.62e-011     
  -3              -2.9344e-005    -1.6124e-008    2.4126e-009    
  -3.05           -2.9433e-005    -1.0823e-008    -6.185e-010    
  -3.1            -2.9517e-005    2.3559e-008     -1.4831e-009   
  -3.15           -2.9685e-005    1.0704e-008     1.1518e-009    
  -3.2            -2.9802e-005    -2.3068e-008    2.1456e-009    
  -3.25           -2.9879e-005    -1.09e-008      -8.18e-010     
  -3.3            -2.9979e-005    2.6359e-008     -1.4023e-009   
  -3.35           -3.0153e-005    1.1203e-008     1.3157e-009    
  -3.4            -3.026e-005     -1.8607e-008    1.8443e-009    
  -3.45           -3.0363e-005    -1.2028e-008    1.881e-010     
  -3.5            -3.0416e-005    1.3956e-008     -2.4057e-009   
  -3.55           -3.0543e-005    1.1549e-008     4.336e-010     
  -3.6            -3.0695e-005    -2.0068e-008    1.5838e-009    
  -3.65           -3.0799e-005    -2.4404e-008    1.2723e-009    
  -3.7            -3.0902e-005    -8.734e-009     -5.447e-010    
  -3.75           -3.0981e-005    2.5312e-008     -1.526e-009    
  -3.8            -3.1122e-005    1.38e-008       1.0904e-009    
  -3.85           -3.1256e-005    -5.78e-009      2.8097e-009    
  -3.9            -3.1343e-005    -1.2716e-008    2.2258e-009    
  -3.95           -3.1456e-005    -4.421e-009     2.7919e-009    
  -4              -3.1552e-005    -1.0839e-008    2.1726e-009    
  -4.05           -3.1688e-005    -2.31e-009      2.7679e-009    
  -4.1            -3.1792e-005    -7.858e-009     2.1078e-009    
  -4.15           -3.1884e-005    7.9e-010        2.7338e-009    
