! VERSION = 6.00
BEGIN_HEADER
 ICCAP_INPUTS
  VG         V  B GROUND SMU4 0.001 LIN        2    0          -5         6    -1        
  VS         V  E GROUND SMU2 0.1 CON        0
  VD         V  S GROUND SMU1 0.1 LIN        1    0          -5         101  -0.05     
  VB         V  C GROUND SMU3 0.1 LIN        3    0          2.5        2    2.5       
 ICCAP_OUTPUTS
  ID         I  S GROUND SMU1 B
  IB         I  C GROUND SMU3 B
  IG         I  B GROUND SMU4 B
END_HEADER

BEGIN_DB
 ICCAP_VAR VG         0              
 ICCAP_VAR VS         0              
 ICCAP_VAR VB         0              

 #VD              ID              IB              IG             
  0               9.211e-010      1.8469e-008     9.605e-010     
  -0.05           2.2245e-009     -4.499e-009     1.2667e-009    
  -0.1            2.0368e-009     1.0406e-008     -2.052e-010    
  -0.15           9.427e-010      2.3609e-008     -1.5877e-009   
  -0.2            -1.5027e-009    7.417e-009      -1.8099e-009   
  -0.25           -2.241e-009     -1.2832e-008    -4.264e-010    
  -0.3            -1.4209e-009    -2.7637e-008    2.6098e-009    
  -0.35           2.2648e-009     -3.572e-009     1.2077e-009    
  -0.4            2.1303e-009     1.1931e-008     1.377e-009     
  -0.45           1.9258e-009     1.2416e-008     1.5448e-009    
  -0.5            1.6731e-009     1.3079e-008     1.7272e-009    
  -0.55           2.139e-009      1.281e-008      1.55e-011      
  -0.6            1.101e-009      2.6965e-008     -1.4396e-009   
  -0.65           -2.1947e-009    8.353e-009      -1.0948e-009   
  -0.7            -1.767e-009     -1.0552e-008    1.5277e-009    
  -0.75           2.3304e-009     -8.523e-009     9.136e-010     
  -0.8            2.3145e-009     9.263e-009      1.0654e-009    
  -0.85           2.244e-009      1.0338e-008     1.221e-009     
  -0.9            2.1071e-009     1.1841e-008     1.3898e-009    
  -0.95           1.905e-009      1.2829e-008     1.5703e-009    
  -1              1.653e-009      1.2916e-008     1.751e-009     
  -1.05           2.2629e-009     1.242e-008      3.092e-010     
  -1.1            2.3115e-009     1.2367e-008     5.064e-010     
  -1.15           2.3326e-009     1.1412e-008     6.899e-010     
  -1.2            2.3375e-009     9.896e-009      8.571e-010     
  -1.25           2.3267e-009     9.279e-009      1.0059e-009    
  -1.3            1.8435e-009     1.0583e-008     -1.5516e-009   
  -1.35           -1.457e-009     7.83e-009       -1.8337e-009   
  -1.4            -2.246e-009     -1.2782e-008    -4.796e-010    
  -1.45           -1.4473e-009    -2.6971e-008    2.5651e-009    
  -1.5            2.2362e-009     -4.264e-009     1.2456e-009    
  -1.55           2.0218e-009     1.0283e-008     -2.296e-010    
  -1.6            9.288e-010      2.3193e-008     -1.609e-009    
  -1.65           -1.5301e-009    7.179e-009      -1.7904e-009   
  -1.7            -2.2367e-009    -1.2894e-008    -4.006e-010    
  -1.75           -2.2512e-009    -1.2573e-008    -6.026e-010    
  -1.8            -1.5243e-009    -2.4402e-008    2.4051e-009    
  -1.85           2.1507e-009     -5.689e-009     1.3581e-009    
  -1.9            1.9513e-009     1.1967e-008     1.5426e-009    
  -1.95           2.1651e-009     1.178e-008      6.91e-011      
  -2              2.2506e-009     1.2462e-008     2.719e-010     
  -2.05           2.3064e-009     1.254e-008      4.715e-010     
  -2.1            2.331e-009      1.1588e-008     6.401e-010     
  -2.15           2.3374e-009     1.0125e-008     8.23e-010      
  -2.2            1.6947e-009     1.5368e-008     -1.3724e-009   
  -2.25           3.48e-010       1.331e-008      -2.5491e-009   
  -2.3            -2.1841e-009    1.139e-009      -1.1296e-009   
  -2.35           -1.7965e-009    -1.0237e-008    1.4754e-009    
  -2.4            2.3312e-009     -8.459e-009     9.51e-010      
  -2.45           2.3038e-009     9.369e-009      1.1064e-009    
  -2.5            2.2156e-009     1.0754e-008     1.2644e-009    
  -2.55           2.0335e-009     1.0379e-008     -2.1e-010      
  -2.6            9.41e-010       2.3437e-008     -1.5918e-009   
  -2.65           -1.5031e-009    7.439e-009      -1.8052e-009   
  -2.7            -1.6196e-009    -1.8824e-008    2.1147e-009    
  -2.75           1.9699e-009     -8.05e-009      1.5366e-009    
  -2.8            2.1692e-009     1.1742e-008     6.6e-011       
  -2.85           2.2502e-009     1.2473e-008     2.711e-010     
  -2.9            2.3017e-009     1.2486e-008     4.729e-010     
  -2.95           2.3304e-009     1.1686e-008     6.596e-010     
  -3              2.3393e-009     1.0231e-008     8.229e-010     
  -3.05           1.6933e-009     1.5367e-008     -1.3732e-009   
  -3.1            3.391e-010      1.3219e-008     -2.5514e-009   
  -3.15           -2.1853e-009    1.156e-009      -1.1279e-009   
  -3.2            -1.7966e-009    -1.0288e-008    1.4864e-009    
  -3.25           2.3349e-009     -8.616e-009     9.491e-010     
  -3.3            2.3061e-009     9.218e-009      1.0999e-009    
  -3.35           2.2197e-009     9.725e-009      1.2621e-009    
  -3.4            2.0291e-009     1.0309e-008     -2.196e-010    
  -3.45           9.371e-010      2.3317e-008     -1.5934e-009   
  -3.5            -1.5075e-009    7.309e-009      -1.7995e-009   
  -3.55           -2.2394e-009    -1.2989e-008    -4.205e-010    
  -3.6            -2.2482e-009    -1.2454e-008    -6.245e-010    
  -3.65           -1.5355e-009    -2.4086e-008    2.3903e-009    
  -3.7            2.139e-009      -6.097e-009     1.3727e-009    
  -3.75           1.9295e-009     1.2699e-008     1.5556e-009    
  -3.8            2.1757e-009     1.1803e-008     8.67e-011      
  -3.85           2.2556e-009     1.243e-008      2.928e-010     
  -3.9            2.3063e-009     1.2425e-008     4.842e-010     
  -3.95           2.3339e-009     1.1563e-008     6.688e-010     
  -4              2.3382e-009     1.0265e-008     8.385e-010     
  -4.05           1.7068e-009     1.4859e-008     -1.3704e-009   
  -4.1            3.566e-010      1.3609e-008     -2.5436e-009   
  -4.15           -2.1819e-009    1.237e-009      -1.141e-009    
  -4.2            -1.8037e-009    -1.0128e-008    1.4618e-009    
  -4.25           2.3361e-009     -8.343e-009     9.633e-010     
  -4.3            1.8048e-009     1.1477e-008     -1.5994e-009   
  -4.35           -1.5141e-009    7.293e-009      -1.7985e-009   
  -4.4            -2.2393e-009    -1.2893e-008    -4.041e-010    
  -4.45           -2.2479e-009    -1.2657e-008    -6.099e-010    
  -4.5            -1.53e-009      -2.4395e-008    2.4081e-009    
  -4.55           2.1545e-009     -6.099e-009     1.3646e-009    
  -4.6            1.9436e-009     1.2767e-008     1.5497e-009    
  -4.65           1.4107e-009     2.7193e-008     -1.402e-009    
  -4.7            1.01e-011       9.759e-009      -1.4015e-009   
  -4.75           1.627e-010      1.03e-008       -1.3759e-009   
  -4.8            3.333e-010      1.3154e-008     -2.5637e-009   
  -4.85           -2.1875e-009    1.073e-009      -1.1183e-009   
  -4.9            -1.7825e-009    -1.0229e-008    1.4958e-009    
  -4.95           2.3289e-009     -8.47e-009      9.398e-010     
  -5              2.31e-009       9.101e-009      1.086e-009     
END_DB

BEGIN_DB
 ICCAP_VAR VG         -1             
 ICCAP_VAR VS         0              
 ICCAP_VAR VB         0              

 #VD              ID              IB              IG             
  0               -2.7231e-009    2.5606e-008     2.8474e-009    
  -0.05           -2.4902e-007    -2.3919e-008    2.2432e-009    
  -0.1            -4.1511e-007    -1.9183e-008    1.6095e-009    
  -0.15           -5.1343e-007    -1.2977e-008    -8.884e-010    
  -0.2            -5.7127e-007    7.333e-009      -1.3951e-009   
  -0.25           -6.0955e-007    2.8796e-008     -1.4058e-009   
  -0.3            -6.3897e-007    2.3547e-008     -1.3717e-009   
  -0.35           -6.6287e-007    1.2739e-008     6.696e-010     
  -0.4            -6.8995e-007    -1.8982e-008    1.6141e-009    
  -0.45           -7.0371e-007    -1.3007e-008    -8.844e-010    
  -0.5            -7.1609e-007    7.365e-009      -1.3968e-009   
  -0.55           -7.2998e-007    2.8847e-008     -1.4073e-009   
  -0.6            -7.4501e-007    2.3827e-008     -1.3761e-009   
  -0.65           -7.6051e-007    1.2587e-008     6.551e-010     
  -0.7            -7.8153e-007    -1.9027e-008    1.628e-009     
  -0.75           -7.903e-007     -1.2767e-008    -8.818e-010    
  -0.8            -7.989e-007     7.136e-009      -1.3941e-009   
  -0.85           -8.1022e-007    2.8734e-008     -1.4075e-009   
  -0.9            -8.2259e-007    2.4104e-008     -1.3767e-009   
  -0.95           -8.3637e-007    1.2678e-008     6.478e-010     
  -1              -8.561e-007     -1.9075e-008    1.6488e-009    
  -1.05           -8.635e-007     -1.2784e-008    -8.71e-010     
  -1.1            -8.7085e-007    7.009e-009      -1.3958e-009   
  -1.15           -8.8795e-007    9.419e-009      1.1651e-009    
  -1.2            -9.0217e-007    -2.7212e-008    2.595e-009     
  -1.25           -9.1352e-007    -2.8108e-008    2.3894e-009    
  -1.3            -9.2439e-007    -2.7124e-008    2.1191e-009    
  -1.35           -9.365e-007     -2.2426e-008    1.8342e-009    
  -1.4            -9.4256e-007    -1.2981e-008    -7.673e-010    
  -1.45           -9.476e-007     2.0013e-008     -1.5506e-009   
  -1.5            -9.6156e-007    1.2115e-008     8.491e-010     
  -1.55           -9.7741e-007    -8.865e-009     2.8369e-009    
  -1.6            -9.8378e-007    -1.1238e-008    -1.0407e-009   
  -1.65           -9.9052e-007    8.194e-009      -1.4064e-009   
  -1.7            -1.01108e-006   9.019e-009      1.3648e-009    
  -1.75           -1.02126e-006   -2.7914e-008    2.2841e-009    
  -1.8            -1.03249e-006   -2.5489e-008    2.0115e-009    
  -1.85           -1.04405e-006   -2.0349e-008    1.7299e-009    
  -1.9            -1.04787e-006   -1.3054e-008    -8.254e-010    
  -1.95           -1.05244e-006   2.0908e-008     -1.503e-009    
  -2              -1.06695e-006   1.1998e-008     8.975e-010     
  -2.05           -1.08212e-006   -8.524e-009     2.8467e-009    
  -2.1            -1.09531e-006   -2.1521e-008    1.8027e-009    
  -2.15           -1.09915e-006   -1.3001e-008    -7.943e-010    
  -2.2            -1.10314e-006   2.055e-008      -1.5275e-009   
  -2.25           -1.11718e-006   1.2266e-008     8.705e-010     
  -2.3            -1.13254e-006   -8.781e-009     2.8434e-009    
  -2.35           -1.1353e-006    -1.0977e-008    6.76e-010      
  -2.4            -1.1539e-006    -1.9494e-008    2.0534e-009    
  -2.45           -1.1631e-006    -2.7688e-008    2.2414e-009    
  -2.5            -1.1735e-006    -2.7851e-008    2.4172e-009    
  -2.55           -1.1831e-006    -2.753e-008     2.5612e-009    
  -2.6            -1.1946e-006    -1.0247e-008    1.06e-011      
  -2.65           -1.1909e-006    9.578e-009      -2.6375e-009   
  -2.7            -1.2013e-006    1.3821e-008     -1.4729e-009   
  -2.75           -1.2129e-006    1.2643e-008     7.114e-010     
  -2.8            -1.2314e-006    -1.9427e-008    1.9818e-009    
  -2.85           -1.2525e-006    -2.7413e-008    2.1776e-009    
  -2.9            -1.2622e-006    -2.7847e-008    2.3524e-009    
  -2.95           -1.2726e-006    -2.7604e-008    2.5078e-009    
  -3              -1.2826e-006    -2.6538e-008    2.6325e-009    
  -3.05           -1.2945e-006    -9.844e-009     7.26e-011      
  -3.1            -1.2881e-006    9.749e-009      -1.3784e-009   
  -3.15           -1.3112e-006    9.404e-009      1.4404e-009    
  -3.2            -1.3201e-006    -2.7319e-008    2.5481e-009    
  -3.25           -1.3315e-006    -1.0144e-008    8.1e-012       
  -3.3            -1.3262e-006    9.838e-009      -1.3615e-009   
  -3.35           -1.3506e-006    9.646e-009      1.5156e-009    
  -3.4            -1.3583e-006    -2.7652e-008    2.4516e-009    
  -3.45           -1.3673e-006    -2.6756e-008    2.5941e-009    
  -3.5            -1.3791e-006    -9.761e-009     3.48e-011      
  -3.55           -1.3724e-006    9.958e-009      -1.3714e-009   
  -3.6            -1.3975e-006    9.765e-009      1.4759e-009    
  -3.65           -1.4046e-006    -2.713e-008     2.5043e-009    
  -3.7            -1.4147e-006    -2.6087e-008    2.6273e-009    
  -3.75           -1.4268e-006    -9.263e-009     6.81e-011      
  -3.8            -1.4198e-006    1.0375e-008     -1.3781e-009   
  -3.85           -1.4446e-006    1.023e-008      1.4421e-009    
  -3.9            -1.4527e-006    -2.6199e-008    2.551e-009     
  -3.95           -1.4626e-006    -2.4752e-008    2.6612e-009    
  -4              -1.4731e-006    -1.6772e-008    2.6354e-009    
  -4.05           -1.4827e-006    -1.6679e-008    2.6184e-009    
  -4.1            -1.4918e-006    -1.6539e-008    2.5904e-009    
  -4.15           -1.5014e-006    -1.6426e-008    2.5552e-009    
  -4.2            -1.51e-006      -1.6026e-008    2.5289e-009    
  -4.25           -1.5197e-006    -1.5825e-008    2.4969e-009    
  -4.3            -1.5282e-006    -1.5449e-008    2.46e-009      
  -4.35           -1.5373e-006    -1.5004e-008    2.4273e-009    
  -4.4            -1.5483e-006    -1.4304e-008    2.3905e-009    
  -4.45           -1.5578e-006    -1.358e-008     2.3504e-009    
  -4.5            -1.568e-006     -1.2835e-008    2.3121e-009    
  -4.55           -1.5784e-006    -1.1837e-008    2.2718e-009    
  -4.6            -1.5881e-006    -1.0702e-008    2.2312e-009    
  -4.65           -1.5984e-006    -9.692e-009     2.1866e-009    
  -4.7            -1.6092e-006    -8.242e-009     2.1439e-009    
  -4.75           -1.6206e-006    -6.858e-009     2.1035e-009    
  -4.8            -1.6308e-006    -5.238e-009     2.0539e-009    
  -4.85           -1.639e-006     3.831e-009      -3.379e-010    
  -4.9            -1.6385e-006    2.9526e-008     -2.3915e-009   
  -4.95           -1.6666e-006    3.1071e-008     1.5676e-009    
  -5              -1.6744e-006    -5.904e-009     2.3768e-009    
END_DB

BEGIN_DB
 ICCAP_VAR VG         -2             
 ICCAP_VAR VS         0              
 ICCAP_VAR VB         0              

 #VD              ID              IB              IG             
  0               -2.4556e-008    4.33e-010       -2.6616e-009   
  -0.05           -1.7336e-006    -2.6626e-008    -2.6232e-009   
  -0.1            -3.3553e-006    9.311e-009      1.2763e-009    
  -0.15           -4.8934e-006    -2.545e-008     2.7188e-009    
  -0.2            -6.3427e-006    -1.0629e-008    1.477e-010     
  -0.25           -7.6808e-006    9.411e-009      -1.3925e-009   
  -0.3            -8.9444e-006    9.485e-009      1.344e-009     
  -0.35           -1.0105e-005    -2.6438e-008    2.6542e-009    
  -0.4            -1.11742e-005   -1.0208e-008    8.52e-011      
  -0.45           -1.2132e-005    -1.2874e-008    2.8098e-009    
  -0.5            -1.3014e-005    -1.8661e-008    1.6643e-009    
  -0.55           -1.3808e-005    -1.022e-008     9.16e-011      
  -0.6            -1.4488e-005    1.3281e-008     -2.265e-009    
  -0.65           -1.512e-005     1.2503e-008     5.779e-010     
  -0.7            -1.5686e-005    -8.878e-009     2.8298e-009    
  -0.75           -1.6177e-005    -1.6125e-008    1.5263e-009    
  -0.8            -1.6601e-005    -2.723e-008     2.5242e-009    
  -0.85           -1.6974e-005    -2.2332e-008    1.8564e-009    
  -0.9            -1.7308e-005    -1.1421e-008    1.9e-010       
  -0.95           -1.7562e-005    1.1555e-008     -2.41e-009     
  -1              -1.7857e-005    1.2983e-008     2.0582e-009    
  -1.05           -1.8094e-005    -1.968e-008     1.5478e-009    
  -1.1            -1.8304e-005    -2.7116e-008    2.5491e-009    
  -1.15           -1.8494e-005    -2.2654e-008    1.8762e-009    
  -1.2            -1.868e-005     -1.1864e-008    2.019e-010     
  -1.25           -1.8799e-005    1.1341e-008     -2.4234e-009   
  -1.3            -1.8993e-005    1.274e-008      2.0465e-009    
  -1.35           -1.9141e-005    -1.9627e-008    1.5615e-009    
  -1.4            -1.9275e-005    -2.7111e-008    2.5598e-009    
  -1.45           -1.9389e-005    -1.2711e-008    -5.6e-010      
  -1.5            -1.9488e-005    2.1278e-008     -1.4981e-009   
  -1.55           -1.9645e-005    9.667e-009      1.1223e-009    
  -1.6            -1.9759e-005    -2.7497e-008    2.2792e-009    
  -1.65           -1.9855e-005    -1.2849e-008    -7.8e-010      
  -1.7            -1.9948e-005    8.171e-009      -1.4036e-009   
  -1.75           -2.0107e-005    1.0954e-008     1.564e-009     
  -1.8            -2.0194e-005    -1.565e-008     1.5199e-009    
  -1.85           -2.0291e-005    -2.7374e-008    2.526e-009     
  -1.9            -2.0363e-005    -1.2766e-008    -5.992e-010    
  -1.95           -2.0441e-005    6.978e-009      -1.4009e-009   
  -2              -2.0588e-005    9.778e-009      1.3881e-009    
  -2.05           -2.0666e-005    -2.0252e-008    1.7622e-009    
  -2.1            -2.077e-005     -1.0736e-008    1.472e-010     
  -2.15           -2.0805e-005    1.2382e-008     -2.3458e-009   
  -2.2            -2.093e-005     1.2266e-008     2.1104e-009    
  -2.25           -2.1023e-005    -2.0266e-008    1.4814e-009    
  -2.3            -2.1103e-005    -2.7488e-008    2.4751e-009    
  -2.35           -2.117e-005     -1.2843e-008    -6.317e-010    
  -2.4            -2.1232e-005    7.346e-009      -1.3989e-009   
  -2.45           -2.1309e-005    2.4163e-008     -1.377e-009    
  -2.5            -2.1412e-005    1.1915e-008     8.764e-010     
  -2.55           -2.1511e-005    -2.614e-008     2.6682e-009    
  -2.6            -2.1582e-005    -2.5988e-008    2.0793e-009    
  -2.65           -2.1636e-005    -1.2533e-008    -8.741e-010    
  -2.7            -2.1695e-005    2.6341e-008     -1.3996e-009   
  -2.75           -2.183e-005     9.824e-009      1.4122e-009    
  -2.8            -2.1886e-005    -1.9707e-008    1.7188e-009    
  -2.85           -2.1976e-005    -1.0378e-008    1.352e-010     
  -2.9            -2.1999e-005    1.2669e-008     -2.3247e-009   
  -2.95           -2.2107e-005    1.2393e-008     2.1278e-009    
  -3              -2.2189e-005    -2.0266e-008    1.4649e-009    
  -3.05           -2.2255e-005    -2.759e-008     2.4512e-009    
  -3.1            -2.231e-005     -1.276e-008     -6.547e-010    
  -3.15           -2.2359e-005    7.482e-009      -1.3994e-009   
  -3.2            -2.2474e-005    1.0126e-008     1.4301e-009    
  -3.25           -2.254e-005     -1.8697e-008    1.6765e-009    
  -3.3            -2.2608e-005    -2.5908e-008    2.656e-009     
  -3.35           -2.2668e-005    -2.5546e-008    2.0527e-009    
  -3.4            -2.2718e-005    -1.2091e-008    -8.897e-010    
  -3.45           -2.2764e-005    2.7027e-008     -1.3997e-009   
  -3.5            -2.2891e-005    1.0584e-008     1.432e-009     
  -3.55           -2.2941e-005    -1.856e-008     1.6928e-009    
  -3.6            -2.301e-005     -2.5145e-008    2.667e-009     
  -3.65           -2.306e-005     -2.4953e-008    2.0703e-009    
  -3.7            -2.3147e-005    -1.2804e-008    2.838e-010     
  -3.75           -2.3155e-005    1.1885e-008     -2.5359e-009   
  -3.8            -2.3277e-005    1.5433e-008     1.934e-009     
  -3.85           -2.3334e-005    -1.6569e-008    1.7246e-009    
  -3.9            -2.3406e-005    -1.5903e-008    2.5433e-009    
  -3.95           -2.3464e-005    -1.5328e-008    1.6508e-009    
  -4              -2.3529e-005    -1.474e-008     2.4835e-009    
  -4.05           -2.3599e-005    -5.44e-009      2.8462e-009    
  -4.1            -2.3651e-005    -1.2723e-008    2.4181e-009    
  -4.15           -2.3723e-005    -3.569e-009     2.834e-009     
