! VERSION = 6.00
BEGIN_HEADER
 ICCAP_INPUTS
  VG         V  B GROUND SMU4 0.001 LIN        2    0          -5         6    -1        
  VS         V  E GROUND SMU2 0.1 CON        0
  VD         V  S GROUND SMU1 0.1 LIN        1    0          -5         101  -0.05     
  VB         V  C GROUND SMU3 0.1 LIN        3    0          2.5        2    2.5       
 ICCAP_OUTPUTS
  ID         I  S GROUND SMU1 B
  IB         I  C GROUND SMU3 B
  IG         I  B GROUND SMU4 B
END_HEADER

BEGIN_DB
 ICCAP_VAR VG         0              
 ICCAP_VAR VS         0              
 ICCAP_VAR VB         0              

 #VD              ID              IB              IG             
  0               -1.2308e-009    -8.246e-009     -1.4199e-009   
  -0.05           -2.2779e-009    -1.3095e-008    -4.69e-010     
  -0.1            -1.4741e-009    -2.7299e-008    2.586e-009     
  -0.15           2.2489e-009     -4.655e-009     1.2877e-009    
  -0.2            2.0568e-009     1.2339e-008     1.4793e-009    
  -0.25           2.1786e-009     1.1532e-008     1.65e-011      
  -0.3            2.2671e-009     1.2564e-008     2.372e-010     
  -0.35           2.3224e-009     1.2659e-008     4.557e-010     
  -0.4            2.3501e-009     1.1636e-008     6.726e-010     
  -0.45           2.3571e-009     9.905e-009      8.541e-010     
  -0.5            1.7386e-009     1.4074e-008     -1.3788e-009   
  -0.55           3.997e-010      1.4226e-008     -2.5314e-009   
  -0.6            -2.2807e-009    -1.3044e-008    -4.785e-010    
  -0.65           -1.4796e-009    -2.7147e-008    2.5705e-009    
  -0.7            2.246e-009      -4.673e-009     1.289e-009     
  -0.75           2.0513e-009     1.2324e-008     1.4865e-009    
  -0.8            2.1798e-009     1.1553e-008     2.06e-011      
  -0.85           2.2669e-009     1.2586e-008     2.453e-010     
  -0.9            2.3259e-009     1.2588e-008     4.714e-010     
  -0.95           2.3538e-009     1.1513e-008     6.778e-010     
  -1              2.3569e-009     9.801e-009      8.593e-010     
  -1.05           2.3543e-009     9.131e-009      1.0332e-009    
  -1.1            2.3e-009        1.0026e-008     1.2057e-009    
  -1.15           2.1542e-009     1.1754e-008     1.388e-009     
  -1.2            1.9305e-009     1.2399e-008     1.5854e-009    
  -1.25           1.6339e-009     1.2999e-008     1.781e-009     
  -1.3            2.3027e-009     1.272e-008      3.582e-010     
  -1.35           2.3434e-009     1.2515e-008     5.753e-010     
  -1.4            2.3587e-009     1.1021e-008     7.737e-010     
  -1.45           1.6646e-009     1.6434e-008     -1.3971e-009   
  -1.5            3.147e-010      1.3012e-008     -2.6028e-009   
  -1.55           -2.2274e-009    1.275e-009      -1.1281e-009   
  -1.6            -1.1067e-009    -2.4724e-008    1.463e-009     
  -1.65           2.3564e-009     -8.132e-009     9.903e-010     
  -1.7            2.3172e-009     9.48e-009       1.1613e-009    
  -1.75           2.1965e-009     1.1253e-008     1.3405e-009    
  -1.8            1.9824e-009     1.2593e-008     1.5405e-009    
  -1.85           2.2041e-009     1.1883e-008     7.11e-011      
  -1.9            2.2859e-009     1.2674e-008     3.015e-010     
  -1.95           2.3371e-009     1.2614e-008     5.332e-010     
  -2              2.3565e-009     1.1355e-008     7.318e-010     
  -2.05           2.3602e-009     9.771e-009      9.083e-010     
  -2.1            2.3441e-009     9.05e-009       1.0813e-009    
  -2.15           2.264e-009      9.622e-009      1.2577e-009    
  -2.2            2.0565e-009     1.0204e-008     -2.208e-010    
  -2.25           9.645e-010      2.3782e-008     -1.5765e-009   
  -2.3            -1.4827e-009    7.482e-009      -1.8415e-009   
  -2.35           -2.2804e-009    -1.2902e-008    -4.952e-010    
  -2.4            -1.4918e-009    -2.6739e-008    2.5455e-009    
  -2.45           2.2281e-009     -4.892e-009     1.3088e-009    
  -2.5            2.0197e-009     1.2438e-008     1.506e-009     
  -2.55           2.1902e-009     1.1737e-008     4.56e-011      
  -2.6            2.2782e-009     1.2602e-008     2.77e-010      
  -2.65           2.3288e-009     1.2758e-008     4.949e-010     
  -2.7            2.3541e-009     1.1743e-008     7.031e-010     
  -2.75           2.3586e-009     9.939e-009      8.824e-010     
  -2.8            2.3478e-009     9.111e-009      1.0535e-009    
  -2.85           2.2862e-009     9.485e-009      1.2297e-009    
  -2.9            2.1295e-009     1.0823e-008     1.4092e-009    
  -2.95           1.8842e-009     1.2853e-008     1.6175e-009    
  -3              1.5839e-009     1.2906e-008     1.8137e-009    
  -3.05           2.308e-009      1.2668e-008     3.84e-010      
  -3.1            2.3434e-009     1.2295e-008     6.084e-010     
  -3.15           2.3573e-009     1.0661e-008     7.972e-010     
  -3.2            1.6899e-009     1.5549e-008     -1.3902e-009   
  -3.25           3.481e-010      1.3423e-008     -2.5798e-009   
  -3.3            -2.2228e-009    1.363e-009      -1.1565e-009   
  -3.35           -1.8522e-009    -9.947e-009     2.813e-010     
  -3.4            -9.076e-010     -1.952e-008     1.8975e-009    
  -3.45           1.7963e-009     -9.059e-009     1.694e-009     
  -3.5            1.4701e-009     1.276e-008      1.8878e-009    
  -3.55           2.3249e-009     1.2658e-008     4.718e-010     
  -3.6            2.3534e-009     1.178e-008      6.834e-010     
  -3.65           2.3582e-009     9.763e-009      8.667e-010     
  -3.7            2.3508e-009     9.211e-009      1.0398e-009    
  -3.75           2.2919e-009     1.0237e-008     1.2115e-009    
  -3.8            2.1463e-009     1.1867e-008     1.3959e-009    
  -3.85           1.9093e-009     1.2867e-008     1.5914e-009    
  -3.9            1.6165e-009     1.2596e-008     1.7977e-009    
  -3.95           2.3027e-009     1.2725e-008     3.678e-010     
  -4              2.3397e-009     1.2043e-008     5.857e-010     
  -4.05           2.3545e-009     1.0509e-008     7.892e-010     
  -4.1            1.6784e-009     1.6139e-008     -1.395e-009    
  -4.15           3.287e-010      1.3129e-008     -2.5885e-009   
  -4.2            -2.225e-009     1.419e-009      -1.1368e-009   
  -4.25           -1.8426e-009    -9.994e-009     2.935e-010     
  -4.3            -8.944e-010     -1.935e-008     1.9316e-009    
  -4.35           1.8191e-009     -8.928e-009     1.674e-009     
  -4.4            1.4898e-009     1.2992e-008     1.8675e-009    
  -4.45           2.3234e-009     1.2699e-008     4.598e-010     
  -4.5            2.3521e-009     1.1893e-008     6.681e-010     
  -4.55           2.3605e-009     1.0058e-008     8.545e-010     
  -4.6            2.3561e-009     9.226e-009      1.0272e-009    
  -4.65           2.3006e-009     9.291e-009      1.1982e-009    
  -4.7            2.1609e-009     1.0583e-008     1.3756e-009    
  -4.75           1.9293e-009     1.2509e-008     1.5773e-009    
  -4.8            1.6426e-009     1.3069e-008     1.7767e-009    
  -4.85           2.3008e-009     1.2798e-008     3.518e-010     
  -4.9            2.3434e-009     1.2527e-008     5.743e-010     
  -4.95           2.3597e-009     1.101e-008      7.702e-010     
  -5              1.6685e-009     1.6554e-008     -1.3975e-009   
END_DB

BEGIN_DB
 ICCAP_VAR VG         -1             
 ICCAP_VAR VS         0              
 ICCAP_VAR VB         0              

 #VD              ID              IB              IG             
  0               -1.3837e-008    1.0056e-008     -6.34e-011     
  -0.05           -9.123e-007     -1.9038e-008    6.364e-010     
  -0.1            -1.5672e-006    2.8426e-008     2.8783e-009    
  -0.15           -2.0238e-006    -1.9066e-008    1.6708e-009    
  -0.2            -2.3112e-006    -1.285e-008     -6.093e-010    
  -0.25           -2.4908e-006    1.5352e-008     -2.087e-009    
  -0.3            -2.6555e-006    1.2244e-008     1.8256e-009    
  -0.35           -2.7431e-006    -2.3818e-008    1.9579e-009    
  -0.4            -2.8193e-006    -2.6686e-008    2.1357e-009    
  -0.45           -2.8868e-006    -2.7711e-008    2.2918e-009    
  -0.5            -2.9438e-006    -2.7687e-008    2.4537e-009    
  -0.55           -2.9998e-006    -2.7421e-008    2.5835e-009    
  -0.6            -3.0475e-006    -1.0298e-008    1.64e-011      
  -0.65           -3.0553e-006    9.762e-009      -1.3722e-009   
  -0.7            -3.1399e-006    9.513e-009      1.5357e-009    
  -0.75           -3.1705e-006    -2.7644e-008    2.4419e-009    
  -0.8            -3.2097e-006    -2.7314e-008    2.5768e-009    
  -0.85           -3.2501e-006    -1.0374e-008    8.3e-012       
  -0.9            -3.2483e-006    9.525e-009      -2.6558e-009   
  -0.95           -3.3177e-006    9.062e-009      1.2919e-009    
  -1              -3.3568e-006    -2.5584e-008    1.3059e-009    
  -1.05           -3.3889e-006    -2.5914e-008    2.7073e-009    
  -1.1            -3.4275e-006    -1.0145e-008    1.092e-010     
  -1.15           -3.4179e-006    9.435e-009      -1.3976e-009   
  -1.2            -3.4937e-006    9.711e-009      1.4144e-009    
  -1.25           -3.5209e-006    -2.7294e-008    2.606e-009     
  -1.3            -3.5532e-006    -2.592e-008     2.7009e-009    
  -1.35           -3.5899e-006    -1.0139e-008    1.095e-010     
  -1.4            -3.5767e-006    9.602e-009      -1.3966e-009   
  -1.45           -3.6116e-006    2.4951e-008     -1.3929e-009   
  -1.5            -3.6878e-006    1.0029e-008     1.4555e-009    
  -1.55           -3.7064e-006    -2.7472e-008    2.56e-009      
  -1.6            -3.7384e-006    -2.647e-008     2.66e-009      
  -1.65           -3.7741e-006    -1.0016e-008    7.58e-011      
  -1.7            -3.7578e-006    9.586e-009      -1.3914e-009   
  -1.75           -3.8379e-006    1.0016e-008     1.4551e-009    
  -1.8            -3.8559e-006    -2.7492e-008    2.5514e-009    
  -1.85           -3.8888e-006    -2.6465e-008    2.6624e-009    
  -1.9            -3.9182e-006    -2.5144e-008    2.7481e-009    
  -1.95           -3.9515e-006    -1.0567e-008    1.508e-010     
  -2              -3.9341e-006    9.247e-009      -1.4053e-009   
  -2.05           -4.0073e-006    9.445e-009      1.3663e-009    
  -2.1            -4.0334e-006    -2.671e-008     2.6583e-009    
  -2.15           -4.0632e-006    -2.5289e-008    1.3067e-009    
  -2.2            -4.0945e-006    -1.0532e-008    1.516e-010     
  -2.25           -4.0754e-006    9.263e-009      -1.4033e-009   
  -2.3            -4.1516e-006    9.354e-009      1.3709e-009    
  -2.35           -4.1744e-006    -2.6762e-008    2.6532e-009    
  -2.4            -4.2045e-006    -2.5287e-008    2.7428e-009    
  -2.45           -4.237e-006     -1.0523e-008    1.444e-010     
  -2.5            -4.2162e-006    9.269e-009      -1.4041e-009   
  -2.55           -4.2916e-006    9.453e-009      1.3788e-009    
  -2.6            -4.3134e-006    -2.6672e-008    2.6515e-009    
  -2.65           -4.3437e-006    -2.5406e-008    2.737e-009     
  -2.7            -4.3776e-006    -1.0465e-008    1.425e-010     
  -2.75           -4.3539e-006    9.259e-009      -1.4029e-009   
  -2.8            -4.4317e-006    9.544e-009      1.3849e-009    
  -2.85           -4.4539e-006    -2.6852e-008    2.6398e-009    
  -2.9            -4.4828e-006    -2.5284e-008    1.3048e-009    
  -2.95           -4.5105e-006    -2.5836e-008    2.7039e-009    
  -3              -4.5429e-006    -1.0065e-008    1.118e-010     
  -3.05           -4.5184e-006    9.585e-009      -1.3963e-009   
  -3.1            -4.6004e-006    9.911e-009      1.4185e-009    
  -3.15           -4.6185e-006    -2.7026e-008    2.595e-009     
  -3.2            -4.6475e-006    -2.5747e-008    2.6998e-009    
  -3.25           -4.6822e-006    -9.925e-009     1.08e-010      
  -3.3            -4.6577e-006    1.0034e-008     -1.396e-009    
  -3.35           -4.7399e-006    1.02e-008       1.4217e-009    
  -3.4            -4.7573e-006    -2.6724e-008    2.5937e-009    
  -3.45           -4.7863e-006    -2.5416e-008    2.6931e-009    
  -3.5            -4.8169e-006    -2.394e-008     1.3156e-009    
  -3.55           -4.8455e-006    -1.7855e-008    2.6289e-009    
  -3.6            -4.8675e-006    -2.4507e-008    2.7167e-009    
  -3.65           -4.9005e-006    -1.6634e-008    2.6877e-009    
  -3.7            -4.9299e-006    -1.6582e-008    2.6558e-009    
  -3.75           -4.9561e-006    -1.6624e-008    2.619e-009     
  -3.8            -4.9855e-006    -1.6615e-008    2.5804e-009    
  -3.85           -5.0104e-006    -1.6324e-008    2.5353e-009    
  -3.9            -5.0372e-006    -1.6093e-008    2.4891e-009    
  -3.95           -5.0617e-006    -1.5676e-008    2.4428e-009    
  -4              -5.0875e-006    -1.5146e-008    2.3903e-009    
  -4.05           -5.1147e-006    -1.4142e-008    2.3368e-009    
  -4.1            -5.1448e-006    -1.3427e-008    2.2883e-009    
  -4.15           -5.1729e-006    -1.2249e-008    2.2307e-009    
  -4.2            -5.2006e-006    -1.1205e-008    2.1722e-009    
  -4.25           -5.2307e-006    -9.963e-009     2.1085e-009    
  -4.3            -5.2596e-006    -8.437e-009     2.0498e-009    
  -4.35           -5.2894e-006    -6.923e-009     1.9816e-009    
  -4.4            -5.3191e-006    -4.782e-009     1.9228e-009    
  -4.45           -5.3116e-006    6.664e-009      -1.9352e-009   
  -4.5            -5.3364e-006    3.5931e-008     -1.5841e-009   
  -4.55           -5.3952e-006    3.3587e-008     2.2003e-009    
  -4.6            -5.4474e-006    1.1372e-008     2.586e-010     
  -4.65           -5.4223e-006    3.5854e-008     -1.4146e-009   
  -4.7            -5.4863e-006    4.2476e-008     2.7363e-009    
  -4.75           -5.5172e-006    2.3045e-008     -4.445e-010    
  -4.8            -5.5227e-006    5.3596e-008     -2.2824e-009   
  -4.85           -5.6243e-006    5.7044e-008     1.6916e-009    
  -4.9            -5.6318e-006    2.3291e-008     2.2054e-009    
  -4.95           -5.6224e-006    4.6022e-008     -1.8354e-009   
  -5              -5.6622e-006    8.5965e-008     -1.3704e-009   
END_DB

BEGIN_DB
 ICCAP_VAR VG         -2             
 ICCAP_VAR VS         0              
 ICCAP_VAR VB         0              

 #VD              ID              IB              IG             
  0               -5.9898e-008    1.2691e-008     -4.861e-010    
  -0.05           -4.6201e-006    -1.0484e-008    -1.8837e-009   
  -0.1            -8.9574e-006    2.0008e-008     -1.3633e-009   
  -0.15           -1.3072e-005    1.0258e-008     -2.2563e-009   
  -0.2            -1.6962e-005    1.2574e-008     6.044e-010     
  -0.25           -2.0626e-005    -8.727e-009     2.8682e-009    
  -0.3            -2.4051e-005    -1.5375e-008    1.4974e-009    
  -0.35           -2.7214e-005    -2.7611e-008    2.496e-009     
  -0.4            -3.0129e-005    -1.2918e-008    -6.503e-010    
  -0.45           -3.2791e-005    7.436e-009      -1.4126e-009   
  -0.5            -3.5298e-005    1.0061e-008     1.4697e-009    
  -0.55           -3.7499e-005    -1.8333e-008    1.6573e-009    
  -0.6            -3.9497e-005    -2.6584e-008    2.6456e-009    
  -0.65           -4.1268e-005    -2.4794e-008    1.9854e-009    
  -0.7            -4.2871e-005    -1.2843e-008    2.399e-010     
  -0.75           -4.4187e-005    1.0873e-008     -2.4836e-009   
  -0.8            -4.5502e-005    1.2905e-008     2.0311e-009    
  -0.85           -4.6598e-005    -1.9186e-008    1.599e-009     
  -0.9            -4.7548e-005    -2.7058e-008    2.6034e-009    
  -0.95           -4.8369e-005    -1.271e-008     -5.568e-010    
  -1              -4.9083e-005    2.1259e-008     -1.5055e-009   
  -1.05           -4.9838e-005    9.642e-009      1.1536e-009    
  -1.1            -5.0443e-005    -2.7457e-008    2.2522e-009    
  -1.15           -5.0962e-005    -1.2812e-008    -8.114e-010    
  -1.2            -5.1427e-005    8.198e-009      -1.4161e-009   
  -1.25           -5.2029e-005    1.1329e-008     1.6237e-009    
  -1.3            -5.2421e-005    -1.4325e-008    2.969e-010     
  -1.35           -5.271e-005     1.0017e-008     -2.5603e-009   
  -1.4            -5.3125e-005    1.1513e-008     3.202e-010     
  -1.45           -5.3546e-005    -1.9128e-008    1.7255e-009    
  -1.5            -5.3884e-005    -2.6147e-008    2.6888e-009    
  -1.55           -5.4193e-005    -2.5775e-008    2.0637e-009    
  -1.6            -5.4461e-005    -1.2518e-008    -9.046e-010    
  -1.65           -5.471e-005     2.6806e-008     -1.4099e-009   
  -1.7            -5.5146e-005    1.012e-008      1.4675e-009    
  -1.75           -5.5386e-005    -1.8301e-008    1.6584e-009    
  -1.8            -5.5653e-005    -2.6603e-008    2.6457e-009    
  -1.85           -5.5899e-005    -2.4666e-008    1.9889e-009    
  -1.9            -5.6112e-005    -1.226e-008     -9.381e-010    
  -1.95           -5.6312e-005    2.735e-008      -1.4129e-009   
  -2              -5.671e-005     1.0335e-008     1.5085e-009    
  -2.05           -5.6912e-005    -1.707e-008     1.6033e-009    
  -2.1            -5.7143e-005    -2.7162e-008    2.5969e-009    
  -2.15           -5.736e-005     -2.335e-008     1.9063e-009    
  -2.2            -5.7617e-005    -1.1805e-008    2.077e-010     
  -2.25           -5.7705e-005    1.148e-008      -2.4439e-009   
  -2.3            -5.804e-005     1.2706e-008     2.0788e-009    
  -2.35           -5.8258e-005    -1.966e-008     1.549e-009     
  -2.4            -5.8465e-005    -2.7358e-008    2.5506e-009    
  -2.45           -5.8665e-005    -2.2187e-008    1.8368e-009    
  -2.5            -5.8901e-005    -1.1164e-008    1.773e-010     
  -2.55           -5.897e-005     1.2155e-008     -2.3961e-009   
  -2.6            -5.9278e-005    1.2462e-008     2.1147e-009    
  -2.65           -5.949e-005     -1.9979e-008    1.4997e-009    
  -2.7            -5.9677e-005    -2.7602e-008    2.4893e-009    
  -2.75           -5.9822e-005    -1.2887e-008    -6.515e-010    
  -2.8            -5.9967e-005    7.444e-009      -1.4126e-009   
  -2.85           -6.0299e-005    1.0168e-008     1.4705e-009    
  -2.9            -6.0442e-005    -1.8098e-008    1.6526e-009    
  -2.95           -6.0631e-005    -2.6467e-008    2.6453e-009    
  -3              -6.0767e-005    -1.2499e-008    -5.155e-010    
  -3.05           -6.0889e-005    2.1114e-008     -1.5365e-009   
  -3.1            -6.1159e-005    9.952e-009      1.1177e-009    
  -3.15           -6.1345e-005    -2.7409e-008    2.3242e-009    
  -3.2            -6.1456e-005    -1.258e-008     -7.793e-010    
  -3.25           -6.1607e-005    8.523e-009      -1.4154e-009   
  -3.3            -6.1935e-005    1.1554e-008     1.5879e-009    
  -3.35           -6.2061e-005    -1.4611e-008    1.5113e-009    
  -3.4            -6.2222e-005    -2.6718e-008    2.5126e-009    
  -3.45           -6.2389e-005    -2.0178e-008    1.7889e-009    
  -3.5            -6.2581e-005    -1.7748e-008    2.5879e-009    
  -3.55           -6.2722e-005    -2.1451e-008    1.8965e-009    
  -3.6            -6.2914e-005    -1.644e-008     2.6567e-009    
  -3.65           -6.3035e-005    -2.262e-008     2.0101e-009    
  -3.7            -6.3249e-005    -1.4347e-008    2.7145e-009    
  -3.75           -6.3387e-005    -1.5445e-008    1.888e-009     
  -3.8            -6.3575e-005    -1.3764e-008    2.6566e-009    
  -3.85           -6.371e-005     -1.3402e-008    1.7606e-009    
  -3.9            -6.3889e-005    -1.214e-008     2.5775e-009    
  -3.95           -6.4057e-005    -2.129e-009     2.8757e-009    
  -4              -6.4205e-005    -9.109e-009     2.4815e-009    
  -4.05           -6.4289e-005    2.376e-008      2.4515e-009    
  -4.1            -6.452e-005     -2.832e-009     2.7041e-009    
  -4.15           -6.4569e-005    8.14e-009       -1.9347e-009   
