! VERSION = 6.00
BEGIN_HEADER
 ICCAP_INPUTS
  VG         V  B GROUND SMU4 0.001 LIN        1    0          -5         101  -0.05     
  VS         V  E GROUND SMU2 0.1 CON        0
  VB         V  C GROUND SMU3 0.1 LIN        3    0          5          3    2.5       
  VD         V  S GROUND SMU1 0.1 LIN        2    -0.1       -5         2    -4.9      
 ICCAP_OUTPUTS
  IG         I  B GROUND SMU4 B
  ID         I  S GROUND SMU1 B
  IB         I  C GROUND SMU3 B
END_HEADER

BEGIN_DB
 ICCAP_VAR VS         0              
 ICCAP_VAR VB         0              
 ICCAP_VAR VD         -0.1           

 #VG              IG              ID              IB             
  0               -9.486e-010     -9.068e-010     -1.1563e-008   
  -0.05           -1.7647e-009    -1.5574e-009    7.707e-009     
  -0.1            -3.597e-010     -2.2408e-009    -1.1255e-008   
  -0.15           1.2756e-009     -1.4583e-009    -2.5868e-008   
  -0.2            2.891e-009      -1.134e-010     -1.195e-008    
  -0.25           7.15e-010       2.0831e-009     -1.32e-010     
  -0.3            -1.3806e-009    6.83e-010       1.1109e-008    
  -0.35           -2.7208e-009    -2.8899e-009    7.971e-009     
  -0.4            -2.27e-011      -6.9656e-009    -1.0819e-008   
  -0.45           2.7373e-009     -1.1199e-008    1.4366e-008    
  -0.5            7.078e-010      -2.7668e-008    1.1183e-008    
  -0.55           1.1171e-009     -6.5473e-008    1.1046e-008    
  -0.6            2.8859e-009     -1.4068e-007    -1.0844e-008   
  -0.65           2.8137e-009     -2.756e-007     5.29e-010      
  -0.7            1.4426e-009     -5.0978e-007    1.1308e-008    
  -0.75           2.521e-010      -8.7342e-007    1.0379e-008    
  -0.8            -2.1404e-009    -1.4405e-006    -1.512e-008    
  -0.85           7.15e-011       -2.2778e-006    -1.2169e-008   
  -0.9            -3.753e-010     -3.3448e-006    -1.089e-008    
  -0.95           2.1945e-009     -4.6678e-006    -2.5736e-008   
  -1              1.5092e-009     -6.1856e-006    -7.683e-009    
  -1.05           2.8769e-009     -7.8372e-006    -9.276e-009    
  -1.1            2.8234e-009     -9.538e-006     5.62e-010      
  -1.15           1.4299e-009     -1.13126e-005   1.131e-008     
  -1.2            -2.5535e-009    -1.3001e-005    1.0438e-008    
  -1.25           -5.914e-010     -1.4717e-005    -1.1144e-008   
  -1.3            1.8718e-009     -1.6408e-005    -2.1886e-008   
  -1.35           1.3576e-009     -1.8032e-005    -9.229e-009    
  -1.4            2.8965e-009     -1.9621e-005    -9.863e-009    
  -1.45           2.6743e-009     -2.115e-005     -1.37e-010     
  -1.5            2.0225e-009     -2.2646e-005    -2.604e-009    
  -1.55           1.4294e-009     -2.4091e-005    -8.757e-009    
  -1.6            2.89e-009       -2.5498e-005    -9.416e-009    
  -1.65           2.7715e-009     -2.6848e-005    2.56e-010      
  -1.7            1.5174e-009     -2.8189e-005    1.1683e-008    
  -1.75           3.359e-010      -2.9427e-005    1.0395e-008    
  -1.8            8.185e-010      -3.0678e-005    1.1394e-008    
  -1.85           1.2134e-009     -3.1928e-005    1.0991e-008    
  -1.9            1.6666e-009     -3.3115e-005    1.1782e-008    
  -1.95           2.1128e-009     -3.4243e-005    1.0525e-008    
  -2              9.46e-010       -3.5343e-005    1.1568e-008    
  -2.05           1.3535e-009     -3.6446e-005    1.1169e-008    
  -2.1            1.8174e-009     -3.7507e-005    1.1856e-008    
  -2.15           6.521e-010      -3.8514e-005    1.0984e-008    
  -2.2            -1.6674e-009    -3.9524e-005    1.9369e-008    
  -2.25           -1.417e-009     -4.0498e-005    7.701e-009     
  -2.3            -1.3543e-009    -4.1462e-005    9.094e-009     
  -2.35           -2.3941e-009    -4.2394e-005    9.986e-009     
  -2.4            2.25e-010       -4.3368e-005    -1.3838e-008   
  -2.45           -1.656e-010     -4.4242e-005    -1.1096e-008   
  -2.5            -6.795e-010     -4.512e-005     -1.1348e-008   
  -2.55           1.7561e-009     -4.6009e-005    -1.9913e-008   
  -2.6            1.3247e-009     -4.6841e-005    -9.125e-009    
  -2.65           2.8857e-009     -4.7674e-005    -1.0071e-008   
  -2.7            2.5942e-009     -4.848e-005     -3.02e-010     
  -2.75           1.909e-009      -4.9277e-005    -3.525e-009    
  -2.8            1.3817e-009     -5.0066e-005    -9.248e-009    
  -2.85           2.8973e-009     -5.0831e-005    -9.713e-009    
  -2.9            2.7124e-009     -5.1582e-005    -1.1e-011      
  -2.95           2.0957e-009     -5.2322e-005    -2.193e-009    
  -3              1.459e-009      -5.3051e-005    -8.285e-009    
  -3.05           2.885e-009      -5.3769e-005    -9.288e-009    
  -3.1            2.7913e-009     -5.4465e-005    4.27e-010      
  -3.15           1.476e-009      -5.5162e-005    1.1322e-008    
  -3.2            2.924e-010      -5.5817e-005    1.0481e-008    
  -3.25           7.769e-010      -5.6489e-005    1.1308e-008    
  -3.3            1.1762e-009     -5.7152e-005    1.0954e-008    
  -3.35           1.6298e-009     -5.7807e-005    1.1556e-008    
  -3.4            2.0798e-009     -5.8423e-005    1.2261e-008    
  -3.45           9.14e-010       -5.9041e-005    1.1526e-008    
  -3.5            1.3123e-009     -5.9665e-005    1.091e-008     
  -3.55           1.09e-010       -6.0244e-005    1.0696e-008    
  -3.6            6.019e-010      -6.0843e-005    1.0901e-008    
  -3.65           1.036e-009      -6.143e-005     1.1285e-008    
  -3.7            -1.781e-010     -6.2008e-005    1.1831e-008    
  -3.75           2.676e-010      -6.256e-005     1.0438e-008    
  -3.8            7.574e-010      -6.3117e-005    1.1301e-008    
  -3.85           1.1619e-009     -6.3672e-005    1.0941e-008    
  -3.9            1.5992e-009     -6.4224e-005    1.1493e-008    
  -3.95           2.0504e-009     -6.4748e-005    1.229e-008     
  -4              8.882e-010      -6.5244e-005    1.1632e-008    
  -4.05           1.2906e-009     -6.5775e-005    1.0771e-008    
  -4.1            8.8e-011        -6.6264e-005    1.0701e-008    
  -4.15           5.8e-010        -6.6771e-005    1.0828e-008    
  -4.2            1.0133e-009     -6.7257e-005    1.1271e-008    
  -4.25           -1.992e-010     -6.7761e-005    1.2114e-008    
  -4.3            2.395e-010      -6.8206e-005    1.0438e-008    
  -4.35           7.255e-010      -6.8682e-005    1.1282e-008    
  -4.4            1.1394e-009     -6.9145e-005    1.0962e-008    
  -4.45           1.575e-009      -6.9604e-005    1.1445e-008    
  -4.5            3.924e-010      -7.0037e-005    1.0481e-008    
  -4.55           8.674e-010      -7.0484e-005    1.1559e-008    
  -4.6            1.2686e-009     -7.0924e-005    1.078e-008     
  -4.65           6.68e-011       -7.1345e-005    1.0774e-008    
  -4.7            5.58e-010       -7.1758e-005    1.0753e-008    
  -4.75           9.885e-010      -7.2187e-005    1.14e-008      
  -4.8            1.407e-009      -7.2601e-005    1.1074e-008    
  -4.85           1.8631e-009     -7.3004e-005    1.1332e-008    
  -4.9            7.02e-010       -7.3401e-005    1.1143e-008    
  -4.95           1.1116e-009     -7.3797e-005    1.102e-008     
  -5              1.5523e-009     -7.4195e-005    1.1504e-008    
END_DB

BEGIN_DB
 ICCAP_VAR VS         0              
 ICCAP_VAR VB         0              
 ICCAP_VAR VD         -5             

 #VG              IG              ID              IB             
  0               -9.28e-011      -2.4619e-008    1.1575e-008    
  -0.05           1.9788e-009     -4.3913e-008    -1.9005e-008   
  -0.1            1.3995e-009     -7.4816e-008    -8.486e-009    
  -0.15           -1.818e-010     -1.2928e-007    1.0341e-008    
  -0.2            2.4656e-009     -2.1693e-007    -1.5133e-008   
  -0.25           1.7345e-009     -3.596e-007     -1.627e-009    
  -0.3            1.3255e-009     -5.9657e-007    -3.662e-009    
  -0.35           2.8867e-009     -9.6912e-007    -1.006e-009    
  -0.4            2.136e-010      -1.516e-006     1.4036e-008    
  -0.45           7.091e-010      -2.358e-006     3.438e-008     
  -0.5            1.114e-009      -3.5851e-006    4.6791e-008    
  -0.55           1.554e-009      -5.337e-006     6.5022e-008    
  -0.6            2.0148e-009     -7.6778e-006    9.0732e-008    
  -0.65           -1.1865e-009    -1.0768e-005    1.1724e-007    
  -0.7            -1.4591e-009    -1.4688e-005    1.7243e-007    
  -0.75           -1.3603e-009    -1.9529e-005    2.0089e-007    
  -0.8            -2.5542e-009    -2.5238e-005    2.4935e-007    
  -0.85           -1.9977e-009    -3.1879e-005    2.9521e-007    
  -0.9            -1.5088e-009    -3.9242e-005    3.5485e-007    
  -0.95           -1.3728e-009    -4.7369e-005    4.1599e-007    
  -1              -2.6402e-009    -5.6203e-005    4.7287e-007    
  -1.05           -2.1599e-009    -6.5796e-005    5.2091e-007    
  -1.1            -1.5961e-009    -7.5864e-005    5.7871e-007    
  -1.15           -1.3947e-009    -8.6502e-005    6.3681e-007    
  -1.2            -1.336e-009     -9.7722e-005    6.8681e-007    
  -1.25           -2.3433e-009    -0.000109367    7.3503e-007    
  -1.3            -1.3426e-009    -0.00012143     7.6184e-007    
  -1.35           -2.4183e-009    -0.00013399     8.1683e-007    
  -1.4            -1.7987e-009    -0.00014705     8.454e-007     
  -1.45           -1.4486e-009    -0.00016037     8.8171e-007    
  -1.5            -1.3622e-009    -0.00017403     9.1157e-007    
  -1.55           -2.5431e-009    -0.00018794     9.3588e-007    
  -1.6            -1.9685e-009    -0.0002024      9.4794e-007    
  -1.65           -1.508e-009     -0.0002169      9.6772e-007    
  -1.7            -1.3832e-009    -0.00023165     9.8468e-007    
  -1.75           -2.6333e-009    -0.00024668     9.9209e-007    
  -1.8            -2.1392e-009    -0.00026213     9.9027e-007    
  -1.85           -1.589e-009     -0.00027774     9.9499e-007    
  -1.9            -1.4031e-009    -0.0002934      9.9723e-007    
  -1.95           -1.3479e-009    -0.00030923     9.9337e-007    
  -2              -2.3212e-009    -0.00032515     9.8763e-007    
  -2.05           -1.7073e-009    -0.00034152     9.6962e-007    
  -2.1            -1.4297e-009    -0.0003578      9.6071e-007    
  -2.15           -1.3607e-009    -0.00037423     9.4871e-007    
  -2.2            -2.4643e-009    -0.00039075     9.3156e-007    
  -2.25           -1.8499e-009    -0.0004077      9.0567e-007    
  -2.3            -1.4685e-009    -0.00042442     8.9028e-007    
  -2.35           -1.3736e-009    -0.00044136     8.7312e-007    
  -2.4            -2.5732e-009    -0.00045832     8.4949e-007    
  -2.45           -2.0156e-009    -0.00047559     8.1865e-007    
  -2.5            -1.5281e-009    -0.00049286     7.9787e-007    
  -2.55           -1.3893e-009    -0.0005101      7.7685e-007    
  -2.6            -2.6535e-009    -0.00052753     7.5116e-007    
  -2.65           -2.184e-009     -0.00054505     7.1835e-007    
  -2.7            -1.6153e-009    -0.00056261     6.9512e-007    
  -2.75           -1.4107e-009    -0.00058016     6.7372e-007    
  -2.8            -1.3521e-009    -0.00059787     6.4869e-007    
  -2.85           -2.3521e-009    -0.00061559     6.2426e-007    
  -2.9            -1.7458e-009    -0.00063358     5.9142e-007    
  -2.95           -1.4377e-009    -0.0006514      5.7068e-007    
  -3              -1.3627e-009    -0.00066932     5.4821e-007    
  -3.05           -2.4941e-009    -0.00068713     5.2286e-007    
  -3.1            -1.8971e-009    -0.0007053      4.933e-007     
  -3.15           -1.4795e-009    -0.00072332     4.7339e-007    
  -3.2            -1.3793e-009    -0.00074132     4.5436e-007    
  -3.25           -2.5989e-009    -0.00075953     4.3178e-007    
  -3.3            -2.0566e-009    -0.00077778     4.0436e-007    
  -3.35           -1.5472e-009    -0.00079593     3.8639e-007    
  -3.4            -1.3944e-009    -0.00081412     3.7137e-007    
  -3.45           -2.6722e-009    -0.00083229     3.5198e-007    
  -3.5            -2.2323e-009    -0.00085079     3.2557e-007    
  -3.55           -1.644e-009     -0.00086913     3.1112e-007    
  -3.6            -1.4174e-009    -0.00088733     2.9876e-007    
  -3.65           -1.3573e-009    -0.00090568     2.8387e-007    
  -3.7            -2.4014e-009    -0.00092403     2.6986e-007    
  -3.75           -1.7728e-009    -0.00094289     2.4717e-007    
  -3.8            -1.4511e-009    -0.00096126     2.3704e-007    
  -3.85           -1.3683e-009    -0.00097955     2.2694e-007    
  -3.9            -2.5266e-009    -0.00099795     2.1336e-007    
  -3.95           -1.9294e-009    -0.00101656     1.9487e-007    
  -4              -1.4932e-009    -0.00103494     1.8666e-007    
  -4.05           -1.3835e-009    -0.00105338     1.798e-007     
  -4.1            -2.6192e-009    -0.00107156     1.6871e-007    
  -4.15           -2.0979e-009    -0.00109024     1.5213e-007    
  -4.2            -1.5666e-009    -0.0011087      1.4612e-007    
  -4.25           -1.3998e-009    -0.00112709     1.4234e-007    
  -4.3            1.7387e-009     -0.0011452      1.3441e-007    
  -4.35           -1.6866e-009    -0.0011632      1.3778e-007    
  -4.4            -1.425e-009     -0.0011818      1.1838e-007    
  -4.45           -1.3562e-009    -0.0012001      1.1327e-007    
  -4.5            -2.4268e-009    -0.0012185      1.0742e-007    
  -4.55           1.7292e-009     -0.0012371      7.176e-008     
  -4.6            2.8085e-009     -0.0012558      7.3218e-008    
  -4.65           2.3067e-009     -0.001274       7.9603e-008    
  -4.7            1.6054e-009     -0.0012923      6.9812e-008    
  -4.75           1.2865e-009     -0.0013106      6.2249e-008    
  -4.8            2.8539e-009     -0.0013289      5.5932e-008    
  -4.85           2.4797e-009     -0.0013468      6.2283e-008    
  -4.9            1.768e-009      -0.0013651      5.449e-008     
  -4.95           1.3303e-009     -0.0013834      4.6268e-008    
  -5              2.8827e-009     -0.0014018      4.2272e-008    
END_DB

BEGIN_DB
 ICCAP_VAR VS         0              
 ICCAP_VAR VB         2.5            
 ICCAP_VAR VD         -0.1           

 #VG              IG              ID              IB             
  0               2.909e-010      4.581e-010      1.7534e-008    
  -0.05           2.827e-009      -2.077e-010     -1.5644e-008   
  -0.1            1.1795e-009     2.2417e-009     1.1514e-008    
  -0.15           1.372e-009      2.0914e-009     1.1875e-008    
  -0.2            1.571e-009      1.8628e-009     1.1671e-008    
  -0.25           1.081e-010      2.1352e-009     1.0473e-008    
  -0.3            3.224e-010      2.2478e-009     1.1013e-008    
  -0.35           5.407e-010      2.3247e-009     1.1488e-008    
  -0.4            7.587e-010      2.3622e-009     1.1447e-008    
  -0.45           -1.348e-009     1.6575e-009     1.6913e-008    
  -0.5            -2.5609e-009    2.862e-010      1.1638e-008    
  -0.55           -3.426e-010     -2.2266e-009    -1.12e-008     
  -0.6            1.2833e-009     -1.4062e-009    -2.5981e-008   
  -0.65           2.8928e-009     6.4e-012        -1.1725e-008   
  -0.7            6.804e-010      2.251e-009      -2.7e-011      
  -0.75           -1.3843e-009    1.0126e-009     1.1225e-008    
  -0.8            -2.7261e-009    -2.3789e-009    8.027e-009     
  -0.85           4.8e-012        -6.9345e-009    -1.0914e-008   
  -0.9            2.8881e-009     -1.4858e-008    2.1046e-008    
  -0.95           2.7972e-009     -4.6555e-008    4.24e-010      
  -1              -9.265e-010     -1.2343e-007    1.1967e-008    
  -1.05           2.957e-010      -2.7931e-007    -1.4799e-008   
  -1.1            -9.53e-011      -5.5475e-007    -1.1266e-008   
  -1.15           -6.151e-010     -1.01055e-006   -1.1207e-008   
  -1.2            2.8772e-009     -1.7232e-006    1.1644e-008    
  -1.25           2.87e-010       -2.664e-006     1.0435e-008    
  -1.3            7.784e-010      -3.9016e-006    1.1349e-008    
  -1.35           -1.553e-009     -5.3162e-006    1.6295e-008    
  -1.4            -1.3946e-009    -6.8719e-006    8.674e-009     
  -1.45           -2.6633e-009    -8.4992e-006    8.443e-009     
  -1.5            -2.2092e-009    -1.01655e-005   5.84e-010      
  -1.55           1.4566e-009     -1.1832e-005    4.63e-010      
  -1.6            2.8888e-009     -1.3433e-005    -9.622e-009    
  -1.65           2.7784e-009     -1.4976e-005    3.28e-010      
  -1.7            1.5054e-009     -1.6508e-005    1.1745e-008    
  -1.75           3.195e-010      -1.7919e-005    1.0326e-008    
  -1.8            8.039e-010      -1.9346e-005    1.1538e-008    
  -1.85           -1.5299e-009    -2.0725e-005    1.5436e-008    
  -1.9            -1.3913e-009    -2.2027e-005    8.763e-009     
  -1.95           -2.6531e-009    -2.3303e-005    8.38e-009      
  -2              -2.1637e-009    -2.4557e-005    6.52e-010      
  -2.05           1.338e-010      -2.5802e-005    -1.2195e-008   
  -2.1            -3.456e-010     -2.6946e-005    -1.0774e-008   
  -2.15           2.2267e-009     -2.8083e-005    -2.6109e-008   
  -2.2            1.532e-009      -2.9188e-005    -7.293e-009    
  -2.25           2.8691e-009     -3.0273e-005    -9.109e-009    
  -2.3            2.1153e-009     -3.1311e-005    1.0979e-008    
  -2.35           9.451e-010      -3.2333e-005    1.1569e-008    
  -2.4            -3.251e-010     -3.333e-005     1.2988e-008    
  -2.45           1.259e-010      -3.4286e-005    1.0551e-008    
  -2.5            6.51e-010       -3.525e-005     1.1185e-008    
  -2.55           1.0703e-009     -3.6191e-005    1.1242e-008    
  -2.6            -1.978e-010     -3.7092e-005    1.1546e-008    
  -2.65           3.039e-010      -3.7979e-005    1.0398e-008    
  -2.7            8.014e-010      -3.8861e-005    1.1511e-008    
  -2.75           -1.541e-009     -3.972e-005     1.5674e-008    
  -2.8            -1.3915e-009    -4.054e-005     8.811e-009     
  -2.85           -2.6546e-009    -4.1357e-005    8.251e-009     
  -2.9            -2.1814e-009    -4.2167e-005    6.19e-010      
  -2.95           1.437e-010      -4.2991e-005    -1.2149e-008   
  -3              -3.323e-010     -4.3738e-005    -1.084e-008    
  -3.05           2.2209e-009     -4.4499e-005    -2.5981e-008   
  -3.1            1.5318e-009     -4.5247e-005    -7.389e-009    
  -3.15           2.8737e-009     -4.5982e-005    -9.24e-009     
  -3.2            2.1154e-009     -4.6698e-005    1.103e-008     
  -3.25           9.415e-010      -4.7398e-005    1.154e-008     
  -3.3            1.3589e-009     -4.8102e-005    1.1386e-008    
  -3.35           1.8147e-009     -4.8785e-005    1.2196e-008    
  -3.4            6.509e-010      -4.9439e-005    1.117e-008     
  -3.45           1.0711e-009     -5.0106e-005    1.1236e-008    
  -3.5            -2.002e-010     -5.0745e-005    1.1492e-008    
  -3.55           2.949e-010      -5.1369e-005    1.0436e-008    
  -3.6            8.078e-010      -5.1999e-005    1.1485e-008    
  -3.65           -1.5357e-009    -5.2627e-005    1.5412e-008    
  -3.7            -1.3923e-009    -5.3214e-005    8.831e-009     
  -3.75           -2.6534e-009    -5.381e-005     8.157e-009     
  -3.8            -2.1671e-009    -5.4409e-005    6.38e-010      
  -3.85           -1.8368e-009    -5.4968e-005    -9.401e-009    
  -3.9            -8.005e-010     -5.5543e-005    -1.1616e-008   
  -3.95           1.6152e-009     -5.614e-005     -1.7675e-008   
  -4              1.2904e-009     -5.6658e-005    -9.15e-009     
  -4.05           2.852e-009      -5.7204e-005    -1.1144e-008   
  -4.1            3.453e-010      -5.7728e-005    1.0454e-008    
  -4.15           8.396e-010      -5.8245e-005    1.16e-008      
