! VERSION = 6.00
BEGIN_HEADER
 ICCAP_INPUTS
  VG         V  B GROUND SMU4 0.001 LIN        2    0          -5         6    -1        
  VS         V  E GROUND SMU3 0.1 CON        0
  VD         V  S GROUND SMU2 0.1 LIN        1    0          -5         101  -0.05     
  VB         V  C GROUND SMU1 0.1 LIN        3    0          2.5        2    2.5       
 ICCAP_OUTPUTS
  ID         I  S GROUND SMU2 B
  IB         I  C GROUND SMU1 B
  IG         I  B GROUND SMU4 B
END_HEADER

BEGIN_DB
 ICCAP_VAR VG         0              
 ICCAP_VAR VS         0              
 ICCAP_VAR VB         0              

 #VD              ID              IB              IG             
  0               -2.1834e-009    -5.171e-009     -4.54e-011     
  -0.05           2.3115e-009     -5.099e-009     9.762e-010     
  -0.1            2.3618e-009     -5.163e-009     9.096e-010     
  -0.15           -2.5624e-009    -1.5038e-009    1.4625e-009    
  -0.2            2.3857e-009     2.5656e-009     5.67e-010      
  -0.25           -2.3241e-009    4.776e-009      -7.24e-010     
  -0.3            2.3494e-009     -7.2773e-009    9.379e-010     
  -0.35           -2.0517e-009    4.5604e-009     -1.0862e-009   
  -0.4            2.3567e-009     -6.888e-009     8.413e-010     
  -0.45           -2.2586e-009    4.2768e-009     -9.866e-010    
  -0.5            2.2995e-009     -6.3956e-009    7.323e-010     
  -0.55           -2.3729e-009    5.0506e-009     -8.985e-010    
  -0.6            2.0655e-009     -5.7957e-009    1.1003e-009    
  -0.65           -2.372e-009     4.8892e-009     -7.982e-010    
  -0.7            2.2666e-009     -7.542e-009     1.0009e-009    
  -0.75           -1.9032e-009    4.7114e-009     -1.1632e-009   
  -0.8            2.3631e-009     -7.154e-009     9.103e-010     
  -0.85           -2.1157e-009    4.4703e-009     -1.0512e-009   
  -0.9            2.3465e-009     -6.7478e-009    8.067e-010     
  -0.95           -2.3043e-009    4.1826e-009     -9.601e-010    
  -1              1.9097e-009     -6.2293e-009    1.1821e-009    
  -1.05           -2.3856e-009    4.9997e-009     -8.683e-010    
  -1.1            2.1255e-009     -5.5613e-009    1.0656e-009    
  -1.15           -2.3546e-009    4.8492e-009     -7.664e-010    
  -1.2            2.302e-009      -7.4056e-009    9.751e-010     
  -1.25           -1.9628e-009    4.6535e-009     -1.131e-009    
  -1.3            2.3669e-009     -7.0352e-009    8.808e-010     
  -1.35           -2.1792e-009    4.3813e-009     -1.0191e-009   
  -1.4            2.33e-009       -6.6152e-009    7.75e-010      
  -1.45           -2.3426e-009    5.1035e-009     -9.318e-010    
  -1.5            1.968e-009      -6.0622e-009    1.1463e-009    
  -1.55           -2.3873e-009    4.9561e-009     -8.39e-010     
  -1.6            2.1876e-009     -5.4166e-009    1.0399e-009    
  -1.65           -2.3363e-009    4.7993e-009     -7.363e-010    
  -1.7            2.3397e-009     -7.2697e-009    9.456e-010     
  -1.75           -2.018e-009     4.5879e-009     -1.0948e-009   
  -1.8            2.3659e-009     -6.9245e-009    8.511e-010     
  -1.85           -2.2298e-009    4.3012e-009     -9.972e-010    
  -1.9            2.3135e-009     -6.4843e-009    7.443e-010     
  -1.95           -2.3649e-009    5.0462e-009     -9.073e-010    
  -2              2.029e-009      -5.8759e-009    1.1129e-009    
  -2.05           -2.3783e-009    4.9164e-009     -8.114e-010    
  -2.1            2.2327e-009     -5.2048e-009    1.0113e-009    
  -2.15           -2.3214e-009    4.7422e-009     -7.055e-010    
  -2.2            2.3555e-009     -7.1879e-009    9.231e-010     
  -2.25           -2.0804e-009    4.5061e-009     -1.0647e-009   
  -2.3            2.358e-009      -6.7976e-009    8.235e-010     
  -2.35           -2.2782e-009    4.2368e-009     -9.714e-010    
  -2.4            2.3012e-009     -6.3416e-009    7.152e-010     
  -2.45           -2.3827e-009    5.0081e-009     -8.808e-010    
  -2.5            2.0919e-009     -5.7168e-009    1.0837e-009    
  -2.55           -2.3632e-009    4.8694e-009     -7.834e-010    
  -2.6            2.2871e-009     -7.4622e-009    9.901e-010     
  -2.65           -1.9293e-009    4.6812e-009     -1.1454e-009   
  -2.7            2.3649e-009     -7.0773e-009    8.942e-010     
  -2.75           -2.1424e-009    4.4197e-009     -1.0387e-009   
  -2.8            2.3302e-009     -6.6724e-009    7.939e-010     
  -2.85           -2.3222e-009    5.1353e-009     -9.486e-010    
  -2.9            1.9339e-009     -6.1408e-009    1.17e-009      
  -2.95           -2.3805e-009    4.9851e-009     -8.55e-010     
  -3              2.1574e-009     -5.4974e-009    1.0568e-009    
  -3.05           -2.3391e-009    4.8224e-009     -7.537e-010    
  -3.1            2.322e-009      -7.3942e-009    9.665e-010     
  -3.15           -1.9839e-009    4.6277e-009     -1.1154e-009   
  -3.2            2.3624e-009     -7.0105e-009    8.701e-010     
  -3.25           -2.2047e-009    4.3542e-009     -1.015e-009    
  -3.3            2.3181e-009     -6.5628e-009    7.618e-010     
  -3.35           -2.3523e-009    5.0849e-009     -9.249e-010    
  -3.4            1.9903e-009     -5.9773e-009    1.1359e-009    
  -3.45           -2.3778e-009    4.9482e-009     -8.3e-010      
  -3.5            2.2032e-009     -5.3284e-009    1.0331e-009    
  -3.55           -2.3304e-009    4.7846e-009     -7.27e-010     
  -3.6            2.3397e-009     -7.2716e-009    9.433e-010     
  -3.65           -2.034e-009     4.5655e-009     -1.0891e-009   
  -3.7            2.3596e-009     -6.8977e-009    8.446e-010     
  -3.75           -2.2397e-009    4.2879e-009     -9.929e-010    
  -3.8            2.305e-009      -6.4448e-009    7.372e-010     
  -3.85           -2.3682e-009    5.0523e-009     -9.02e-010     
  -3.9            2.0396e-009     -5.8493e-009    1.1082e-009    
  -3.95           -2.374e-009     4.9095e-009     -8.078e-010    
  -4              2.2406e-009     -5.1773e-009    1.0115e-009    
  -4.05           -2.3215e-009    4.7339e-009     -7.034e-010    
  -4.1            2.3544e-009     -7.1712e-009    9.189e-010     
  -4.15           -2.0881e-009    4.5009e-009     -1.0622e-009   
  -4.2            2.3531e-009     -6.8162e-009    8.204e-010     
  -4.25           -2.2848e-009    4.2345e-009     -9.682e-010    
  -4.3            2.3029e-009     -6.3135e-009    7.114e-010     
  -4.35           -2.3798e-009    5.0129e-009     -8.8e-010      
  -4.4            2.089e-009      -5.6689e-009    1.0833e-009    
  -4.45           -2.364e-009     4.8682e-009     -7.816e-010    
  -4.5            2.2787e-009     -7.4881e-009    9.865e-010     
  -4.55           -1.9252e-009    4.6881e-009     -1.1502e-009   
  -4.6            2.3614e-009     -7.0729e-009    8.963e-010     
  -4.65           -2.1331e-009    4.4424e-009     -1.0399e-009   
  -4.7            2.34e-009       -6.6904e-009    7.945e-010     
  -4.75           -2.311e-009     4.1654e-009     -9.523e-010    
  -4.8            1.924e-009      -6.1854e-009    1.1751e-009    
  -4.85           -2.3842e-009    4.984e-009      -8.596e-010    
  -4.9            2.139e-009      -5.5411e-009    1.0592e-009    
  -4.95           -2.3546e-009    4.831e-009      -7.596e-010    
  -5              2.3058e-009     -7.3791e-009    9.657e-010     
END_DB

BEGIN_DB
 ICCAP_VAR VG         -1             
 ICCAP_VAR VS         0              
 ICCAP_VAR VB         0              

 #VD              ID              IB              IG             
  0               1.9857e-008     -4.3651e-009    -4.835e-010    
  -0.05           -1.1329e-006    -4.542e-009     -1.4522e-009   
  -0.1            -1.9475e-006    5.5797e-009     -1.4655e-009   
  -0.15           -2.4879e-006    5.6548e-009     -1.4862e-009   
  -0.2            -2.8398e-006    5.7419e-009     -1.5113e-009   
  -0.25           -3.0746e-006    5.8428e-009     -1.5384e-009   
  -0.3            -3.2386e-006    5.9705e-009     -1.5631e-009   
  -0.35           -3.363e-006     6.0788e-009     -1.5719e-009   
  -0.4            -3.4662e-006    6.1337e-009     -1.4788e-009   
  -0.45           -3.5517e-006    5.6442e-009     -1.4725e-009   
  -0.5            -3.6283e-006    5.6164e-009     -1.4583e-009   
  -0.55           -3.6988e-006    5.5712e-009     -1.4492e-009   
  -0.6            -3.7649e-006    5.5463e-009     -1.4461e-009   
  -0.65           -3.8268e-006    5.5452e-009     -1.4535e-009   
  -0.7            -3.8845e-006    5.5918e-009     -1.4689e-009   
  -0.75           -3.9432e-006    5.6712e-009     -1.491e-009    
  -0.8            -3.9993e-006    5.7634e-009     -1.5169e-009   
  -0.85           -4.0564e-006    5.8732e-009     -1.5465e-009   
  -0.9            -4.111e-006     6.0009e-009     -1.5661e-009   
  -0.95           -4.1652e-006    6.0894e-009     -1.4827e-009   
  -1              -4.2186e-006    5.6725e-009     -1.479e-009    
  -1.05           -4.2697e-006    5.6446e-009     -1.4683e-009   
  -1.1            -4.3195e-006    5.5989e-009     -1.4545e-009   
  -1.15           -4.3685e-006    5.5582e-009     -1.4462e-009   
  -1.2            -4.4184e-006    5.5372e-009     -1.4443e-009   
  -1.25           -4.4658e-006    5.5488e-009     -1.4558e-009   
  -1.3            -4.5122e-006    5.5971e-009     -1.4718e-009   
  -1.35           -4.5618e-006    5.6826e-009     -1.4966e-009   
  -1.4            -4.6108e-006    5.7884e-009     -1.5242e-009   
  -1.45           -4.6587e-006    5.9034e-009     -1.5523e-009   
  -1.5            -4.7088e-006    6.0167e-009     -1.5689e-009   
  -1.55           -4.7555e-006    6.1134e-009     -1.4852e-009   
  -1.6            -4.8028e-006    5.6768e-009     -1.4784e-009   
  -1.65           -4.8481e-006    5.6394e-009     -1.4654e-009   
  -1.7            -4.8922e-006    5.5928e-009     -1.4542e-009   
  -1.75           -4.9386e-006    5.5523e-009     -1.4466e-009   
  -1.8            -4.9841e-006    5.5309e-009     -1.4455e-009   
  -1.85           -5.0272e-006    5.5477e-009     -1.4545e-009   
  -1.9            -5.0723e-006    5.608e-009      -1.4763e-009   
  -1.95           -5.1196e-006    5.6917e-009     -1.5009e-009   
  -2              -5.166e-006     5.8012e-009     -1.5293e-009   
  -2.05           -5.2116e-006    5.9275e-009     -1.5555e-009   
  -2.1            -5.2588e-006    6.0403e-009     -1.5718e-009   
  -2.15           -5.3043e-006    6.1302e-009     -1.4865e-009   
  -2.2            -5.348e-006     5.6784e-009     -1.4768e-009   
  -2.25           -5.3926e-006    5.6356e-009     -1.4649e-009   
  -2.3            -5.4341e-006    5.5905e-009     -1.4513e-009   
  -2.35           -5.4785e-006    5.5457e-009     -1.444e-009    
  -2.4            -5.522e-006     5.5314e-009     -1.444e-009    
  -2.45           -5.5638e-006    5.5554e-009     -1.4562e-009   
  -2.5            -5.6082e-006    5.6289e-009     -1.4805e-009   
  -2.55           -5.6546e-006    5.7334e-009     -1.5053e-009   
  -2.6            -5.6978e-006    5.84e-009       -1.5338e-009   
  -2.65           -5.7446e-006    5.97e-009       -1.5591e-009   
  -2.7            -5.7893e-006    6.1021e-009     -1.4882e-009   
  -2.75           -5.8358e-006    5.7388e-009     -1.4846e-009   
  -2.8            -5.8787e-006    5.7195e-009     -1.4752e-009   
  -2.85           -5.9227e-006    5.6912e-009     -1.4612e-009   
  -2.9            -5.9621e-006    5.6573e-009     -1.4481e-009   
  -2.95           -6.0066e-006    5.6389e-009     -1.4426e-009   
  -3              -6.0486e-006    5.6533e-009     -1.4455e-009   
  -3.05           -6.0917e-006    5.7254e-009     -1.4608e-009   
  -3.1            -6.1334e-006    5.8414e-009     -1.4824e-009   
  -3.15           -6.1796e-006    5.9861e-009     -1.5125e-009   
  -3.2            -6.2249e-006    6.1637e-009     -1.5418e-009   
  -3.25           -6.2686e-006    6.3709e-009     -1.5652e-009   
  -3.3            -6.3155e-006    6.5655e-009     -1.4869e-009   
  -3.35           -6.3593e-006    6.288e-009      -1.4842e-009   
  -3.4            -6.4025e-006    6.3836e-009     -1.4746e-009   
  -3.45           -6.4453e-006    6.4891e-009     -1.4583e-009   
  -3.5            -6.4853e-006    6.6178e-009     -1.4469e-009   
  -3.55           -6.531e-006     6.8088e-009     -1.4423e-009   
  -3.6            -6.5728e-006    7.0674e-009     -1.4506e-009   
  -3.65           -6.6134e-006    7.4332e-009     -1.4661e-009   
  -3.7            -6.6591e-006    7.8726e-009     -1.489e-009    
  -3.75           -6.7045e-006    8.4013e-009     -1.5181e-009   
  -3.8            -6.75e-006      9.0143e-009     -1.5473e-009   
  -3.85           -6.799e-006     9.7203e-009     -1.568e-009    
  -3.9            -6.8418e-006    1.04916e-008    -1.4878e-009   
  -3.95           -6.886e-006     1.08644e-008    -1.4827e-009   
  -4              -6.9461e-006    2.095e-009      1.993e-010     
  -4.05           -7.001e-006     1.2693e-008     -1.491e-009    
  -4.1            -7.0252e-006    1.416e-008      -1.4551e-009   
  -4.15           -7.0724e-006    1.4785e-008     -1.4432e-009   
  -4.2            -7.1162e-006    1.6283e-008     -1.455e-009    
  -4.25           -7.1651e-006    1.852e-008      -1.4768e-009   
  -4.3            -7.2099e-006    2.1288e-008     -1.556e-009    
  -4.35           -7.2559e-006    2.4357e-008     -1.5163e-009   
  -4.4            -7.3009e-006    2.6216e-008     -1.4725e-009   
  -4.45           -7.3521e-006    2.8297e-008     -1.4451e-009   
  -4.5            -7.397e-006     3.1247e-008     -1.4457e-009   
  -4.55           -7.4482e-006    3.5213e-008     -1.4628e-009   
  -4.6            -7.4974e-006    3.9977e-008     -1.4834e-009   
  -4.65           -7.5438e-006    4.5563e-008     -1.5373e-009   
  -4.7            -7.5952e-006    5.0705e-008     -1.4916e-009   
  -4.75           -7.6441e-006    5.5651e-008     -1.4528e-009   
  -4.8            -7.6959e-006    6.146e-008      -1.4394e-009   
  -4.85           -7.7488e-006    6.8566e-008     -1.4465e-009   
  -4.9            -7.8027e-006    7.6926e-008     -1.4675e-009   
  -4.95           -7.855e-006     8.6548e-008     -1.5486e-009   
  -5              -7.9075e-006    9.6947e-008     -1.504e-009    
END_DB

BEGIN_DB
 ICCAP_VAR VG         -2             
 ICCAP_VAR VS         0              
 ICCAP_VAR VB         0              

 #VD              ID              IB              IG             
  0               1.0401e-007     -5.119e-009     7.621e-010     
  -0.05           -6.1118e-006    2.5046e-009     -1.4451e-009   
  -0.1            -1.2057e-005    -4.0608e-009    1.0682e-009    
  -0.15           -1.7715e-005    -8.149e-009     1.4933e-009    
  -0.2            -2.3093e-005    -4.7751e-009    1.4236e-009    
  -0.25           -2.8152e-005    -4.5642e-009    1.5735e-009    
  -0.3            -3.2921e-005    -5.0844e-009    1.4336e-009    
  -0.35           -3.7364e-005    -4.6991e-009    1.6169e-009    
  -0.4            -4.151e-005     -5.9507e-009    1.4879e-009    
  -0.45           -4.533e-005     -4.7558e-009    1.4211e-009    
  -0.5            -4.884e-005     -4.5285e-009    1.567e-009     
  -0.55           -5.2052e-005    -5.0411e-009    1.4294e-009    
  -0.6            -5.4961e-005    -4.6821e-009    1.6142e-009    
  -0.65           -5.7591e-005    -5.8338e-009    1.4843e-009    
  -0.7            -5.9932e-005    -4.7257e-009    1.4228e-009    
  -0.75           -6.2016e-005    -4.5002e-009    1.5615e-009    
  -0.8            -6.389e-005     -4.9981e-009    1.427e-009     
  -0.85           -6.5523e-005    -4.6563e-009    1.6132e-009    
  -0.9            -6.6991e-005    -5.7393e-009    1.4813e-009    
  -0.95           -6.8267e-005    -4.711e-009     1.4223e-009    
  -1              -6.9408e-005    -4.462e-009     1.5542e-009    
  -1.05           -7.0445e-005    -4.9369e-009    1.4241e-009    
  -1.1            -7.1343e-005    -4.6391e-009    1.6111e-009    
  -1.15           -7.2187e-005    -5.6385e-009    1.474e-009     
  -1.2            -7.2928e-005    -4.6886e-009    1.6e-009       
  -1.25           -7.3596e-005    -6.8145e-009    1.551e-009     
  -1.3            -7.4233e-005    -4.8957e-009    1.4241e-009    
  -1.35           -7.4801e-005    -4.6205e-009    1.6086e-009    
  -1.4            -7.5362e-005    -5.577e-009     1.47e-009      
  -1.45           -7.5873e-005    -4.6727e-009    1.6022e-009    
  -1.5            -7.6355e-005    -6.7009e-009    1.5485e-009    
  -1.55           -7.6821e-005    -4.8776e-009    1.4253e-009    
  -1.6            -7.7262e-005    -4.5929e-009    1.6062e-009    
  -1.65           -7.7688e-005    -5.4957e-009    1.4687e-009    
  -1.7            -7.8102e-005    -4.6648e-009    1.6076e-009    
  -1.75           -7.8496e-005    -6.5675e-009    1.5392e-009    
  -1.8            -7.8879e-005    -4.8313e-009    1.421e-009     
  -1.85           -7.9247e-005    -4.5822e-009    1.6012e-009    
  -1.9            -7.9631e-005    -5.4072e-009    1.4608e-009    
  -1.95           -7.997e-005     -4.6481e-009    1.6095e-009    
  -2              -8.0317e-005    -6.4235e-009    1.5321e-009    
  -2.05           -8.0665e-005    -4.7921e-009    1.42e-009      
  -2.1            -8.0987e-005    -4.553e-009     1.5975e-009    
  -2.15           -8.1318e-005    -5.3303e-009    1.4555e-009    
  -2.2            -8.1626e-005    -4.6313e-009    1.6116e-009    
  -2.25           -8.1949e-005    -6.3175e-009    1.525e-009     
  -2.3            -8.2266e-005    -4.7729e-009    1.4213e-009    
  -2.35           -8.2549e-005    -4.53e-009      1.5912e-009    
  -2.4            -8.2863e-005    -5.2626e-009    1.4515e-009    
  -2.45           -8.3152e-005    -4.626e-009     1.6144e-009    
  -2.5            -8.3454e-005    -6.2154e-009    1.5187e-009    
  -2.55           -8.3728e-005    -4.756e-009     1.4224e-009    
  -2.6            -8.4012e-005    -4.5036e-009    1.5884e-009    
  -2.65           -8.4299e-005    -5.1956e-009    1.4489e-009    
  -2.7            -8.4567e-005    -4.6078e-009    1.614e-009     
  -2.75           -8.4853e-005    -6.1092e-009    1.5113e-009    
  -2.8            -8.5119e-005    -4.7219e-009    1.4234e-009    
  -2.85           -8.537e-005     -4.4424e-009    1.5822e-009    
  -2.9            -8.566e-005     -5.1098e-009    1.4499e-009    
  -2.95           -8.5895e-005    -4.547e-009     1.613e-009     
  -3              -8.6159e-005    -5.9094e-009    1.5055e-009    
  -3.05           -8.6415e-005    -4.6035e-009    1.4248e-009    
  -3.1            -8.6665e-005    -4.2854e-009    1.5747e-009    
  -3.15           -8.6935e-005    -4.8814e-009    1.444e-009     
  -3.2            -8.7183e-005    -4.3119e-009    1.6106e-009    
  -3.25           -8.7432e-005    -5.5126e-009    1.4999e-009    
  -3.3            -8.7682e-005    -4.2071e-009    1.4269e-009    
  -3.35           -8.7913e-005    -3.78e-009      1.5668e-009    
  -3.4            -8.8168e-005    -4.2002e-009    1.4409e-009    
  -3.45           -8.8394e-005    -6.9791e-009    1.546e-009     
  -3.5            -8.8646e-005    -3.5412e-009    1.433e-009     
  -3.55           -8.8853e-005    -6.4245e-009    1.5274e-009    
  -3.6            -8.9137e-005    -5.36e-009      1.6111e-009    
  -3.65           -8.9419e-005    -4.1343e-009    1.508e-009     
  -3.7            -8.9609e-005    -2.6535e-009    1.3032e-009    
  -3.75           -8.9829e-005    -9.336e-010     1.4297e-009    
  -3.8            -9.0043e-005    8.929e-010      1.5649e-009    
  -3.85           -9.0273e-005    1.4966e-009     9.124e-010     
  -3.9            -9.0447e-005    1.2402e-008     1.4323e-009    
  -3.95           -9.0684e-005    1.6303e-008     5.888e-010     
  -4              -9.0902e-005    1.6127e-008     9.615e-010     
  -4.05           -9.1143e-005    1.4889e-008     1.4097e-009    
  -4.1            -9.1405e-005    2.269e-009      1.5913e-009    
  -4.15           -9.1649e-005    1.5177e-008     1.4322e-009    
