! VERSION = 6.00
BEGIN_HEADER
 ICCAP_INPUTS
  VG         V  B GROUND SMU4 0.001 LIN        2    0          -5         6    -1        
  VS         V  E GROUND SMU2 0.1 CON        0
  VD         V  S GROUND SMU1 0.1 LIN        1    0          -5         101  -0.05     
  VB         V  C GROUND SMU3 0.1 LIN        3    0          2.5        2    2.5       
 ICCAP_OUTPUTS
  ID         I  S GROUND SMU1 B
  IB         I  C GROUND SMU3 B
  IG         I  B GROUND SMU4 B
END_HEADER

BEGIN_DB
 ICCAP_VAR VG         0              
 ICCAP_VAR VS         0              
 ICCAP_VAR VB         0              

 #VD              ID              IB              IG             
  0               6.785e-010      2.7449e-008     5.862e-010     
  -0.05           2.2891e-009     -9.695e-009     1.1785e-009    
  -0.1            2.1838e-009     1.0964e-008     1.3329e-009    
  -0.15           2.0118e-009     1.2153e-008     1.5041e-009    
  -0.2            2.1679e-009     1.1411e-008     6.2e-012       
  -0.25           2.2487e-009     1.2473e-008     2.053e-010     
  -0.3            2.3089e-009     1.2694e-008     4.042e-010     
  -0.35           2.3371e-009     1.2171e-008     5.921e-010     
  -0.4            2.3411e-009     1.0703e-008     7.764e-010     
  -0.45           2.3339e-009     9.481e-009      9.293e-010     
  -0.5            2.318e-009      8.919e-009      1.0776e-009    
  -0.55           2.2585e-009     9.239e-009      1.2357e-009    
  -0.6            2.1293e-009     1.0518e-008     1.3944e-009    
  -0.65           1.9368e-009     1.223e-008      1.574e-009     
  -0.7            1.6875e-009     1.2876e-008     1.7471e-009    
  -0.75           1.4288e-009     1.1828e-008     1.9153e-009    
  -0.8            2.3191e-009     1.2615e-008     4.762e-010     
  -0.85           2.3384e-009     1.1697e-008     6.588e-010     
  -0.9            2.3394e-009     1.0178e-008     8.294e-010     
  -0.95           1.6996e-009     1.555e-008      -1.3848e-009   
  -1              3.259e-010      1.3822e-008     -2.5818e-009   
  -1.05           -2.2074e-009    1.375e-009      -1.1142e-009   
  -1.1            -1.8026e-009    -1.0221e-008    1.515e-009     
  -1.15           2.3344e-009     -8.39e-009      9.327e-010     
  -1.2            2.3147e-009     9.199e-009      1.0832e-009    
  -1.25           2.2532e-009     1.0184e-008     1.2419e-009    
  -1.3            2.1203e-009     1.1608e-008     1.4046e-009    
  -1.35           1.9275e-009     1.2548e-008     1.5761e-009    
  -1.4            2.2011e-009     1.1992e-008     8.58e-011      
  -1.45           2.2767e-009     1.2563e-008     2.852e-010     
  -1.5            2.32e-009       1.2658e-008     4.815e-010     
  -1.55           2.3354e-009     1.1643e-008     6.723e-010     
  -1.6            2.3367e-009     1.0085e-008     8.344e-010     
  -1.65           1.6985e-009     1.5328e-008     -1.3836e-009   
  -1.7            3.338e-010      1.3826e-008     -2.5759e-009   
  -1.75           -2.2068e-009    1.328e-009      -1.1189e-009   
  -1.8            -1.806e-009     -1.0095e-008    1.5014e-009    
  -1.85           2.3343e-009     -8.288e-009     9.402e-010     
  -1.9            2.315e-009      9.071e-009      1.0925e-009    
  -1.95           2.2477e-009     1.031e-008      1.2456e-009    
  -2              2.1129e-009     1.174e-008      1.4101e-009    
  -2.05           1.9179e-009     1.2554e-008     1.5872e-009    
  -2.1            1.6651e-009     1.2875e-008     1.7557e-009    
  -2.15           2.1582e-009     1.176e-008      1.5e-012       
  -2.2            2.2443e-009     1.2555e-008     1.998e-010     
  -2.25           2.3019e-009     1.2777e-008     3.989e-010     
  -2.3            2.3294e-009     1.2268e-008     5.931e-010     
  -2.35           2.3371e-009     1.0722e-008     7.684e-010     
  -2.4            2.3353e-009     9.502e-009      9.241e-010     
  -2.45           2.3193e-009     9.02e-009       1.0753e-009    
  -2.5            2.2631e-009     1.0085e-008     1.2279e-009    
  -2.55           2.1396e-009     1.1542e-008     1.3846e-009    
  -2.6            1.9462e-009     1.2405e-008     1.5655e-009    
  -2.65           2.1939e-009     1.2015e-008     6.91e-011      
  -2.7            2.2709e-009     1.2601e-008     2.727e-010     
  -2.75           2.3116e-009     1.2771e-008     4.686e-010     
  -2.8            2.3356e-009     1.1664e-008     6.556e-010     
  -2.85           2.3365e-009     1.0121e-008     8.24e-010      
  -2.9            1.6874e-009     1.5591e-008     -1.3869e-009   
  -2.95           3.215e-010      1.361e-008      -2.5893e-009   
  -3              -2.2103e-009    1.244e-009      -1.103e-009    
  -3.05           -1.7958e-009    -1.0323e-008    1.5263e-009    
  -3.1            2.3351e-009     -8.384e-009     9.256e-010     
  -3.15           2.3162e-009     9.133e-009      1.0769e-009    
  -3.2            2.257e-009      1.0079e-008     1.2321e-009    
  -3.25           2.1328e-009     1.1635e-008     1.3893e-009    
  -3.3            1.9412e-009     1.2471e-008     1.5668e-009    
  -3.35           1.6904e-009     1.2874e-008     1.7415e-009    
  -3.4            1.4345e-009     1.1983e-008     1.9147e-009    
  -3.45           2.3168e-009     1.2627e-008     4.761e-010     
  -3.5            2.3345e-009     1.1641e-008     6.632e-010     
  -3.55           2.3396e-009     1.0173e-008     8.295e-010     
  -3.6            1.6951e-009     1.5399e-008     -1.384e-009    
  -3.65           3.294e-010      1.3849e-008     -2.5832e-009   
  -3.7            -2.2078e-009    1.444e-009      -1.1139e-009   
  -3.75           -1.8009e-009    -1.0249e-008    1.5113e-009    
  -3.8            2.3342e-009     -8.425e-009     9.307e-010     
  -3.85           2.3183e-009     9.224e-009      1.0847e-009    
  -3.9            2.2535e-009     1.0179e-008     1.2369e-009    
  -3.95           2.122e-009      1.1708e-008     1.3993e-009    
  -4              1.9246e-009     1.2584e-008     1.579e-009     
  -4.05           1.6716e-009     1.2815e-008     1.7542e-009    
  -4.1            2.1552e-009     1.1689e-008     -4.9e-012      
  -4.15           1.0989e-009     2.6807e-008     -1.4497e-009   
  -4.2            -1.3252e-009    8.175e-009      -1.9342e-009   
  -4.25           -2.2687e-009    -1.2926e-008    -6.477e-010    
  -4.3            -2.2522e-009    -1.1335e-008    -8.277e-010    
  -4.35           -1.6462e-009    -1.781e-008     2.0737e-009    
  -4.4            1.9493e-009     -8.219e-009     1.5717e-009    
  -4.45           1.6838e-009     1.2875e-008     1.745e-009     
  -4.5            1.4274e-009     1.1825e-008     1.9147e-009    
  -4.55           2.3171e-009     1.2745e-008     4.811e-010     
  -4.6            2.3351e-009     1.1652e-008     6.602e-010     
  -4.65           2.3364e-009     1.0065e-008     8.297e-010     
  -4.7            1.6948e-009     1.5486e-008     -1.3846e-009   
  -4.75           3.258e-010      1.3791e-008     -2.5819e-009   
  -4.8            -2.2107e-009    1.311e-009      -1.1154e-009   
  -4.85           -1.8052e-009    -1.0213e-008    1.5128e-009    
  -4.9            2.3358e-009     -8.311e-009     9.385e-010     
  -4.95           2.32e-009       8.963e-009      1.0834e-009    
  -5              2.2538e-009     9.435e-009      1.2441e-009    
END_DB

BEGIN_DB
 ICCAP_VAR VG         -1             
 ICCAP_VAR VS         0              
 ICCAP_VAR VB         0              

 #VD              ID              IB              IG             
  0               -1.5992e-008    -8.717e-009     -1.4624e-009   
  -0.05           -8.6164e-007    -2.7685e-008    1.3863e-009    
  -0.1            -1.4727e-006    9.674e-009      2.1123e-009    
  -0.15           -1.8953e-006    -2.8007e-008    2.3289e-009    
  -0.2            -2.1773e-006    -2.8007e-008    2.4929e-009    
  -0.25           -2.367e-006     -2.7189e-008    2.6344e-009    
  -0.3            -2.5084e-006    -9.871e-009     6.54e-011      
  -0.35           -2.5826e-006    9.815e-009      -1.3858e-009   
  -0.4            -2.7028e-006    9.222e-009      1.4675e-009    
  -0.45           -2.771e-006     -2.7857e-008    2.5522e-009    
  -0.5            -2.8404e-006    -1.0365e-008    9.5e-012       
  -0.55           -2.8688e-006    9.888e-009      -2.6512e-009   
  -0.6            -2.9302e-006    1.2834e-008     -1.464e-009    
  -0.65           -2.9912e-006    1.2739e-008     7.329e-010     
  -0.7            -3.0593e-006    -1.8926e-008    1.9565e-009    
  -0.75           -3.1052e-006    -2.7005e-008    2.1539e-009    
  -0.8            -3.1554e-006    -2.7894e-008    2.3376e-009    
  -0.85           -3.2009e-006    -2.788e-008     2.5068e-009    
  -0.9            -3.246e-006     -2.7203e-008    2.6374e-009    
  -0.95           -3.293e-006     -9.889e-009     6.94e-011      
  -1              -3.2972e-006    1.0016e-008     -1.3861e-009   
  -1.05           -3.3422e-006    2.3631e-008     -1.3835e-009   
  -1.1            -3.4231e-006    1.0344e-008     1.4846e-009    
  -1.15           -3.4526e-006    -2.7911e-008    2.5181e-009    
  -1.2            -3.4935e-006    -2.708e-008     2.6456e-009    
  -1.25           -3.5343e-006    -2.5484e-008    2.7465e-009    
  -1.3            -3.5768e-006    -1.0441e-008    1.753e-010     
  -1.35           -3.5735e-006    9.081e-009      -1.407e-009    
  -1.4            -3.6495e-006    9.254e-009      1.3471e-009    
  -1.45           -3.6832e-006    -2.6594e-008    2.6924e-009    
  -1.5            -3.7238e-006    -9.926e-009     1.11e-010      
  -1.55           -3.7169e-006    9.629e-009      -1.3975e-009   
  -1.6            -3.7972e-006    9.589e-009      1.4158e-009    
  -1.65           -3.8247e-006    -2.7453e-008    2.6163e-009    
  -1.7            -3.8611e-006    -2.5909e-008    2.7142e-009    
  -1.75           -3.9007e-006    -1.0131e-008    1.395e-010     
  -1.8            -3.8915e-006    9.394e-009      -1.4044e-009   
  -1.85           -3.9688e-006    9.375e-009      1.3823e-009    
  -1.9            -3.9975e-006    -2.7016e-008    2.6574e-009    
  -1.95           -4.0368e-006    -9.836e-009     8.57e-011      
  -2              -4.0244e-006    9.864e-009      -1.3897e-009   
  -2.05           -4.1076e-006    9.962e-009      1.4522e-009    
  -2.1            -4.1298e-006    -2.7824e-008    2.5739e-009    
  -2.15           -4.1671e-006    -1.0109e-008    2.11e-011      
  -2.2            -4.1557e-006    9.968e-009      -2.6582e-009   
  -2.25           -4.1944e-006    1.3399e-008     -1.4764e-009   
  -2.3            -4.2384e-006    1.2742e-008     7.154e-010     
  -2.35           -4.2918e-006    -1.9031e-008    1.9923e-009    
  -2.4            -4.3208e-006    -2.7385e-008    2.1887e-009    
  -2.45           -4.3532e-006    -2.7979e-008    2.3807e-009    
  -2.5            -4.3876e-006    -2.7836e-008    2.5299e-009    
  -2.55           -4.4222e-006    -1.0442e-008    -7.9e-012      
  -2.6            -4.4098e-006    1.0081e-008     -2.6474e-009   
  -2.65           -4.4849e-006    9.019e-009      1.2958e-009    
  -2.7            -4.516e-006     -2.5963e-008    2.7373e-009    
  -2.75           -4.5522e-006    -1.0224e-008    1.603e-010     
  -2.8            -4.5351e-006    9.217e-009      -1.4053e-009   
  -2.85           -4.6144e-006    9.146e-009      1.3604e-009    
  -2.9            -4.6407e-006    -2.6717e-008    2.6785e-009    
  -2.95           -4.6766e-006    -9.83e-009      1.025e-010     
  -3              -4.6566e-006    1.0005e-008     -1.3948e-009   
  -3.05           -4.7422e-006    9.885e-009      1.4286e-009    
  -3.1            -4.7614e-006    -2.7426e-008    2.5997e-009    
  -3.15           -4.795e-006     -2.5944e-008    2.7091e-009    
  -3.2            -4.8299e-006    -9.723e-009     1.343e-010     
  -3.25           -4.8091e-006    9.814e-009      -1.4018e-009   
  -3.3            -4.8928e-006    9.914e-009      1.3902e-009    
  -3.35           -4.9164e-006    -2.6726e-008    2.6396e-009    
  -3.4            -4.9467e-006    -2.4915e-008    2.7429e-009    
  -3.45           -4.9822e-006    -1.7109e-008    2.7257e-009    
  -3.5            -5.0114e-006    -1.7186e-008    2.6997e-009    
  -3.55           -5.0389e-006    -2.3525e-008    1.3149e-009    
  -3.6            -5.0734e-006    -1.7587e-008    2.6606e-009    
  -3.65           -5.1045e-006    -1.7575e-008    2.6333e-009    
  -3.7            -5.1354e-006    -1.7457e-008    2.6039e-009    
  -3.75           -5.1664e-006    -1.7312e-008    2.5758e-009    
  -3.8            -5.1948e-006    -1.7028e-008    2.5456e-009    
  -3.85           -5.2249e-006    -1.6744e-008    2.5169e-009    
  -3.9            -5.2536e-006    -1.643e-008     2.4839e-009    
  -3.95           -5.2849e-006    -1.5764e-008    2.449e-009     
  -4              -5.313e-006     -1.5081e-008    2.4151e-009    
  -4.05           -5.343e-006     -1.4598e-008    2.3769e-009    
  -4.1            -5.3729e-006    -1.3511e-008    2.3369e-009    
  -4.15           -5.4048e-006    -1.2311e-008    2.2991e-009    
  -4.2            -5.4364e-006    -1.1291e-008    2.2544e-009    
  -4.25           -5.4676e-006    -9.918e-009     2.2147e-009    
  -4.3            -5.4996e-006    -8.354e-009     2.1736e-009    
  -4.35           -5.5321e-006    -6.576e-009     2.13e-009      
  -4.4            -5.5653e-006    -4.614e-009     2.0881e-009    
  -4.45           -5.5835e-006    4.384e-009      -3.135e-010    
  -4.5            -5.5839e-006    3.1174e-008     -2.4424e-009   
  -4.55           -5.6815e-006    3.1328e-008     1.5552e-009    
  -4.6            -5.6977e-006    -3.865e-009     2.4174e-009    
  -4.65           -5.6759e-006    1.772e-008      -1.7363e-009   
  -4.7            -5.7192e-006    5.8219e-008     -1.4067e-009   
  -4.75           -5.784e-006     4.727e-008      2.7934e-009    
  -4.8            -5.8142e-006    2.6496e-008     -5.962e-010    
  -4.85           -5.8277e-006    6.0132e-008     -2.1048e-009   
  -4.9            -5.9271e-006    6.2095e-008     1.8067e-009    
  -4.95           -5.9405e-006    3.1343e-008     1.9986e-009    
  -5              -5.9435e-006    5.2475e-008     -1.8938e-009   
END_DB

BEGIN_DB
 ICCAP_VAR VG         -2             
 ICCAP_VAR VS         0              
 ICCAP_VAR VB         0              

 #VD              ID              IB              IG             
  0               -6.2566e-008    -1.9384e-008    -1.1894e-009   
  -0.05           -4.4229e-006    -2.5576e-008    -2.6123e-009   
  -0.1            -8.5798e-006    9.022e-009      1.3273e-009    
  -0.15           -1.2509e-005    -9.312e-009     -2.671e-010    
  -0.2            -1.6246e-005    -1.885e-008     2.6321e-009    
  -0.25           -1.974e-005     -2.4957e-008    1.9906e-009    
  -0.3            -2.2998e-005    -1.2737e-008    -9.233e-010    
  -0.35           -2.6011e-005    2.7018e-008     -1.4063e-009   
  -0.4            -2.8861e-005    1.0166e-008     1.4812e-009    
  -0.45           -3.1419e-005    -1.8014e-008    1.6528e-009    
  -0.5            -3.3759e-005    -2.6529e-008    2.6509e-009    
  -0.55           -3.5864e-005    -2.5289e-008    2.0287e-009    
  -0.6            -3.7744e-005    -1.2456e-008    -9.119e-010    
  -0.65           -3.9406e-005    2.6866e-008     -1.4038e-009   
  -0.7            -4.0914e-005    2.3447e-008     -1.3811e-009   
  -0.75           -4.2288e-005    1.1675e-008     9.052e-010     
  -0.8            -4.3503e-005    -2.6429e-008    2.6648e-009    
  -0.85           -4.4532e-005    -2.5836e-008    2.0521e-009    
  -0.9            -4.5406e-005    -1.2564e-008    -9.009e-010    
  -0.95           -4.6189e-005    2.6711e-008     -1.4038e-009   
  -1              -4.6926e-005    2.4184e-008     -1.3847e-009   
  -1.05           -4.7626e-005    1.1859e-008     8.851e-010     
  -1.1            -4.8259e-005    -2.6178e-008    2.679e-009     
  -1.15           -4.8785e-005    -2.6165e-008    2.0824e-009    
  -1.2            -4.9244e-005    -1.2733e-008    -8.847e-010    
  -1.25           -4.9654e-005    2.6382e-008     -1.4028e-009   
  -1.3            -5.0086e-005    2.477e-008      -1.3877e-009   
  -1.35           -5.0541e-005    1.229e-008      8.739e-010     
  -1.4            -5.0965e-005    -2.5956e-008    2.6969e-009    
  -1.45           -5.13e-005      -2.6616e-008    2.1218e-009    
  -1.5            -5.1606e-005    -1.3123e-008    -8.711e-010    
  -1.55           -5.1875e-005    2.6281e-008     -1.4047e-009   
  -1.6            -5.2196e-005    2.5426e-008     -1.3908e-009   
  -1.65           -5.2551e-005    1.2444e-008     8.586e-010     
  -1.7            -5.2886e-005    -2.575e-008     2.7104e-009    
  -1.75           -5.315e-005     -2.6895e-008    2.1506e-009    
  -1.8            -5.3381e-005    -1.3072e-008    -8.547e-010    
  -1.85           -5.3605e-005    8.212e-009      -1.415e-009    
  -1.9            -5.4019e-005    1.0501e-008     1.6631e-009    
  -1.95           -5.4229e-005    -1.3317e-008    2.861e-010     
  -2              -5.4353e-005    1.0522e-008     -2.5395e-009   
  -2.05           -5.4639e-005    1.1729e-008     3.324e-010     
  -2.1            -5.4949e-005    -1.8906e-008    1.7062e-009    
  -2.15           -5.5115e-005    -1.1246e-008    -1.0519e-009   
  -2.2            -5.5303e-005    2.8491e-008     -1.4149e-009   
  -2.25           -5.5692e-005    1.0386e-008     1.6441e-009    
  -2.3            -5.5867e-005    -1.3813e-008    3e-010         
  -2.35           -5.5981e-005    1.0505e-008     -2.55e-009     
  -2.4            -5.6213e-005    2.7967e-008     -1.4072e-009   
  -2.45           -5.654e-005     1.2223e-008     1.8356e-009    
  -2.5            -5.6732e-005    -1.0177e-008    1.484e-010     
  -2.55           -5.6816e-005    1.3445e-008     -2.3556e-009   
  -2.6            -5.7113e-005    1.2586e-008     2.1389e-009    
  -2.65           -5.7334e-005    -1.9924e-008    1.4704e-009    
  -2.7            -5.7523e-005    -2.7617e-008    2.4768e-009    
  -2.75           -5.7742e-005    -2.0667e-008    1.7578e-009    
  -2.8            -5.7881e-005    -1.1489e-008    -1.0266e-009   
  -2.85           -5.8029e-005    2.8381e-008     -1.411e-009    
  -2.9            -5.8392e-005    1.0166e-008     1.6162e-009    
  -2.95           -5.8534e-005    -1.4583e-008    1.4779e-009    
  -3              -5.8702e-005    -2.7504e-008    2.4944e-009    
  -3.05           -5.8885e-005    -2.1197e-008    1.7887e-009    
  -3.1            -5.8989e-005    -1.1617e-008    -1.0094e-009   
  -3.15           -5.9118e-005    2.8386e-008     -1.4112e-009   
  -3.2            -5.9488e-005    1.0224e-008     1.5984e-009    
  -3.25           -5.9628e-005    -1.4724e-008    1.4983e-009    
  -3.3            -5.9792e-005    -2.6996e-008    2.5151e-009    
  -3.35           -5.9963e-005    -2.1205e-008    1.8137e-009    
  -3.4            -6.016e-005     -1.0109e-008    1.896e-010     
  -3.45           -6.0207e-005    1.3637e-008     -2.4028e-009   
  -3.5            -6.048e-005     1.3901e-008     2.0965e-009    
  -3.55           -6.0667e-005    -1.7913e-008    1.516e-009     
  -3.6            -6.0822e-005    -1.7633e-008    2.3442e-009    
  -3.65           -6.1002e-005    -1.5623e-008    1.6304e-009    
  -3.7            -6.1221e-005    -1.6589e-008    2.479e-009     
  -3.75           -6.1373e-005    -1.704e-008     1.7575e-009    
  -3.8            -6.1567e-005    -1.4729e-008    2.5895e-009    
  -3.85           -6.1709e-005    -1.3463e-008    1.6907e-009    
  -3.9            -6.1889e-005    -1.2765e-008    2.5318e-009    
  -3.95           -6.2063e-005    -2.58e-009      2.8528e-009    
  -4              -6.2206e-005    -9.654e-009     2.4687e-009    
  -4.05           -6.2312e-005    2.2929e-008     2.4318e-009    
  -4.1            -6.2539e-005    -3.153e-009     2.7106e-009    
  -4.15           -6.2645e-005    4.824e-009      -4.062e-010    
