! VERSION = 6.00
BEGIN_HEADER
 ICCAP_INPUTS
  VG         V  B GROUND SMU4 0.001 LIN        1    0          -5         101  -0.05     
  VS         V  E GROUND SMU2 0.1 CON        0
  VB         V  C GROUND SMU3 0.1 LIN        3    0          5          3    2.5       
  VD         V  S GROUND SMU1 0.1 LIN        2    -0.1       -5         2    -4.9      
 ICCAP_OUTPUTS
  IG         I  B GROUND SMU4 B
  ID         I  S GROUND SMU1 B
  IB         I  C GROUND SMU3 B
END_HEADER

BEGIN_DB
 ICCAP_VAR VS         0              
 ICCAP_VAR VB         0              
 ICCAP_VAR VD         -0.1           

 #VG              IG              ID              IB             
  0               1.3133e-009     1.2832e-009     7.586e-009     
  -0.05           1.2859e-009     2.1901e-009     9.343e-009     
  -0.1            -1.3906e-009    1.2214e-009     2.8581e-008    
  -0.15           -1.261e-009     -2.1514e-009    1.0494e-008    
  -0.2            2.428e-010      -1.8997e-009    -1.0279e-008   
  -0.25           1.7607e-009     -9.487e-010     -2.1073e-008   
  -0.3            1.6998e-009     1.6932e-009     -9.147e-009    
  -0.35           1.8714e-009     1.4139e-009     1.0073e-008    
  -0.4            4.975e-010      2.2941e-009     1.24e-008      
  -0.45           6.79e-010       2.2858e-009     1.1266e-008    
  -0.5            -1.3893e-009    1.1778e-009     9.674e-009     
  -0.55           -2.7229e-009    -1.5785e-009    1.2364e-008    
  -0.6            1.3104e-009     -3.6499e-009    -2.5214e-008   
  -0.65           2.864e-009      -6.8257e-009    -1.0877e-008   
  -0.7            -2.4363e-009    -1.8957e-008    -2.6097e-008   
  -0.75           -1.804e-009     -4.3522e-008    2.336e-009     
  -0.8            -1.4164e-009    -8.778e-008     5.479e-009     
  -0.85           6.983e-010      -1.5335e-007    -1.5771e-008   
  -0.9            -1.6475e-009    -2.4804e-007    2.0043e-008    
  -0.95           -1.3916e-009    -3.6483e-007    6.993e-009     
  -1              -1.3731e-009    -5.0129e-007    1.0804e-008    
  -1.05           -2.4878e-009    -6.5366e-007    1.4356e-008    
  -1.1            -1.8687e-009    -8.1839e-007    2.058e-009     
  -1.15           -1.4291e-009    -9.8868e-007    5.275e-009     
  -1.2            -1.5553e-009    -1.1613e-006    -8.856e-009    
  -1.25           2.2321e-009     -1.3379e-006    -2.5497e-008   
  -1.3            1.501e-009      -1.5067e-006    -7.032e-009    
  -1.35           1.31e-009       -1.6754e-006    -8.188e-009    
  -1.4            2.846e-009      -1.8411e-006    -9.963e-009    
  -1.45           -1.7472e-009    -1.9979e-006    2.3069e-008    
  -1.5            -1.4025e-009    -2.1577e-006    6.122e-009     
  -1.55           -1.3839e-009    -2.3112e-006    9.662e-009     
  -1.6            -2.5592e-009    -2.461e-006     1.3698e-008    
  -1.65           -1.9909e-009    -2.6116e-006    1.425e-009     
  -1.7            -1.4694e-009    -2.7554e-006    5.154e-009     
  -1.75           -1.3926e-009    -2.8969e-006    8.592e-009     
  -1.8            -2.6672e-009    -3.0349e-006    1.2406e-008    
  -1.85           -2.2506e-009    -3.1745e-006    1.252e-009     
  -1.9            -1.6228e-009    -3.3077e-006    3.987e-009     
  -1.95           -1.3897e-009    -3.4379e-006    7.195e-009     
  -2              -1.3739e-009    -3.5665e-006    1.0766e-008    
  -2.05           -2.4719e-009    -3.6915e-006    1.4443e-008    
  -2.1            -1.8454e-009    -3.8176e-006    2.075e-009     
  -2.15           -1.425e-009     -3.9385e-006    5.375e-009     
  -2.2            -1.3894e-009    -4.0577e-006    8.959e-009     
  -2.25           -2.6159e-009    -4.1742e-006    1.3139e-008    
  -2.3            -2.1097e-009    -4.2919e-006    1.197e-009     
  -2.35           -1.5221e-009    -4.4053e-006    4.7e-009       
  -2.4            -1.3882e-009    -4.5177e-006    8.138e-009     
  -2.45           -2.691e-009     -4.6271e-006    1.1803e-008    
  -2.5            1.8707e-009     -4.7402e-006    -2.0837e-008   
  -2.55           1.3512e-009     -4.8426e-006    -9.048e-009    
  -2.6            2.8654e-009     -4.9509e-006    -8.165e-009    
  -2.65           -1.3803e-009    -5.0515e-006    2.8612e-008    
  -2.7            -2.519e-009     -5.1544e-006    1.3939e-008    
  -2.75           -1.9232e-009    -5.2571e-006    1.883e-009     
  -2.8            -1.4424e-009    -5.3561e-006    5.187e-009     
  -2.85           -1.3912e-009    -5.454e-006     8.824e-009     
  -2.9            -2.6416e-009    -5.5507e-006    1.2822e-008    
  -2.95           -2.18e-009      -5.6475e-006    1.303e-009     
  -3              -1.564e-009     -5.7421e-006    4.378e-009     
  -3.05           -1.3873e-009    -5.8348e-006    7.468e-009     
  -3.1            -2.7018e-009    -5.926e-006     1.1682e-008    
  -3.15           1.955e-009      -6.0187e-006    -2.2094e-008   
  -3.2            1.3719e-009     -6.1062e-006    -8.772e-009    
  -3.25           2.8663e-009     -6.193e-006     -7.932e-009    
  -3.3            2.7688e-009     -6.2812e-006    -1.78e-010     
  -3.35           -1.5629e-009    -6.3689e-006    1.7689e-008    
  -3.4            -1.3885e-009    -6.4532e-006    7.56e-009      
  -3.45           -2.6998e-009    -6.5376e-006    1.1583e-008    
  -3.5            1.918e-009      -6.6224e-006    -2.1644e-008   
  -3.55           1.3642e-009     -6.7004e-006    -8.884e-009    
  -3.6            2.8659e-009     -6.7794e-006    -8.164e-009    
  -3.65           -1.3859e-009    -6.8569e-006    2.8969e-008    
  -3.7            -2.5495e-009    -6.9387e-006    1.3712e-008    
  -3.75           -1.9606e-009    -7.0179e-006    1.572e-009     
  -3.8            -1.4615e-009    -7.0959e-006    5.133e-009     
  -3.85           -1.3905e-009    -7.1702e-006    8.603e-009     
  -3.9            -2.6578e-009    -7.2433e-006    1.2642e-008    
  -3.95           -2.2209e-009    -7.3182e-006    1.247e-009     
  -4              -1.5958e-009    -7.3932e-006    4.068e-009     
  -4.05           -1.3883e-009    -7.4652e-006    7.427e-009     
  -4.1            -2.7084e-009    -7.5357e-006    1.0962e-008    
  -4.15           2.0051e-009     -7.6097e-006    -2.2939e-008   
  -4.2            1.3897e-009     -7.6767e-006    -8.43e-009     
  -4.25           2.8653e-009     -7.747e-006     -7.855e-009    
  -4.3            -1.3879e-009    -7.8138e-006    2.8849e-008    
  -4.35           -2.5795e-009    -7.8821e-006    1.3347e-008    
  -4.4            -2.0285e-009    -7.9513e-006    1.287e-009     
  -4.45           -1.4852e-009    -8.0175e-006    4.79e-009      
  -4.5            -1.3915e-009    -8.0838e-006    8.224e-009     
  -4.55           -2.6759e-009    -8.1461e-006    1.2361e-008    
  -4.6            -2.2734e-009    -8.2124e-006    9.23e-010      
  -4.65           -1.6429e-009    -8.2776e-006    3.574e-009     
  -4.7            -1.3903e-009    -8.3352e-006    6.973e-009     
  -4.75           -2.7173e-009    -8.4019e-006    1.0596e-008    
  -4.8            2.0832e-009     -8.4614e-006    -2.3968e-008   
  -4.85           1.418e-009      -8.5209e-006    -8.155e-009    
  -4.9            2.8589e-009     -8.5844e-006    -7.85e-009     
  -4.95           2.1255e-009     -8.6411e-006    9.98e-009      
  -5              -1.3881e-009    -8.7015e-006    2.7093e-008    
END_DB

BEGIN_DB
 ICCAP_VAR VS         0              
 ICCAP_VAR VB         0              
 ICCAP_VAR VD         -5             

 #VG              IG              ID              IB             
  0               1.3144e-009     1.3712e-009     -1.2984e-008   
  -0.05           -1.3856e-009    1.5136e-009     2.3783e-008    
  -0.1            -2.6916e-009    1.346e-010      1.3414e-008    
  -0.15           2.3404e-009     -1.5618e-009    -2.1016e-008   
  -0.2            1.3771e-009     2.1231e-009     -6.13e-009     
  -0.25           -1.388e-009     1.286e-009      2.8852e-008    
  -0.3            -1.3499e-009    -2.1425e-009    1.1589e-008    
  -0.35           -1.5221e-009    -2.0787e-009    -1.0367e-008   
  -0.4            1.3096e-009     -1.9057e-009    -2.5848e-008   
  -0.45           2.8652e-009     -1.5986e-009    -9.842e-009    
  -0.5            2.8639e-009     -4.1569e-009    -6.1e-011      
  -0.55           -2.4559e-009    -1.5047e-008    -1.1298e-008   
  -0.6            -1.8207e-009    -3.8213e-008    2.923e-009     
  -0.65           -1.4181e-009    -8.5966e-008    7.309e-009     
  -0.7            2.6139e-009     -1.7718e-007    4.196e-009     
  -0.75           1.696e-009      -3.1739e-007    1.6712e-008    
  -0.8            2.1126e-009     -5.2644e-007    1.9144e-008    
  -0.85           2.4775e-009     -8.1592e-007    2.1596e-008    
  -0.9            8.39e-011       -1.1859e-006    1.6239e-008    
  -0.95           5.479e-010      -1.6505e-006    3.5763e-008    
  -1              9.514e-010      -2.1996e-006    4.0521e-008    
  -1.05           1.3325e-009     -2.8475e-006    4.5217e-008    
  -1.1            1.7593e-009     -3.5746e-006    5.3484e-008    
  -1.15           2.171e-009      -4.3521e-006    5.9805e-008    
  -1.2            2.5227e-009     -5.2348e-006    6.505e-008     
  -1.25           2.7829e-009     -6.182e-006     7.1781e-008    
  -1.3            2.8716e-009     -7.193e-006     7.3717e-008    
  -1.35           2.7358e-009     -8.2725e-006    7.5018e-008    
  -1.4            -1.5434e-009    -9.4116e-006    9.1214e-008    
  -1.45           9.459e-010      -1.0605e-005    6.7271e-008    
  -1.5            2.5763e-009     -1.1862e-005    1.05575e-007   
  -1.55           -1.8619e-009    -1.3154e-005    1.2045e-007    
  -1.6            -1.4208e-009    -1.4512e-005    1.043e-007     
  -1.65           -1.3882e-009    -1.5909e-005    1.1122e-007    
  -1.7            -2.6206e-009    -1.7355e-005    1.177e-007     
  -1.75           -2.1126e-009    -1.8847e-005    1.0874e-007    
  -1.8            -1.5226e-009    -2.0368e-005    1.1441e-007    
  -1.85           -1.384e-009     -2.1951e-005    1.1938e-007    
  -1.9            -2.6871e-009    -2.3535e-005    1.2425e-007    
  -1.95           -2.3581e-009    -2.5185e-005    1.1342e-007    
  -2              -1.717e-009     -2.6842e-005    1.1563e-007    
  -2.05           -1.3956e-009    -2.8532e-005    1.184e-007     
  -2.1            -1.3846e-009    -3.0241e-005    1.2137e-007    
  -2.15           -2.5589e-009    -3.1982e-005    1.2402e-007    
  -2.2            -1.9805e-009    -3.3761e-005    1.1048e-007    
  -2.25           -1.463e-009     -3.5555e-005    1.1235e-007    
  -2.3            -1.3898e-009    -3.737e-005     1.1403e-007    
  -2.35           -2.661e-009     -3.9206e-005    1.1542e-007    
  -2.4            -2.2439e-009    -4.1084e-005    1.0187e-007    
  -2.45           -1.6096e-009    -4.296e-005     1.0207e-007    
  -2.5            -1.3885e-009    -4.4861e-005    1.0219e-007    
  -2.55           -2.711e-009     -4.6775e-005    1.0331e-007    
  -2.6            2.4778e-009     -4.8777e-005    7.111e-008     
  -2.65           -2.0865e-009    -5.0703e-005    9.0461e-008    
  -2.7            -1.972e-010     -5.2682e-005    1.06266e-007   
  -2.75           -7.289e-010     -5.4668e-005    6.6618e-008    
  -2.8            -1.1091e-009    -5.6659e-005    6.5504e-008    
  -2.85           -1.5166e-009    -5.8643e-005    6.3609e-008    
  -2.9            -1.8895e-009    -6.0694e-005    5.8269e-008    
  -2.95           -2.1589e-009    -6.2776e-005    5.6571e-008    
  -3              -2.5628e-009    -6.4829e-005    5.4846e-008    
  -3.05           -2.7491e-009    -6.6898e-005    5.3022e-008    
  -3.1            -2.7124e-009    -6.8984e-005    5.4584e-008    
  -3.15           -2.4683e-009    -7.1084e-005    5.4828e-008    
  -3.2            -1.8553e-009    -7.3177e-005    5.3379e-008    
  -3.25           -1.4281e-009    -7.5282e-005    5.4081e-008    
  -3.3            -1.3912e-009    -7.741e-005     5.51e-008      
  -3.35           -2.6215e-009    -7.9537e-005    5.6243e-008    
  -3.4            -2.1262e-009    -8.1715e-005    4.1901e-008    
  -3.45           -1.5328e-009    -8.3861e-005    4.2571e-008    
  -3.5            -1.3875e-009    -8.6001e-005    4.3558e-008    
  -3.55           -2.6977e-009    -8.8161e-005    4.5275e-008    
  -3.6            -2.3725e-009    -9.0368e-005    3.2179e-008    
  -3.65           -1.7326e-009    -9.258e-005     3.2185e-008    
  -3.7            -1.4004e-009    -9.4771e-005    3.3507e-008    
  -3.75           -1.3864e-009    -9.6973e-005    3.5251e-008    
  -3.8            -2.56e-009      -9.9207e-005    3.7156e-008    
  -3.85           -1.9937e-009    -0.000101415    2.3467e-008    
  -3.9            -1.4702e-009    -0.000103668    2.5528e-008    
  -3.95           -1.3893e-009    -0.000105883    2.749e-008     
  -4              -2.6702e-009    -0.000108069    2.9994e-008    
  -4.05           -2.2495e-009    -0.00011033     1.738e-008     
  -4.1            -1.6257e-009    -0.000112513    1.8754e-008    
  -4.15           2.4317e-009     -0.00011476     2.0992e-008    
  -4.2            2.725e-009      -0.00011703     2.2744e-008    
  -4.25           1.7375e-009     -0.00011931     2.3051e-008    
  -4.3            2.1547e-009     -0.00012155     2.0713e-008    
  -4.35           1.0017e-009     -0.00012381     2.0827e-008    
  -4.4            1.387e-009      -0.0001261      1.8169e-008    
  -4.45           1.8138e-009     -0.00012842     1.9845e-008    
  -4.5            2.2207e-009     -0.00013066     1.7639e-008    
  -4.55           1.0715e-009     -0.00013294     1.7211e-008    
  -4.6            1.4686e-009     -0.00013525     1.6765e-008    
  -4.65           1.8857e-009     -0.00013754     1.748e-008     
  -4.7            7.67e-010       -0.00013976     1.799e-008     
  -4.75           1.1375e-009     -0.00014212     1.4473e-008    
  -4.8            1.5496e-009     -0.00014445     1.5396e-008    
  -4.85           1.9698e-009     -0.00014669     1.5447e-008    
  -4.9            8.393e-010      -0.00014891     1.5879e-008    
  -4.95           1.2086e-009     -0.00015123     1.2662e-008    
  -5              1.6226e-009     -0.00015357     1.4292e-008    
END_DB

BEGIN_DB
 ICCAP_VAR VS         0              
 ICCAP_VAR VB         2.5            
 ICCAP_VAR VD         -0.1           

 #VG              IG              ID              IB             
  0               -1.3354e-009    -1.1874e-009    -9.646e-009    
  -0.05           -8.304e-010     -2.2482e-009    -1.1363e-008   
  -0.1            2.079e-009      -1.6385e-009    -1.6441e-008   
  -0.15           1.5276e-009     1.9476e-009     -8.122e-009    
  -0.2            -1.3909e-009    1.4169e-009     2.7316e-008    
  -0.25           -1.3796e-009    3.07e-011       1.2637e-008    
  -0.3            -2.6788e-009    1.871e-010      1.4168e-008    
  -0.35           -1.9694e-009    -1.301e-009     9.77e-010      
  -0.4            -6.93e-010      -2.255e-009     -1.2364e-008   
  -0.45           -8.751e-010     -2.238e-009     -1.1204e-008   
  -0.5            -1.0239e-009    -2.2186e-009    -1.0031e-008   
  -0.55           1.6666e-009     -1.7328e-009    -1.1638e-008   
  -0.6            1.7503e-009     1.6218e-009     -8.962e-009    
  -0.65           3.599e-010      2.272e-009      1.2563e-008    
  -0.7            5.534e-010      2.3213e-009     1.2432e-008    
  -0.75           7.279e-010      2.34e-009       1.0864e-008    
  -0.8            -1.3683e-009    1.6024e-009     1.9222e-008    
  -0.85           -2.6443e-009    2.65e-010       1.524e-008     
  -0.9            -1.0683e-009    -2.2189e-009    1.071e-009     
  -0.95           1.5943e-009     -1.7699e-009    -1.082e-008    
  -1              8.637e-010      2.3034e-009     -8.701e-009    
  -1.05           -1.7311e-009    1.5369e-009     1.462e-008     
  -1.1            -2.6389e-009    -1.9732e-009    6.32e-009      
  -1.15           -3.019e-010     -5.446e-009     -1.2932e-008   
  -1.2            1.148e-009      -8.463e-009     1.402e-009     
  -1.25           -4.2e-011       -3.1021e-008    9.834e-009     
  -1.3            -1.3911e-009    -7.5388e-008    2.6099e-008    
  -1.35           8.286e-010      -1.4594e-007    -1.7547e-008   
  -1.4            -1.5101e-009    -2.4754e-007    1.5784e-008    
  -1.45           -1.3876e-009    -3.7599e-007    8.34e-009      
  -1.5            -2.6806e-009    -5.2299e-007    1.2276e-008    
  -1.55           -4.738e-010     -6.8697e-007    -1.2562e-008   
  -1.6            -9.326e-010     -8.5245e-007    -1.2376e-008   
  -1.65           3.382e-010      -1.02351e-006   -1.3614e-008   
  -1.7            2.4877e-009     -1.184e-006     1.6275e-008    
  -1.75           1.7448e-009     -1.3467e-006    -5.021e-009    
  -1.8            1.3221e-009     -1.5058e-006    -9.054e-009    
  -1.85           2.8647e-009     -1.6626e-006    -8.153e-009    
  -1.9            -2.0103e-009    -1.8065e-006    2.8418e-008    
  -1.95           -1.4612e-009    -1.9549e-006    5.267e-009     
  -2              -1.39e-009      -2.0969e-006    8.226e-009     
  -2.05           -2.6646e-009    -2.2352e-006    1.2406e-008    
  -2.1            -2.254e-009     -2.3714e-006    1.094e-009     
  -2.15           -1.6107e-009    -2.5033e-006    3.915e-009     
  -2.2            -1.3815e-009    -2.6324e-006    7.184e-009     
  -2.25           -2.7069e-009    -2.7591e-006    1.0621e-008    
  -2.3            2.0549e-009     -2.8864e-006    -2.3989e-008   
  -2.35           1.4016e-009     -3.0058e-006    -8.335e-009    
  -2.4            2.8503e-009     -3.1262e-006    -7.738e-009    
  -2.45           2.8113e-009     -3.2425e-006    9.8e-011       
  -2.5            -1.619e-009     -3.3568e-006    1.9434e-008    
  -2.55           -1.3835e-009    -3.4711e-006    7.152e-009     
  -2.6            -2.7054e-009    -3.5832e-006    1.0894e-008    
  -2.65           2.0484e-009     -3.6952e-006    -2.3772e-008   
  -2.7            1.391e-009      -3.8015e-006    -8.294e-009    
  -2.75           2.8518e-009     -3.9081e-006    -7.58e-009     
  -2.8            2.8073e-009     -4.0108e-006    1.48e-010      
  -2.85           1.4503e-009     -4.1137e-006    9.854e-009     
  -2.9            -1.3851e-009    -4.2138e-006    2.9049e-008    
  -2.95           -2.5265e-009    -4.3152e-006    1.4283e-008    
  -3              -1.9059e-009    -4.4151e-006    1.741e-009     
  -3.05           -1.4349e-009    -4.5112e-006    5.307e-009     
  -3.1            -1.393e-009     -4.6066e-006    8.574e-009     
  -3.15           -2.6456e-009    -4.7006e-006    1.2649e-008    
  -3.2            -2.1806e-009    -4.7945e-006    1.185e-009     
  -3.25           -1.5501e-009    -4.8862e-006    4.406e-009     
  -3.3            -1.3853e-009    -4.9762e-006    7.313e-009     
  -3.35           -2.6961e-009    -5.0646e-006    1.1207e-008    
  -3.4            1.9486e-009     -5.1554e-006    -2.2418e-008   
  -3.45           1.3639e-009     -5.2395e-006    -8.715e-009    
  -3.5            2.854e-009      -5.323e-006     -7.953e-009    
  -3.55           2.7858e-009     -5.4095e-006    -1.03e-010     
  -3.6            5.711e-010      -5.4901e-006    1.2618e-008    
  -3.65           9.671e-010      -5.5737e-006    1.0964e-008    
  -3.7            -2.372e-010     -5.6581e-006    1.1037e-008    
  -3.75           -1.4366e-009    -5.7373e-006    2.1814e-008    
  -3.8            -1.3937e-009    -5.8164e-006    8.681e-009     
  -3.85           -2.6482e-009    -5.8959e-006    1.2789e-008    
  -3.9            -2.1818e-009    -5.973e-006     1.221e-009     
  -3.95           -1.5501e-009    -6.0508e-006    4.468e-009     
  -4              -1.3866e-009    -6.1262e-006    7.36e-009      
  -4.05           -2.6974e-009    -6.1962e-006    1.1424e-008    
  -4.1            1.9428e-009     -6.2723e-006    -2.2485e-008   
  -4.15           1.3563e-009     -6.3448e-006    -8.679e-009    
