! VERSION = 6.00
BEGIN_HEADER
 ICCAP_INPUTS
  VG         V  B GROUND SMU4 0.001 LIN        1    0          -5         101  -0.05     
  VS         V  E GROUND SMU2 0.1 CON        0
  VB         V  C GROUND SMU3 0.1 LIN        3    0          5          3    2.5       
  VD         V  S GROUND SMU1 0.1 LIN        2    -0.1       -5         2    -4.9      
 ICCAP_OUTPUTS
  IG         I  B GROUND SMU4 B
  ID         I  S GROUND SMU1 B
  IB         I  C GROUND SMU3 B
END_HEADER

BEGIN_DB
 ICCAP_VAR VS         0              
 ICCAP_VAR VB         0              
 ICCAP_VAR VD         -0.1           

 #VG              IG              ID              IB             
  0               -1.197e-009     -1.1479e-009    -1.9654e-008   
  -0.05           -1.9526e-009    -1.306e-009     1.082e-009     
  -0.1            1.6971e-009     -1.7364e-009    -1.2519e-008   
  -0.15           1.7822e-009     1.6427e-009     -8.9e-009      
  -0.2            3.365e-010      2.2934e-009     1.2795e-008    
  -0.25           5.407e-010      2.3277e-009     1.273e-008     
  -0.3            7.275e-010      2.3408e-009     1.131e-008     
  -0.35           8.902e-010      2.3315e-009     9.802e-009     
  -0.4            1.0477e-009     2.2748e-009     9.15e-009      
  -0.45           -1.3891e-009    1.4747e-009     9.288e-009     
  -0.5            -2.5754e-009    -1.9576e-009    1.3856e-008    
  -0.55           2.2048e-009     -4.2886e-009    -2.0064e-008   
  -0.6            1.8453e-009     -8.2012e-009    -7.423e-009    
  -0.65           -2.4205e-009    -2.681e-008     -2.7921e-008   
  -0.7            -8.393e-010     -7.1397e-008    -1.295e-008    
  -0.75           -2.315e-009     -1.6132e-007    9.378e-009     
  -0.8            1.774e-010      -3.3154e-007    -1.0729e-008   
  -0.85           1.3816e-009     -5.7618e-007    -2.1611e-008   
  -0.9            2.8712e-009     -8.9453e-007    -8.487e-009    
  -0.95           2.0551e-009     -1.2696e-006    9.827e-009     
  -1              8.832e-010      -1.6831e-006    1.23e-008      
  -1.05           -1.4808e-009    -2.1208e-006    1.3485e-008    
  -1.1            -1.4162e-009    -2.5711e-006    8.133e-009     
  -1.15           -1.3771e-009    -3.0187e-006    9.963e-009     
  -1.2            -2.2619e-009    -3.4655e-006    1.4279e-008    
  -1.25           1.364e-010      -3.9219e-006    -1.0092e-008   
  -1.3            1.3525e-009     -4.3486e-006    -2.2734e-008   
  -1.35           2.8726e-009     -4.7618e-006    -8.917e-009    
  -1.4            -1.4167e-009    -5.1614e-006    2.838e-008     
  -1.45           -2.5281e-009    -5.5702e-006    1.0897e-008    
  -1.5            -7.53e-010      -5.9725e-006    -1.3201e-008   
  -1.55           1.7471e-009     -6.3558e-006    -2.0291e-008   
  -1.6            2.8311e-009     -6.7281e-006    -8.997e-009    
  -1.65           1.9342e-009     -7.0969e-006    1.3024e-008    
  -1.7            7.75e-010       -7.4474e-006    1.2786e-008    
  -1.75           -1.5744e-009    -7.7979e-006    1.6695e-008    
  -1.8            -1.4101e-009    -8.1408e-006    7.611e-009     
  -1.85           -1.4035e-009    -8.48e-006      9.544e-009     
  -1.9            -2.4165e-009    -8.8083e-006    1.2615e-008    
  -1.95           -8.597e-010     -9.1383e-006    -1.3121e-008   
  -2              1.5689e-009     -9.4605e-006    -1.6691e-008   
  -2.05           2.8546e-009     -9.7624e-006    -8.472e-009    
  -2.1            2.863e-009      -1.00622e-005   8.27e-010      
  -2.15           -1.3892e-009    -1.03555e-005   2.3921e-008    
  -2.2            -2.316e-009     -1.06447e-005   1.3744e-008    
  -2.25           1.693e-010      -1.09498e-005   -1.0534e-008   
  -2.3            1.3705e-009     -1.12272e-005   -2.1923e-008   
  -2.35           7.972e-010      -1.1491e-005    -1.8735e-008   
  -2.4            1.953e-009      -1.1769e-005    -2.4129e-008   
  -2.45           1.3602e-009     -1.2036e-005    -8.813e-009    
  -2.5            2.8748e-009     -1.2299e-005    -8.658e-009    
  -2.55           -1.4219e-009    -1.2549e-005    2.8705e-008    
  -2.6            -2.5618e-009    -1.2803e-005    1.0531e-008    
  -2.65           -1.9879e-009    -1.3057e-005    1.448e-009     
  -2.7            -1.4761e-009    -1.3303e-005    5.062e-009     
  -2.75           -1.4186e-009    -1.3545e-005    8.035e-009     
  -2.8            -1.379e-009     -1.3783e-005    9.828e-009     
  -2.85           -2.2746e-009    -1.4018e-005    1.4193e-008    
  -2.9            -9.509e-010     -1.4256e-005    -1.2515e-008   
  -2.95           2.948e-010      -1.4498e-005    -1.3869e-008   
  -3              1.5323e-009     -1.4714e-005    -1.9175e-008   
  -3.05           2.8541e-009     -1.4932e-005    -8.435e-009    
  -3.1            2.0786e-009     -1.5153e-005    1.2721e-008    
  -3.15           8.99e-010       -1.5364e-005    1.2184e-008    
  -3.2            -1.4694e-009    -1.5581e-005    1.2802e-008    
  -3.25           -1.4202e-009    -1.5791e-005    8.253e-009     
  -3.3            -2.6545e-009    -1.5993e-005    9.847e-009     
  -3.35           -2.2062e-009    -1.6202e-005    1.227e-009     
  -3.4            1.164e-010      -1.6412e-005    -9.882e-009    
  -3.45           1.34e-009       -1.6605e-005    -2.3124e-008   
  -3.5            2.8728e-009     -1.6796e-005    -9.064e-009    
  -3.55           -1.4178e-009    -1.6988e-005    2.8169e-008    
  -3.6            -2.5196e-009    -1.7177e-005    1.118e-008     
  -3.65           -7.674e-010     -1.7368e-005    -1.3229e-008   
  -3.7            1.7229e-009     -1.7566e-005    -1.9937e-008   
  -3.75           2.8354e-009     -1.7741e-005    -8.962e-009    
  -3.8            8.511e-010      -1.792e-005     1.2505e-008    
  -3.85           -1.5006e-009    -1.8105e-005    1.4572e-008    
  -3.9            -1.4172e-009    -1.8279e-005    8.14e-009      
  -3.95           -1.3884e-009    -1.8448e-005    9.789e-009     
  -4              -2.32e-009      -1.8617e-005    1.3723e-008    
  -4.05           1.658e-010      -1.8808e-005    -1.037e-008    
  -4.1            1.3716e-009     -1.8966e-005    -2.1942e-008   
  -4.15           2.8711e-009     -1.913e-005     -8.741e-009    
  -4.2            -1.4213e-009    -1.9287e-005    2.8744e-008    
  -4.25           -2.5659e-009    -1.9452e-005    1.0552e-008    
  -4.3            -2.0099e-009    -1.962e-005     1.504e-009     
  -4.35           -1.4813e-009    -1.9773e-005    4.868e-009     
  -4.4            -1.4189e-009    -1.993e-005     8.237e-009     
  -4.45           -1.3827e-009    -2.0084e-005    9.979e-009     
  -4.5            -2.2897e-009    -2.0232e-005    1.4031e-008    
  -4.55           -9.396e-010     -2.0388e-005    -1.2549e-008   
  -4.6            2.992e-010      -2.0546e-005    -1.4205e-008   
  -4.65           1.5464e-009     -2.0684e-005    -1.9129e-008   
  -4.7            2.8517e-009     -2.0829e-005    -8.524e-009    
  -4.75           2.0622e-009     -2.0972e-005    1.2718e-008    
  -4.8            8.867e-010      -2.1112e-005    1.1892e-008    
  -4.85           -1.4807e-009    -2.1261e-005    1.3319e-008    
  -4.9            -1.4184e-009    -2.1394e-005    8.1e-009       
  -4.95           -1.3798e-009    -2.1525e-005    9.774e-009     
  -5              -2.2591e-009    -2.1656e-005    1.4261e-008    
END_DB

BEGIN_DB
 ICCAP_VAR VS         0              
 ICCAP_VAR VB         0              
 ICCAP_VAR VD         -5             

 #VG              IG              ID              IB             
  0               -8.803e-010     -8.747e-010     -2.4471e-008   
  -0.05           -1.8831e-009    -1.4099e-009    7.966e-009     
  -0.1            -5.437e-010     -2.2775e-009    -1.2953e-008   
  -0.15           -7.554e-010     -2.2676e-009    -1.1639e-008   
  -0.2            2.2054e-009     -1.628e-009     -2.014e-008    
  -0.25           1.5019e-009     1.9972e-009     -7.485e-009    
  -0.3            2.17e-011       2.0556e-009     1.1577e-008    
  -0.35           2.312e-010      1.8151e-009     1.2643e-008    
  -0.4            -1.6909e-009    -2.128e-009     1.2741e-008    
  -0.45           -1.5069e-009    -5.7365e-009    6.576e-009     
  -0.5            -2.6413e-009    -1.7939e-008    -2.5489e-008   
  -0.55           -2.2017e-009    -4.9357e-008    1.915e-009     
  -0.6            1.1368e-009     -1.212e-007     -1.738e-008    
  -0.65           1.5555e-009     -2.7593e-007    1.4473e-008    
  -0.7            1.9929e-009     -5.5045e-007    1.9852e-008    
  -0.75           2.4026e-009     -9.9528e-007    2.2952e-008    
  -0.8            2.982e-010      -1.6582e-006    1.8407e-008    
  -0.85           7.669e-010      -2.5739e-006    4.0209e-008    
  -0.9            1.1545e-009     -3.7548e-006    4.7406e-008    
  -0.95           1.5782e-009     -5.195e-006     6.0923e-008    
  -1              2.0138e-009     -6.8252e-006    7.5515e-008    
  -1.05           2.4305e-009     -8.6617e-006    8.6731e-008    
  -1.1            -1.0863e-009    -1.0731e-005    9.9823e-008    
  -1.15           2.2611e-009     -1.2997e-005    1.02427e-007   
  -1.2            -1.3768e-009    -1.5397e-005    1.2516e-007    
  -1.25           -2.2896e-009    -1.8009e-005    1.4216e-007    
  -1.3            -1.6354e-009    -2.0781e-005    1.4375e-007    
  -1.35           -1.4029e-009    -2.3693e-005    1.5862e-007    
  -1.4            -1.4071e-009    -2.6729e-005    1.7137e-007    
  -1.45           -2.4927e-009    -2.9901e-005    1.8375e-007    
  -1.5            -1.8775e-009    -3.3216e-005    1.8345e-007    
  -1.55           -1.4379e-009    -3.6622e-005    1.9488e-007    
  -1.6            -1.418e-009     -4.0123e-005    2.0488e-007    
  -1.65           -2.6256e-009    -4.3737e-005    2.132e-007     
  -1.7            -2.1438e-009    -4.7481e-005    2.1e-007       
  -1.75           -1.5509e-009    -5.1278e-005    2.1767e-007    
  -1.8            -1.4082e-009    -5.5144e-005    2.2405e-007    
  -1.85           -1.3985e-009    -5.9145e-005    2.2906e-007    
  -1.9            -2.3956e-009    -6.3185e-005    2.3392e-007    
  -1.95           -1.7388e-009    -6.7311e-005    2.2488e-007    
  -2              -1.417e-009     -7.148e-005     2.285e-007     
  -2.05           -1.4203e-009    -7.5696e-005    2.3011e-007    
  -2.1            -2.5679e-009    -7.9978e-005    2.3053e-007    
  -2.15           -1.9999e-009    -8.4368e-005    2.1959e-007    
  -2.2            -1.4805e-009    -8.8762e-005    2.2067e-007    
  -2.25           -1.4184e-009    -9.3208e-005    2.2018e-007    
  -2.3            -1.3828e-009    -9.7671e-005    2.1848e-007    
  -2.35           -2.2758e-009    -0.000102233    2.1849e-007    
  -2.4            -1.6262e-009    -0.000106833    2.0357e-007    
  -2.45           -1.4082e-009    -0.000111449    2.0194e-007    
  -2.5            -1.4205e-009    -0.00011603     1.9613e-007    
  -2.55           -2.5474e-009    -0.00012074     1.9474e-007    
  -2.6            -1.972e-009     -0.00012552     1.7989e-007    
  -2.65           -1.4689e-009    -0.00013031     1.7752e-007    
  -2.7            -1.4197e-009    -0.0001351      1.7431e-007    
  -2.75           -2.6585e-009    -0.00013993     1.6971e-007    
  -2.8            -2.2292e-009    -0.00014485     1.5493e-007    
  -2.85           -1.6018e-009    -0.00014971     1.5157e-007    
  -2.9            -1.4108e-009    -0.00015466     1.485e-007     
  -2.95           -1.4096e-009    -0.00015958     1.4413e-007    
  -3              -2.4572e-009    -0.00016452     1.4053e-007    
  -3.05           -1.8227e-009    -0.00016958     1.2487e-007    
  -3.1            -1.433e-009     -0.00017461     1.2214e-007    
  -3.15           -1.423e-009     -0.00017962     1.1876e-007    
  -3.2            -2.6084e-009    -0.00018467     1.1494e-007    
  -3.25           -2.0915e-009    -0.00018981     1.0051e-007    
  -3.3            -1.5145e-009    -0.00019492     9.852e-008     
  -3.35           -1.415e-009     -0.00020003     9.644e-008     
  -3.4            -1.3959e-009    -0.00020512     9.325e-008     
  -3.45           -2.3483e-009    -0.00021029     9.177e-008     
  -3.5            1.5733e-009     -0.00021564     5.4623e-008    
  -3.55           2.8555e-009     -0.00022082     6.0458e-008    
  -3.6            2.8597e-009     -0.00022595     6.5579e-008    
  -3.65           2.5694e-009     -0.00023117     5.9642e-008    
  -3.7            1.8293e-009     -0.00023643     5.2585e-008    
  -3.75           1.3321e-009     -0.00024178     4.4019e-008    
  -3.8            2.8714e-009     -0.00024701     4.0221e-008    
  -3.85           2.7493e-009     -0.00025219     4.5639e-008    
  -3.9            2.14e-009       -0.00025753     4.0639e-008    
  -3.95           1.4437e-009     -0.00026286     3.2196e-008    
  -4              2.866e-009      -0.0002681      2.874e-008     
  -4.05           2.8412e-009     -0.00027333     3.4539e-008    
  -4.1            2.4404e-009     -0.00027868     3.057e-008     
  -4.15           1.6543e-009     -0.00028398     2.3896e-008    
  -4.2            2.8711e-009     -0.00028933     3.3098e-008    
  -4.25           2.8104e-009     -0.00029463     2.5117e-008    
  -4.3            2.3012e-009     -0.00029998     2.1684e-008    
  -4.35           2.8182e-009     -0.00030523     3.2395e-008    
  -4.4            2.8691e-009     -0.00031063     2.4184e-008    
  -4.45           2.301e-009      -0.00031589     3.0201e-008    
  -4.5            2.6465e-009     -0.00032125     2.8086e-008    
  -4.55           2.8376e-009     -0.00032662     2.5261e-008    
  -4.6            1.953e-009      -0.00033204     2.7345e-008    
  -4.65           2.3732e-009     -0.00033728     2.3996e-008    
  -4.7            2.6938e-009     -0.00034272     2.2899e-008    
  -4.75           1.608e-009      -0.00034822     2.2363e-008    
  -4.8            2.0446e-009     -0.00035348     2.2793e-008    
  -4.85           2.4497e-009     -0.00035876     2.0327e-008    
  -4.9            1.2586e-009     -0.00036421     1.7581e-008    
  -4.95           1.6921e-009     -0.00036958     1.8711e-008    
  -5              2.1303e-009     -0.00037477     1.9655e-008    
END_DB

BEGIN_DB
 ICCAP_VAR VS         0              
 ICCAP_VAR VB         2.5            
 ICCAP_VAR VD         -0.1           

 #VG              IG              ID              IB             
  0               2.8516e-009     -6.857e-010     -2.557e-008    
  -0.05           1.561e-009      1.9439e-009     1.2153e-008    
  -0.1            -1.4217e-009    1.4274e-009     2.6871e-008    
  -0.15           -1.4158e-009    1.74e-011       1.0193e-008    
  -0.2            -1.3846e-009    1.802e-010      1.1292e-008    
  -0.25           -2.5798e-009    3.603e-010      1.3945e-008    
  -0.3            -1.1546e-009    -2.2186e-009    1.457e-009     
  -0.35           2.968e-010      -1.8413e-009    -9.855e-009    
  -0.4            1.9503e-009     -8.83e-010      -1.9065e-008   
  -0.45           1.6429e-009     1.86e-009       -8.654e-009    
  -0.5            1.8227e-009     1.5542e-009     1.2524e-008    
  -0.55           3.86e-010       2.3032e-009     1.2832e-008    
  -0.6            5.89e-010       2.3323e-009     1.2266e-008    
  -0.65           7.714e-010      2.3462e-009     1.0777e-008    
  -0.7            9.373e-010      2.3396e-009     9.369e-009     
  -0.75           1.0968e-009     2.3256e-009     9.28e-009      
  -0.8            1.2555e-009     2.2466e-009     1.0448e-008    
  -0.85           -2.325e-010     2.0415e-009     1.0126e-008    
  -0.9            -1.6089e-009    9.123e-010      2.3249e-008    
  -0.95           -1.8135e-009    -1.6727e-009    7.361e-009     
  -1              2.1194e-009     -2.284e-009     -1.8542e-008   
  -1.05           1.7502e-009     -2.1283e-009    -7.955e-009    
  -1.1            -2.6033e-009    -1.0932e-008    1.0283e-008    
  -1.15           -2.0855e-009    -3.373e-008     1.302e-009     
  -1.2            -1.5148e-009    -9.2815e-008    4.667e-009     
  -1.25           -1.838e-010     -2.1697e-007    -8.809e-009    
  -1.3            -1.4225e-009    -4.2965e-007    2.4252e-008    
  -1.35           -1.423e-009     -7.2533e-007    8.335e-009     
  -1.4            -2.5803e-009    -1.08829e-006   1.0528e-008    
  -1.45           -2.2375e-009    -1.4998e-006    -1.9435e-008   
  -1.5            2.3636e-009     -1.931e-006     -2.8108e-008   
  -1.55           1.574e-009      -2.363e-006     -6.229e-009    
  -1.6            2.8457e-009     -2.7932e-006    -8.566e-009    
  -1.65           2.036e-009      -3.2132e-006    1.2816e-008    
  -1.7            8.689e-010      -3.6173e-006    1.2107e-008    
  -1.75           1.2536e-009     -4.0217e-006    9.112e-009     
  -1.8            1.6919e-009     -4.413e-006     1.1994e-008    
  -1.85           2.1262e-009     -4.7874e-006    1.2052e-008    
  -1.9            9.458e-010      -5.1503e-006    1.1287e-008    
  -1.95           1.3393e-009     -5.5123e-006    9.313e-009     
  -2              1.777e-009      -5.862e-006     1.2488e-008    
  -2.05           6.215e-010      -6.1913e-006    1.2773e-008    
  -2.1            1.0258e-009     -6.5235e-006    1.0436e-008    
  -2.15           1.4258e-009     -6.8526e-006    9.293e-009     
  -2.2            1.8677e-009     -7.1672e-006    1.2813e-008    
  -2.25           7.133e-010      -7.4684e-006    1.2808e-008    
  -2.3            1.1046e-009     -7.7753e-006    9.558e-009     
  -2.35           1.5165e-009     -8.0771e-006    1.0591e-008    
  -2.4            3.431e-010      -8.3592e-006    1.1884e-008    
  -2.45           7.967e-010      -8.6458e-006    1.2414e-008    
  -2.5            -1.5451e-009    -8.926e-006     1.5889e-008    
  -2.55           -1.4144e-009    -9.1993e-006    7.652e-009     
  -2.6            -1.3994e-009    -9.4682e-006    9.768e-009     
  -2.65           -2.3729e-009    -9.7322e-006    1.3034e-008    
  -2.7            -8.916e-010     -9.9986e-006    -1.2706e-008   
  -2.75           1.5114e-009     -1.02623e-005   -1.54e-008     
  -2.8            2.8501e-009     -1.05093e-005   -8.343e-009    
  -2.85           2.8551e-009     -1.07542e-005   4.98e-010      
  -2.9            1.3737e-009     -1.10007e-005   9.43e-009      
  -2.95           1.8161e-009     -1.12407e-005   1.2551e-008    
  -3              -2.4416e-009    -1.147e-005     1.2723e-008    
  -3.05           1.9814e-009     -1.1707e-005    -2.476e-008    
  -3.1            1.3675e-009     -1.1934e-005    -8.49e-009     
  -3.15           2.8652e-009     -1.216e-005     -8.558e-009    
  -3.2            2.7943e-009     -1.2381e-005    -1.22e-010     
  -3.25           1.529e-009      -1.2603e-005    1.0647e-008    
  -3.3            3.509e-010      -1.2813e-005    1.198e-008     
  -3.35           8.09e-010       -1.3026e-005    1.2333e-008    
  -3.4            -1.5342e-009    -1.324e-005     1.5451e-008    
  -3.45           -1.4153e-009    -1.3442e-005    7.607e-009     
  -3.5            -1.3957e-009    -1.3648e-005    9.862e-009     
  -3.55           -2.3569e-009    -1.3842e-005    1.3255e-008    
  -3.6            -9.036e-010     -1.405e-005     -1.2544e-008   
  -3.65           1.4999e-009     -1.4258e-005    -1.4956e-008   
  -3.7            2.8516e-009     -1.4441e-005    -8.217e-009    
  -3.75           2.8508e-009     -1.4634e-005    4.66e-010      
  -3.8            1.3863e-009     -1.4823e-005    9.446e-009     
  -3.85           1.8319e-009     -1.5011e-005    1.2519e-008    
  -3.9            6.706e-010      -1.5186e-005    1.2711e-008    
  -3.95           1.0669e-009     -1.537e-005     9.84e-009      
  -4              1.4776e-009     -1.5551e-005    1.0318e-008    
  -4.05           1.9144e-009     -1.5727e-005    1.3049e-008    
  -4.1            7.606e-010      -1.5896e-005    1.2537e-008    
  -4.15           1.1506e-009     -1.607e-005     9.476e-009     
