! VERSION = 6.00
BEGIN_HEADER
 ICCAP_INPUTS
  VG         V  B GROUND SMU4 0.001 LIN        2    0          -5         6    -1        
  VS         V  E GROUND SMU2 0.1 CON        0
  VD         V  S GROUND SMU1 0.1 LIN        1    0          -5         101  -0.05     
  VB         V  C GROUND SMU3 0.1 LIN        3    0          2.5        2    2.5       
 ICCAP_OUTPUTS
  ID         I  S GROUND SMU1 B
  IB         I  C GROUND SMU3 B
  IG         I  B GROUND SMU4 B
END_HEADER

BEGIN_DB
 ICCAP_VAR VG         0              
 ICCAP_VAR VS         0              
 ICCAP_VAR VB         0              

 #VD              ID              IB              IG             
  0               2.873e-010      1.1969e-008     4.2e-011       
  -0.05           -4.774e-010     -1.7762e-008    2.6315e-009    
  -0.1            2.412e-009      8.462e-009      7.004e-010     
  -0.15           2.4069e-009     1.0826e-008     8.748e-010     
  -0.2            1.7668e-009     1.5189e-008     -1.7259e-009   
  -0.25           -1.6156e-009    6.761e-009      -1.772e-009    
  -0.3            -2.2416e-009    -1.1064e-008    -2.986e-010    
  -0.35           -2.303e-009     -1.107e-008     -5.032e-010    
  -0.4            -1.4951e-009    -2.2191e-008    1.2834e-009    
  -0.45           -4.49e-011      -1.0657e-008    2.9285e-009    
  -0.5            1.54e-009       -2.86e-010      1.8334e-009    
  -0.55           2.3313e-009     1.0529e-008     3.971e-010     
  -0.6            1.3913e-009     2.6258e-008     -1.3714e-009   
  -0.65           1.4e-011        1.1354e-008     -1.3422e-009   
  -0.7            1.473e-010      1.1781e-008     -2.7323e-009   
  -0.75           -1.3659e-009    7.51e-010       -1.9489e-009   
  -0.8            -2.3178e-009    -1.1478e-008    -6.04e-010     
  -0.85           -2.3247e-009    -1.1691e-008    -8.057e-010    
  -0.9            -2.2901e-009    -1.1505e-008    -9.733e-010    
  -0.95           -1.7152e-009    -1.3601e-008    1.7819e-009    
  -1              1.7015e-009     -9.273e-009     1.7127e-009    
  -1.05           1.4625e-009     1.0178e-008     1.8887e-009    
  -1.1            2.3576e-009     1.0658e-008     4.596e-010     
  -1.15           1.4389e-009     2.5269e-008     -1.3615e-009   
  -1.2            6.08e-011       1.1088e-008     -1.3324e-009   
  -1.25           1.969e-010      1.2556e-008     -2.7019e-009   
  -1.3            -1.3262e-009    9.81e-010       -1.9803e-009   
  -1.35           -2.3276e-009    -1.1605e-008    -6.726e-010    
  -1.4            -2.3158e-009    -1.1692e-008    -8.684e-010    
  -1.45           -2.2749e-009    -1.1392e-008    -1.0209e-009   
  -1.5            -1.7411e-009    -1.3013e-008    1.6946e-009    
  -1.55           1.6117e-009     -9.091e-009     1.772e-009     
  -1.6            1.3945e-009     1.0046e-008     1.9536e-009    
  -1.65           2.3821e-009     1.0737e-008     5.26e-010      
  -1.7            2.4153e-009     1.1311e-008     7.049e-010     
  -1.75           2.4076e-009     1.0917e-008     8.826e-010     
  -1.8            1.7697e-009     1.5088e-008     -1.7216e-009   
  -1.85           -1.6188e-009    7.014e-009      -1.7767e-009   
  -1.9            -2.2518e-009    -1.0953e-008    -3.076e-010    
  -1.95           -2.3091e-009    -1.1288e-008    -5.137e-010    
  -2              -1.498e-009     -2.2318e-008    1.2789e-009    
  -2.05           -4.78e-011      -1.0498e-008    2.9232e-009    
  -2.1            1.5257e-009     -3.11e-010      1.8404e-009    
  -2.15           2.3382e-009     1.0448e-008     4.054e-010     
  -2.2            1.4033e-009     2.6173e-008     -1.3681e-009   
  -2.25           2.43e-011       1.1119e-008     -1.3406e-009   
  -2.3            1.542e-010      1.1748e-008     -2.7261e-009   
  -2.35           -1.3631e-009    7.58e-010       -1.9546e-009   
  -2.4            -2.321e-009     -1.1538e-008    -6.202e-010    
  -2.45           -2.3249e-009    -1.177e-008     -8.176e-010    
  -2.5            -2.2858e-009    -1.1384e-008    -9.824e-010    
  -2.55           -1.7187e-009    -1.3402e-008    1.7636e-009    
  -2.6            1.6831e-009     -9.348e-009     1.7308e-009    
  -2.65           1.4447e-009     1.0105e-008     1.9074e-009    
  -2.7            2.3661e-009     1.0725e-008     4.728e-010     
  -2.75           1.4518e-009     2.4988e-008     -1.3591e-009   
  -2.8            6.66e-011       1.1068e-008     -1.334e-009    
  -2.85           2.033e-010      1.2586e-008     -2.6931e-009   
  -2.9            -1.3207e-009    9.74e-010       -1.9873e-009   
  -2.95           -1.7384e-009    -1.3072e-008    1.7026e-009    
  -3              1.628e-009      -9.138e-009     1.7663e-009    
  -3.05           1.4048e-009     1e-008          1.9428e-009    
  -3.1            2.377e-009      1.0849e-008     5.122e-010     
  -3.15           1.4829e-009     2.4068e-008     -1.3519e-009   
  -3.2            1.016e-010      1.1362e-008     -1.3272e-009   
  -3.25           2.409e-010      1.3152e-008     -2.666e-009    
  -3.3            -1.3004e-009    1.112e-009      -2.0087e-009   
  -3.35           -1.7555e-009    -1.271e-008     1.6522e-009    
  -3.4            1.5783e-009     -9.179e-009     1.8029e-009    
  -3.45           2.3189e-009     1.0462e-008     3.706e-010     
  -3.5            1.3689e-009     2.6669e-008     -1.3753e-009   
  -3.55           -8.9e-012       1.1146e-008     -1.347e-009    
  -3.6            1.256e-010      1.1725e-008     -2.745e-009    
  -3.65           -1.3849e-009    7.16e-010       -1.9377e-009   
  -3.7            -2.3179e-009    -1.1365e-008    -5.757e-010    
  -3.75           -2.3249e-009    -1.1788e-008    -7.808e-010    
  -3.8            -2.2957e-009    -1.14e-008      -9.484e-010    
  -3.85           -1.7065e-009    -1.383e-008     1.8096e-009    
  -3.9            1.7271e-009     -9.322e-009     1.6851e-009    
  -3.95           1.4881e-009     1.0309e-008     1.8634e-009    
  -4              2.3441e-009     1.0625e-008     4.361e-010     
  -4.05           2.3985e-009     1.1171e-008     6.209e-010     
  -4.1            2.412e-009      1.1067e-008     7.925e-010     
  -4.15           1.704e-009      1.6935e-008     -1.8299e-009   
  -4.2            -1.7152e-009    6.045e-009      -1.6991e-009   
  -4.25           -2.2008e-009    -1.0884e-008    -1.996e-010    
  -4.3            -2.2819e-009    -1.1078e-008    -4.074e-010    
  -4.35           -2.3196e-009    -1.1473e-008    -6.075e-010    
  -4.4            -2.3205e-009    -1.1748e-008    -8.138e-010    
  -4.45           -1.6507e-009    -1.6283e-008    2.0562e-009    
  -4.5            1.9214e-009     -8.609e-009     1.5369e-009    
  -4.55           2.1578e-009     1.0332e-008     1.032e-010     
  -4.6            2.2649e-009     1.0342e-008     2.776e-010     
  -4.65           2.3527e-009     1.0754e-008     4.678e-010     
  -4.7            2.4011e-009     1.1105e-008     6.502e-010     
  -4.75           2.4084e-009     1.0911e-008     8.218e-010     
  -4.8            1.7223e-009     1.6291e-008     -1.792e-009    
  -4.85           -1.6885e-009    6.23e-009       -1.7192e-009   
  -4.9            -2.2173e-009    -1.0969e-008    -2.29e-010     
  -4.95           -2.2932e-009    -1.1034e-008    -4.361e-010    
  -5              -2.3291e-009    -1.1559e-008    -6.472e-010    
END_DB

BEGIN_DB
 ICCAP_VAR VG         -1             
 ICCAP_VAR VS         0              
 ICCAP_VAR VB         0              

 #VD              ID              IB              IG             
  0               -1.4309e-007    1.0667e-008     -7.918e-010    
  -0.05           -7.2794e-006    1.1372e-008     1.8488e-009    
  -0.1            -1.09721e-005   -1.8892e-008    1.8411e-009    
  -0.15           -1.2809e-005    -1.1866e-008    2.3626e-009    
  -0.2            -1.403e-005     -1.1002e-008    -5.538e-010    
  -0.25           -1.4768e-005    2.3263e-008     -1.5307e-009   
  -0.3            -1.5653e-005    1.0826e-008     1.1259e-009    
  -0.35           -1.6288e-005    -2.3801e-008    1.2601e-009    
  -0.4            -1.6646e-005    -1.1225e-008    -7.822e-010    
  -0.45           -1.709e-005     2.5849e-008     -1.432e-009    
  -0.5            -1.7871e-005    1.0782e-008     1.3044e-009    
  -0.55           -1.8316e-005    -1.9587e-008    1.8947e-009    
  -0.6            -1.8843e-005    -1.2675e-008    2.223e-010     
  -0.65           -1.8904e-005    1.3036e-008     -2.4411e-009   
  -0.7            -1.9377e-005    1.0473e-008     4.121e-010     
  -0.75           -2.013e-005     -2.1607e-008    1.6066e-009    
  -0.8            -2.0171e-005    -1.1428e-008    -1.1437e-009   
  -0.85           -2.0623e-005    2.7412e-008     -1.3533e-009   
  -0.9            -2.1096e-005    1.0582e-008     6.23e-010      
  -0.95           -2.1819e-005    -2.4211e-008    1.4193e-009    
  -1              -2.1731e-005    -1.1256e-008    -1.3289e-009   
  -1.05           -2.2228e-005    1.179e-008      -2.5618e-009   
  -1.1            -2.2644e-005    1.0455e-008     3.055e-010     
  -1.15           -2.3438e-005    -2.0706e-008    1.7495e-009    
  -1.2            -2.346e-005     -1.157e-008     -1.048e-009    
  -1.25           -2.3852e-005    2.8092e-008     -1.369e-009    
  -1.3            -2.4302e-005    1.0529e-008     5.053e-010     
  -1.35           -2.5069e-005    -2.2669e-008    1.5047e-009    
  -1.4            -2.497e-005     -1.1468e-008    -1.2283e-009   
  -1.45           -2.5407e-005    1.135e-008      -2.6514e-009   
  -1.5            -2.5852e-005    1.0686e-008     1.943e-010     
  -1.55           -2.6662e-005    -1.9976e-008    1.9118e-009    
  -1.6            -2.712e-005     -1.2875e-008    2.329e-010     
  -1.65           -2.701e-005     1.2845e-008     -2.4588e-009   
  -1.7            -2.7475e-005    1.0412e-008     3.993e-010     
  -1.75           -2.8292e-005    -2.1668e-008    1.6258e-009    
  -1.8            -2.822e-005     -1.1437e-008    -1.1326e-009   
  -1.85           -2.8636e-005    2.7533e-008     -1.3559e-009   
  -1.9            -2.9141e-005    1.0475e-008     6.093e-010     
  -1.95           -2.9966e-005    -2.3907e-008    1.431e-009     
  -2              -2.9724e-005    -1.1276e-008    -1.3143e-009   
  -2.05           -3.0216e-005    1.1693e-008     -2.5751e-009   
  -2.1            -3.0669e-005    1.0467e-008     2.895e-010     
  -2.15           -3.1549e-005    -2.071e-008     1.7624e-009    
  -2.2            -3.2014e-005    -1.2212e-008    1.554e-010     
  -2.25           -3.1861e-005    1.4115e-008     -2.3422e-009   
  -2.3            -3.2621e-005    1.0137e-008     2.0945e-009    
  -2.35           -3.3121e-005    -1.1409e-008    -1.388e-010    
  -2.4            -3.3138e-005    1.8715e-008     -1.9078e-009   
  -2.45           -3.3757e-005    1.0976e-008     8.027e-010     
  -2.5            -3.4481e-005    -2.5701e-008    1.3324e-009    
  -2.55           -3.4704e-005    -1.0727e-008    -3.652e-010    
  -2.6            -3.4807e-005    2.1573e-008     -1.6587e-009   
  -2.65           -3.5513e-005    1.1438e-008     9.923e-010     
  -2.7            -3.6132e-005    -2.5386e-008    1.2841e-009    
  -2.75           -3.6256e-005    -1.0446e-008    -5.973e-010    
  -2.8            -3.6484e-005    2.4561e-008     -1.5046e-009   
  -2.85           -3.7345e-005    1.1659e-008     1.162e-009     
  -2.9            -3.7918e-005    -9.97e-009      2.7997e-009    
  -2.95           -3.8259e-005    -1.717e-008     2.0964e-009    
  -3              -3.829e-005     -9.516e-009     -8.499e-010    
  -3.05           -3.8595e-005    2.8886e-008     -1.4173e-009   
  -3.1            -3.9659e-005    1.3422e-008     1.3732e-009    
  -3.15           -4.0082e-005    -1.1544e-008    2.5668e-009    
  -3.2            -4.0463e-005    -1.6795e-008    1.7518e-009    
  -3.25           -4.0986e-005    -1.0487e-008    2.5043e-009    
  -3.3            -4.1379e-005    -2.742e-009     2.9092e-009    
  -3.35           -4.1873e-005    -8.815e-009     2.4346e-009    
  -3.4            -4.2302e-005    -2.23e-010      2.8922e-009    
  -3.45           -4.2732e-005    -6.154e-009     2.3595e-009    
  -3.5            -4.3171e-005    3.215e-009      2.8685e-009    
  -3.55           -4.3181e-005    2.3979e-008     2.7528e-009    
  -3.6            -4.3692e-005    2.3959e-008     2.9324e-009    
  -3.65           -4.3653e-005    1.0299e-008     -1.4711e-009   
  -3.7            -4.4413e-005    4.6502e-008     -1.7151e-009   
  -3.75           -4.5023e-005    3.9968e-008     2.4318e-009    
  -3.8            -4.5479e-005    2.4912e-008     -6.669e-010    
  -3.85           -4.5716e-005    6.7337e-008     -1.4729e-009   
  -3.9            -4.639e-005     5.7589e-008     2.6513e-009    
  -3.95           -4.6718e-005    4.6453e-008     -9.696e-010    
  -4              -4.7098e-005    9.6484e-008     -1.3868e-009   
  -4.05           -4.7838e-005    8.7349e-008     2.8612e-009    
  -4.1            -4.7958e-005    8.023e-008      -1.2414e-009   
  -4.15           -4.8768e-005    9.525e-008      1.2685e-009    
  -4.2            -4.9151e-005    1.1646e-007     -2.8176e-009   
  -4.25           -5.0264e-005    1.5249e-007     1.3541e-009    
  -4.3            -5.0607e-005    1.4346e-007     1.8144e-009    
  -4.35           -5.0675e-005    1.7573e-007     -2.3475e-009   
  -4.4            -5.1165e-005    2.2361e-007     5.703e-010     
  -4.45           -5.2246e-005    2.1805e-007     1.465e-009     
  -4.5            -5.2236e-005    2.6704e-007     -2.6221e-009   
  -4.55           -5.2921e-005    3.2588e-007     8.809e-010     
  -4.6            -5.3808e-005    3.2724e-007     1.3321e-009    
  -4.65           -5.3815e-005    3.9368e-007     -2.7675e-009   
  -4.7            -5.4772e-005    4.6681e-007     1.1679e-009    
  -4.75           -5.5325e-005    4.8593e-007     1.3008e-009    
  -4.8            -5.5426e-005    5.6817e-007     -2.7568e-009   
  -4.85           -5.6726e-005    6.5933e-007     1.4936e-009    
  -4.9            -5.7132e-005    7.0503e-007     1.8142e-009    
  -4.95           -5.7234e-005    7.9555e-007     -2.2944e-009   
  -5              -5.787e-005     9.1384e-007     7.807e-010     
END_DB

BEGIN_DB
 ICCAP_VAR VG         -2             
 ICCAP_VAR VS         0              
 ICCAP_VAR VB         0              

 #VD              ID              IB              IG             
  0               -1.2711e-006    2.7837e-008     9.891e-010     
  -0.05           -9.1776e-005    -1.0997e-008    2.5722e-009    
  -0.1            -0.00017755     -1.3277e-008    -1.9327e-009   
  -0.15           -0.00025851     1.0955e-008     8.73e-011      
  -0.2            -0.00033477     -2.0286e-008    1.8948e-009    
  -0.25           -0.00040503     -1.1608e-008    -1.0783e-009   
  -0.3            -0.00047007     1.1447e-008     -2.6838e-009   
  -0.35           -0.00052992     1.0428e-008     2.76e-010      
  -0.4            -0.00058516     -2.1766e-008    1.6082e-009    
  -0.45           -0.00063341     -1.1387e-008    -1.2562e-009   
  -0.5            -0.00067716     1.2061e-008     -2.513e-009    
  -0.55           -0.0007173      1.0188e-008     2.0787e-009    
  -0.6            -0.00075178     -1.0968e-008    -2.69e-010     
  -0.65           -0.00078077     2.1718e-008     -1.6252e-009   
  -0.7            -0.00080842     1.0805e-008     1.1313e-009    
  -0.75           -0.00083133     -2.1053e-008    1.9922e-009    
  -0.8            -0.00085208     -1.2277e-008    1.644e-010     
  -0.85           -0.00086771     1.58e-008       -2.1935e-009   
  -0.9            -0.00088436     1.0652e-008     7.364e-010     
  -0.95           -0.00089903     -2.6059e-008    1.3122e-009    
  -1              -0.00091073     -1.0981e-008    -5.803e-010    
  -1.05           -0.0009208      2.5228e-008     -1.4493e-009   
  -1.1            -0.00093158     1.0358e-008     2.931e-010     
  -1.15           -0.00094267     -2.1905e-008    1.5909e-009    
  -1.2            -0.00094925     -1.141e-008     -1.2619e-009   
  -1.25           -0.00095748     1.2221e-008     -2.5011e-009   
  -1.3            -0.00096725     1.0346e-008     2.086e-009     
  -1.35           -0.00097446     -1.0869e-008    -2.839e-010    
  -1.4            -0.00097994     2.1983e-008     -1.6174e-009   
  -1.45           -0.00098859     1.0851e-008     1.1435e-009    
  -1.5            -0.00099469     -2.0893e-008    1.9733e-009    
  -1.55           -0.00099989     -1.1678e-008    -1.0283e-009   
  -1.6            -0.00100539     2.7501e-008     -1.3515e-009   
  -1.65           -0.00101159     1.3789e-008     -2.441e-010    
  -1.7            -0.00101963     -1.6025e-008    2.4709e-009    
  -1.75           -0.00102385     -1.109e-008     -7.402e-010    
  -1.8            -0.00102827     2.6798e-008     -1.4057e-009   
  -1.85           -0.00103429     1.0355e-008     4.285e-010     
  -1.9            -0.00104113     -2.3358e-008    1.458e-009     
  -1.95           -0.00104619     -1.1099e-008    -2.386e-010    
  -2              -0.00104931     2.1363e-008     -1.6501e-009   
  -2.05           -0.0010562      1.0867e-008     1.1083e-009    
  -2.1            -0.00106177     -1.2133e-008    2.7498e-009    
  -2.15           -0.00106533     -1.0897e-008    -4.717e-010    
  -2.2            -0.00106892     2.388e-008      -1.4932e-009   
  -2.25           -0.00107355     1.0657e-008     1.873e-010     
  -2.3            -0.00108045     -2.0836e-008    1.723e-009     
  -2.35           -0.00108303     -1.1304e-008    -1.1743e-009   
  -2.4            -0.0010873      1.1469e-008     -2.5963e-009   
  -2.45           -0.00109236     1.0414e-008     3.941e-010     
  -2.5            -0.00109875     -2.2587e-008    1.4957e-009    
  -2.55           -0.00110272     -1.1045e-008    -1.974e-010    
  -2.6            -0.00110526     2.1258e-008     -1.6965e-009   
  -2.65           -0.00111158     1.1135e-008     1.0716e-009    
  -2.7            -0.00111639     -1.0874e-008    2.7776e-009    
  -2.75           -0.00111949     -1.0077e-008    -4.223e-010    
  -2.8            -0.0011223      2.4214e-008     -1.5167e-009   
  -2.85           -0.00112913     1.2132e-008     1.2515e-009    
  -2.9            -0.00113326     -1.3069e-008    2.5744e-009    
  -2.95           -0.00113706     -1.9542e-008    1.5836e-009    
  -3              -0.0011393      -1.5511e-008    -9.22e-010     
  -3.05           -0.0011422      3.236e-008      -1.3742e-009   
  -3.1            -0.0011494      1.6532e-008     1.6985e-009    
  -3.15           -0.0011527      -1.2934e-008    1.8694e-009    
  -3.2            -0.0011569      -6.342e-009     2.4443e-009    
  -3.25           -0.0011607      1.821e-009      2.8226e-009    
  -3.3            -0.0011634      2.3334e-008     2.8741e-009    
  -3.35           -0.0011655      9.031e-009      -1.3992e-009   
  -3.4            -0.0011701      4.4739e-008     -1.6529e-009   
  -3.45           -0.001175       4.125e-008      2.5591e-009    
  -3.5            -0.0011782      2.9127e-008     -9.707e-010    
  -3.55           -0.0011814      7.8688e-008     -1.363e-009    
  -3.6            -0.0011866      6.8246e-008     2.9358e-009    
  -3.65           -0.0011881      6.6145e-008     -1.6144e-009   
  -3.7            -0.0011934      1.10396e-007    -2.8211e-009   
  -3.75           -0.0011964      1.2077e-007     -1.8592e-009   
  -3.8            -0.0012012      1.5433e-007     2.4267e-009    
  -3.85           -0.0012048      1.6554e-007     -8.079e-010    
  -3.9            -0.0012075      2.4164e-007     -1.395e-009    
  -3.95           -0.0012126      2.6628e-007     2.893e-009     
  -4              -0.0012143      3.0098e-007     -1.4374e-009   
  -4.05           -0.0012189      3.9296e-007     -1.619e-009    
  -4.1            -0.0012236      4.5714e-007     2.5868e-009    
  -4.15           -0.0012262      5.2351e-007     -1.0119e-009   
