! VERSION = 6.00
BEGIN_HEADER
 ICCAP_INPUTS
  VG         V  B GROUND SMU4 0.001 LIN        2    0          -5         6    -1        
  VS         V  E GROUND SMU2 0.1 CON        0
  VD         V  S GROUND SMU1 0.1 LIN        1    0          -5         101  -0.05     
  VB         V  C GROUND SMU3 0.1 LIN        3    0          2.5        2    2.5       
 ICCAP_OUTPUTS
  ID         I  S GROUND SMU1 B
  IB         I  C GROUND SMU3 B
  IG         I  B GROUND SMU4 B
END_HEADER

BEGIN_DB
 ICCAP_VAR VG         0              
 ICCAP_VAR VS         0              
 ICCAP_VAR VB         0              

 #VD              ID              IB              IG             
  0               6.88e-010       -1.1148e-008    6.2e-010       
  -0.05           2.28e-009       -8.386e-009     1.142e-009     
  -0.1            1.0877e-009     2.7195e-008     -1.4654e-009   
  -0.15           -1.3267e-009    1.0477e-008     -1.9567e-009   
  -0.2            -2.3124e-009    -1.1547e-008    -6.713e-010    
  -0.25           -1.5596e-009    -1.9611e-008    1.2571e-009    
  -0.3            -1.55e-010      -1.2942e-008    2.87e-009      
  -0.35           2.1275e-009     1.0316e-008     1.012e-010     
  -0.4            2.2381e-009     1.0458e-008     2.672e-010     
  -0.45           2.3213e-009     1.0701e-008     4.52e-010      
  -0.5            2.3797e-009     1.1025e-008     6.289e-010     
  -0.55           1.56e-009       2.1411e-008     -1.3334e-009   
  -0.6            1.781e-010      1.2307e-008     -2.7023e-009   
  -0.65           -1.3315e-009    6.95e-010       -1.9524e-009   
  -0.7            -2.3112e-009    -1.1566e-008    -6.6e-010      
  -0.75           -2.3026e-009    -1.1447e-008    -8.491e-010    
  -0.8            -1.6428e-009    -1.5802e-008    1.9926e-009    
  -0.85           1.8736e-009     -8.8e-009       1.5613e-009    
  -0.9            2.1507e-009     1.0371e-008     1.373e-010     
  -0.95           2.2596e-009     1.0424e-008     3.188e-010     
  -1              2.3375e-009     1.0871e-008     4.983e-010     
  -1.05           1.4534e-009     2.4642e-008     -1.3512e-009   
  -1.1            8.22e-011       1.1431e-008     -1.3249e-009   
  -1.15           2.14e-010       1.2909e-008     -2.6736e-009   
  -1.2            -1.3017e-009    8.04e-010       -1.9807e-009   
  -1.25           -2.3131e-009    -1.1474e-008    -7.15e-010     
  -1.3            -1.5901e-009    -1.8666e-008    1.2506e-009    
  -1.35           -1.987e-010     -1.3683e-008    2.8524e-009    
  -1.4            2.1502e-009     1.0327e-008     1.412e-010     
  -1.45           2.2599e-009     1.0462e-008     3.193e-010     
  -1.5            2.3392e-009     1.0851e-008     4.976e-010     
  -1.55           1.4504e-009     2.4629e-008     -1.352e-009    
  -1.6            7.89e-011       1.1482e-008     -1.3252e-009   
  -1.65           2.166e-010      1.2878e-008     -2.673e-009    
  -1.7            -1.3039e-009    8.36e-010       -1.982e-009    
  -1.75           -2.3092e-009    -1.1501e-008    -7.104e-010    
  -1.8            -1.5889e-009    -1.8615e-008    1.2519e-009    
  -1.85           -1.94e-010      -1.3667e-008    2.8524e-009    
  -1.9            2.1486e-009     1.0328e-008     1.385e-010     
  -1.95           2.256e-009      1.0463e-008     3.107e-010     
  -2              2.3365e-009     1.0781e-008     4.919e-010     
  -2.05           1.4475e-009     2.4817e-008     -1.3509e-009   
  -2.1            7.82e-011       1.1186e-008     -1.324e-009    
  -2.15           2.173e-010      1.2826e-008     -2.6747e-009   
  -2.2            -1.3083e-009    8.19e-010       -1.9812e-009   
  -2.25           -2.3097e-009    -1.1454e-008    -7.047e-010    
  -2.3            -1.5878e-009    -1.8829e-008    1.2517e-009    
  -2.35           -1.948e-010     -1.351e-008     2.8562e-009    
  -2.4            2.1473e-009     1.0273e-008     1.362e-010     
  -2.45           2.254e-009      1.053e-008      3.067e-010     
  -2.5            2.338e-009      1.0822e-008     4.896e-010     
  -2.55           5.713e-010      1.8863e-008     -2.2526e-009   
  -2.6            -2.0375e-009    3.178e-009      -1.3993e-009   
  -2.65           -1.9708e-009    -1.1393e-008    9.5e-011       
  -2.7            -2.0999e-009    -1.0861e-008    -7.26e-011     
  -2.75           -2.2085e-009    -1.0975e-008    -2.648e-010    
  -2.8            -2.2761e-009    -1.1178e-008    -4.693e-010    
  -2.85           -2.3089e-009    -1.1426e-008    -6.698e-010    
  -2.9            -2.3012e-009    -1.136e-008     -8.591e-010    
  -2.95           -2.262e-009     -1.1142e-008    -1.0057e-009   
  -3              -1.7184e-009    -1.3144e-008    1.714e-009     
  -3.05           1.6234e-009     -9.2e-009       1.7522e-009    
  -3.1            1.4002e-009     9.962e-009      1.9335e-009    
  -3.15           2.3402e-009     1.0764e-008     5.062e-010     
  -3.2            1.4583e-009     2.466e-008      -1.3488e-009   
  -3.25           9.55e-011       1.125e-008      -1.3239e-009   
  -3.3            2.31e-010       1.2912e-008     -2.6644e-009   
  -3.35           -1.2977e-009    8.94e-010       -1.9906e-009   
  -3.4            -2.3113e-009    -1.1396e-008    -7.277e-010    
  -3.45           -1.5968e-009    -1.8302e-008    1.2488e-009    
  -3.5            -2.088e-010     -1.3736e-008    2.8474e-009    
  -3.55           2.1605e-009     1.0324e-008     1.472e-010     
  -3.6            2.2661e-009     1.0474e-008     3.325e-010     
  -3.65           2.3437e-009     1.0824e-008     5.091e-010     
  -3.7            1.4636e-009     2.4426e-008     -1.3482e-009   
  -3.75           9.1e-011        1.1282e-008     -1.3207e-009   
  -3.8            2.252e-010      1.3076e-008     -2.6646e-009   
  -3.85           -1.3003e-009    8.45e-010       -1.9878e-009   
  -3.9            -2.3064e-009    -1.1511e-008    -7.269e-010    
  -3.95           -1.5991e-009    -1.8233e-008    1.2475e-009    
  -4              -2.088e-010     -1.3793e-008    2.8454e-009    
  -4.05           2.1583e-009     1.0389e-008     1.551e-010     
  -4.1            2.2661e-009     1.0461e-008     3.332e-010     
  -4.15           2.343e-009      1.0811e-008     5.125e-010     
  -4.2            1.4656e-009     2.4406e-008     -1.3492e-009   
  -4.25           9.13e-011       1.1483e-008     -1.3221e-009   
  -4.3            2.345e-010      1.3127e-008     -2.6663e-009   
  -4.35           -1.2974e-009    8.94e-010       -1.9902e-009   
  -4.4            -2.311e-009     -1.1571e-008    -7.299e-010    
  -4.45           -1.6008e-009    -1.821e-008     1.2487e-009    
  -4.5            -2.108e-010     -1.3842e-008    2.8433e-009    
  -4.55           2.1584e-009     1.0388e-008     1.57e-010      
  -4.6            2.2641e-009     1.0474e-008     3.36e-010      
  -4.65           2.3423e-009     1.0872e-008     5.165e-010     
  -4.7            1.4633e-009     2.4383e-008     -1.3483e-009   
  -4.75           8.77e-011       1.1538e-008     -1.3218e-009   
  -4.8            2.356e-010      1.3123e-008     -2.6645e-009   
  -4.85           -1.2987e-009    7.72e-010       -1.9893e-009   
  -4.9            -2.3088e-009    -1.1433e-008    -7.308e-010    
  -4.95           -1.5972e-009    -1.8417e-008    1.2484e-009    
  -5              -2.121e-010     -1.3709e-008    2.85e-009      
END_DB

BEGIN_DB
 ICCAP_VAR VG         -1             
 ICCAP_VAR VS         0              
 ICCAP_VAR VB         0              

 #VD              ID              IB              IG             
  0               -2.9478e-008    1.2011e-008     1.398e-010     
  -0.05           -1.6915e-006    1.1449e-008     1.8365e-009    
  -0.1            -2.735e-006     -1.8988e-008    1.8446e-009    
  -0.15           -3.3485e-006    -1.11e-008      -4.656e-010    
  -0.2            -3.7024e-006    1.5226e-008     -2.2426e-009   
  -0.25           -3.9641e-006    1.118e-008      6.03e-011      
  -0.3            -4.2109e-006    -1.1308e-008    2.788e-009     
  -0.35           -4.3677e-006    -1.3076e-008    2.418e-010     
  -0.4            -4.429e-006     1.1009e-008     -1.3398e-009   
  -0.45           -4.5557e-006    1.0914e-008     1.3e-010       
  -0.5            -4.7336e-006    -1.2576e-008    2.7309e-009    
  -0.55           -4.8391e-006    -1.2594e-008    1.863e-010     
  -0.6            -4.8638e-006    1.1219e-008     -1.3288e-009   
  -0.65           -5.0302e-006    1.0472e-008     1.288e-009     
  -0.7            -5.1248e-006    -2.5982e-008    1.315e-009     
  -0.75           -5.1505e-006    -1.124e-008     -1.0633e-009   
  -0.8            -5.2328e-006    2.319e-008      -1.5223e-009   
  -0.85           -5.3387e-006    1.0617e-008     6.627e-010     
  -0.9            -5.4795e-006    -1.9428e-008    2.0036e-009    
  -0.95           -5.5405e-006    -1.1021e-008    -3.577e-010    
  -1              -5.5762e-006    1.3815e-008     -2.3709e-009   
  -1.05           -5.6673e-006    1.15e-008       -2.77e-011     
  -1.1            -5.8208e-006    -9.756e-009     2.8474e-009    
  -1.15           -5.9023e-006    -1.4147e-008    1.517e-009     
  -1.2            -5.9317e-006    -1.1207e-008    -7.535e-010    
  -1.25           -5.9931e-006    1.9007e-008     -1.8828e-009   
  -1.3            -6.0736e-006    1.0487e-008     3.158e-010     
  -1.35           -6.2403e-006    -1.5246e-008    2.5335e-009    
  -1.4            -6.3167e-006    -1.1807e-008    1.42e-011      
  -1.45           -6.3074e-006    1.1385e-008     -2.6905e-009   
  -1.5            -6.4103e-006    1.5824e-008     -1.5202e-009   
  -1.55           -6.4987e-006    1.0585e-008     6.719e-010     
  -1.6            -6.6356e-006    -1.9576e-008    1.9848e-009    
  -1.65           -6.6918e-006    -1.1067e-008    -3.63e-010     
  -1.7            -6.7137e-006    1.3822e-008     -2.3598e-009   
  -1.75           -6.8986e-006    1.1597e-008     1.5651e-009    
  -1.8            -6.955e-006     -2.4672e-008    1.2582e-009    
  -1.85           -6.9429e-006    -1.1053e-008    -1.3172e-009   
  -1.9            -7.039e-006     2.6762e-008     -1.4064e-009   
  -1.95           -7.1409e-006    1.3107e-008     -1.829e-010    
  -2              -7.286e-006     -8.631e-009     2.9099e-009    
  -2.05           -7.3656e-006    -1.7441e-008    1.736e-009     
  -2.1            -7.4092e-006    -1.107e-008     -5.55e-010     
  -2.15           -7.4422e-006    1.6176e-008     -2.1354e-009   
  -2.2            -7.5275e-006    1.0926e-008     1.353e-010     
  -2.25           -7.7047e-006    -1.2702e-008    2.7248e-009    
  -2.3            -7.7845e-006    -1.2482e-008    1.804e-010     
  -2.35           -7.7612e-006    1.1494e-008     -1.3281e-009   
  -2.4            -7.9459e-006    1.0644e-008     1.2901e-009    
  -2.45           -8.0286e-006    -2.6001e-008    1.3125e-009    
  -2.5            -8.1248e-006    -1.2085e-008    1.163e-010     
  -2.55           -8.091e-006     1.1524e-008     -1.3197e-009   
  -2.6            -8.2871e-006    1.0967e-008     1.3583e-009    
  -2.65           -8.3562e-006    -2.6249e-008    1.2934e-009    
  -2.7            -8.4452e-006    -1.1843e-008    4.76e-011      
  -2.75           -8.4137e-006    1.1665e-008     -2.7148e-009   
  -2.8            -8.5315e-006    1.6839e-008     -1.5425e-009   
  -2.85           -8.6212e-006    1.0649e-008     6.35e-010      
  -2.9            -8.7702e-006    -1.9122e-008    2.0481e-009    
  -2.95           -8.8264e-006    -1.079e-008     -3.268e-010    
  -3              -8.8357e-006    1.3687e-008     -2.3997e-009   
  -3.05           -9.0527e-006    1.1986e-008     1.5279e-009    
  -3.1            -9.1004e-006    -2.466e-008     1.2657e-009    
  -3.15           -9.1897e-006    -1.0976e-008    -1.085e-010    
  -3.2            -9.175e-006     1.2175e-008     -2.5998e-009   
  -3.25           -9.38e-006      1.1629e-008     1.3439e-009    
  -3.3            -9.4551e-006    -2.521e-008     1.2992e-009    
  -3.35           -9.5405e-006    -2.5062e-008    1.2925e-009    
  -3.4            -9.6317e-006    -2.4785e-008    1.2886e-009    
  -3.45           -9.7134e-006    -1.5169e-008    2.3256e-009    
  -3.5            -9.801e-006     -1.5116e-008    2.2879e-009    
  -3.55           -9.888e-006     -1.4766e-008    2.2491e-009    
  -3.6            -9.9776e-006    -1.4691e-008    2.2129e-009    
  -3.65           -1.00608e-005   -1.4211e-008    2.1738e-009    
  -3.7            -1.01483e-005   -1.3702e-008    2.135e-009     
  -3.75           -1.02336e-005   -1.3166e-008    2.1017e-009    
  -3.8            -1.03287e-005   -1.2676e-008    2.0639e-009    
  -3.85           -1.0422e-005    -1.1777e-008    2.0202e-009    
  -3.9            -1.05081e-005   -1.051e-008     1.976e-009     
  -3.95           -1.0559e-005    2.0431e-008     2.1606e-009    
  -4              -1.06887e-005   -6.362e-009     2.1167e-009    
  -4.05           -1.07196e-005   2.2426e-008     2.82e-009      
  -4.1            -1.08927e-005   5.48e-010       2.4461e-009    
  -4.15           -1.08246e-005   7.028e-009      -1.7105e-009   
  -4.2            -1.09425e-005   4.9012e-008     -1.3338e-009   
  -4.25           -1.1091e-005    3.4076e-008     2.6962e-009    
  -4.3            -1.1103e-005    5.7317e-008     -1.4337e-009   
  -4.35           -1.1242e-005    5.5918e-008     -1.7507e-009   
  -4.4            -1.1376e-005    4.8834e-008     2.399e-009     
  -4.45           -1.1477e-005    3.3482e-008     -6.374e-010    
  -4.5            -1.1523e-005    7.5035e-008     -1.4862e-009   
  -4.55           -1.1667e-005    6.6135e-008     2.6046e-009    
  -4.6            -1.1745e-005    5.4303e-008     -9.35e-010     
  -4.65           -1.1818e-005    1.02564e-007    -1.3816e-009   
  -4.7            -1.1977e-005    9.2654e-008     2.8274e-009    
  -4.75           -1.2023e-005    8.3677e-008     -1.1936e-009   
  -4.8            -1.2205e-005    1.1226e-007     -7.4e-011      
  -4.85           -1.2251e-005    1.4879e-007     -1.3553e-009   
  -4.9            -1.2426e-005    1.4225e-007     2.8883e-009    
  -4.95           -1.2459e-005    1.3906e-007     -1.2806e-009   
  -5              -1.2593e-005    1.9441e-007     -1.2934e-009   
END_DB

BEGIN_DB
 ICCAP_VAR VG         -2             
 ICCAP_VAR VS         0              
 ICCAP_VAR VB         0              

 #VD              ID              IB              IG             
  0               -1.7351e-007    3.237e-009      -4.265e-010    
  -0.05           -1.3087e-005    -2.1505e-008    9.464e-010     
  -0.1            -2.5363e-005    -2.6243e-008    1.2839e-009    
  -0.15           -3.6962e-005    -1.1091e-008    -5.609e-010    
  -0.2            -4.7861e-005    2.3172e-008     -1.5236e-009   
  -0.25           -5.814e-005     1.057e-008      1.1171e-009    
  -0.3            -6.7642e-005    -2.3922e-008    1.2517e-009    
  -0.35           -7.6384e-005    -1.1264e-008    -7.87e-010     
  -0.4            -8.4398e-005    2.5948e-008     -1.4301e-009   
  -0.45           -9.1913e-005    1.0626e-008     1.2969e-009    
  -0.5            -9.8529e-005    -1.9723e-008    1.8934e-009    
  -0.55           -0.000104432    -1.1356e-008    -9.652e-010    
  -0.6            -0.00010973     2.7756e-008     -1.38e-009     
  -0.65           -0.0001146      1.0444e-008     1.6094e-009    
  -0.7            -0.00011882     -1.1652e-008    -7.71e-011     
  -0.75           -0.00012237     1.9505e-008     -1.8207e-009   
  -0.8            -0.00012572     1.2329e-008     -1.32e-010     
  -0.85           -0.00012878     -1.7485e-008    2.2812e-009    
  -0.9            -0.00013122     -1.1265e-008    -8.694e-010    
  -0.95           -0.00013341     2.797e-008      -1.3786e-009   
  -1              -0.00013551     1.0446e-008     5.626e-010     
  -1.05           -0.00013759     -2.4787e-008    1.3758e-009    
  -1.1            -0.00013923     -1.1096e-008    -3.873e-010    
  -1.15           -0.00014058     2.2813e-008     -1.5417e-009   
  -1.2            -0.00014199     1.1021e-008     1.168e-010     
  -1.25           -0.00014358     -2.0315e-008    1.8375e-009    
  -1.3            -0.00014462     -1.1207e-008    -1.1016e-009   
  -1.35           -0.00014571     2.6629e-008     -1.3328e-009   
  -1.4            -0.00014702     1.0851e-008     8.275e-010     
  -1.45           -0.00014826     -2.6273e-008    1.2873e-009    
  -1.5            -0.00014912     -1.0985e-008    -6.942e-010    
  -1.55           -0.00014996     2.6381e-008     -1.4174e-009   
  -1.6            -0.00015096     1.047e-008      3.896e-010     
  -1.65           -0.00015214     -2.2889e-008    1.4991e-009    
  -1.7            -0.00015298     -1.1346e-008    -1.897e-010    
  -1.75           -0.00015359     2.0731e-008     -1.6962e-009   
  -1.8            -0.00015469     1.0487e-008     1.0652e-009    
  -1.85           -0.0001556      -1.1592e-008    2.7739e-009    
  -1.9            -0.0001563      -1.1079e-008    -4.25e-010     
  -1.95           -0.00015686     2.3324e-008     -1.5194e-009   
  -2              -0.00015763     1.0978e-008     1.537e-010     
  -2.05           -0.00015871     -2.0468e-008    1.7896e-009    
  -2.1            -0.00015919     -1.1134e-008    -1.13e-009     
  -2.15           -0.00015986     1.1476e-008     -2.626e-009    
  -2.2            -0.00016066     1.0473e-008     3.488e-010     
  -2.25           -0.00016167     -2.2445e-008    1.5305e-009    
  -2.3            -0.00016201     -1.1116e-008    -1.316e-009    
  -2.35           -0.00016277     2.1426e-008     -1.7373e-009   
  -2.4            -0.00016351     1.1824e-008     -7.53e-011     
  -2.45           -0.00016443     -1.8171e-008    2.1788e-009    
  -2.5            -0.00016492     -1.1322e-008    -9.268e-010    
  -2.55           -0.00016544     2.8213e-008     -1.3664e-009   
  -2.6            -0.00016621     1.0591e-008     6.301e-010     
  -2.65           -0.0001671      -2.5408e-008    1.3461e-009    
  -2.7            -0.00016765     -1.1017e-008    -4.616e-010    
  -2.75           -0.00016805     2.3795e-008     -1.5021e-009   
  -2.8            -0.00016868     1.0902e-008     1.875e-010     
  -2.85           -0.00016963     -2.0551e-008    1.7399e-009    
  -2.9            -0.00017029     -1.1616e-008    1.73e-011      
  -2.95           -0.00017054     1.8519e-008     -1.9565e-009   
  -3              -0.00017135     1.1215e-008     8.924e-010     
  -3.05           -0.0001721      -2.5306e-008    1.2746e-009    
  -3.1            -0.00017247     -1.0493e-008    -7.737e-010    
  -3.15           -0.00017294     2.8003e-008     -1.3965e-009   
  -3.2            -0.00017399     1.2713e-008     1.5362e-009    
  -3.25           -0.00017452     -1.1586e-008    2.493e-010     
  -3.3            -0.00017469     1.6348e-008     -2.3241e-009   
  -3.35           -0.00017539     1.2914e-008     6.385e-010     
  -3.4            -0.00017623     -5.715e-009     1.2736e-009    
  -3.45           -0.00017681     -8.772e-009     2.7144e-009    
  -3.5            -0.00017736     -1.5569e-008    1.7642e-009    
  -3.55           -0.00017795     -1.0704e-008    2.3292e-009    
  -3.6            -0.00017852     -4.059e-009     2.7654e-009    
  -3.65           -0.00017904     1.154e-009      1.255e-009     
  -3.7            -0.00017938     8.208e-009      -2.7789e-009   
  -3.75           -0.0001803      2.616e-008      1.6269e-009    
  -3.8            -0.00018061     1.6946e-008     2.3582e-009    
  -3.85           -0.00018102     1.2147e-008     -2.1565e-009   
  -3.9            -0.00018155     3.7183e-008     4.732e-010     
  -3.95           -0.00018239     8.49e-009       1.432e-009     
  -4              -0.00018273     3.1742e-008     -2.7172e-009   
  -4.05           -0.00018345     5.7704e-008     1.1147e-009    
  -4.1            -0.00018393     3.4975e-008     2.016e-009     
  -4.15           -0.00018432     5.8199e-008     -2.3392e-009   
