! VERSION = 6.00
BEGIN_HEADER
 ICCAP_INPUTS
  VG         V  B GROUND SMU4 0.001 LIN        2    0          -5         6    -1        
  VS         V  E GROUND SMU2 0.1 CON        0
  VD         V  S GROUND SMU1 0.1 LIN        1    0          -5         101  -0.05     
  VB         V  C GROUND SMU3 0.1 LIN        3    0          2.5        2    2.5       
 ICCAP_OUTPUTS
  ID         I  S GROUND SMU1 B
  IB         I  C GROUND SMU3 B
  IG         I  B GROUND SMU4 B
END_HEADER

BEGIN_DB
 ICCAP_VAR VG         0              
 ICCAP_VAR VS         0              
 ICCAP_VAR VB         0              

 #VD              ID              IB              IG             
  0               1.742e-010      1.0954e-008     -7.361e-010    
  -0.05           -1.331e-009     1.0189e-008     -1.9416e-009   
  -0.1            -2.2836e-009    -1.1228e-008    -6.502e-010    
  -0.15           -1.544e-009     -1.9754e-008    1.2556e-009    
  -0.2            -1.456e-010     -1.2378e-008    2.8795e-009    
  -0.25           2.3129e-009     1.0736e-008     1.0495e-009    
  -0.3            1.8657e-009     1.2366e-008     -1.519e-009    
  -0.35           -1.389e-009     9.446e-009      -1.8977e-009   
  -0.4            -2.2705e-009    -1.1002e-008    -5.627e-010    
  -0.45           -1.4923e-009    -2.1509e-008    1.2685e-009    
  -0.5            -7.72e-011      -1.1138e-008    2.9004e-009    
  -0.55           1.5001e-009     -4.07e-010      1.8374e-009    
  -0.6            2.2834e-009     1.041e-008      4.292e-010     
  -0.65           2.3522e-009     1.0732e-008     6.044e-010     
  -0.7            1.5178e-009     2.2133e-008     -1.3285e-009   
  -0.75           1.66e-010       1.1722e-008     -2.7085e-009   
  -0.8            -1.3469e-009    4.97e-010       -1.9297e-009   
  -0.85           -2.2793e-009    -1.1138e-008    -6.22e-010     
  -0.9            -2.2904e-009    -1.1215e-008    -8.082e-010    
  -0.95           -1.6174e-009    -1.6472e-008    2.0598e-009    
  -1              1.9104e-009     -8.422e-009     1.5106e-009    
  -1.05           2.0962e-009     1.0533e-008     1.104e-010     
  -1.1            2.2043e-009     1.033e-008      2.756e-010     
  -1.15           2.2985e-009     1.0422e-008     4.49e-010      
  -1.2            2.3596e-009     1.0747e-008     6.233e-010     
  -1.25           1.5359e-009     2.1482e-008     -1.3238e-009   
  -1.3            1.818e-010      1.2026e-008     -2.6973e-009   
  -1.35           -1.3344e-009    6.78e-010       -1.9431e-009   
  -1.4            -2.2801e-009    -1.1193e-008    -6.49e-010     
  -1.45           -1.5473e-009    -1.9846e-008    1.2567e-009    
  -1.5            -1.435e-010     -1.2477e-008    2.8819e-009    
  -1.55           2.0846e-009     1.0571e-008     8.48e-011      
  -1.6            2.1863e-009     1.0356e-008     2.522e-010     
  -1.65           2.283e-009      1.0393e-008     4.24e-010      
  -1.7            2.3515e-009     1.0645e-008     5.992e-010     
  -1.75           1.5164e-009     2.1987e-008     -1.3302e-009   
  -1.8            1.602e-010      1.1663e-008     -2.7116e-009   
  -1.85           -1.3539e-009    5.65e-010       -1.9288e-009   
  -1.9            -2.2814e-009    -1.1119e-008    -6.217e-010    
  -1.95           -1.5251e-009    -2.0422e-008    1.2609e-009    
  -2              -1.172e-010     -1.1939e-008    2.8872e-009    
  -2.05           2.3261e-009     1.0652e-008     1.0255e-009    
  -2.1            9.867e-010      2.6187e-008     -1.5415e-009   
  -2.15           -1.4144e-009    9.424e-009      -1.8825e-009   
  -2.2            -2.2611e-009    -1.0951e-008    -5.288e-010    
  -2.25           -2.2891e-009    -1.1222e-008    -7.167e-010    
  -2.3            -1.5807e-009    -1.84e-008      1.2461e-009    
  -2.35           -2.035e-010     -1.3427e-008    2.8511e-009    
  -2.4            2.1175e-009     1.0515e-008     1.431e-010     
  -2.45           2.2213e-009     1.0382e-008     3.149e-010     
  -2.5            2.3135e-009     1.0553e-008     4.872e-010     
  -2.55           1.428e-009      2.4541e-008     -1.3471e-009   
  -2.6            7.64e-011       1.135e-008      -1.3171e-009   
  -2.65           2.143e-010      1.2341e-008     -2.6762e-009   
  -2.7            -1.3137e-009    8.26e-010       -1.958e-009    
  -2.75           -2.2923e-009    -1.1297e-008    -6.821e-010    
  -2.8            -1.5635e-009    -1.8984e-008    1.2509e-009    
  -2.85           -1.769e-010     -1.294e-008     2.8654e-009    
  -2.9            2.1047e-009     1.0483e-008     1.192e-010     
  -2.95           2.2112e-009     1.0441e-008     2.867e-010     
  -3              2.3038e-009     1.0439e-008     4.6e-010       
  -3.05           1.4073e-009     2.5131e-008     -1.3527e-009   
  -3.1            5.37e-011       1.1193e-008     -1.3202e-009   
  -3.15           1.873e-010      1.2069e-008     -2.6938e-009   
  -3.2            -1.3293e-009    7.25e-010       -1.945e-009    
  -3.25           -2.2857e-009    -1.1197e-008    -6.584e-010    
  -3.3            -1.5489e-009    -1.9651e-008    1.2523e-009    
  -3.35           -1.483e-010     -1.2486e-008    2.8758e-009    
  -3.4            2.086e-009      1.0497e-008     9.24e-011      
  -3.45           2.1909e-009     1.0398e-008     2.541e-010     
  -3.5            2.2889e-009     1.0462e-008     4.276e-010     
  -3.55           2.3551e-009     1.0611e-008     5.985e-010     
  -3.6            1.5205e-009     2.1913e-008     -1.3278e-009   
  -3.65           1.62e-010       1.159e-008      -2.7082e-009   
  -3.7            -1.3468e-009    6.39e-010       -1.929e-009    
  -3.75           -2.2847e-009    -1.1228e-008    -6.232e-010    
  -3.8            -2.2914e-009    -1.1211e-008    -8.075e-010    
  -3.85           -1.6168e-009    -1.6554e-008    2.0617e-009    
  -3.9            1.9145e-009     -8.393e-009     1.5024e-009    
  -3.95           2.0962e-009     1.0494e-008     1.032e-010     
  -4              2.2006e-009     1.0383e-008     2.76e-010      
  -4.05           2.2945e-009     1.0381e-008     4.438e-010     
  -4.1            2.3578e-009     1.0687e-008     6.149e-010     
  -4.15           1.5297e-009     2.1663e-008     -1.3274e-009   
  -4.2            1.715e-010      1.1821e-008     -2.7077e-009   
  -4.25           -1.3415e-009    5.77e-010       -1.9323e-009   
  -4.3            -2.2897e-009    -1.1222e-008    -6.258e-010    
  -4.35           -2.2889e-009    -1.1206e-008    -8.128e-010    
  -4.4            -1.6204e-009    -1.6436e-008    2.0481e-009    
  -4.45           1.9054e-009     -8.482e-009     1.5162e-009    
  -4.5            2.1048e-009     1.0387e-008     1.113e-010     
  -4.55           2.2112e-009     1.0434e-008     2.778e-010     
  -4.6            2.3008e-009     1.0441e-008     4.491e-010     
  -4.65           2.3579e-009     1.0803e-008     6.243e-010     
  -4.7            1.536e-009      2.1697e-008     -1.3252e-009   
  -4.75           1.792e-010      1.2028e-008     -2.6992e-009   
  -4.8            -1.3339e-009    6.33e-010       -1.9391e-009   
  -4.85           -2.2869e-009    -1.1308e-008    -6.39e-010     
  -4.9            -2.2871e-009    -1.1364e-008    -8.271e-010    
  -4.95           -1.6246e-009    -1.6297e-008    2.0332e-009    
  -5              1.9022e-009     -8.55e-009      1.5264e-009    
END_DB

BEGIN_DB
 ICCAP_VAR VG         -1             
 ICCAP_VAR VS         0              
 ICCAP_VAR VB         0              

 #VD              ID              IB              IG             
  0               -1.7884e-008    1.0434e-008     6.909e-010     
  -0.05           -7.6653e-007    -9.418e-009     -9.6e-012      
  -0.1            -1.2801e-006    2.3452e-008     2.7611e-009    
  -0.15           -1.6327e-006    -1.0946e-008    -6.645e-010    
  -0.2            -1.8755e-006    1.7489e-008     -1.9864e-009   
  -0.25           -2.0458e-006    1.0617e-008     2.352e-010     
  -0.3            -2.1903e-006    -1.385e-008     2.6331e-009    
  -0.35           -2.2947e-006    -1.2157e-008    8.11e-011      
  -0.4            -2.3898e-006    1.1471e-008     -2.7215e-009   
  -0.45           -2.4906e-006    1.7843e-008     -1.5769e-009   
  -0.5            -2.5678e-006    1.0397e-008     5.813e-010     
  -0.55           -2.6563e-006    -1.8621e-008    2.1394e-009    
  -0.6            -2.7075e-006    -1.1098e-008    -2.698e-010    
  -0.65           -2.7858e-006    1.2532e-008     -2.466e-009    
  -0.7            -2.8596e-006    1.2119e-008     -9.64e-011     
  -0.75           -2.9256e-006    -8.735e-009     2.8747e-009    
  -0.8            -2.945e-006     -1.1101e-008    -1.2236e-009   
  -0.85           -3.0477e-006    2.5415e-008     -1.4249e-009   
  -0.9            -3.0923e-006    1.0741e-008     8.236e-010     
  -0.95           -3.1814e-006    -2.0777e-008    1.7267e-009    
  -1              -3.2103e-006    -1.093e-008     -5.614e-010    
  -1.05           -3.2776e-006    1.6156e-008     -2.1284e-009   
  -1.1            -3.33e-006      1.0888e-008     1.411e-010     
  -1.15           -3.4134e-006    -1.2454e-008    2.722e-009     
  -1.2            -3.4766e-006    -1.2591e-008    1.682e-010     
  -1.25           -3.4982e-006    1.1356e-008     -1.3164e-009   
  -1.3            -3.5651e-006    1.0697e-008     2.087e-010     
  -1.35           -3.6494e-006    -1.3631e-008    2.6663e-009    
  -1.4            -3.6903e-006    -1.2215e-008    1.076e-010     
  -1.45           -3.7115e-006    1.1273e-008     -1.3075e-009   
  -1.5            -3.7812e-006    1.085e-008      1.3467e-009    
  -1.55           -3.8645e-006    -2.6184e-008    1.2885e-009    
  -1.6            -3.8801e-006    -1.1151e-008    -1.1191e-009   
  -1.65           -3.9742e-006    2.3872e-008     -1.48e-009     
  -1.7            -4.0185e-006    1.0513e-008     7.201e-010     
  -1.75           -4.1045e-006    -2.0061e-008    1.9103e-009    
  -1.8            -4.1213e-006    -1.0821e-008    -4.287e-010    
  -1.85           -4.197e-006     1.4311e-008     -2.2988e-009   
  -1.9            -4.2472e-006    1.133e-008      3.08e-011      
  -1.95           -4.3124e-006    -1.0619e-008    2.8045e-009    
  -2              -4.3626e-006    -1.3691e-008    2.725e-010     
  -2.05           -4.3887e-006    1.0541e-008     -1.3331e-009   
  -2.1            -4.4369e-006    1.0612e-008     1.1692e-009    
  -2.15           -4.5332e-006    -2.4805e-008    1.3532e-009    
  -2.2            -4.5353e-006    -1.1262e-008    -9.531e-010    
  -2.25           -4.62e-006      2.1602e-008     -1.624e-009    
  -2.3            -4.6547e-006    1.0137e-008     2.1e-009       
  -2.35           -4.7352e-006    -1.3761e-008    2.859e-010     
  -2.4            -4.7458e-006    1.0494e-008     -1.3364e-009   
  -2.45           -4.812e-006     1.0572e-008     1.1579e-009    
  -2.5            -4.9219e-006    -2.4724e-008    1.3626e-009    
  -2.55           -4.9183e-006    -1.1238e-008    -9.438e-010    
  -2.6            -5.0034e-006    2.1325e-008     -1.6345e-009   
  -2.65           -5.0346e-006    1.012e-008      2.0848e-009    
  -2.7            -5.1033e-006    -1.3986e-008    2.983e-010     
  -2.75           -5.1505e-006    1.0407e-008     -1.3388e-009   
  -2.8            -5.1999e-006    1.0636e-008     1.1438e-009    
  -2.85           -5.3001e-006    -2.4418e-008    1.371e-009     
  -2.9            -5.2962e-006    -1.1239e-008    -9.274e-010    
  -2.95           -5.3818e-006    2.1337e-008     -1.6534e-009   
  -3              -5.428e-006     1.0348e-008     2.0751e-009    
  -3.05           -5.5184e-006    -1.4094e-008    1.5182e-009    
  -3.1            -5.5195e-006    -1.0652e-008    -7.539e-010    
  -3.15           -5.6044e-006    1.9204e-008     -1.8815e-009   
  -3.2            -5.6644e-006    1.0804e-008     3.192e-010     
  -3.25           -5.7547e-006    -1.4659e-008    2.5349e-009    
  -3.3            -5.775e-006     -1.1256e-008    5.3e-012       
  -3.35           -5.7997e-006    1.2134e-008     -2.677e-009    
  -3.4            -5.8816e-006    1.1452e-008     1.2115e-009    
  -3.45           -5.9698e-006    -2.4044e-008    1.334e-009     
  -3.5            -6.0267e-006    -2.3735e-008    1.3253e-009    
  -3.55           -6.0863e-006    -2.3953e-008    1.3176e-009    
  -3.6            -6.1401e-006    -1.3233e-008    2.5229e-009    
  -3.65           -6.1987e-006    -1.305e-008     2.5021e-009    
  -3.7            -6.2646e-006    -1.2773e-008    2.473e-009     
  -3.75           -6.2989e-006    -1.2783e-008    2.4412e-009    
  -3.8            -6.3593e-006    -1.2489e-008    2.4118e-009    
  -3.85           -6.4293e-006    -1.2044e-008    2.3754e-009    
  -3.9            -6.485e-006     -1.1558e-008    2.3448e-009    
  -3.95           -6.5325e-006    -1.1141e-008    2.3079e-009    
  -4              -6.6045e-006    -1.0249e-008    2.2719e-009    
  -4.05           -6.6498e-006    -9.076e-009     2.2369e-009    
  -4.1            -6.7299e-006    -7.982e-009     2.1961e-009    
  -4.15           -6.8102e-006    -6.732e-009     2.1627e-009    
  -4.2            -6.8025e-006    2.1461e-008     2.7897e-009    
  -4.25           -6.9212e-006    -8.5e-011       2.481e-009     
  -4.3            -6.9607e-006    2.5665e-008     2.636e-009     
  -4.35           -7.0354e-006    2.1122e-008     2.8003e-009    
  -4.4            -7.1098e-006    1.2404e-008     -1.3631e-009   
  -4.45           -7.282e-006     5.4278e-008     -1.3801e-009   
  -4.5            -7.3584e-006    4.0598e-008     2.41e-009      
  -4.55           -7.5264e-006    2.4469e-008     -1.163e-010    
  -4.6            -7.6969e-006    5.2603e-008     -2.5808e-009   
  -4.65           -7.9017e-006    5.8429e-008     1.3379e-009    
  -4.7            -8.205e-006     2.8639e-008     1.2958e-009    
  -4.75           -8.4548e-006    5.4304e-008     -2.4261e-009   
  -4.8            -8.9019e-006    8.3982e-008     1.875e-010     
  -4.85           -9.4156e-006    7.2168e-008     1.4138e-009    
  -4.9            -1.00891e-005   7.4001e-008     1.2861e-009    
  -4.95           -1.10923e-005   1.3229e-007     -4.07e-011     
  -5              -1.2168e-005    1.3966e-007     -1.3823e-009   
END_DB

BEGIN_DB
 ICCAP_VAR VG         -2             
 ICCAP_VAR VS         0              
 ICCAP_VAR VB         0              

 #VD              ID              IB              IG             
  0               -5.9809e-008    -1.7743e-008    -5.56e-010     
  -0.05           -4.5578e-006    1.779e-009      7.963e-010     
  -0.1            -8.8447e-006    -2.0387e-008    1.7655e-009    
  -0.15           -1.2892e-005    -1.0955e-008    2.72e-009      
  -0.2            -1.6742e-005    -1.9289e-008    1.8311e-009    
  -0.25           -2.0318e-005    -1.1269e-008    -9.912e-010    
  -0.3            -2.3684e-005    2.7944e-008     -1.3616e-009   
  -0.35           -2.6774e-005    1.0421e-008     4.487e-010     
  -0.4            -2.9686e-005    -2.1805e-008    1.5763e-009    
  -0.45           -3.2279e-005    -1.1764e-008    4.6e-012       
  -0.5            -3.4675e-005    1.6028e-008     -2.1458e-009   
  -0.55           -3.686e-005     1.0397e-008     6.402e-010     
  -0.6            -3.8896e-005    -2.4042e-008    1.4028e-009    
  -0.65           -4.0578e-005    -1.118e-008     -1.3391e-009   
  -0.7            -4.215e-005     1.1718e-008     -2.5365e-009   
  -0.75           -4.3617e-005    1.0407e-008     3.181e-010     
  -0.8            -4.4937e-005    -2.0474e-008    1.741e-009     
  -0.85           -4.602e-005     -1.1213e-008    -1.0419e-009   
  -0.9            -4.7096e-005    2.8169e-008     -1.3507e-009   
  -0.95           -4.795e-005     1.0367e-008     5.084e-010     
  -1              -4.8872e-005    -2.2686e-008    1.5034e-009    
  -1.05           -4.9573e-005    -1.1688e-008    -4.81e-011     
  -1.1            -5.0323e-005    1.6951e-008     -2.0512e-009   
  -1.15           -5.095e-005     1.0408e-008     6.95e-010      
  -1.2            -5.1574e-005    -2.4608e-008    1.3662e-009    
  -1.25           -5.2115e-005    -1.113e-008     -2.577e-010    
  -1.3            -5.2686e-005    1.9801e-008     -1.7896e-009   
  -1.35           -5.3135e-005    1.3775e-008     -2.243e-010    
  -1.4            -5.3633e-005    -1.4306e-008    2.6076e-009    
  -1.45           -5.4103e-005    -1.0803e-008    -4.789e-010    
  -1.5            -5.4586e-005    2.1988e-008     -1.5802e-009   
  -1.55           -5.5031e-005    1.1645e-008     -5.23e-011     
  -1.6            -5.5454e-005    -1.6882e-008    2.3573e-009    
  -1.65           -5.5775e-005    -1.095e-008     -6.89e-010     
  -1.7            -5.6184e-005    2.4489e-008     -1.4535e-009   
  -1.75           -5.6607e-005    1.0532e-008     1.2064e-009    
  -1.8            -5.6994e-005    -2.193e-008     2.0489e-009    
  -1.85           -5.7274e-005    -1.1318e-008    -8.777e-010    
  -1.9            -5.77e-005      2.6906e-008     -1.3893e-009   
  -1.95           -5.8022e-005    1.0383e-008     3.178e-010     
  -2              -5.8445e-005    -2.0499e-008    1.7353e-009    
  -2.05           -5.874e-005     -1.2254e-008    1.308e-010     
  -2.1            -5.9022e-005    1.4164e-008     -2.3264e-009   
  -2.15           -5.9358e-005    1.0059e-008     2.0764e-009    
  -2.2            -5.9673e-005    -1.1323e-008    -1.63e-010     
  -2.25           -5.9943e-005    1.8511e-008     -1.9076e-009   
  -2.3            -6.0343e-005    1.0729e-008     7.98e-010      
  -2.35           -6.0732e-005    -2.5571e-008    1.3197e-009    
  -2.4            -6.0928e-005    -1.0817e-008    -3.766e-010    
  -2.45           -6.1248e-005    2.0786e-008     -1.6661e-009   
  -2.5            -6.1573e-005    1.238e-008      -1.325e-010    
  -2.55           -6.1922e-005    -1.5655e-008    2.4824e-009    
  -2.6            -6.2124e-005    -1.088e-008     -5.883e-010    
  -2.65           -6.2435e-005    2.3313e-008     -1.5002e-009   
  -2.7            -6.2715e-005    1.0676e-008     1.1245e-009    
  -2.75           -6.3016e-005    -2.3667e-008    1.2417e-009    
  -2.8            -6.3241e-005    -1.0993e-008    -7.986e-010    
  -2.85           -6.3593e-005    2.5841e-008     -1.4144e-009   
  -2.9            -6.3822e-005    1.0787e-008     1.2998e-009    
  -2.95           -6.4148e-005    -1.3754e-008    2.6406e-009    
  -3              -6.4346e-005    -1.0717e-008    -4.496e-010    
  -3.05           -6.4695e-005    2.1999e-008     -1.609e-009    
  -3.1            -6.4912e-005    1.2153e-008     -7.53e-011     
  -3.15           -6.5292e-005    -1.616e-008     2.3992e-009    
  -3.2            -6.5453e-005    -1.0513e-008    -6.55e-010     
  -3.25           -6.5759e-005    2.4698e-008     -1.4696e-009   
  -3.3            -6.5974e-005    1.1419e-008     1.1777e-009    
  -3.35           -6.636e-005     -1.0519e-008    2.7596e-009    
  -3.4            -6.656e-005     -1.754e-008     2.0538e-009    
  -3.45           -6.6726e-005    -9.627e-009     -8.706e-010    
  -3.5            -6.7089e-005    2.8772e-008     -1.3914e-009   
  -3.55           -6.7378e-005    1.3595e-008     1.3811e-009    
  -3.6            -6.7646e-005    -1.1684e-008    2.544e-009     
  -3.65           -6.7901e-005    -1.6616e-008    1.7186e-009    
  -3.7            -6.8112e-005    -1.0503e-008    2.4871e-009    
  -3.75           -6.8361e-005    -2.503e-009     2.8816e-009    
  -3.8            -6.863e-005     -8.478e-009     2.4283e-009    
  -3.85           -6.8847e-005    2.42e-010       2.8671e-009    
  -3.9            -6.9148e-005    -5.588e-009     2.3738e-009    
  -3.95           -6.9303e-005    2.3174e-008     2.3335e-009    
  -4              -6.962e-005     2.624e-009      2.6452e-009    
  -4.05           -6.9746e-005    8.324e-009      -1.942e-009    
  -4.1            -7.0132e-005    3.4618e-008     2.01e-011      
  -4.15           -7.0331e-005    2.3781e-008     1.7946e-009    
