! VERSION = 6.00
BEGIN_HEADER
 ICCAP_INPUTS
  VG         V  B GROUND SMU4 0.001 LIN        2    0          -5         6    -1        
  VS         V  E GROUND SMU2 0.1 CON        0
  VD         V  S GROUND SMU1 0.1 LIN        1    0          -5         101  -0.05     
  VB         V  C GROUND SMU3 0.1 LIN        3    0          2.5        2    2.5       
 ICCAP_OUTPUTS
  ID         I  S GROUND SMU1 B
  IB         I  C GROUND SMU3 B
  IG         I  B GROUND SMU4 B
END_HEADER

BEGIN_DB
 ICCAP_VAR VG         0              
 ICCAP_VAR VS         0              
 ICCAP_VAR VB         0              

 #VD              ID              IB              IG             
  0               6.551e-010      -1.1376e-008    5.286e-010     
  -0.05           2.2782e-009     -1.0433e-008    1.1693e-009    
  -0.1            2.007e-009      1.1434e-008     -2.347e-010    
  -0.15           2.0895e-009     1.0893e-008     -6.31e-011     
  -0.2            2.1784e-009     1.0639e-008     1.18e-010      
  -0.25           2.2854e-009     1.0586e-008     3.19e-010      
  -0.3            2.3643e-009     1.0922e-008     5.232e-010     
  -0.35           2.4128e-009     1.1007e-008     7.142e-010     
  -0.4            2.4212e-009     1.0961e-008     8.592e-010     
  -0.45           2.3793e-009     1.0942e-008     9.791e-010     
  -0.5            2.2948e-009     1.1737e-008     1.133e-009     
  -0.55           1.9907e-009     1.1584e-008     -1.4798e-009   
  -0.6            -1.3307e-009    9.454e-009      -1.9512e-009   
  -0.65           -1.7341e-009    -1.407e-008     1.7112e-009    
  -0.7            1.6187e-009     -9.53e-009      1.8029e-009    
  -0.75           2.3074e-009     1.0643e-008     3.741e-010     
  -0.8            2.3773e-009     1.0946e-008     5.718e-010     
  -0.85           2.4156e-009     1.1003e-008     7.507e-010     
  -0.9            2.4128e-009     1.0855e-008     8.895e-010     
  -0.95           2.3634e-009     1.0957e-008     1.0238e-009    
  -1              2.2599e-009     1.2135e-008     1.177e-009     
  -1.05           2.0144e-009     1.1456e-008     -2.197e-010    
  -1.1            2.0974e-009     1.0851e-008     -4.53e-011     
  -1.15           2.1857e-009     1.0681e-008     1.368e-010     
  -1.2            2.2912e-009     1.062e-008      3.368e-010     
  -1.25           2.3703e-009     1.0902e-008     5.417e-010     
  -1.3            2.4143e-009     1.0993e-008     7.299e-010     
  -1.35           2.4177e-009     1.0914e-008     8.733e-010     
  -1.4            2.3753e-009     1.0941e-008     9.959e-010     
  -1.45           2.2801e-009     1.1841e-008     1.1507e-009    
  -1.5            1.9999e-009     1.1499e-008     -2.437e-010    
  -1.55           2.0864e-009     1.093e-008      -7.42e-011     
  -1.6            2.1686e-009     1.0636e-008     1.012e-010     
  -1.65           2.2744e-009     1.0621e-008     3.001e-010     
  -1.7            2.3565e-009     1.089e-008      5.111e-010     
  -1.75           2.4083e-009     1.0935e-008     7.019e-010     
  -1.8            2.418e-009      1.0927e-008     8.567e-010     
  -1.85           2.3822e-009     1.0839e-008     9.789e-010     
  -1.9            2.3032e-009     1.1731e-008     1.1249e-009    
  -1.95           2.1539e-009     1.2635e-008     1.2972e-009    
  -2              1.9515e-009     1.2729e-008     1.5001e-009    
  -2.05           1.7207e-009     1.2705e-008     1.7129e-009    
  -2.1            2.2536e-009     1.0601e-008     2.632e-010     
  -2.15           2.3444e-009     1.0828e-008     4.748e-010     
  -2.2            2.3984e-009     1.0876e-008     6.722e-010     
  -2.25           2.4181e-009     1.0861e-008     8.411e-010     
  -2.3            2.3921e-009     1.0885e-008     9.634e-010     
  -2.35           2.3179e-009     1.1393e-008     1.1003e-009    
  -2.4            2.1836e-009     1.2588e-008     1.2671e-009    
  -2.45           1.9886e-009     1.2784e-008     1.4702e-009    
  -2.5            2.1364e-009     1.0675e-008     3.3e-011       
  -2.55           2.2362e-009     1.0607e-008     2.4e-010       
  -2.6            2.3331e-009     1.0798e-008     4.325e-010     
  -2.65           2.3892e-009     1.102e-008      6.325e-010     
  -2.7            2.4182e-009     1.0867e-008     8.09e-010      
  -2.75           2.3968e-009     1.0947e-008     9.348e-010     
  -2.8            2.3382e-009     1.1226e-008     1.0696e-009    
  -2.85           2.2159e-009     1.2511e-008     1.2345e-009    
  -2.9            2.0342e-009     1.2688e-008     1.429e-009     
  -2.95           2.1191e-009     1.0743e-008     1e-012         
  -3              2.216e-009      1.0638e-008     1.901e-010     
  -3.05           2.315e-009      1.0774e-008     3.93e-010      
  -3.1            2.3809e-009     1.1051e-008     5.938e-010     
  -3.15           2.4144e-009     1.099e-008      7.79e-010      
  -3.2            2.4063e-009     1.0943e-008     9.061e-010     
  -3.25           2.3541e-009     1.1106e-008     1.0386e-009    
  -3.3            2.2485e-009     1.2227e-008     1.1995e-009    
  -3.35           2.0192e-009     1.126e-008      -2.022e-010    
  -3.4            2.0991e-009     1.0645e-008     -3.14e-011     
  -3.45           2.1949e-009     1.0511e-008     1.517e-010     
  -3.5            2.2997e-009     1.0773e-008     3.489e-010     
  -3.55           2.3679e-009     1.1015e-008     5.541e-010     
  -3.6            2.4057e-009     1.104e-008      7.425e-010     
  -3.65           2.4053e-009     1.1017e-008     8.877e-010     
  -3.7            2.3591e-009     1.0842e-008     1.01e-009      
  -3.75           2.2656e-009     1.2053e-008     1.169e-009     
  -3.8            1.9968e-009     1.1327e-008     -2.344e-010    
  -3.85           2.0802e-009     1.08e-008       -5.81e-011     
  -3.9            2.1717e-009     1.0566e-008     1.22e-010      
  -3.95           2.2711e-009     1.0598e-008     3.169e-010     
  -4              2.3498e-009     1.0981e-008     5.26e-010      
  -4.05           2.3908e-009     1.0993e-008     7.202e-010     
  -4.1            2.3969e-009     1.1012e-008     8.731e-010     
  -4.15           2.355e-009      1.0958e-008     9.95e-010      
  -4.2            2.2671e-009     1.1759e-008     1.1455e-009    
  -4.25           1.9695e-009     1.1434e-008     -2.524e-010    
  -4.3            2.0544e-009     1.0912e-008     -9.05e-011     
  -4.35           2.1342e-009     1.065e-008      8.64e-011      
  -4.4            2.2384e-009     1.0587e-008     2.863e-010     
  -4.45           2.3169e-009     1.0934e-008     4.892e-010     
  -4.5            2.3663e-009     1.1e-008        6.865e-010     
  -4.55           2.3758e-009     1.0951e-008     8.525e-010     
  -4.6            2.3409e-009     1.0917e-008     9.786e-010     
  -4.65           2.2629e-009     1.1495e-008     1.1137e-009    
  -4.7            2.1173e-009     1.2586e-008     1.2741e-009    
  -4.75           1.92e-009       1.2732e-008     1.4774e-009    
  -4.8            2.0824e-009     1.0597e-008     4.68e-011      
  -4.85           2.1788e-009     1.0593e-008     2.404e-010     
  -4.9            2.2612e-009     1.0862e-008     4.488e-010     
  -4.95           2.3142e-009     1.1099e-008     6.49e-010      
  -5              2.3257e-009     1.11e-008       8.187e-010     
END_DB

BEGIN_DB
 ICCAP_VAR VG         -1             
 ICCAP_VAR VS         0              
 ICCAP_VAR VB         0              

 #VD              ID              IB              IG             
  0               -1.6856e-007    -2.1285e-008    2.0454e-009    
  -0.05           -8.332e-006     1.1625e-008     2.4894e-009    
  -0.1            -1.2921e-005    -1.196e-008     2.5087e-009    
  -0.15           -1.5813e-005    -1.1078e-008    -6.936e-010    
  -0.2            -1.7773e-005    2.5252e-008     -1.4833e-009   
  -0.25           -1.9825e-005    1.0979e-008     1.2025e-009    
  -0.3            -2.1276e-005    -2.3267e-008    2.0228e-009    
  -0.35           -2.2764e-005    -1.4923e-008    1.4866e-009    
  -0.4            -2.4096e-005    -1.182e-008     -1.175e-010    
  -0.45           -2.507e-005     1.6129e-008     -1.9608e-009   
  -0.5            -2.6437e-005    1.0855e-008     7.92e-010      
  -0.55           -2.795e-005     -2.6318e-008    1.3457e-009    
  -0.6            -2.9046e-005    -1.1092e-008    -3.51e-010     
  -0.65           -2.9973e-005    2.0599e-008     -1.7017e-009   
  -0.7            -3.1476e-005    1.1066e-008     9.437e-010     
  -0.75           -3.2856e-005    -2.7322e-008    1.2775e-009    
  -0.8            -3.3882e-005    -1.1043e-008    -5.795e-010    
  -0.85           -3.4864e-005    2.3893e-008     -1.5323e-009   
  -0.9            -3.6594e-005    1.094e-008      1.1114e-009    
  -0.95           -3.7796e-005    -2.5214e-008    2.192e-009     
  -1              -3.8797e-005    -1.1174e-008    -7.851e-010    
  -1.05           -3.9827e-005    2.6773e-008     -1.4514e-009   
  -1.1            -4.1854e-005    1.1174e-008     1.3065e-009    
  -1.15           -4.2971e-005    -2.1002e-008    1.849e-009     
  -1.2            -4.4441e-005    -1.3584e-008    1.562e-010     
  -1.25           -4.5082e-005    1.0469e-008     -2.3771e-009   
  -1.3            -4.6987e-005    1.2446e-008     2.1038e-009    
  -1.35           -4.8441e-005    -1.1784e-008    -1.238e-010    
  -1.4            -4.9265e-005    1.6294e-008     -1.9479e-009   
  -1.45           -5.0878e-005    1.0828e-008     8.036e-010     
  -1.5            -5.2667e-005    -2.6572e-008    1.3428e-009    
  -1.55           -5.3838e-005    -1.1199e-008    -3.614e-010    
  -1.6            -5.4797e-005    2.0907e-008     -1.6908e-009   
  -1.65           -5.6696e-005    1.1084e-008     9.535e-010     
  -1.7            -5.8348e-005    -2.7146e-008    1.2761e-009    
  -1.75           -5.9498e-005    -1.0986e-008    -5.879e-010    
  -1.8            -6.0579e-005    2.4085e-008     -1.5261e-009   
  -1.85           -6.2828e-005    1.0995e-008     1.116e-009     
  -1.9            -6.4271e-005    -2.5144e-008    2.1696e-009    
  -1.95           -6.5402e-005    -1.1218e-008    -7.892e-010    
  -2              -6.6574e-005    2.6712e-008     -1.4476e-009   
  -2.05           -6.9244e-005    1.131e-008      1.3183e-009    
  -2.1            -7.0545e-005    -2.0592e-008    1.8374e-009    
  -2.15           -7.2349e-005    -1.3462e-008    1.449e-010     
  -2.2            -7.3007e-005    1.0519e-008     -2.3511e-009   
  -2.25           -7.5415e-005    1.2594e-008     2.1153e-009    
  -2.3            -7.7179e-005    -1.1657e-008    -1.427e-010    
  -2.35           -7.8124e-005    1.6835e-008     -1.9222e-009   
  -2.4            -8.012e-005     1.119e-008      8.135e-010     
  -2.45           -8.2287e-005    -2.6086e-008    1.3389e-009    
  -2.5            -8.3732e-005    -1.0593e-008    -3.77e-010     
  -2.55           -8.4839e-005    2.1693e-008     -1.676e-009    
  -2.6            -8.7176e-005    1.187e-008      9.661e-010     
  -2.65           -8.9138e-005    -2.6117e-008    1.2738e-009    
  -2.7            -9.0546e-005    -9.556e-009     -6.068e-010    
  -2.75           -9.1799e-005    2.6077e-008     -1.5232e-009   
  -2.8            -9.4585e-005    1.3215e-008     1.1247e-009    
  -2.85           -9.6544e-005    -1.0245e-008    2.8059e-009    
  -2.9            -9.8221e-005    -1.5342e-008    2.1105e-009    
  -2.95           -0.000100206    -9.656e-009     2.7586e-009    
  -3              -0.000101946    -1.3735e-008    2.0207e-009    
  -3.05           -0.000104024    -7.808e-009     2.7059e-009    
  -3.1            -0.000105792    -1.1341e-008    1.9281e-009    
  -3.15           -0.000107124    3.396e-009      -2.2468e-009   
  -3.2            -0.000108976    2.4392e-008     5.394e-010     
  -3.25           -0.000111635    7.486e-009      1.336e-009     
  -3.3            -0.00011311     1.4556e-008     -2.7324e-009   
  -3.35           -0.00011572     5.296e-008      1.0681e-009    
  -3.4            -0.00011771     6.814e-009      2.057e-009     
  -3.45           -0.00011936     2.9174e-008     -2.2854e-009   
  -3.5            -0.00012153     5.5446e-008     7.243e-010     
  -3.55           -0.00012452     2.6572e-008     1.3262e-009    
  -3.6            -0.0001261      5.8149e-008     -2.7984e-009   
  -3.65           -0.00012941     8.7647e-008     1.2867e-009    
  -3.7            -0.00013167     7.2022e-008     1.6997e-009    
  -3.75           -0.00013631     1.1697e-007     1.2985e-009    
  -3.8            -0.00013847     1.0677e-007     1.6745e-009    
  -3.85           -0.00014041     1.4024e-007     -2.5317e-009   
  -3.9            -0.00014348     1.8475e-007     9.357e-010     
  -3.95           -0.00014653     1.7611e-007     2.3767e-009    
  -4              -0.00014868     2.3012e-007     -2.1178e-009   
  -4.05           -0.00015147     2.8904e-007     5.097e-010     
  -4.1            -0.00015538     2.9872e-007     1.4383e-009    
  -4.15           -0.00015772     3.7013e-007     -2.7148e-009   
  -4.2            -0.0001616      4.5033e-007     1.1093e-009    
  -4.25           -0.00016451     4.8388e-007     2.002e-009     
  -4.3            -0.00016746     5.7873e-007     -2.3158e-009   
  -4.35           -0.00017104     6.9027e-007     7.805e-010     
  -4.4            -0.00017533     7.5138e-007     1.3331e-009    
  -4.45           -0.00017813     8.8905e-007     -2.7766e-009   
  -4.5            -0.00018301     1.04174e-006    1.3718e-009    
  -4.55           -0.00019011     1.1842e-006     1.3559e-009    
  -4.6            -0.00019278     1.3455e-006     -2.7365e-009   
  -4.65           -0.00019741     1.5564e-006     1.4495e-009    
  -4.7            -0.00020049     1.7307e-006     1.7608e-009    
  -4.75           -0.00020343     1.9688e-006     -2.4022e-009   
  -4.8            -0.00020777     2.2554e-006     1.2011e-009    
  -4.85           -0.00021197     2.4901e-006     1.5416e-009    
  -4.9            -0.00021543     2.8324e-006     -2.4147e-009   
  -4.95           -0.00022118     3.2209e-006     2.1045e-009    
  -5              -0.00022533     3.5775e-006     1.7366e-009    
END_DB

BEGIN_DB
 ICCAP_VAR VG         -2             
 ICCAP_VAR VS         0              
 ICCAP_VAR VB         0              

 #VD              ID              IB              IG             
  0               -1.7536e-006    1.0612e-008     -1.437e-010    
  -0.05           -0.00011762     -1.3313e-008    -1.9615e-009   
  -0.1            -0.00022798     1.0545e-008     2.083e-010     
  -0.15           -0.00033283     -2.1084e-008    1.7179e-009    
  -0.2            -0.00043155     -1.1962e-008    -3.14e-011     
  -0.25           -0.00052293     1.7394e-008     -1.8996e-009   
  -0.3            -0.00060872     1.112e-008      9.449e-010     
  -0.35           -0.00068772     -2.6917e-008    2.389e-009     
  -0.4            -0.00075948     -1.1278e-008    -8.009e-010    
  -0.45           -0.00082452     2.7681e-008     -1.4098e-009   
  -0.5            -0.00088469     1.0528e-008     5.59e-010      
  -0.55           -0.00093932     -2.4607e-008    1.3933e-009    
  -0.6            -0.00098731     -1.0905e-008    -3.728e-010    
  -0.65           -0.00102931     2.2707e-008     -1.5739e-009   
  -0.7            -0.00106986     1.0859e-008     1.1746e-009    
  -0.75           -0.00110416     -2.1903e-008    1.8866e-009    
  -0.8            -0.00113589     -1.2428e-008    6.63e-011      
  -0.85           -0.0011629      8.771e-009      2.3618e-009    
  -0.9            -0.0011875      -1.1304e-008    -8.171e-010    
  -0.95           -0.0012091      2.7795e-008     -1.4058e-009   
  -1              -0.0012315      1.0538e-008     5.77e-010      
  -1.05           -0.0012527      -2.4842e-008    1.3837e-009    
  -1.1            -0.00127        -1.0892e-008    -3.863e-010    
  -1.15           -0.0012853      2.2758e-008     -1.5626e-009   
  -1.2            -0.0013039      1.0918e-008     1.1911e-009    
  -1.25           -0.0013184      -2.1481e-008    1.8645e-009    
  -1.3            -0.0013332      -1.2317e-008    5.15e-011      
  -1.35           -0.0013444      1.5547e-008     -2.0316e-009   
  -1.4            -0.001359       1.1089e-008     8.797e-010     
  -1.45           -0.0013728      -2.7268e-008    1.2681e-009    
  -1.5            -0.0013836      -1.1077e-008    -7.255e-010    
  -1.55           -0.0013938      2.6875e-008     -1.4283e-009   
  -1.6            -0.0014095      1.2361e-008     1.5099e-009    
  -1.65           -0.0014198      -1.4703e-008    1.465e-009     
  -1.7            -0.0014306      -1.1137e-008    -2.628e-010    
  -1.75           -0.0014396      2.1306e-008     -1.6527e-009   
  -1.8            -0.0014524      1.1024e-008     1.0921e-009    
  -1.85           -0.0014627      -2.4006e-008    2.0488e-009    
  -1.9            -0.0014737      -1.328e-008     1.359e-010     
  -1.95           -0.0014807      1.3465e-008     -2.1859e-009   
  -2              -0.0014922      1.0947e-008     7.855e-010     
  -2.05           -0.0015033      -2.6802e-008    1.2961e-009    
  -2.1            -0.0015119      -1.0942e-008    -6.045e-010    
  -2.15           -0.0015199      2.5609e-008     -1.462e-009    
  -2.2            -0.0015335      1.1578e-008     1.3851e-009    
  -2.25           -0.0015418      -1.6754e-008    1.5812e-009    
  -2.3            -0.0015515      -1.153e-008     -1.366e-010    
  -2.35           -0.0015583      1.9605e-008     -1.7736e-009   
  -2.4            -0.0015693      1.1212e-008     1.0193e-009    
  -2.45           -0.0015784      -2.5748e-008    2.2273e-009    
  -2.5            -0.0015878      -1.4622e-008    2.237e-010     
  -2.55           -0.0015937      1.1823e-008     -2.3404e-009   
  -2.6            -0.0016042      1.1181e-008     6.697e-010     
  -2.65           -0.0016149      -2.4899e-008    1.3363e-009    
  -2.7            -0.0016235      -2.0367e-008    1.6326e-009    
  -2.75           -0.0016318      -1.7544e-008    2.1877e-009    
  -2.8            -0.0016408      -1.3618e-008    2.6771e-009    
  -2.85           -0.0016492      -1.8156e-008    1.6825e-009    
  -2.9            -0.0016574      -1.478e-008     2.2487e-009    
  -2.95           -0.0016665      -9.831e-009     2.7192e-009    
  -3              -0.0016745      -1.3691e-008    1.7398e-009    
  -3.05           -0.0016814      2.959e-009      -2.5059e-009   
  -3.1            -0.0016905      2.3629e-008     9.217e-010     
  -3.15           -0.0016986      2.1619e-008     2.9369e-009    
  -3.2            -0.0017041      9.781e-009      -1.5814e-009   
  -3.25           -0.0017142      4.0931e-008     -1.4986e-009   
  -3.3            -0.0017233      4.5408e-008     2.7793e-009    
  -3.35           -0.0017301      3.276e-008      -1.123e-009    
  -3.4            -0.0017378      7.9907e-008     -1.3519e-009   
  -3.45           -0.001748       7.025e-008      2.8964e-009    
  -3.5            -0.0017539      7.6708e-008     -1.8021e-009   
  -3.55           -0.0017637      1.2035e-007     -2.7589e-009   
  -3.6            -0.0017736      1.4544e-007     1.1914e-009    
  -3.65           -0.0017809      1.4509e-007     1.8529e-009    
  -3.7            -0.0017874      1.9798e-007     -2.4214e-009   
  -3.75           -0.0017961      2.6111e-007     8.527e-010     
  -3.8            -0.0018049      2.7788e-007     1.2778e-009    
  -3.85           -0.0018113      3.66e-007       -2.8086e-009   
  -3.9            -0.0018225      4.6027e-007     1.4476e-009    
  -3.95           -0.0018291      5.2458e-007     1.5158e-009    
  -4              -0.0018359      6.437e-007      -2.6499e-009   
  -4.05           -0.001845       7.8752e-007     1.0214e-009    
  -4.1            -0.0018533      9.0116e-007     2.1791e-009    
  -4.15           -0.0018598      1.09333e-006    -2.2333e-009   
