! VERSION = 6.00
BEGIN_HEADER
 ICCAP_INPUTS
  VG         V  B GROUND SMU4 0.001 LIN        2    0          -5         6    -1        
  VS         V  E GROUND SMU3 0.1 CON        0
  VD         V  S GROUND SMU2 0.1 LIN        1    0          -5         101  -0.05     
  VB         V  C GROUND SMU1 0.1 LIN        3    0          2.5        2    2.5       
 ICCAP_OUTPUTS
  ID         I  S GROUND SMU2 B
  IB         I  C GROUND SMU1 B
  IG         I  B GROUND SMU4 B
END_HEADER

BEGIN_DB
 ICCAP_VAR VG         0              
 ICCAP_VAR VS         0              
 ICCAP_VAR VB         0              

 #VD              ID              IB              IG             
  0               -2.1577e-009    -5.02e-009      -1.81e-011     
  -0.05           2.2599e-009     -5.19e-009      1.0026e-009    
  -0.1            2.311e-009      -4.93e-009      9.371e-010     
  -0.15           2.3165e-009     -4.645e-009     8.705e-010     
  -0.2            -2.5633e-009    -1.5938e-009    1.5099e-009    
  -0.25           2.44e-009       2.7309e-009     5.614e-010     
  -0.3            -2.299e-009     4.5024e-009     -7.051e-010    
  -0.35           2.3189e-009     -7.1152e-009    9.245e-010     
  -0.4            -2.0825e-009    4.2883e-009     -1.088e-009    
  -0.45           2.304e-009      -6.7212e-009    8.314e-010     
  -0.5            -2.2492e-009    4.0728e-009     -9.943e-010    
  -0.55           2.2851e-009     -6.25e-009      7.379e-010     
  -0.6            -2.3324e-009    4.8852e-009     -9.027e-010    
  -0.65           2.0512e-009     -5.7479e-009    1.1287e-009    
  -0.7            -2.3283e-009    4.7232e-009     -8.134e-010    
  -0.75           2.2221e-009     -5.1747e-009    1.0325e-009    
  -0.8            -2.3037e-009    4.5312e-009     -7.187e-010    
  -0.85           2.3129e-009     -7.1914e-009    9.362e-010     
  -0.9            -2.0513e-009    4.333e-009      -1.1046e-009   
  -0.95           2.3133e-009     -6.8062e-009    8.459e-010     
  -1              -2.2263e-009    4.1079e-009     -1.0113e-009   
  -1.05           2.2846e-009     -6.3491e-009    7.528e-010     
  -1.1            -2.3255e-009    4.9224e-009     -9.203e-010    
  -1.15           2.0176e-009     -5.8286e-009    1.1515e-009    
  -1.2            -2.3369e-009    4.7505e-009     -8.286e-010    
  -1.25           2.1912e-009     -5.2895e-009    1.0464e-009    
  -1.3            -2.3057e-009    4.5738e-009     -7.371e-010    
  -1.35           2.303e-009      -7.2513e-009    9.553e-010     
  -1.4            -2.0181e-009    4.3684e-009     -1.1217e-009   
  -1.45           2.3169e-009     -6.8633e-009    8.64e-010      
  -1.5            -2.1977e-009    4.1398e-009     -1.024e-009    
  -1.55           2.2863e-009     -6.4177e-009    7.694e-010     
  -1.6            -2.3175e-009    4.9467e-009     -9.35e-010     
  -1.65           1.9834e-009     -5.9119e-009    1.1668e-009    
  -1.7            -2.3434e-009    4.7828e-009     -8.431e-010    
  -1.75           2.1722e-009     -5.3892e-009    1.0614e-009    
  -1.8            -2.3157e-009    4.6004e-009     -7.515e-010    
  -1.85           2.2958e-009     -7.3193e-009    9.694e-010     
  -1.9            -1.986e-009     4.4119e-009     -1.1395e-009   
  -1.95           2.3211e-009     -6.9329e-009    8.788e-010     
  -2              -2.1777e-009    4.1799e-009     -1.0387e-009   
  -2.05           2.2945e-009     -6.4981e-009    7.835e-010     
  -2.1            -2.3068e-009    4.9732e-009     -9.467e-010    
  -2.15           1.9503e-009     -5.989e-009     1.1842e-009    
  -2.2            -2.3462e-009    4.8054e-009     -8.56e-010     
  -2.25           2.1417e-009     -5.4681e-009    1.0803e-009    
  -2.3            -2.3169e-009    4.6253e-009     -7.668e-010    
  -2.35           2.2761e-009     -7.3829e-009    9.855e-010     
  -2.4            -1.957e-009     4.4329e-009     -1.1554e-009   
  -2.45           2.3256e-009     -6.9795e-009    8.931e-010     
  -2.5            -2.1504e-009    4.2216e-009     -1.0513e-009   
  -2.55           2.2976e-009     -6.5557e-009    7.985e-010     
  -2.6            -2.293e-009     3.9836e-009     -9.602e-010    
  -2.65           1.9247e-009     -6.0519e-009    1.1993e-009    
  -2.7            -2.3459e-009    4.8166e-009     -8.72e-010     
  -2.75           2.1188e-009     -5.5133e-009    1.0919e-009    
  -2.8            -2.3201e-009    4.6554e-009     -7.758e-010    
  -2.85           2.2699e-009     -7.4128e-009    9.971e-010     
  -2.9            -1.932e-009     4.4556e-009     -1.1671e-009   
  -2.95           2.3253e-009     -7.0328e-009    9.061e-010     
  -3              -2.1251e-009    4.2398e-009     -1.0631e-009   
  -3.05           2.3036e-009     -6.6342e-009    8.101e-010     
  -3.1            -2.2799e-009    4.0167e-009     -9.733e-010    
  -3.15           1.8992e-009     -6.1386e-009    1.2095e-009    
  -3.2            -2.3442e-009    4.8405e-009     -8.817e-010    
  -3.25           2.0916e-009     -5.5961e-009    1.1017e-009    
  -3.3            -2.3307e-009    4.6724e-009     -7.902e-010    
  -3.35           2.2521e-009     -7.4684e-009    1.0065e-009    
  -3.4            -2.3005e-009    4.4871e-009     -6.963e-010    
  -3.45           2.3244e-009     -7.0827e-009    9.162e-010     
  -3.5            -2.1021e-009    4.2695e-009     -1.0788e-009   
  -3.55           2.3088e-009     -6.68e-009      8.239e-010     
  -3.6            -2.2655e-009    4.0394e-009     -9.851e-010    
  -3.65           2.2762e-009     -6.2055e-009    7.229e-010     
  -3.7            -2.3471e-009    4.8509e-009     -8.948e-010    
  -3.75           2.0639e-009     -5.656e-009     1.1145e-009    
  -3.8            -2.3298e-009    4.6977e-009     -8.022e-010    
  -3.85           2.2439e-009     -5.1e-009       1.0208e-009    
  -3.9            -2.29e-009      4.5113e-009     -7.038e-010    
  -3.95           2.3328e-009     -7.1033e-009    9.284e-010     
  -4              -2.0678e-009    4.2903e-009     -1.0856e-009   
  -4.05           2.322e-009      -6.7608e-009    8.339e-010     
  -4.1            -2.2509e-009    4.057e-009      -9.958e-010    
  -4.15           2.2776e-009     -6.283e-009     7.381e-010     
  -4.2            -2.3505e-009    4.8667e-009     -9.061e-010    
  -4.25           2.0335e-009     -5.7386e-009    1.1232e-009    
  -4.3            -2.3537e-009    4.7132e-009     -8.129e-010    
  -4.35           2.2168e-009     -5.1411e-009    1.0305e-009    
  -4.4            -2.3088e-009    4.5291e-009     -7.178e-010    
  -4.45           2.3265e-009     -7.0926e-009    9.385e-010     
  -4.5            -2.0335e-009    4.3214e-009     -1.0931e-009   
  -4.55           2.3402e-009     -6.7632e-009    8.482e-010     
  -4.6            -2.2127e-009    4.0672e-009     -9.967e-010    
  -4.65           2.2989e-009     -6.3395e-009    7.488e-010     
  -4.7            -2.3351e-009    4.8535e-009     -9.125e-010    
  -4.75           1.9967e-009     -5.8469e-009    1.1339e-009    
  -4.8            -2.3589e-009    4.701e-009      -8.262e-010    
  -4.85           2.184e-009      -5.2539e-009    1.0323e-009    
  -4.9            -2.3235e-009    4.5539e-009     -7.306e-010    
  -4.95           2.3171e-009     -7.1348e-009    9.487e-010     
  -5              -2.0067e-009    4.3436e-009     -1.1032e-009   
END_DB

BEGIN_DB
 ICCAP_VAR VG         -1             
 ICCAP_VAR VS         0              
 ICCAP_VAR VB         0              

 #VD              ID              IB              IG             
  0               2.2438e-008     -5.064e-009     -4.5e-011      
  -0.05           -1.2864e-006    -6.7283e-009    -6.683e-010    
  -0.1            -2.253e-006     4.0739e-009     -1.4466e-009   
  -0.15           -2.9355e-006    5.5112e-009     -1.4364e-009   
  -0.2            -3.4008e-006    5.4936e-009     -1.4412e-009   
  -0.25           -3.7144e-006    5.5176e-009     -1.4544e-009   
  -0.3            -3.9348e-006    5.5764e-009     -1.4749e-009   
  -0.35           -4.1028e-006    5.6727e-009     -1.5021e-009   
  -0.4            -4.2382e-006    5.7719e-009     -1.5324e-009   
  -0.45           -4.35e-006      5.8757e-009     -1.56e-009     
  -0.5            -4.4514e-006    5.9848e-009     -1.5803e-009   
  -0.55           -4.5454e-006    6.0731e-009     -1.4747e-009   
  -0.6            -4.6268e-006    5.6372e-009     -1.5863e-009   
  -0.65           -4.7091e-006    6.1005e-009     -1.4711e-009   
  -0.7            -4.7769e-006    5.6145e-009     -1.4582e-009   
  -0.75           -4.8463e-006    5.5608e-009     -1.4439e-009   
  -0.8            -4.9133e-006    5.5106e-009     -1.4345e-009   
  -0.85           -4.9768e-006    5.485e-009      -1.4351e-009   
  -0.9            -5.0397e-006    5.4972e-009     -1.4466e-009   
  -0.95           -5.1041e-006    5.5462e-009     -1.4644e-009   
  -1              -5.1659e-006    5.6421e-009     -1.4912e-009   
  -1.05           -5.2252e-006    5.7341e-009     -1.5223e-009   
  -1.1            -5.2843e-006    5.8457e-009     -1.5559e-009   
  -1.15           -5.3436e-006    5.9664e-009     -1.5769e-009   
  -1.2            -5.3974e-006    6.0584e-009     -1.5859e-009   
  -1.25           -5.4582e-006    6.0976e-009     -1.4703e-009   
  -1.3            -5.5068e-006    5.6099e-009     -1.4567e-009   
  -1.35           -5.5655e-006    5.5593e-009     -1.4431e-009   
  -1.4            -5.6171e-006    5.5095e-009     -1.4344e-009   
  -1.45           -5.6699e-006    5.4894e-009     -1.4374e-009   
  -1.5            -5.7196e-006    5.4951e-009     -1.4462e-009   
  -1.55           -5.7711e-006    5.5602e-009     -1.4679e-009   
  -1.6            -5.8262e-006    5.6436e-009     -1.4929e-009   
  -1.65           -5.878e-006     5.7453e-009     -1.528e-009    
  -1.7            -5.9328e-006    5.8613e-009     -1.5573e-009   
  -1.75           -5.9845e-006    5.9738e-009     -1.579e-009    
  -1.8            -6.0356e-006    6.0662e-009     -1.5853e-009   
  -1.85           -6.0827e-006    6.1061e-009     -1.471e-009    
  -1.9            -6.1311e-006    5.6129e-009     -1.4563e-009   
  -1.95           -6.1759e-006    5.5515e-009     -1.4421e-009   
  -2              -6.2308e-006    5.5013e-009     -1.4356e-009   
  -2.05           -6.282e-006     5.4742e-009     -1.4346e-009   
  -2.1            -6.3277e-006    5.4864e-009     -1.4467e-009   
  -2.15           -6.3729e-006    5.5518e-009     -1.4675e-009   
  -2.2            -6.4214e-006    5.6338e-009     -1.4949e-009   
  -2.25           -6.4722e-006    5.7514e-009     -1.5253e-009   
  -2.3            -6.5228e-006    5.8708e-009     -1.5578e-009   
  -2.35           -6.5706e-006    5.9854e-009     -1.5802e-009   
  -2.4            -6.6182e-006    6.0766e-009     -1.4787e-009   
  -2.45           -6.665e-006     5.669e-009      -1.5866e-009   
  -2.5            -6.713e-006     6.1138e-009     -1.4748e-009   
  -2.55           -6.7581e-006    5.641e-009      -1.4645e-009   
  -2.6            -6.8041e-006    5.5895e-009     -1.449e-009    
  -2.65           -6.8494e-006    5.5349e-009     -1.4341e-009   
  -2.7            -6.8945e-006    5.4994e-009     -1.4318e-009   
  -2.75           -6.9415e-006    5.5049e-009     -1.441e-009    
  -2.8            -6.9842e-006    5.5725e-009     -1.459e-009    
  -2.85           -7.0326e-006    5.6588e-009     -1.4843e-009   
  -2.9            -7.0782e-006    5.7891e-009     -1.5175e-009   
  -2.95           -7.1278e-006    5.9143e-009     -1.5479e-009   
  -3              -7.168e-006     6.061e-009      -1.573e-009    
  -3.05           -7.2231e-006    6.1996e-009     -1.587e-009    
  -3.1            -7.2709e-006    6.2995e-009     -1.4766e-009   
  -3.15           -7.3089e-006    5.8717e-009     -1.4647e-009   
  -3.2            -7.3591e-006    5.8693e-009     -1.4491e-009   
  -3.25           -7.4015e-006    5.8817e-009     -1.4357e-009   
  -3.3            -7.4462e-006    5.9227e-009     -1.4308e-009   
  -3.35           -7.491e-006     6.0311e-009     -1.4413e-009   
  -3.4            -7.5344e-006    6.1954e-009     -1.4592e-009   
  -3.45           -7.5812e-006    6.42e-009       -1.4854e-009   
  -3.5            -7.6276e-006    6.6926e-009     -1.514e-009    
  -3.55           -7.677e-006     7.0201e-009     -1.5476e-009   
  -3.6            -7.7237e-006    7.3952e-009     -1.5739e-009   
  -3.65           -7.7698e-006    7.7905e-009     -1.4841e-009   
  -3.7            -7.8163e-006    7.7669e-009     -1.4768e-009   
  -3.75           -7.8635e-006    8.1347e-009     -1.4654e-009   
  -3.8            -7.9075e-006    8.548e-009      -1.45e-009     
  -3.85           -7.9501e-006    9.0407e-009     -1.4352e-009   
  -3.9            -7.9975e-006    9.6382e-009     -1.4347e-009   
  -3.95           -8.0379e-006    1.03989e-008    -1.4413e-009   
  -4              -8.1125e-006    1.0293e-008     -2.9e-012      
  -4.05           -8.1333e-006    1.0203e-008     -1.3163e-009   
  -4.1            -8.1898e-006    1.2256e-008     -1.4321e-009   
  -4.15           -8.2348e-006    1.4155e-008     -1.4465e-009   
  -4.2            -8.2799e-006    1.622e-008      -1.4689e-009   
  -4.25           -8.3326e-006    1.8771e-008     -1.566e-009    
  -4.3            -8.3783e-006    2.1382e-008     -1.5171e-009   
  -4.35           -8.4263e-006    2.2933e-008     -1.4691e-009   
  -4.4            -8.4723e-006    2.4586e-008     -1.4384e-009   
  -4.45           -8.5263e-006    2.6949e-008     -1.4343e-009   
  -4.5            -8.5794e-006    3.0526e-008     -1.4583e-009   
  -4.55           -8.6272e-006    3.4912e-008     -1.5771e-009   
  -4.6            -8.6777e-006    4.0315e-008     -1.5379e-009   
  -4.65           -8.7284e-006    4.4243e-008     -1.4861e-009   
  -4.7            -8.7773e-006    4.8542e-008     -1.4475e-009   
  -4.75           -8.8384e-006    5.3477e-008     -1.4294e-009   
  -4.8            -8.8911e-006    5.9872e-008     -1.4421e-009   
  -4.85           -8.954e-006     6.7629e-008     -1.4668e-009   
  -4.9            -9.0099e-006    7.6457e-008     -1.5523e-009   
  -4.95           -9.0683e-006    8.5556e-008     -1.4988e-009   
  -5              -9.1311e-006    9.4479e-008     -1.4497e-009   
END_DB

BEGIN_DB
 ICCAP_VAR VG         -2             
 ICCAP_VAR VS         0              
 ICCAP_VAR VB         0              

 #VD              ID              IB              IG             
  0               1.0476e-007     -4.67e-009      1.786e-010     
  -0.05           -6.1317e-006    -5.605e-009     -9.239e-010    
  -0.1            -1.2095e-005    -2.321e-009     -1.4832e-009   
  -0.15           -1.7784e-005    1.9276e-009     -1.1481e-009   
  -0.2            -2.3214e-005    5.6836e-009     -1.4569e-009   
  -0.25           -2.8337e-005    5.5851e-009     -1.4564e-009   
  -0.3            -3.3156e-005    5.4642e-009     -1.5065e-009   
  -0.35           -3.7687e-005    5.5133e-009     -1.4407e-009   
  -0.4            -4.1924e-005    5.6117e-009     -1.5589e-009   
  -0.45           -4.5832e-005    5.5146e-009     -1.4526e-009   
  -0.5            -4.944e-005     5.593e-009      -1.5841e-009   
  -0.55           -5.276e-005     5.645e-009      -1.498e-009    
  -0.6            -5.5782e-005    5.5181e-009     -1.4417e-009   
  -0.65           -5.8529e-005    5.5966e-009     -1.5506e-009   
  -0.7            -6.0994e-005    5.5012e-009     -1.449e-009    
  -0.75           -6.3201e-005    5.5956e-009     -1.5831e-009   
  -0.8            -6.5141e-005    5.6259e-009     -1.4928e-009   
  -0.85           -6.692e-005     5.5339e-009     -1.4445e-009   
  -0.9            -6.8472e-005    5.5879e-009     -1.5484e-009   
  -0.95           -6.9856e-005    5.4935e-009     -1.4462e-009   
  -1              -7.1098e-005    5.6082e-009     -1.5816e-009   
  -1.05           -7.2192e-005    5.5995e-009     -1.4848e-009   
  -1.1            -7.3182e-005    5.5342e-009     -1.4439e-009   
  -1.15           -7.4066e-005    5.5821e-009     -1.5406e-009   
  -1.2            -7.4857e-005    5.4977e-009     -1.4459e-009   
  -1.25           -7.5595e-005    5.6173e-009     -1.5803e-009   
  -1.3            -7.6262e-005    5.5792e-009     -1.4803e-009   
  -1.35           -7.691e-005     5.5459e-009     -1.4463e-009   
  -1.4            -7.7502e-005    5.5608e-009     -1.5336e-009   
  -1.45           -7.8061e-005    5.5014e-009     -1.4429e-009   
  -1.5            -7.8588e-005    5.6106e-009     -1.5777e-009   
  -1.55           -7.9072e-005    5.5695e-009     -1.4772e-009   
  -1.6            -7.9564e-005    5.554e-009      -1.448e-009    
  -1.65           -7.9982e-005    5.5434e-009     -1.5297e-009   
  -1.7            -8.0424e-005    5.4976e-009     -1.4408e-009   
  -1.75           -8.0871e-005    5.6123e-009     -1.5755e-009   
  -1.8            -8.1262e-005    5.5582e-009     -1.4713e-009   
  -1.85           -8.1683e-005    5.5592e-009     -1.449e-009    
  -1.9            -8.2053e-005    5.525e-009      -1.5253e-009   
  -1.95           -8.2439e-005    5.5003e-009     -1.4437e-009   
  -2              -8.2812e-005    5.6094e-009     -1.5711e-009   
  -2.05           -8.3167e-005    5.5495e-009     -1.4696e-009   
  -2.1            -8.3504e-005    5.5632e-009     -1.4514e-009   
  -2.15           -8.3821e-005    5.493e-009      -1.5198e-009   
  -2.2            -8.417e-005     5.5192e-009     -1.4448e-009   
  -2.25           -8.4498e-005    5.6024e-009     -1.567e-009    
  -2.3            -8.4811e-005    5.5364e-009     -1.4654e-009   
  -2.35           -8.5136e-005    5.57e-009       -1.4537e-009   
  -2.4            -8.5441e-005    5.4699e-009     -1.512e-009    
  -2.45           -8.5788e-005    5.5184e-009     -1.4428e-009   
  -2.5            -8.6109e-005    5.5968e-009     -1.5646e-009   
  -2.55           -8.639e-005     5.5365e-009     -1.4614e-009   
  -2.6            -8.6684e-005    5.582e-009      -1.4534e-009   
  -2.65           -8.6965e-005    5.4515e-009     -1.5085e-009   
  -2.7            -8.7252e-005    5.532e-009      -1.4455e-009   
  -2.75           -8.755e-005     5.5935e-009     -1.5582e-009   
  -2.8            -8.7792e-005    5.5578e-009     -1.4597e-009   
  -2.85           -8.8094e-005    5.6127e-009     -1.5779e-009   
  -2.9            -8.8381e-005    5.7092e-009     -1.5033e-009   
  -2.95           -8.8633e-005    5.5915e-009     -1.4513e-009   
  -3              -8.891e-005     5.6493e-009     -1.55e-009     
  -3.05           -8.9206e-005    5.6345e-009     -1.4577e-009   
  -3.1            -8.944e-005     5.7294e-009     -1.5763e-009   
  -3.15           -8.9706e-005    5.8302e-009     -1.4969e-009   
  -3.2            -8.9975e-005    5.7964e-009     -1.4519e-009   
  -3.25           -9.024e-005     5.883e-009      -1.5448e-009   
  -3.3            -9.0484e-005    5.9477e-009     -1.4579e-009   
  -3.35           -9.072e-005     6.1395e-009     -1.5744e-009   
  -3.4            -9.0994e-005    6.3301e-009     -1.4911e-009   
  -3.45           -9.1241e-005    6.4671e-009     -1.4523e-009   
  -3.5            -9.1483e-005    6.7009e-009     -1.5411e-009   
  -3.55           -9.1728e-005    7.0036e-009     -1.4582e-009   
  -3.6            -9.1983e-005    7.46e-009       -1.5738e-009   
  -3.65           -9.2186e-005    7.9455e-009     -1.4881e-009   
  -3.7            -9.246e-005     8.4829e-009     -1.4537e-009   
  -3.75           -9.2709e-005    9.1715e-009     -1.5334e-009   
  -3.8            -9.294e-005     1.00504e-008    -1.4523e-009   
  -3.85           -9.3156e-005    1.11748e-008    -1.5735e-009   
  -3.9            -9.3407e-005    1.2497e-008     -1.5778e-009   
  -3.95           -9.3658e-005    1.3876e-008     -1.4483e-009   
  -4              -9.3881e-005    1.7318e-008     -1.5171e-009   
  -4.05           -9.4123e-005    1.8051e-008     -1.5857e-009   
  -4.1            -9.438e-005     2.07e-008       -1.4498e-009   
  -4.15           -9.4618e-005    2.5252e-008     -1.5324e-009   
