! VERSION = 6.00
BEGIN_HEADER
 ICCAP_INPUTS
  VG         V  B GROUND SMU4 0.001 LIN        1    0          -5         101  -0.05     
  VS         V  E GROUND SMU2 0.1 CON        0
  VB         V  C GROUND SMU3 0.1 LIN        3    0          5          3    2.5       
  VD         V  S GROUND SMU1 0.1 LIN        2    -0.1       -5         2    -4.9      
 ICCAP_OUTPUTS
  IG         I  B GROUND SMU4 B
  ID         I  S GROUND SMU1 B
  IB         I  C GROUND SMU3 B
END_HEADER

BEGIN_DB
 ICCAP_VAR VS         0              
 ICCAP_VAR VB         0              
 ICCAP_VAR VD         -0.1           

 #VG              IG              ID              IB             
  0               1.1024e-009     1.0171e-009     1.8694e-008    
  -0.05           3.675e-010      2.3242e-009     1.0397e-008    
  -0.1            -1.3819e-009    1.3677e-009     2.6208e-008    
  -0.15           -1.3459e-009    -8.3e-012       1.13e-008      
  -0.2            -2.7511e-009    1.282e-010      1.1445e-008    
  -0.25           -7.49e-011      -2.1287e-009    -1.0847e-008   
  -0.3            -2.755e-010     -2.2351e-009    -1.0898e-008   
  -0.35           -4.79e-010      -2.3144e-009    -1.1128e-008   
  -0.4            1.2878e-009     -1.4999e-009    -2.2482e-008   
  -0.45           2.9413e-009     -1.132e-010     -1.0249e-008   
  -0.5            7.199e-010      2.1339e-009     -2.42e-010     
  -0.55           -1.3665e-009    3.52e-010       1.0988e-008    
  -0.6            -1.3339e-009    -3.7668e-009    1.1136e-008    
  -0.65           -2.711e-009     -1.4357e-008    -1.7599e-008   
  -0.7            -7.162e-010     -4.85e-008      -1.0983e-008   
  -0.75           -2.5699e-009    -1.5125e-007    1.284e-008     
  -0.8            -5.013e-010     -4.5011e-007    -1.0855e-008   
  -0.85           1.4864e-009     -1.2374e-006    1.0115e-008    
  -0.9            1.2839e-009     -2.8825e-006    -8.858e-009    
  -0.95           2.8217e-009     -6.0375e-006    -1.0604e-008   
  -1              4.673e-010      -1.08366e-005   1.0377e-008    
  -1.05           -2.8216e-009    -1.757e-005     1.0519e-008    
  -1.1            -9.656e-010     -2.5683e-005    -1.1659e-008   
  -1.15           2.941e-010      -3.4957e-005    -1.3862e-008   
  -1.2            -8.92e-011      -4.4503e-005    -1.1534e-008   
  -1.25           -5.876e-010     -5.4136e-005    -1.0907e-008   
  -1.3            -1.0216e-009    -6.3754e-005    -1.1698e-008   
  -1.35           2.3e-010        -7.3596e-005    -1.3265e-008   
  -1.4            -1.69e-010      -8.2898e-005    -1.1322e-008   
  -1.45           -6.702e-010     -9.1947e-005    -1.0919e-008   
  -1.5            -1.0839e-009    -0.000100737    -1.1525e-008   
  -1.55           1.706e-010      -0.000109633    -1.2742e-008   
  -1.6            -1.9178e-009    -0.00011772     -1.4319e-008   
  -1.65           -8.04e-010      -0.00012595     -1.1049e-008   
  -1.7            1.6902e-009     -0.00013399     -1.6761e-008   
  -1.75           1.3343e-009     -0.00014165     -9.259e-009    
  -1.8            2.9173e-009     -0.00014917     -8.854e-009    
  -1.85           2.5835e-009     -0.00015634     -5.18e-010     
  -1.9            1.9464e-009     -0.00016336     -2.943e-009    
  -1.95           1.4353e-009     -0.0001702      -9.109e-009    
  -2              1.2734e-009     -0.00017687     -8.959e-009    
  -2.05           2.7694e-009     -0.00018332     -1.126e-008    
  -2.1            5.347e-010      -0.00018951     1.0292e-008    
  -2.15           9.521e-010      -0.00019572     1.1229e-008    
  -2.2            1.3317e-009     -0.00020177     1.0743e-008    
  -2.25           1.574e-010      -0.00020745     1.0917e-008    
  -2.3            6.006e-010      -0.00021322     1.0382e-008    
  -2.35           1.0121e-009     -0.00021892     1.1088e-008    
  -2.4            -1.711e-010     -0.00022433     1.3372e-008    
  -2.45           -1.4815e-009    -0.00022953     2.4527e-008    
  -2.5            -1.3575e-009    -0.0002348      1.0409e-008    
  -2.55           -2.623e-009     -0.00023986     1.1005e-008    
  -2.6            -2.1123e-009    -0.000245       1.086e-009     
  -2.65           -1.5987e-009    -0.00024987     3.497e-009     
  -2.7            -1.3936e-009    -0.00025464     8.749e-009     
  -2.75           -2.7456e-009    -0.00025939     1.1526e-008    
  -2.8            -2.3568e-009    -0.00026405     7.09e-010      
  -2.85           -8.523e-010     -0.00026859     -1.1198e-008   
  -2.9            -1.2289e-009    -0.000273       -1.1423e-008   
  -2.95           2.26e-011       -0.00027763     -1.2131e-008   
  -3              -4.391e-010     -0.00028175     -1.0749e-008   
  -3.05           2.1858e-009     -0.00028594     -2.311e-008    
  -3.1            1.5491e-009     -0.00029015     -7.267e-009    
  -3.15           1.2988e-009     -0.00029416     -9.041e-009    
  -3.2            2.8666e-009     -0.00029821     -9.48e-009     
  -3.25           3.798e-010      -0.00030204     1.0274e-008    
  -3.3            -1.3349e-009    -0.00030581     2.6006e-008    
  -3.35           -2.4706e-009    -0.00030958     1.2264e-008    
  -3.4            -7.673e-010     -0.00031344     -1.104e-008    
  -3.45           -1.1544e-009    -0.00031706     -1.1498e-008   
  -3.5            9.52e-011       -0.00032089     -1.2369e-008   
  -3.55           -3.386e-010     -0.00032428     -1.0863e-008   
  -3.6            -8.41e-010      -0.00032773     -1.1271e-008   
  -3.65           -1.2185e-009    -0.00033113     -1.1416e-008   
  -3.7            3.99e-011       -0.00033479     -1.2043e-008   
  -3.75           -4.161e-010     -0.00033794     -1.0849e-008   
  -3.8            -8.979e-010     -0.00034118     -1.1485e-008   
  -3.85           -1.2741e-009    -0.00034436     -1.1337e-008   
  -3.9            -1.35e-011      -0.00034768     -1.1948e-008   
  -3.95           -5.003e-010     -0.00035072     -1.0821e-008   
  -4              2.1061e-009     -0.00035375     -2.2322e-008   
  -4.05           1.5071e-009     -0.00035684     -8.001e-009    
  -4.1            1.2887e-009     -0.00035982     -8.897e-009    
  -4.15           2.8374e-009     -0.00036275     -1.0079e-008   
  -4.2            4.33e-010       -0.00036559     1.025e-008     
  -4.25           8.679e-010      -0.00036847     1.1051e-008    
  -4.3            -1.5336e-009    -0.00037141     1.5935e-008    
  -4.35           -1.3729e-009    -0.000374       9.786e-009     
  -4.4            -2.6924e-009    -0.00037667     1.1335e-008    
  -4.45           -2.2236e-009    -0.00037942     9.6e-010       
  -4.5            -9.438e-010     -0.00038206     -1.1607e-008   
  -4.55           -1.3293e-009    -0.00038463     -1.1308e-008   
  -4.6            -6.86e-011      -0.00038734     -1.1785e-008   
  -4.65           -5.616e-010     -0.00038981     -1.092e-008    
  -4.7            -9.992e-010     -0.00039228     -1.1695e-008   
  -4.75           2.528e-010      -0.00039492     -1.362e-008    
  -4.8            -1.34e-010      -0.00039718     -1.1329e-008   
  -4.85           -6.367e-010     -0.00039955     -1.0807e-008   
  -4.9            -1.0507e-009    -0.00040187     -1.1753e-008   
  -4.95           2e-010          -0.00040442     -1.3028e-008   
  -5              -2.068e-010     -0.00040656     -1.1212e-008   
END_DB

BEGIN_DB
 ICCAP_VAR VS         0              
 ICCAP_VAR VB         0              
 ICCAP_VAR VD         -5             

 #VG              IG              ID              IB             
  0               4.191e-010      5.359e-010      2.0207e-008    
  -0.05           2.9324e-009     -6.15e-011      -1.1048e-008   
  -0.1            1.8528e-009     1.5256e-009     -3.34e-010     
  -0.15           4.211e-010      2.3465e-009     1.0521e-008    
  -0.2            6.056e-010      2.3998e-009     1.1132e-008    
  -0.25           7.8e-010        2.3966e-009     1.1088e-008    
  -0.3            -1.8714e-009    1.6083e-009     1.7802e-008    
  -0.35           -2.5551e-009    -1.4085e-009    5.808e-009     
  -0.4            -1.695e-010     -3.1024e-009    -1.0897e-008   
  -0.45           -3.785e-010     -5.3235e-009    -1.098e-008    
  -0.5            1.8945e-009     -1.0902e-008    1.1126e-008    
  -0.55           1.3947e-009     -3.3484e-008    -8.47e-009     
  -0.6            1.2706e-009     -1.10476e-007   -6.191e-009    
  -0.65           4.915e-010      -3.229e-007     -3.672e-009    
  -0.7            9.19e-010       -9.0834e-007    2.9502e-008    
  -0.75           -1.4001e-009    -2.3098e-006    3.438e-008     
  -0.8            -8.03e-010      -5.4522e-006    9.9512e-008    
  -0.85           2.2156e-009     -1.1575e-005    2.011e-007     
  -0.9            1.6044e-009     -2.1733e-005    3.662e-007     
  -0.95           1.4102e-009     -3.7272e-005    6.0063e-007    
  -1              1.3866e-009     -5.8657e-005    8.9901e-007    
  -1.05           3.0567e-009     -8.5134e-005    1.2627e-006    
  -1.1            3.0329e-009     -0.0001176      1.6645e-006    
  -1.15           2.5389e-009     -0.00015549     2.0741e-006    
  -1.2            1.8864e-009     -0.00019833     2.5022e-006    
  -1.25           1.5863e-009     -0.00024555     2.9302e-006    
  -1.3            1.5121e-009     -0.00029707     3.3609e-006    
  -1.35           2.8524e-009     -0.00035197     3.7715e-006    
  -1.4            2.1505e-009     -0.00041006     4.1824e-006    
  -1.45           1.645e-009      -0.00047172     4.5485e-006    
  -1.5            1.4943e-009     -0.00053629     4.8987e-006    
  -1.55           1.4218e-009     -0.00060356     5.2184e-006    
  -1.6            2.4139e-009     -0.00067281     5.4945e-006    
  -1.65           1.7305e-009     -0.0007443      5.7614e-006    
  -1.7            1.4562e-009     -0.0008182      5.9872e-006    
  -1.75           1.3663e-009     -0.00089427     6.1827e-006    
  -1.8            2.6116e-009     -0.00097279     6.3329e-006    
  -1.85           1.9006e-009     -0.0010513      6.4747e-006    
  -1.9            1.4607e-009     -0.00113191     6.5604e-006    
  -1.95           -2.1655e-009    -0.0012115      6.6393e-006    
  -2              -1.6116e-009    -0.0012945      6.6711e-006    
  -2.05           -1.3711e-009    -0.0013787      6.6842e-006    
  -2.1            -1.2948e-009    -0.001464       6.6717e-006    
  -2.15           -2.4476e-009    -0.0015506      6.6332e-006    
  -2.2            -1.8709e-009    -0.0016389      6.561e-006     
  -2.25           -1.4689e-009    -0.0017273      6.4796e-006    
  -2.3            -1.3488e-009    -0.0018165      6.3808e-006    
  -2.35           -2.6389e-009    -0.0019065      6.2636e-006    
  -2.4            -2.1428e-009    -0.0019981      6.1205e-006    
  -2.45           -1.613e-009     -0.0020896      5.9736e-006    
  -2.5            -1.3981e-009    -0.0021817      5.8204e-006    
  -2.55           -2.7621e-009    -0.002275       5.6547e-006    
  -2.6            -2.3923e-009    -0.0023689      5.4681e-006    
  -2.65           -1.8142e-009    -0.0024631      5.2876e-006    
  -2.7            -1.461e-009     -0.0025581      5.1023e-006    
  -2.75           -1.3518e-009    -0.0026531      4.912e-006     
  -2.8            -2.6021e-009    -0.0027487      4.7182e-006    
  -2.85           -2.0711e-009    -0.0028456      4.5126e-006    
  -2.9            -1.5643e-009    -0.0029422      4.3198e-006    
  -2.95           -1.3914e-009    -0.0030391      4.1258e-006    
  -3              -2.7415e-009    -0.0031367      3.9358e-006    
  -3.05           -2.3223e-009    -0.003235       3.735e-006     
  -3.1            -1.7465e-009    -0.0033331      3.5472e-006    
  -3.15           -1.4421e-009    -0.0034315      3.3668e-006    
  -3.2            -1.3447e-009    -0.0035304      3.19e-006      
  -3.25           -2.5514e-009    -0.0036294      3.0145e-006    
  -3.3            -1.9864e-009    -0.0037296      2.836e-006     
  -3.35           -1.5287e-009    -0.0038292      2.6735e-006    
  -3.4            -1.3784e-009    -0.0039289      2.5187e-006    
  -3.45           -2.7038e-009    -0.004029       2.3689e-006    
  -3.5            -2.244e-009     -0.0041301      2.2123e-006    
  -3.55           -1.6839e-009    -0.0042306      2.0722e-006    
  -3.6            -1.4254e-009    -0.0043314      1.9423e-006    
  -3.65           -1.3369e-009    -0.0044323      1.8183e-006    
  -3.7            -2.4903e-009    -0.0045349      1.6969e-006    
  -3.75           -1.8975e-009    -0.004637       1.5718e-006    
  -3.8            -1.4962e-009    -0.0047383      1.4637e-006    
  -3.85           -1.3659e-009    -0.0048397      1.368e-006     
  -3.9            -2.6632e-009    -0.0049412      1.2709e-006    
  -3.95           -2.1604e-009    -0.0050438      1.17e-006      
  -4              -1.6259e-009    -0.0051458      1.0861e-006    
  -4.05           -1.408e-009     -0.0052475      1.0076e-006    
  -4.1            2.7456e-009     -0.0053514      9.2315e-007    
  -4.15           2.1816e-009     -0.0054543      8.5042e-007    
  -4.2            1.567e-009      -0.0055566      7.7934e-007    
  -4.25           1.3065e-009     -0.0056593      7.1525e-007    
  -4.3            2.8835e-009     -0.0057623      6.5728e-007    
  -4.35           2.4594e-009     -0.0058635      6.1208e-007    
  -4.4            1.8007e-009     -0.0059663      5.5936e-007    
  -4.45           1.3734e-009     -0.006069       5.0812e-007    
  -4.5            2.9433e-009     -0.0061715      4.6586e-007    
  -4.55           2.687e-009      -0.0062734      4.3466e-007    
  -4.6            2.0872e-009     -0.0063759      3.9643e-007    
  -4.65           1.5106e-009     -0.0064784      3.5752e-007    
  -4.7            1.2913e-009     -0.0065813      3.2489e-007    
  -4.75           2.851e-009      -0.0066839      2.9507e-007    
  -4.8            2.3805e-009     -0.0067847      2.7782e-007    
  -4.85           1.7166e-009     -0.0068875      2.4993e-007    
  -4.9            1.3489e-009     -0.0069901      2.2324e-007    
  -4.95           2.9319e-009     -0.007092       2.0332e-007    
  -5              2.6249e-009     -0.0071934      1.9281e-007    
END_DB

BEGIN_DB
 ICCAP_VAR VS         0              
 ICCAP_VAR VB         2.5            
 ICCAP_VAR VD         -0.1           

 #VG              IG              ID              IB             
  0               -1.1021e-009    -1.0257e-009    -2.0471e-008   
  -0.05           -1.3855e-009    -2.0741e-009    2.964e-009     
  -0.1            1.094e-010      -1.9789e-009    -1.1474e-008   
  -0.15           -4.64e-011      -2.1156e-009    -1.1058e-008   
  -0.2            -2.496e-010     -2.2279e-009    -1.1047e-008   
  -0.25           -4.604e-010     -2.2977e-009    -1.1136e-008   
  -0.3            1.2924e-009     -1.4713e-009    -2.3305e-008   
  -0.35           2.9413e-009     -1.77e-011      -1.0525e-008   
  -0.4            1.804e-009      1.5894e-009     -2.04e-010     
  -0.45           3.763e-010      2.3227e-009     1.0479e-008    
  -0.5            5.714e-010      2.3915e-009     1.0994e-008    
  -0.55           7.489e-010      2.42e-009       1.1035e-008    
  -0.6            9.256e-010      2.4064e-009     1.0777e-008    
  -0.65           1.0781e-009     2.3439e-009     1.0773e-008    
  -0.7            -1.5217e-009    1.9195e-009     1.1959e-008    
  -0.75           -1.9461e-009    -1.394e-009     9.728e-009     
  -0.8            -5.901e-010     -2.3214e-009    -1.1486e-008   
  -0.85           -7.873e-010     -2.3332e-009    -1.1723e-008   
  -0.9            2.0984e-009     -1.6614e-009    -1.7039e-008   
  -0.95           1.521e-009      1.8937e-009     -7.968e-009    
  -1              9.52e-011       1.8868e-009     1.0447e-008    
  -1.05           -1.6052e-009    -2.703e-010     1.0417e-008    
  -1.1            -1.4811e-009    -5.8015e-009    8.57e-009      
  -1.15           1.2788e-009     -2.2754e-008    1.0452e-008    
  -1.2            2.8176e-009     -9.3282e-008    -1.1048e-008   
  -1.25           -5.4e-010       -3.1279e-007    1.1276e-008    
  -1.3            -9.864e-010     -9.1156e-007    -1.1595e-008   
  -1.35           2.8409e-009     -2.4042e-006    1.0748e-008    
  -1.4            4.719e-010      -5.2026e-006    1.0414e-008    
  -1.45           9.141e-010      -1.00054e-005   1.1152e-008    
  -1.5            -1.9801e-009    -1.6505e-005    1.9646e-008    
  -1.55           -9.219e-010     -2.4527e-005    -1.1515e-008   
  -1.6            1.5327e-009     -3.3541e-005    -1.4316e-008   
  -1.65           1.2951e-009     -4.2707e-005    -8.94e-009     
  -1.7            2.8697e-009     -5.1905e-005    -9.896e-009    
  -1.75           4.258e-010      -6.0701e-005    1.0283e-008    
  -1.8            8.644e-010      -6.9713e-005    1.1123e-008    
  -1.85           -1.5167e-009    -7.8077e-005    1.5513e-008    
  -1.9            -1.3729e-009    -8.6227e-005    9.856e-009     
  -1.95           -2.6945e-009    -9.4134e-005    1.124e-008     
  -2              -2.2241e-009    -0.000101893    9.52e-010      
  -2.05           -1.6409e-009    -0.000109295    3.362e-009     
  -2.1            -1.43e-009      -0.00011647     3.085e-009     
  -2.15           -1.3402e-009    -0.00012349     1.1173e-008    
  -2.2            -2.5323e-009    -0.00013027     1.2013e-008    
  -2.25           -1.9338e-009    -0.00013694     1.829e-009     
  -2.3            -1.4933e-009    -0.00014336     4.888e-009     
  -2.35           -1.3678e-009    -0.00014963     9.929e-009     
  -2.4            -2.677e-009     -0.00015572     1.1342e-008    
  -2.45           -2.1734e-009    -0.00016177     9.56e-010      
  -2.5            -1.6149e-009    -0.00016756     3.685e-009     
  -2.55           -1.3992e-009    -0.00017324     8.368e-009     
  -2.6            -2.7692e-009    -0.00017879     1.1488e-008    
  -2.65           -3.556e-010     -0.00018437     -1.0878e-008   
  -2.7            -8.511e-010     -0.00018962     -1.1314e-008   
  -2.75           1.6099e-009     -0.00019498     -1.5741e-008   
  -2.8            1.3132e-009     -0.0002         -9.017e-009    
  -2.85           2.9031e-009     -0.00020503     -8.957e-009    
  -2.9            1.3138e-009     -0.00020995     1.0771e-008    
  -2.95           1.421e-010      -0.00021458     1.0984e-008    
  -3              5.847e-010      -0.00021932     1.048e-008     
  -3.05           1.0049e-009     -0.00022399     1.1049e-008    
  -3.1            -1.791e-010     -0.00022857     1.2942e-008    
  -3.15           2.287e-010      -0.0002329      1.0528e-008    
  -3.2            6.759e-010      -0.0002373      1.053e-008     
  -3.25           1.0817e-009     -0.00024164     1.093e-008     
  -3.3            -1.01e-010      -0.00024588     1.1959e-008    
  -3.35           3.196e-010      -0.00024994     1.0283e-008    
  -3.4            7.668e-010      -0.00025406     1.0821e-008    
  -3.45           -1.5874e-009    -0.00025808     1.773e-008     
  -3.5            -1.394e-009     -0.00026194     8.762e-009     
  -3.55           -2.7481e-009    -0.00026576     1.1625e-008    
  -3.6            -2.3463e-009    -0.00026963     7.56e-010      
  -3.65           -1.745e-009     -0.00027335     2.689e-009     
  -3.7            -1.4349e-009    -0.00027708     6.658e-009     
  -3.75           -1.3476e-009    -0.00028065     1.0921e-008    
  -3.8            -2.5504e-009    -0.00028418     1.1961e-008    
  -3.85           -1.9442e-009    -0.00028775     1.773e-009     
  -3.9            -1.5042e-009    -0.00029116     4.802e-009     
  -3.95           -1.3727e-009    -0.00029456     9.993e-009     
  -4              -2.6841e-009    -0.00029784     1.1415e-008    
  -4.05           -2.2021e-009    -0.0003012      9.82e-010      
  -4.1            -1.6284e-009    -0.00030438     3.38e-009      
  -4.15           -1.4033e-009    -0.00030761     8.045e-009     
