! VERSION = 6.00
BEGIN_HEADER
 ICCAP_INPUTS
  VG         V  B GROUND SMU4 0.001 LIN        1    0          -5         101  -0.05     
  VS         V  E GROUND SMU2 0.1 CON        0
  VB         V  C GROUND SMU3 0.1 LIN        3    0          5          3    2.5       
  VD         V  S GROUND SMU1 0.1 LIN        2    -0.1       -5         2    -4.9      
 ICCAP_OUTPUTS
  IG         I  B GROUND SMU4 B
  ID         I  S GROUND SMU1 B
  IB         I  C GROUND SMU3 B
END_HEADER

BEGIN_DB
 ICCAP_VAR VS         0              
 ICCAP_VAR VB         0              
 ICCAP_VAR VD         -0.1           

 #VG              IG              ID              IB             
  0               -9.801e-010     3.678e-010      1.2508e-008    
  -0.05           -1.709e-009     -1.6584e-009    5.883e-009     
  -0.1            2.3526e-009     -1.5471e-009    -2.2905e-008   
  -0.15           1.4064e-009     2.1283e-009     -6.023e-009    
  -0.2            1.5774e-009     1.9173e-009     1.2214e-008    
  -0.25           8.47e-011       2.1957e-009     1.2119e-008    
  -0.3            -1.4132e-009    1.1465e-009     2.8093e-008    
  -0.35           -1.132e-009     -2.2216e-009    7.952e-009     
  -0.4            1.4738e-009     -1.8865e-009    -9.927e-009    
  -0.45           1.3329e-009     4.67e-011       -8.137e-009    
  -0.5            2.8383e-009     -7.719e-010     -8.739e-009    
  -0.55           6.657e-010      -1.085e-009     1.1771e-008    
  -0.6            -2.4748e-009    -1.297e-008     -2.8131e-008   
  -0.65           -7.733e-010     -4.2164e-008    -1.3134e-008   
  -0.7            -2.0893e-009    -1.2338e-007    9.331e-009     
  -0.75           -1.5247e-009    -3.3645e-007    4.82e-009      
  -0.8            -1.4017e-009    -7.9487e-007    7.77e-009      
  -0.85           -2.725e-009     -1.6423e-006    -2.7112e-008   
  -0.9            2.323e-009      -2.9821e-006    -2.7979e-008   
  -0.95           1.5628e-009     -4.7315e-006    -6.268e-009    
  -1              2.8476e-009     -6.8504e-006    -8.623e-009    
  -1.05           9.139e-010      -9.1734e-006    1.1675e-008    
  -1.1            -2.7375e-009    -1.1625e-005    1.2119e-008    
  -1.15           2.5121e-009     -1.4195e-005    -2.7656e-008   
  -1.2            1.751e-009      -1.6723e-005    -4.663e-009    
  -1.25           2.8206e-009     -1.9222e-005    -8.827e-009    
  -1.3            1.8881e-009     -2.17e-005      1.2518e-008    
  -1.35           7.219e-010      -2.4034e-005    1.2871e-008    
  -1.4            1.1032e-009     -2.6386e-005    1.0027e-008    
  -1.45           1.5017e-009     -2.8703e-005    9.31e-009      
  -1.5            -1.4089e-009    -3.0807e-005    2.8408e-008    
  -1.55           -2.525e-009     -3.2946e-005    1.103e-008     
  -1.6            -7.331e-010     -3.5073e-005    -1.3133e-008   
  -1.65           1.7648e-009     -3.7141e-005    -2.1007e-008   
  -1.7            1.3114e-009     -3.9106e-005    -8.993e-009    
  -1.75           2.8561e-009     -4.1031e-005    -9.255e-009    
  -1.8            -1.4103e-009    -4.284e-005     2.8249e-008    
  -1.85           -2.5186e-009    -4.4685e-005    1.1217e-008    
  -1.9            -1.925e-009     -4.6484e-005    1.741e-009     
  -1.95           -1.4597e-009    -4.822e-005     5.176e-009     
  -2              -1.41e-009      -4.991e-005     8.128e-009     
  -2.05           -2.6571e-009    -5.1554e-005    1.0074e-008    
  -2.1            1.7745e-009     -5.3238e-005    -2.1195e-008   
  -2.15           2.8184e-009     -5.4804e-005    -8.845e-009    
  -2.2            1.8838e-009     -5.6363e-005    1.2544e-008    
  -2.25           7.144e-010      -5.7839e-005    1.2812e-008    
  -2.3            1.0994e-009     -5.9333e-005    9.753e-009     
  -2.35           1.4949e-009     -6.081e-005     1.0095e-008    
  -2.4            1.9102e-009     -6.2222e-005    1.2869e-008    
  -2.45           7.41e-010       -6.3585e-005    1.2795e-008    
  -2.5            1.1265e-009     -6.4967e-005    9.652e-009     
  -2.55           1.527e-009      -6.6334e-005    1.0327e-008    
  -2.6            3.246e-010      -6.7597e-005    1.1709e-008    
  -2.65           7.781e-010      -6.8894e-005    1.2576e-008    
  -2.7            1.1564e-009     -7.0181e-005    9.541e-009     
  -2.75           1.5561e-009     -7.145e-005     9.606e-009     
  -2.8            3.612e-010      -7.2631e-005    1.1954e-008    
  -2.85           8.038e-010      -7.3833e-005    1.2778e-008    
  -2.9            -1.5461e-009    -7.5021e-005    1.6256e-008    
  -2.95           -1.4017e-009    -7.6153e-005    7.603e-009     
  -3              -1.3973e-009    -7.7298e-005    9.493e-009     
  -3.05           -2.4387e-009    -7.8406e-005    1.2885e-008    
  -3.1            -8.276e-010     -7.9529e-005    -1.3123e-008   
  -3.15           1.6167e-009     -8.0665e-005    -1.8156e-008   
  -3.2            2.8369e-009     -8.1703e-005    -8.693e-009    
  -3.25           8.883e-010      -8.2741e-005    1.199e-008     
  -3.3            -1.4788e-009    -8.3795e-005    1.3706e-008    
  -3.35           -1.4096e-009    -8.4782e-005    7.959e-009     
  -3.4            -1.3832e-009    -8.5769e-005    9.875e-009     
  -3.45           -2.3231e-009    -8.6747e-005    1.4437e-008    
  -3.5            -9.032e-010     -8.775e-005     -1.2678e-008   
  -3.55           1.5045e-009     -8.8761e-005    -1.5593e-008   
  -3.6            2.846e-009      -8.9668e-005    -8.165e-009    
  -3.65           2.0554e-009     -9.0603e-005    1.2593e-008    
  -3.7            8.837e-010      -9.1507e-005    1.2039e-008    
  -3.75           -1.4813e-009    -9.2443e-005    1.3789e-008    
  -3.8            -1.4108e-009    -9.3294e-005    7.923e-009     
  -3.85           -1.3824e-009    -9.4154e-005    9.874e-009     
  -3.9            -2.3391e-009    -9.5011e-005    1.4334e-008    
  -3.95           -8.975e-010     -9.5885e-005    -1.2815e-008   
  -4              1.5108e-009     -9.6788e-005    -1.5734e-008   
  -4.05           2.8454e-009     -9.7556e-005    -8.253e-009    
  -4.1            2.05e-009       -9.8379e-005    1.2642e-008    
  -4.15           8.761e-010      -9.917e-005     1.2021e-008    
  -4.2            -1.4864e-009    -9.9991e-005    1.3838e-008    
  -4.25           -1.4093e-009    -0.000100732    7.868e-009     
  -4.3            -1.3826e-009    -0.000101497    9.871e-009     
  -4.35           -2.3412e-009    -0.000102242    1.4405e-008    
  -4.4            -8.947e-010     -0.000103026    -1.2763e-008   
  -4.45           1.51e-009       -0.000103813    -1.5712e-008   
  -4.5            2.8437e-009     -0.000104506    -8.245e-009    
  -4.55           2.051e-009      -0.000105223    1.2548e-008    
  -4.6            8.729e-010      -0.000105923    1.2065e-008    
  -4.65           -1.4831e-009    -0.000106644    1.3797e-008    
  -4.7            -1.4088e-009    -0.000107289    7.986e-009     
  -4.75           -1.384e-009     -0.000107969    9.899e-009     
  -4.8            -2.3353e-009    -0.000108622    1.4277e-008    
  -4.85           -8.92e-010      -0.000109316    -1.2755e-008   
  -4.9            1.5142e-009     -0.000110016    -1.5618e-008   
  -4.95           2.8428e-009     -0.000110629    -8.303e-009    
  -5              2.837e-009      -0.000111248    9.12e-010      
END_DB

BEGIN_DB
 ICCAP_VAR VS         0              
 ICCAP_VAR VB         0              
 ICCAP_VAR VD         -5             

 #VG              IG              ID              IB             
  0               2.198e-010      -6.358e-010     -2.2694e-008   
  -0.05           2.8277e-009     -2.958e-010     -1.9496e-008   
  -0.1            1.2429e-009     2.2665e-009     1.0139e-008    
  -0.15           1.397e-009      2.1273e-009     1.1748e-008    
  -0.2            1.5696e-009     1.9112e-009     1.2316e-008    
  -0.25           7.5e-011        2.1676e-009     1.23e-008      
  -0.3            2.786e-010      2.1658e-009     1.2928e-008    
  -0.35           4.658e-010      1.9635e-009     1.2844e-008    
  -0.4            -1.4061e-009    2.86e-011       1.2033e-008    
  -0.45           -1.413e-009     -4.2689e-009    8.624e-009     
  -0.5            -1.4112e-009    -1.4966e-008    -9.832e-009    
  -0.55           -1.4204e-009    -4.8045e-008    9.055e-009     
  -0.6            -1.6141e-009    -1.4982e-007    1.4423e-008    
  -0.65           -1.4024e-009    -4.3197e-007    1.3853e-008    
  -0.7            -2.1721e-009    -1.1146e-006    -2.075e-009    
  -0.75           -2.587e-009     -2.4773e-006    2.9215e-008    
  -0.8            -2.7231e-009    -4.8456e-006    6.2019e-008    
  -0.85           2.847e-009      -8.5003e-006    9.928e-008     
  -0.9            -2.4437e-009    -1.3547e-005    1.8025e-007    
  -0.95           -2.6936e-009    -1.9947e-005    2.2894e-007    
  -1              -2.6723e-009    -2.7803e-005    3.0795e-007    
  -1.05           -2.5395e-009    -3.6987e-005    3.9138e-007    
  -1.1            -1.9861e-009    -4.7309e-005    4.7701e-007    
  -1.15           -1.4308e-009    -5.8845e-005    5.6609e-007    
  -1.2            -1.353e-009     -7.1395e-005    6.5417e-007    
  -1.25           -2.6404e-009    -8.4916e-005    7.4059e-007    
  -1.3            -2.3108e-009    -9.9526e-005    8.107e-007     
  -1.35           1.1164e-009     -0.00011493     9.1642e-007    
  -1.4            1.5098e-009     -0.00013134     9.687e-007     
  -1.45           1.9203e-009     -0.00014805     1.03907e-006   
  -1.5            2.3403e-009     -0.00016501     1.09961e-006   
  -1.55           8.149e-010      -0.00018292     1.1441e-006    
  -1.6            1.9767e-009     -0.00020163     1.162e-006     
  -1.65           1.3846e-009     -0.00022063     1.2279e-006    
  -1.7            2.8717e-009     -0.00024019     1.266e-006     
  -1.75           2.8427e-009     -0.00025986     1.3027e-006    
  -1.8            2.3493e-009     -0.00028027     1.3275e-006    
  -1.85           1.5657e-009     -0.00030128     1.342e-006     
  -1.9            2.8392e-009     -0.00032234     1.3515e-006    
  -1.95           2.8708e-009     -0.00034351     1.3718e-006    
  -2              2.6583e-009     -0.00036512     1.3694e-006    
  -2.05           1.9359e-009     -0.00038716     1.3658e-006    
  -2.1            1.3636e-009     -0.00040935     1.3524e-006    
  -2.15           2.8539e-009     -0.00043191     1.3428e-006    
  -2.2            2.8224e-009     -0.00045426     1.334e-006     
  -2.25           2.347e-009      -0.00047724     1.3134e-006    
  -2.3            1.5632e-009     -0.00050038     1.2877e-006    
  -2.35           2.8236e-009     -0.00052366     1.2571e-006    
  -2.4            2.8593e-009     -0.00054693     1.2405e-006    
  -2.45           2.6559e-009     -0.00057062     1.2048e-006    
  -2.5            1.9418e-009     -0.00059449     1.1718e-006    
  -2.55           1.3611e-009     -0.00061843     1.1318e-006    
  -2.6            2.8433e-009     -0.00064265     1.0952e-006    
  -2.65           2.8244e-009     -0.00066658     1.0656e-006    
  -2.7            2.3405e-009     -0.00069111     1.0261e-006    
  -2.75           -2.7209e-009    -0.00071519     9.8174e-007    
  -2.8            -2.7156e-009    -0.00073972     9.4573e-007    
  -2.85           -2.6166e-009    -0.00076453     9.0985e-007    
  -2.9            -2.0841e-009    -0.0007892      8.7303e-007    
  -2.95           -1.5089e-009    -0.00081401     8.369e-007     
  -3              -1.4102e-009    -0.00083893     8.0086e-007    
  -3.05           -1.3977e-009    -0.00086392     7.6467e-007    
  -3.1            -2.4181e-009    -0.00088905     7.3036e-007    
  -3.15           -1.7529e-009    -0.00091449     6.8358e-007    
  -3.2            -1.4122e-009    -0.00093979     6.5007e-007    
  -3.25           -1.4213e-009    -0.00096505     6.1774e-007    
  -3.3            -2.6163e-009    -0.00099054     5.8592e-007    
  -3.35           -2.0909e-009    -0.00101628     5.4405e-007    
  -3.4            -1.5131e-009    -0.00104179     5.1553e-007    
  -3.45           -1.4082e-009    -0.00106733     4.8751e-007    
  -3.5            -1.4024e-009    -0.00109305     4.6027e-007    
  -3.55           -2.4146e-009    -0.00111872     4.3525e-007    
  -3.6            1.6314e-009     -0.0011448      3.9858e-007    
  -3.65           2.8154e-009     -0.0011703      3.6079e-007    
  -3.7            2.8556e-009     -0.0011961      3.4692e-007    
  -3.75           2.6859e-009     -0.0012224      3.2063e-007    
  -3.8            1.9892e-009     -0.0012484      2.9648e-007    
  -3.85           1.3794e-009     -0.0012743      2.7081e-007    
  -3.9            2.8377e-009     -0.0013005      2.5076e-007    
  -3.95           2.8292e-009     -0.0013262      2.4046e-007    
  -4              2.3946e-009     -0.0013524      2.2138e-007    
  -4.05           1.6163e-009     -0.0013784      2.0093e-007    
  -4.1            2.8113e-009     -0.0014044      1.8253e-007    
  -4.15           2.8541e-009     -0.0014305      1.7909e-007    
  -4.2            2.6938e-009     -0.0014566      1.6237e-007    
  -4.25           1.9942e-009     -0.0014828      1.4751e-007    
  -4.3            1.3775e-009     -0.0015088      1.311e-007     
  -4.35           2.839e-009      -0.0015354      1.1981e-007    
  -4.4            2.8319e-009     -0.0015611      1.1783e-007    
  -4.45           2.4053e-009     -0.0015875      1.0657e-007    
  -4.5            -2.2096e-009    -0.0016132      1.0505e-007    
  -4.55           -1.5799e-009    -0.0016391      9.572e-008     
  -4.6            -1.4028e-009    -0.0016651      9.069e-008     
  -4.65           1.9145e-009     -0.0016918      5.3446e-008    
  -4.7            1.3395e-009     -0.0017181      6.1847e-008    
  -4.75           2.8479e-009     -0.0017444      5.5861e-008    
  -4.8            2.8017e-009     -0.0017701      5.8637e-008    
  -4.85           2.2911e-009     -0.0017961      5.1965e-008    
  -4.9            1.5341e-009     -0.0018222      4.2751e-008    
  -4.95           2.8264e-009     -0.0018483      3.6578e-008    
  -5              2.8557e-009     -0.0018745      4.1853e-008    
END_DB

BEGIN_DB
 ICCAP_VAR VS         0              
 ICCAP_VAR VB         2.5            
 ICCAP_VAR VD         -0.1           

 #VG              IG              ID              IB             
  0               -1.4e-009       -1.4079e-009    -8.624e-009    
  -0.05           2.477e-009      -1.4968e-009    -2.5712e-008   
  -0.1            1.3406e-009     2.191e-009      -5.048e-009    
  -0.15           1.5018e-009     2.0101e-009     1.2131e-008    
  -0.2            1.28e-011       2.166e-009      1.1568e-008    
  -0.25           -1.4339e-009    1.1118e-009     2.736e-008     
  -0.3            -1.0898e-009    -2.2097e-009    7.963e-009     
  -0.35           1.5295e-009     -1.7816e-009    -1.0341e-008   
  -0.4            9.142e-010      2.3201e-009     -8.261e-009    
  -0.45           -1.6887e-009    1.7668e-009     1.2781e-008    
  -0.5            -1.7341e-009    -1.626e-009     6.301e-009     
  -0.55           -3.07e-010      -2.2507e-009    -1.3222e-008   
  -0.6            -5.147e-010     -2.2686e-009    -1.3062e-008   
  -0.65           -7.098e-010     -2.252e-009     -1.2008e-008   
  -0.7            2.2629e-009     -1.5807e-009    -2.1403e-008   
  -0.75           1.4623e-009     2.0651e-009     -6.713e-009    
  -0.8            1.6413e-009     1.8304e-009     1.2726e-008    
  -0.85           1.8119e-009     1.5538e-009     1.238e-008     
  -0.9            3.636e-010      2.2581e-009     1.2902e-008    
  -0.95           5.627e-010      2.1589e-009     1.2715e-008    
  -1              -1.3998e-009    5.665e-010      1.119e-008     
  -1.05           -1.4115e-009    -3.2746e-009    9.409e-009     
  -1.1            -2.5784e-009    -1.4685e-008    -1.9502e-008   
  -1.15           1.7471e-009     -5.4073e-008    -2.0586e-008   
  -1.2            -1.3539e-009    -1.6937e-007    1.9593e-008    
  -1.25           2.539e-009      -4.9389e-007    -2.7785e-008   
  -1.3            2.1182e-009     -1.1579e-006    1.0198e-008    
  -1.35           9.405e-010      -2.3128e-006    1.1412e-008    
  -1.4            1.322e-009      -4.0113e-006    9.182e-009     
  -1.45           1.7487e-009     -6.1082e-006    1.2133e-008    
  -1.5            2.1744e-009     -8.3777e-006    1.1925e-008    
  -1.55           9.885e-010      -1.07968e-005   1.0937e-008    
  -1.6            -2.0411e-009    -1.3228e-005    1.3166e-008    
  -1.65           2.6876e-009     -1.567e-005     -2.6413e-008   
  -1.7            2.0035e-009     -1.8011e-005    -2.908e-009    
  -1.75           1.3823e-009     -2.0283e-005    -7.977e-009    
  -1.8            2.8505e-009     -2.249e-005     -8.1e-009      
  -1.85           2.1834e-009     -2.4632e-005    1.2022e-008    
  -1.9            9.968e-010      -2.6678e-005    1.0791e-008    
  -1.95           1.3899e-009     -2.8709e-005    9.365e-009     
  -2              1.8165e-009     -3.064e-005     1.2427e-008    
  -2.05           6.502e-010      -3.2461e-005    1.2772e-008    
  -2.1            1.0501e-009     -3.4293e-005    1.014e-008     
  -2.15           -2.227e-010     -3.6047e-005    9.516e-009     
  -2.2            -1.4267e-009    -3.7745e-005    2.2963e-008    
  -2.25           -1.4139e-009    -3.9426e-005    8.082e-009     
  -2.3            -2.6156e-009    -4.1058e-005    1.0256e-008    
  -2.35           -2.1256e-009    -4.268e-005     1.505e-009     
  -2.4            2.6082e-009     -4.4274e-005    -2.7386e-008   
  -2.45           1.8622e-009     -4.5794e-005    -3.817e-009    
  -2.5            1.3341e-009     -4.7293e-005    -8.635e-009    
  -2.55           2.8533e-009     -4.8762e-005    -8.761e-009    
  -2.6            -1.4142e-009    -5.0147e-005    2.8665e-008    
  -2.65           -2.5563e-009    -5.1546e-005    1.0888e-008    
  -2.7            -6.98e-010      -5.2958e-005    -1.3236e-008   
  -2.75           1.8083e-009     -5.4336e-005    -2.2249e-008   
  -2.8            1.3164e-009     -5.5644e-005    -8.897e-009    
  -2.85           2.8526e-009     -5.6949e-005    -8.947e-009    
  -2.9            -1.4118e-009    -5.8182e-005    2.8485e-008    
  -2.95           -2.5205e-009    -5.9421e-005    1.1428e-008    
  -3              -7.497e-010     -6.0682e-005    -1.3196e-008   
  -3.05           1.7424e-009     -6.1926e-005    -2.0557e-008   
  -3.1            2.8205e-009     -6.3091e-005    -8.889e-009    
  -3.15           1.9096e-009     -6.4264e-005    1.2783e-008    
  -3.2            7.457e-010      -6.5383e-005    1.2826e-008    
  -3.25           1.1333e-009     -6.6532e-005    9.597e-009     
  -3.3            1.5454e-009     -6.7655e-005    1.0527e-008    
  -3.35           3.456e-010      -6.8708e-005    1.1866e-008    
  -3.4            7.989e-010      -6.9786e-005    1.2459e-008    
  -3.45           -1.5486e-009    -7.0851e-005    1.6168e-008    
  -3.5            -1.4035e-009    -7.1876e-005    7.677e-009     
  -3.55           -1.3939e-009    -7.2889e-005    9.591e-009     
  -3.6            -2.416e-009     -7.389e-005     1.3153e-008    
  -3.65           2.303e-010      -7.4958e-005    -1.1811e-008   
  -3.7            1.4253e-009     -7.59e-005      -2e-008        
  -3.75           2.8441e-009     -7.6883e-005    -8.158e-009    
  -3.8            2.1437e-009     -7.7819e-005    1.2093e-008    
  -3.85           9.586e-010      -7.8743e-005    1.1162e-008    
  -3.9            1.3471e-009     -7.9682e-005    9.213e-009     
  -3.95           1.7701e-009     -8.0589e-005    1.2112e-008    
  -4              5.997e-010      -8.1459e-005    1.2792e-008    
  -4.05           1.0044e-009     -8.2344e-005    1.0586e-008    
  -4.1            1.3945e-009     -8.3229e-005    9.411e-009     
  -4.15           1.8232e-009     -8.408e-005     1.1925e-008    
