! VERSION = 6.00
BEGIN_HEADER
 ICCAP_INPUTS
  VG         V  B GROUND SMU4 0.001 LIN        1    0          -5         101  -0.05     
  VS         V  E GROUND SMU3 0.1 CON        0
  VB         V  C GROUND SMU1 0.1 LIN        3    0          5          3    2.5       
  VD         V  S GROUND SMU2 0.1 LIN        2    -0.1       -5         2    -4.9      
 ICCAP_OUTPUTS
  IG         I  B GROUND SMU4 B
  ID         I  S GROUND SMU2 B
  IB         I  C GROUND SMU1 B
END_HEADER

BEGIN_DB
 ICCAP_VAR VS         0              
 ICCAP_VAR VB         0              
 ICCAP_VAR VD         -0.1           

 #VG              IG              ID              IB             
  0               -3.08e-011      -2.0281e-009    -3.71e-009     
  -0.05           9.209e-010      2.0934e-009     -3.788e-009    
  -0.1            8.509e-010      2.1575e-009     -3.519e-009    
  -0.15           1.4511e-009     -2.4514e-009    -1.3246e-009   
  -0.2            5.832e-010      2.3837e-009     2.3712e-009    
  -0.25           -7.051e-010     -2.3025e-009    3.8496e-009    
  -0.3            8.762e-010      2.1143e-009     -6.6687e-009   
  -0.35           -1.0585e-009    -2.0577e-009    3.6372e-009    
  -0.4            1.4817e-009     -1.9519e-009    -3.2186e-009   
  -0.45           -1.3939e-009    -2.5047e-009    5.723e-009     
  -0.5            1.5011e-009     -4.0435e-009    -5.7472e-009   
  -0.55           -1.4471e-009    -1.1959e-008    -4.3638e-009   
  -0.6            1.5022e-009     -3.3405e-008    -7.234e-009    
  -0.65           -1.4915e-009    -8.8978e-008    5.3747e-009    
  -0.7            1.4329e-009     -2.1519e-007    -1.2298e-009   
  -0.75           7.707e-010      -4.2513e-007    1.5321e-009    
  -0.8            -1.3823e-009    -7.1967e-007    5.3758e-009    
  -0.85           -9.318e-010     -1.10275e-006   7.982e-010     
  -0.9            -1.4814e-009    -1.5595e-006    -4.813e-009    
  -0.95           -5.599e-010     -2.0909e-006    -1.187e-009    
  -1              1.4536e-009     -2.6779e-006    -5.0557e-009   
  -1.05           7.371e-010      -3.2726e-006    1.7562e-009    
  -1.1            -1.4018e-009    -3.8672e-006    5.4345e-009    
  -1.15           -8.842e-010     -4.4594e-006    6.153e-010     
  -1.2            1.4546e-009     -5.0998e-006    -3.352e-009    
  -1.25           7.272e-010      -5.7002e-006    1.7976e-009    
  -1.3            -1.4032e-009    -6.271e-006     5.4423e-009    
  -1.35           -8.751e-010     -6.8375e-006    5.785e-010     
  -1.4            1.4564e-009     -7.4367e-006    -3.3718e-009   
  -1.45           7.25e-010       -7.9919e-006    1.8566e-009    
  -1.5            -1.4065e-009    -8.5169e-006    5.4527e-009    
  -1.55           -8.702e-010     -9.0337e-006    5.652e-010     
  -1.6            1.4607e-009     -9.5805e-006    -3.3933e-009   
  -1.65           7.213e-010      -1.00848e-005   1.8792e-009    
  -1.7            -1.4087e-009    -1.05627e-005   5.4623e-009    
  -1.75           -8.64e-010      -1.10333e-005   5.357e-010     
  -1.8            -2.51e-011      -1.1515e-005    -3.486e-009    
  -1.85           1.4303e-009     -1.1988e-005    -2.236e-009    
  -1.9            1.4917e-009     -1.2436e-005    -3.518e-009    
  -1.95           1.4764e-009     -1.2875e-005    -4.994e-009    
  -2              -1.4287e-009    -1.33e-005      5.581e-009     
  -2.05           -8.111e-010     -1.3715e-005    3.101e-010     
  -2.1            1.4804e-009     -1.4147e-005    -3.6481e-009   
  -2.15           6.681e-010      -1.455e-005     2.3343e-009    
  -2.2            -1.4382e-009    -1.494e-005     5.5418e-009    
  -2.25           -8.058e-010     -1.5316e-005    2.83e-010      
  -2.3            1.4853e-009     -1.5725e-005    -3.6644e-009   
  -2.35           6.612e-010      -1.6098e-005    2.3788e-009    
  -2.4            -1.4303e-009    -1.6452e-005    5.5243e-009    
  -2.45           -7.948e-010     -1.6808e-005    2.46e-010      
  -2.5            1.4889e-009     -1.718e-005     -3.7063e-009   
  -2.55           6.53e-010       -1.7526e-005    2.4407e-009    
  -2.6            -1.4313e-009    -1.786e-005     5.5229e-009    
  -2.65           -7.877e-010     -1.8191e-005    2.21e-010      
  -2.7            1.4935e-009     -1.8541e-005    -3.7256e-009   
  -2.75           6.482e-010      -1.8864e-005    2.5064e-009    
  -2.8            -1.4357e-009    -1.9171e-005    5.5312e-009    
  -2.85           -7.84e-010      -1.9476e-005    1.993e-010     
  -2.9            1.4955e-009     -1.9803e-005    -3.7524e-009   
  -2.95           6.416e-010      -2.0106e-005    2.5433e-009    
  -3              -1.4348e-009    -2.0393e-005    5.5403e-009    
  -3.05           -7.747e-010     -2.068e-005     1.726e-010     
  -3.1            1.4998e-009     -2.0988e-005    -3.771e-009    
  -3.15           6.39e-010       -2.1272e-005    2.5977e-009    
  -3.2            -1.4473e-009    -2.1542e-005    5.5514e-009    
  -3.25           -7.719e-010     -2.1812e-005    1.451e-010     
  -3.3            1.5048e-009     -2.2101e-005    -3.8044e-009   
  -3.35           -1.4922e-009    -2.236e-005     5.3604e-009    
  -3.4            -5.954e-010     -2.2619e-005    -9.316e-010    
  -3.45           1.4384e-009     -2.2892e-005    -4.7305e-009   
  -3.5            7.71e-010       -2.3145e-005    1.5025e-009    
  -3.55           -1.3765e-009    -2.3389e-005    5.356e-009     
  -3.6            -9.383e-010     -2.3632e-005    8.135e-010     
  -3.65           1.4411e-009     -2.3891e-005    -3.1996e-009   
  -3.7            7.639e-010      -2.4128e-005    1.5464e-009    
  -3.75           -1.3803e-009    -2.436e-005     5.3686e-009    
  -3.8            -9.252e-010     -2.4594e-005    7.81e-010      
  -3.85           1.4434e-009     -2.4838e-005    -3.2139e-009   
  -3.9            7.606e-010      -2.5065e-005    1.578e-009     
  -3.95           -1.3843e-009    -2.5279e-005    5.3756e-009    
  -4              -9.202e-010     -2.55e-005      7.575e-010     
  -4.05           1.4459e-009     -2.573e-005     -3.2349e-009   
  -4.1            7.56e-010       -2.5945e-005    1.6055e-009    
  -4.15           -1.3875e-009    -2.6151e-005    5.3823e-009    
  -4.2            -9.166e-010     -2.6359e-005    7.447e-010     
  -4.25           1.4465e-009     -2.658e-005     -3.2556e-009   
  -4.3            7.502e-010      -2.6777e-005    1.6375e-009    
  -4.35           -1.3873e-009    -2.6973e-005    5.3971e-009    
  -4.4            -9.096e-010     -2.7167e-005    7.107e-010     
  -4.45           1.449e-009      -2.7377e-005    -3.2658e-009   
  -4.5            7.491e-010      -2.7569e-005    1.6621e-009    
  -4.55           -1.3918e-009    -2.775e-005     5.4034e-009    
  -4.6            -9.011e-010     -2.7936e-005    6.885e-010     
  -4.65           1.4511e-009     -2.8131e-005    -3.2852e-009   
  -4.7            7.45e-010       -2.8312e-005    1.6986e-009    
  -4.75           -1.3961e-009    -2.8491e-005    5.416e-009     
  -4.8            -8.982e-010     -2.8666e-005    6.749e-010     
  -4.85           1.4558e-009     -2.8847e-005    -3.317e-009    
  -4.9            7.429e-010      -2.902e-005     1.7242e-009    
  -4.95           -1.4021e-009    -2.9185e-005    5.4288e-009    
  -5              -8.898e-010     -2.9357e-005    6.507e-010     
END_DB

BEGIN_DB
 ICCAP_VAR VS         0              
 ICCAP_VAR VB         0              
 ICCAP_VAR VD         -5             

 #VG              IG              ID              IB             
  0               -1.327e-010     -2.0966e-009    -3.454e-009    
  -0.05           8.543e-010      2.1597e-009     -3.465e-009    
  -0.1            1.4552e-009     -2.4572e-009    -1.3055e-009   
  -0.15           5.891e-010      2.3775e-009     2.3405e-009    
  -0.2            -7.072e-010     -2.329e-009     3.8781e-009    
  -0.25           8.826e-010      2.0454e-009     -6.6956e-009   
  -0.3            -1.0679e-009    -2.2774e-009    3.6725e-009    
  -0.35           1.483e-009      -2.7032e-009    -3.1872e-009   
  -0.4            -1.4332e-009    -2.1116e-009    5.4918e-009    
  -0.45           -1.4595e-009    -1.0833e-008    1.6842e-009    
  -0.5            -7.362e-010     -3.5638e-008    5.753e-010     
  -0.55           1.49e-009       -9.8071e-008    -6.0336e-009   
  -0.6            1.3877e-009     -2.4413e-007    7.2811e-009    
  -0.65           -1.4924e-009    -5.306e-007     1.4014e-008    
  -0.7            -7.12e-010      -9.9783e-007    1.1658e-008    
  -0.75           -8.311e-010     -1.7266e-006    1.7758e-008    
  -0.8            1.4474e-009     -2.7929e-006    2.8689e-008    
  -0.85           8.692e-010      -4.1685e-006    5.1939e-008    
  -0.9            -1.445e-009     -5.8069e-006    6.952e-008     
  -0.95           -8.185e-010     -7.7764e-006    7.8435e-008    
  -1              1.456e-009      -1.02223e-005   9.3561e-008    
  -1.05           7.69e-010       -1.2925e-005    1.1278e-007    
  -1.1            1.4247e-009     -1.5916e-005    1.3488e-007    
  -1.15           9.594e-010      -1.9226e-005    1.6163e-007    
  -1.2            -1.4167e-009    -2.2722e-005    1.8245e-007    
  -1.25           -9.054e-010     -2.6433e-005    1.9163e-007    
  -1.3            1.4238e-009     -3.067e-005     2.0579e-007    
  -1.35           9.514e-010      -3.5054e-005    2.319e-007     
  -1.4            -1.4212e-009    -3.9491e-005    2.4867e-007    
  -1.45           -9.012e-010     -4.4087e-005    2.5375e-007    
  -1.5            1.4212e-009     -4.9207e-005    2.6256e-007    
  -1.55           9.414e-010      -5.4435e-005    2.8234e-007    
  -1.6            -1.4282e-009    -5.9594e-005    2.9317e-007    
  -1.65           -8.979e-010     -6.4887e-005    2.926e-007     
  -1.7            1.4198e-009     -7.0708e-005    2.9509e-007    
  -1.75           9.327e-010      -7.657e-005     3.0838e-007    
  -1.8            -1.4347e-009    -8.2322e-005    3.1323e-007    
  -1.85           -8.959e-010     -8.8259e-005    3.0686e-007    
  -1.9            1.4212e-009     -9.4653e-005    3.0348e-007    
  -1.95           9.256e-010      -0.000101024    3.1184e-007    
  -2              -1.4346e-009    -0.000107274    3.1088e-007    
  -2.05           -8.946e-010     -0.000113546    2.9982e-007    
  -2.1            -1.4817e-009    -0.00011998     2.9469e-007    
  -2.15           -7.518e-010     -0.00012676     2.8982e-007    
  -2.2            1.4795e-009     -0.00013377     2.7999e-007    
  -2.25           7.761e-010      -0.00014076     2.8221e-007    
  -2.3            -1.4831e-009    -0.00014746     2.7639e-007    
  -2.35           -7.48e-010      -0.00015434     2.6086e-007    
  -2.4            1.4806e-009     -0.00016173     2.4854e-007    
  -2.45           7.703e-010      -0.00016903     2.4883e-007    
  -2.5            -1.4848e-009    -0.00017601     2.4095e-007    
  -2.55           -7.461e-010     -0.0001832      2.2409e-007    
  -2.6            1.4824e-009     -0.00019084     2.1111e-007    
  -2.65           7.668e-010      -0.00019847     2.1036e-007    
  -2.7            -1.4869e-009    -0.0002057      2.0227e-007    
  -2.75           -7.451e-010     -0.00021299     1.8501e-007    
  -2.8            1.4823e-009     -0.0002209      1.719e-007     
  -2.85           7.658e-010      -0.00022879     1.7163e-007    
  -2.9            -1.4874e-009    -0.00023625     1.6398e-007    
  -2.95           -7.388e-010     -0.00024379     1.4743e-007    
  -3              1.487e-009      -0.0002519      1.3499e-007    
  -3.05           7.618e-010      -0.00025988     1.3574e-007    
  -3.1            -1.4886e-009    -0.00026754     1.2911e-007    
  -3.15           -7.357e-010     -0.00027525     1.1362e-007    
  -3.2            1.4862e-009     -0.0002836      1.0234e-007    
  -3.25           7.577e-010      -0.00029167     1.0439e-007    
  -3.3            -7.167e-010     -0.00029937     9.1303e-008    
  -3.35           1.4967e-009     -0.00030767     8.1078e-008    
  -3.4            7.383e-010      -0.00031593     8.4403e-008    
  -3.45           -1.4939e-009    -0.00032376     8.0098e-008    
  -3.5            -7.158e-010     -0.0003318      6.6569e-008    
  -3.55           1.4974e-009     -0.00034028     5.7609e-008    
  -3.6            7.333e-010      -0.0003487      6.2681e-008    
  -3.65           -1.4951e-009    -0.00035674     5.9567e-008    
  -3.7            -7.112e-010     -0.00036485     4.7165e-008    
  -3.75           1.501e-009      -0.00037361     3.9431e-008    
  -3.8            7.269e-010      -0.00038214     4.5766e-008    
  -3.85           -1.4969e-009    -0.00039021     4.376e-008     
  -3.9            -7.049e-010     -0.00039839     3.2326e-008    
  -3.95           1.5e-009        -0.00040713     2.5729e-008    
  -4              7.233e-010      -0.00041573     3.3211e-008    
  -4.05           -1.497e-009     -0.00042384     3.2096e-008    
  -4.1            -7.07e-010      -0.00043213     2.1363e-008    
  -4.15           1.5025e-009     -0.00044096     1.5692e-008    
  -4.2            7.241e-010      -0.00044969     2.4115e-008    
  -4.25           -1.4955e-009    -0.00045792     2.3677e-008    
  -4.3            -7.001e-010     -0.00046612     1.3549e-008    
  -4.35           1.5031e-009     -0.00047497     8.55e-009      
  -4.4            7.167e-010      -0.00048364     1.776e-008     
  -4.45           -1.4968e-009    -0.00049189     1.7827e-008    
  -4.5            7.987e-010      -0.00050077     1.4717e-008    
  -4.55           -1.4793e-009    -0.000509       1.5373e-008    
  -4.6            5.596e-010      -0.00051776     1.5229e-008    
  -4.65           -1.4497e-009    -0.00052606     1.3644e-008    
  -4.7            6.441e-010      -0.00053501     1.2932e-008    
  -4.75           -1.414e-009     -0.00054344     1.2242e-008    
  -4.8            -1.494e-009     -0.0005519      1.1685e-008    
  -4.85           -1.4717e-009    -0.00056055     1.0853e-008    
  -4.9            -1.4317e-009    -0.00056926     1.052e-008     
  -4.95           -1.3761e-009    -0.00057778     9.632e-009     
  -5              1.4581e-009     -0.00058643     -1.5789e-009   
END_DB

BEGIN_DB
 ICCAP_VAR VS         0              
 ICCAP_VAR VB         2.5            
 ICCAP_VAR VD         -0.1           

 #VG              IG              ID              IB             
  0               -2.39e-011      1.9908e-009     6e-009         
  -0.05           -1.4345e-009    4.331e-010      7.89e-009      
  -0.1            -8.019e-010     -2.148e-009     5.129e-009     
  -0.15           -9.383e-010     -2.0332e-009    6.43e-009      
  -0.2            -6.937e-010     -2.247e-009     4.71e-009      
  -0.25           -7.975e-010     -2.1567e-009    5.117e-009     
  -0.3            -9.326e-010     -2.0362e-009    6.372e-009     
  -0.35           -6.924e-010     -2.2482e-009    4.703e-009     
  -0.4            -7.972e-010     -2.157e-009     5.124e-009     
  -0.45           -9.286e-010     -2.0391e-009    6.327e-009     
  -0.5            -1.4219e-009    2.4065e-009     4.1488e-009    
  -0.55           7.17e-010       2.248e-009      2.9821e-009    
  -0.6            5.14e-010       2.1785e-009     6.395e-009     
  -0.65           -7.103e-010     -2.2329e-009    4.757e-009     
  -0.7            -8.196e-010     -2.1318e-009    5.259e-009     
  -0.75           -9.619e-010     -2.0194e-009    6.753e-009     
  -0.8            -7.098e-010     -2.2394e-009    4.76e-009      
  -0.85           -8.135e-010     -2.1649e-009    5.238e-009     
  -0.9            -9.559e-010     -2.1682e-009    6.697e-009     
  -0.95           -1.2079e-009    -2.5142e-009    4.751e-009     
  -1              -1.3931e-009    -2.9289e-009    5.561e-009     
  -1.05           1.0131e-009     -1.0575e-008    7.054e-009     
  -1.1            -1.4106e-009    -4.3357e-008    7.849e-009     
  -1.15           1.3858e-009     -1.2825e-007    6.013e-009     
  -1.2            -1.4137e-009    -2.9462e-007    7.73e-009      
  -1.25           -1.3754e-009    -5.6832e-007    4.905e-009     
  -1.3            -1.4317e-009    -9.5189e-007    5.714e-009     
  -1.35           7.627e-010      -1.43e-006      5.923e-009     
  -1.4            -1.4096e-009    -1.9325e-006    5.092e-009     
  -1.45           -1.4357e-009    -2.5005e-006    6.267e-009     
  -1.5            -1.4003e-009    -3.0863e-006    8.547e-009     
  -1.55           -1.4062e-009    -3.6646e-006    5.093e-009     
  -1.6            -1.4347e-009    -4.258e-006     6.283e-009     
  -1.65           -1.3997e-009    -4.8393e-006    8.522e-009     
  -1.7            -1.4039e-009    -5.3934e-006    5.045e-009     
  -1.75           -1.4351e-009    -5.9519e-006    6.182e-009     
  -1.8            -1.4014e-009    -6.4891e-006    8.433e-009     
  -1.85           -1.4039e-009    -7.014e-006     5.025e-009     
  -1.9            -1.435e-009     -7.5263e-006    6.084e-009     
  -1.95           -1.4025e-009    -8.0255e-006    8.328e-009     
  -2              -1.4026e-009    -8.5025e-006    5.025e-009     
  -2.05           -1.4362e-009    -8.9787e-006    6.078e-009     
  -2.1            -1.4011e-009    -9.4376e-006    8.268e-009     
  -2.15           -1.4e-009       -9.8833e-006    4.998e-009     
  -2.2            -1.4348e-009    -1.03248e-005   5.987e-009     
  -2.25           -1.4046e-009    -1.07588e-005   8.146e-009     
  -2.3            -1.3953e-009    -1.11709e-005   4.987e-009     
  -2.35           -8.65e-011      -1.158e-005     4.818e-009     
  -2.4            -1.4319e-009    -1.1982e-005    6.853e-009     
  -2.45           -1.3249e-009    -1.2374e-005    4.755e-009     
  -2.5            -1.4211e-009    -1.2761e-005    5.244e-009     
  -2.55           -1.4331e-009    -1.3139e-005    6.709e-009     
  -2.6            1.413e-009      -1.3521e-005    4.3098e-009    
  -2.65           7.641e-010      -1.3892e-005    3.0175e-009    
  -2.7            -1.4327e-009    -1.4231e-005    5.3329e-009    
  -2.75           -6.222e-010     -1.4594e-005    -1.236e-010    
  -2.8            1.4154e-009     -1.4936e-005    2.7745e-009    
  -2.85           7.644e-010      -1.5279e-005    3.0185e-009    
  -2.9            -1.4337e-009    -1.5602e-005    5.3446e-009    
  -2.95           -6.17e-010      -1.5935e-005    -1.378e-010    
  -3              1.4174e-009     -1.6253e-005    2.7958e-009    
  -3.05           7.541e-010      -1.6573e-005    3.0338e-009    
  -3.1            -1.4344e-009    -1.687e-005     5.3646e-009    
  -3.15           -6.13e-010      -1.7187e-005    -1.814e-010    
  -3.2            1.4199e-009     -1.7485e-005    2.8403e-009    
  -3.25           7.522e-010      -1.7783e-005    3.0375e-009    
  -3.3            -1.4364e-009    -1.8057e-005    5.3983e-009    
  -3.35           -6.08e-010      -1.8349e-005    -2.318e-010    
  -3.4            1.4205e-009     -1.8633e-005    2.8512e-009    
  -3.45           7.485e-010      -1.8916e-005    3.0387e-009    
  -3.5            -1.4374e-009    -1.9171e-005    5.4107e-009    
  -3.55           -6.073e-010     -1.9452e-005    -2.591e-010    
  -3.6            1.4213e-009     -1.9709e-005    2.8956e-009    
  -3.65           7.443e-010      -1.9974e-005    3.0415e-009    
  -3.7            -1.4381e-009    -2.0219e-005    5.4257e-009    
  -3.75           -6.01e-010      -2.0485e-005    -2.891e-010    
  -3.8            1.4245e-009     -2.0727e-005    2.9353e-009    
  -3.85           7.375e-010      -2.0977e-005    3.0582e-009    
  -3.9            -1.438e-009     -2.1211e-005    5.4529e-009    
  -3.95           -5.949e-010     -2.1455e-005    -3.461e-010    
  -4              1.4257e-009     -2.1688e-005    2.9572e-009    
  -4.05           7.336e-010      -2.1919e-005    3.0603e-009    
  -4.1            -1.3196e-009    -2.2138e-005    5.4819e-009    
  -4.15           -9.31e-010      -2.2376e-005    1.8932e-009    
