! VERSION = 6.00
BEGIN_HEADER
 ICCAP_INPUTS
  VG         V  B GROUND SMU4 0.001 LIN        2    0          -5         6    -1        
  VS         V  E GROUND SMU2 0.1 CON        0
  VD         V  S GROUND SMU1 0.1 LIN        1    0          -5         101  -0.05     
  VB         V  C GROUND SMU3 0.1 LIN        3    0          2.5        2    2.5       
 ICCAP_OUTPUTS
  ID         I  S GROUND SMU1 B
  IB         I  C GROUND SMU3 B
  IG         I  B GROUND SMU4 B
END_HEADER

BEGIN_DB
 ICCAP_VAR VG         0              
 ICCAP_VAR VS         0              
 ICCAP_VAR VB         0              

 #VD              ID              IB              IG             
  0               1.1588e-009     -1.1935e-008    1.3008e-009    
  -0.05           1.8614e-009     1.187e-008      1.6321e-009    
  -0.1            1.5865e-009     1.1653e-008     1.8024e-009    
  -0.15           2.3199e-009     1.2699e-008     3.694e-010     
  -0.2            2.3437e-009     1.2276e-008     5.59e-010      
  -0.25           2.3585e-009     1.1143e-008     7.401e-010     
  -0.3            2.3554e-009     9.56e-009       9.081e-010     
  -0.35           1.7862e-009     1.3046e-008     -1.7044e-009   
  -0.4            -1.6226e-009    6.426e-009      -1.7585e-009   
  -0.45           -1.5854e-009    -2.0639e-008    2.2734e-009    
  -0.5            2.0819e-009     -6.559e-009     1.4662e-009    
  -0.55           1.8389e-009     1.2007e-008     1.6494e-009    
  -0.6            1.565e-009      1.17e-008       1.815e-009     
  -0.65           2.323e-009      1.2852e-008     3.828e-010     
  -0.7            2.3437e-009     1.2322e-008     5.793e-010     
  -0.75           2.3548e-009     1.0747e-008     7.578e-010     
  -0.8            1.6549e-009     1.7718e-008     -1.3906e-009   
  -0.85           2.793e-010      1.4529e-008     -2.6465e-009   
  -0.9            -2.2338e-009    1.499e-009      -1.0727e-009   
  -0.95           -1.7817e-009    -1.0293e-008    1.566e-009     
  -1              1.5139e-009     -8.211e-009     1.8606e-009    
  -1.05           2.3312e-009     1.2898e-008     4.312e-010     
  -1.1            2.3518e-009     1.2315e-008     6.294e-010     
  -1.15           2.354e-009      1.059e-008      8.018e-010     
  -1.2            1.693e-009      1.6336e-008     -1.8745e-009   
  -1.25           -1.7729e-009    5.304e-009      -1.6608e-009   
  -1.3            -1.513e-009     -2.4439e-008    2.4566e-009    
  -1.35           2.1977e-009     -5.402e-009     1.3551e-009    
  -1.4            1.9971e-009     1.1751e-008     1.5303e-009    
  -1.45           1.4152e-009     2.8175e-008     -1.4067e-009   
  -1.5            -1.75e-011      1.1023e-008     -1.4062e-009   
  -1.55           1.44e-010       1.2145e-008     -1.3802e-009   
  -1.6            3.135e-010      1.5083e-008     -2.6308e-009   
  -1.65           -2.2249e-009    1.513e-009      -1.1097e-009   
  -1.7            -1.806e-009     -9.973e-009     1.5158e-009    
  -1.75           1.4605e-009     -8.049e-009     1.8978e-009    
  -1.8            2.3417e-009     1.2829e-008     4.689e-010     
  -1.85           2.3564e-009     1.2087e-008     6.608e-010     
  -1.9            2.3607e-009     1.0313e-008     8.363e-010     
  -1.95           1.7251e-009     1.5358e-008     -1.8206e-009   
  -2              -1.7323e-009    5.571e-009      -1.6943e-009   
  -2.05           -1.5391e-009    -2.3476e-008    2.4144e-009    
  -2.1            2.1772e-009     -5.598e-009     1.3862e-009    
  -2.15           1.9613e-009     1.1331e-008     1.5636e-009    
  -2.2            1.4457e-009     2.759e-008      -1.4074e-009   
  -2.25           1.39e-011       1.1083e-008     -1.4031e-009   
  -2.3            1.67e-010       1.2609e-008     -2.6975e-009   
  -2.35           -1.5796e-009    -2.1401e-008    2.3021e-009    
  -2.4            2.107e-009      -6.331e-009     1.446e-009     
  -2.45           1.8723e-009     1.1754e-008     1.6283e-009    
  -2.5            1.5974e-009     1.1886e-008     1.8023e-009    
  -2.55           2.3232e-009     1.2731e-008     3.573e-010     
  -2.6            2.3515e-009     1.2684e-008     5.488e-010     
  -2.65           2.3643e-009     1.142e-008      7.33e-010      
  -2.7            2.3588e-009     9.565e-009      9.006e-010     
  -2.75           1.783e-009      1.3286e-008     -1.7152e-009   
  -2.8            -1.6407e-009    6.54e-009       -1.7561e-009   
  -2.85           -2.2794e-009    -1.3019e-008    -3.074e-010    
  -2.9            -2.2971e-009    -1.3058e-008    -5.257e-010    
  -2.95           -2.2827e-009    -1.2169e-008    -7.333e-010    
  -3              -1.5979e-009    -2.013e-008     2.2337e-009    
  -3.05           2.0694e-009     -6.699e-009     1.4755e-009    
  -3.1            1.8173e-009     1.195e-008      1.6653e-009    
  -3.15           1.5429e-009     1.1803e-008     1.836e-009     
  -3.2            2.3318e-009     1.2699e-008     3.967e-010     
  -3.25           2.3557e-009     1.2478e-008     5.939e-010     
  -3.3            2.3623e-009     1.0953e-008     7.746e-010     
  -3.35           1.6715e-009     1.7435e-008     -1.9252e-009   
  -3.4            -1.8143e-009    5.364e-009      -1.6332e-009   
  -3.45           -1.4997e-009    -2.5015e-008    2.4939e-009    
  -3.5            2.2159e-009     -4.9e-009       1.3239e-009    
  -3.55           2.103e-009      1.0623e-008     -1.58e-010     
  -3.6            1.0028e-009     2.4401e-008     -1.5563e-009   
  -3.65           -1.4596e-009    7.901e-009      -1.8675e-009   
  -3.7            -2.2936e-009    -1.3278e-008    -4.858e-010    
  -3.75           -2.2871e-009    -1.2697e-008    -6.921e-010    
  -3.8            -2.2627e-009    -1.1037e-008    -8.783e-010    
  -3.85           -1.6735e-009    -1.5933e-008    1.9744e-009    
  -3.9            1.8826e-009     -8.402e-009     1.6337e-009    
  -3.95           1.5828e-009     1.178e-008      1.8113e-009    
  -4              2.3223e-009     1.2573e-008     3.673e-010     
  -4.05           2.3496e-009     1.2619e-008     5.643e-010     
  -4.1            2.3579e-009     1.0869e-008     7.484e-010     
  -4.15           2.3588e-009     9.536e-009      9.154e-010     
  -4.2            1.7942e-009     1.3213e-008     -1.7016e-009   
  -4.25           -1.6209e-009    6.717e-009      -1.7645e-009   
  -4.3            -2.2797e-009    -1.3083e-008    -3.245e-010    
  -4.35           -2.2938e-009    -1.2993e-008    -5.43e-010     
  -4.4            -2.2812e-009    -1.1972e-008    -7.506e-010    
  -4.45           -1.6061e-009    -1.9588e-008    2.2136e-009    
  -4.5            2.0469e-009     -7.077e-009     1.4995e-009    
  -4.55           1.3996e-009     2.8378e-008     -1.4032e-009   
  -4.6            -3.83e-011      1.0863e-008     -1.4033e-009   
  -4.65           1.195e-010      1.1892e-008     -2.7136e-009   
  -4.7            -1.5436e-009    -2.3157e-008    2.3906e-009    
  -4.75           2.152e-009      -5.824e-009     1.3987e-009    
  -4.8            1.9366e-009     1.1778e-008     1.582e-009     
  -4.85           1.4573e-009     2.6903e-008     -1.4065e-009   
  -4.9            2.77e-011       1.1129e-008     -1.3968e-009   
  -4.95           1.859e-010      1.2721e-008     -2.6873e-009   
  -5              -1.5908e-009    -2.0575e-008    2.2547e-009    
END_DB

BEGIN_DB
 ICCAP_VAR VG         -1             
 ICCAP_VAR VS         0              
 ICCAP_VAR VB         0              

 #VD              ID              IB              IG             
  0               -5.4048e-009    -2.7568e-008    -2.7444e-009   
  -0.05           -3.0141e-007    1.9124e-008     -1.3088e-009   
  -0.1            -5.0246e-007    2.8947e-008     -1.4098e-009   
  -0.15           -6.3659e-007    2.5958e-008     -1.384e-009    
  -0.2            -7.3014e-007    1.1346e-008     1.7024e-009    
  -0.25           -7.9379e-007    -1.8471e-008    1.6958e-009    
  -0.3            -8.3348e-007    -1.3062e-008    -8.468e-010    
  -0.35           -8.6183e-007    6.717e-009      -1.3995e-009   
  -0.4            -8.9501e-007    9.406e-009      1.1538e-009    
  -0.45           -9.2173e-007    -2.6797e-008    2.6364e-009    
  -0.5            -9.4225e-007    -2.7568e-008    2.4322e-009    
  -0.55           -9.6229e-007    -2.657e-008     2.1728e-009    
  -0.6            -9.753e-007     -1.3056e-008    -5.699e-010    
  -0.65           -9.8585e-007    1.8552e-008     -1.7689e-009   
  -0.7            -1.00384e-006   1.2767e-008     6.88e-010      
  -0.75           -1.02771e-006   -1.9321e-008    1.5793e-009    
  -0.8            -1.03659e-006   -1.2703e-008    -9.23e-010     
  -0.85           -1.04637e-006   7.505e-009      -1.4005e-009   
  -0.9            -1.05858e-006   2.9021e-008     -1.4099e-009   
  -0.95           -1.08532e-006   9.954e-009      1.4962e-009    
  -1              -1.09851e-006   -2.5063e-008    2.0766e-009    
  -1.05           -1.10709e-006   -1.3241e-008    -6.339e-010    
  -1.1            -1.11364e-006   1.9023e-008     -1.6948e-009   
  -1.15           -1.1305e-006    1.2836e-008     7.465e-010     
  -1.2            -1.1437e-006    -1.9715e-008    2.7845e-009    
  -1.25           -1.1665e-006    -1.094e-008     2.326e-010     
  -1.3            -1.1656e-006    9.182e-009      -1.4025e-009   
  -1.35           -1.1761e-006    2.8467e-008     -1.401e-009    
  -1.4            -1.189e-006     2.8308e-008     -1.3988e-009   
  -1.45           -1.1995e-006    2.7709e-008     -1.3945e-009   
  -1.5            -1.2136e-006    2.7095e-008     -1.3918e-009   
  -1.55           -1.2241e-006    2.6294e-008     -1.3859e-009   
  -1.6            -1.237e-006     2.5414e-008     -1.3811e-009   
  -1.65           -1.2501e-006    2.4448e-008     -1.3761e-009   
  -1.7            -1.2647e-006    1.1922e-008     3.739e-010     
  -1.75           -1.2872e-006    -1.9548e-008    2.5263e-009    
  -1.8            -1.2994e-006    -2.662e-008     2.6533e-009    
  -1.85           -1.3143e-006    -9.808e-009     9.22e-011      
  -1.9            -1.3087e-006    1.0775e-008     -2.6994e-009   
  -1.95           -1.3228e-006    1.5387e-008     -1.5234e-009   
  -2              -1.3371e-006    1.2795e-008     6.516e-010     
  -2.05           -1.3572e-006    -1.9241e-008    2.1004e-009    
  -2.1            -1.3708e-006    -2.7357e-008    2.2821e-009    
  -2.15           -1.3821e-006    -2.7488e-008    2.448e-009     
  -2.2            -1.394e-006     -2.7066e-008    2.5819e-009    
  -2.25           -1.4064e-006    -2.626e-008     1.31e-009      
  -2.3            -1.4171e-006    -2.6472e-008    1.3097e-009    
  -2.35           -1.4287e-006    -2.6659e-008    2.647e-009     
  -2.4            -1.4423e-006    -9.829e-009     8.81e-011      
  -2.45           -1.4366e-006    1.0868e-008     -2.6991e-009   
  -2.5            -1.4501e-006    1.5189e-008     -1.5161e-009   
  -2.55           -1.4647e-006    1.2781e-008     6.629e-010     
  -2.6            -1.4852e-006    -1.9231e-008    2.0819e-009    
  -2.65           -1.4976e-006    -2.7342e-008    2.2701e-009    
  -2.7            -1.5107e-006    -2.7703e-008    2.4359e-009    
  -2.75           -1.5209e-006    -2.7164e-008    2.5826e-009    
  -2.8            -1.5335e-006    -1.0036e-008    3.61e-011      
  -2.85           -1.5274e-006    1.0972e-008     -2.6788e-009   
  -2.9            -1.541e-006     1.3746e-008     -1.473e-009    
  -2.95           -1.5565e-006    1.2972e-008     7.172e-010     
  -3              -1.5769e-006    -1.9156e-008    1.9863e-009    
  -3.05           -1.5889e-006    -2.6532e-008    2.1699e-009    
  -3.1            -1.601e-006     -2.7503e-008    2.3537e-009    
  -3.15           -1.6131e-006    -2.7406e-008    2.5041e-009    
  -3.2            -1.6257e-006    -1.0427e-008    -1.93e-011     
  -3.25           -1.6195e-006    1.1447e-008     -2.6619e-009   
  -3.3            -1.6318e-006    1.2394e-008     -3.18e-010     
  -3.35           -1.6568e-006    -8.346e-009     2.8813e-009    
  -3.4            -1.6607e-006    -1.1061e-008    -1.0679e-009   
  -3.45           -1.667e-006     7.039e-009      -1.3975e-009   
  -3.5            -1.6821e-006    1.1872e-008     9.343e-010     
  -3.55           -1.7041e-006    -1.8884e-008    1.5735e-009    
  -3.6            -1.7094e-006    -1.2798e-008    -6.635e-010    
  -3.65           -1.7119e-006    1.7818e-008     -2.0361e-009   
  -3.7            -1.7387e-006    1.2532e-008     1.8615e-009    
  -3.75           -1.7502e-006    -2.0667e-008    1.857e-009     
  -3.8            -1.7594e-006    -2.4386e-008    2.0518e-009    
  -3.85           -1.7723e-006    -2.6071e-008    2.2374e-009    
  -3.9            -1.7836e-006    -2.639e-008     2.4065e-009    
  -3.95           -1.7944e-006    -1.8242e-008    2.3668e-009    
  -4              -1.8059e-006    -1.803e-008     2.3328e-009    
  -4.05           -1.8185e-006    -1.7688e-008    2.2868e-009    
  -4.1            -1.8308e-006    -1.7112e-008    2.2374e-009    
  -4.15           -1.8415e-006    -1.6722e-008    2.1886e-009    
  -4.2            -1.8546e-006    -1.6112e-008    2.1379e-009    
  -4.25           -1.8663e-006    -1.5507e-008    2.0919e-009    
  -4.3            -1.8789e-006    -1.4808e-008    2.0371e-009    
  -4.35           -1.8908e-006    -1.4146e-008    1.9883e-009    
  -4.4            -1.9028e-006    -1.3361e-008    1.9381e-009    
  -4.45           -1.9148e-006    -1.2428e-008    1.8867e-009    
  -4.5            -1.9289e-006    -1.1368e-008    1.8385e-009    
  -4.55           -1.9394e-006    -1.0169e-008    1.7849e-009    
  -4.6            -1.9535e-006    -8.962e-009     1.7452e-009    
  -4.65           -1.9551e-006    2.1505e-008     2.3342e-009    
  -4.7            -1.9795e-006    -6.302e-009     1.8896e-009    
  -4.75           -1.9855e-006    2.259e-008      2.8634e-009    
  -4.8            -2.0046e-006    -3.25e-009      2.2678e-009    
  -4.85           -2.0014e-006    7.253e-009      -1.8228e-009   
  -4.9            -2.016e-006     4.5124e-008     -1.3743e-009   
  -4.95           -2.041e-006     3.3349e-008     2.8381e-009    
  -5              -2.055e-006     1.2645e-008     -7.184e-010    
END_DB

BEGIN_DB
 ICCAP_VAR VG         -2             
 ICCAP_VAR VS         0              
 ICCAP_VAR VB         0              

 #VD              ID              IB              IG             
  0               -2.5647e-008    1.2455e-008     -3.64e-010     
  -0.05           -1.79e-006      -1.2645e-008    -1.9816e-009   
  -0.1            -3.4632e-006    1.5394e-008     -1.5265e-009   
  -0.15           -5.0504e-006    1.272e-008      6.267e-010     
  -0.2            -6.5563e-006    -1.8705e-008    2.1176e-009    
  -0.25           -7.9637e-006    -2.7497e-008    2.3018e-009    
  -0.3            -9.2779e-006    -2.7856e-008    2.4664e-009    
  -0.35           -1.04976e-005   -1.0737e-008    -4.83e-011     
  -0.4            -1.1609e-005    -1.3059e-008    2.854e-009     
  -0.45           -1.2653e-005    -1.2911e-008    3.22e-010      
  -0.5            -1.3569e-005    1.2484e-008     -2.5874e-009   
  -0.55           -1.4415e-005    2.7891e-008     -1.4052e-009   
  -0.6            -1.5216e-005    1.1539e-008     1.8447e-009    
  -0.65           -1.5904e-005    -9.792e-009     1.409e-010     
  -0.7            -1.6483e-005    1.5243e-008     -2.3355e-009   
  -0.75           -1.7048e-005    1.1346e-008     2.1601e-009    
  -0.8            -1.7542e-005    -2.0749e-008    1.4201e-009    
  -0.85           -1.7969e-005    -2.7822e-008    2.3949e-009    
  -0.9            -1.8327e-005    -1.3295e-008    -7.048e-010    
  -0.95           -1.8647e-005    7.606e-009      -1.4107e-009   
  -1              -1.8992e-005    1.0241e-008     1.5018e-009    
  -1.05           -1.9257e-005    -1.5737e-008    1.5775e-009    
  -1.1            -1.9494e-005    -2.7822e-008    1.3225e-009    
  -1.15           -1.97e-005      -1.3239e-008    -5.374e-010    
  -1.2            -1.9879e-005    2.0511e-008     -1.5015e-009   
  -1.25           -2.0102e-005    9.484e-009      1.1295e-009    
  -1.3            -2.0277e-005    -2.7129e-008    2.2831e-009    
  -1.35           -2.0422e-005    -1.3235e-008    -7.746e-010    
  -1.4            -2.0556e-005    7.878e-009      -1.4165e-009   
  -1.45           -2.0754e-005    1.0731e-008     1.5704e-009    
  -1.5            -2.0878e-005    -1.4105e-008    1.5049e-009    
  -1.55           -2.0999e-005    -2.8093e-008    2.5234e-009    
  -1.6            -2.111e-005     -1.3336e-008    -6.091e-010    
  -1.65           -2.1211e-005    6.844e-009      -1.4074e-009   
  -1.7            -2.1382e-005    9.673e-009      1.4201e-009    
  -1.75           -2.148e-005     -1.8215e-008    1.6951e-009    
  -1.8            -2.1596e-005    -2.7104e-008    1.319e-009     
  -1.85           -2.1683e-005    -1.2885e-008    -4.395e-010    
  -1.9            -2.176e-005     1.9364e-008     -1.577e-009    
  -1.95           -2.1892e-005    1.028e-008      1.0568e-009    
  -2              -2.2003e-005    -2.7918e-008    2.4341e-009    
  -2.05           -2.2079e-005    -1.3289e-008    -6.753e-010    
  -2.1            -2.2155e-005    7.345e-009      -1.4102e-009   
  -2.15           -2.2309e-005    9.327e-009      1.4869e-009    
  -2.2            -2.2387e-005    -1.6279e-008    1.6072e-009    
  -2.25           -2.244e-005     -1.0736e-008    -1.1063e-009   
  -2.3            -2.2517e-005    2.9355e-008     -1.4188e-009   
  -2.35           -2.2675e-005    1.044e-008      1.689e-009     
  -2.4            -2.2747e-005    -1.1541e-008    2.816e-010     
  -2.45           -2.2773e-005    1.2971e-008     -2.5407e-009   
  -2.5            -2.2877e-005    1.2462e-008     3.985e-010     
  -2.55           -2.2989e-005    -1.8754e-008    1.5912e-009    
  -2.6            -2.3041e-005    -1.0659e-008    -1.1072e-009   
  -2.65           -2.3111e-005    2.9251e-008     -1.4187e-009   
  -2.7            -2.3253e-005    1.1506e-008     1.6985e-009    
  -2.75           -2.3322e-005    -1.1342e-008    2.791e-010     
  -2.8            -2.3344e-005    1.3173e-008     -2.5264e-009   
  -2.85           -2.3439e-005    1.2569e-008     4.088e-010     
  -2.9            -2.3547e-005    -1.8946e-008    1.5839e-009    
  -2.95           -2.3622e-005    -2.7684e-008    1.3229e-009    
  -3              -2.3679e-005    -1.3124e-008    -5.363e-010    
  -3.05           -2.3728e-005    2.0506e-008     -1.5064e-009   
  -3.1            -2.3842e-005    9.47e-009       1.1292e-009    
  -3.15           -2.3916e-005    -2.7238e-008    2.2893e-009    
  -3.2            -2.3973e-005    -1.2985e-008    -7.682e-010    
  -3.25           -2.402e-005     8.033e-009      -1.4177e-009   
  -3.3            -2.416e-005     1.0928e-008     1.5629e-009    
  -3.35           -2.4211e-005    -1.3911e-008    1.5037e-009    
  -3.4            -2.428e-005     -2.7805e-008    2.5314e-009    
  -3.45           -2.4336e-005    -1.2943e-008    -6.043e-010    
  -3.5            -2.4373e-005    7.246e-009      -1.4104e-009   
  -3.55           -2.4504e-005    1.0329e-008     1.4154e-009    
  -3.6            -2.4556e-005    -1.7349e-008    1.6969e-009    
  -3.65           -2.4632e-005    -2.6059e-008    1.3217e-009    
  -3.7            -2.4691e-005    -1.9842e-008    1.8298e-009    
  -3.75           -2.4768e-005    -1.6638e-008    2.6502e-009    
  -3.8            -2.4823e-005    -2.1535e-008    1.9687e-009    
  -3.85           -2.4903e-005    -1.4803e-008    2.7409e-009    
  -3.9            -2.496e-005     -1.54e-008      1.8645e-009    
  -3.95           -2.5039e-005    -1.4672e-008    2.6839e-009    
  -4              -2.5098e-005    -1.3995e-008    1.7684e-009    
  -4.05           -2.5172e-005    -1.3692e-008    2.6108e-009    
  -4.1            -2.5223e-005    -1.2072e-008    1.6782e-009    
  -4.15           -2.5303e-005    -1.1697e-008    2.5331e-009    
