! VERSION = 6.00
BEGIN_HEADER
 ICCAP_INPUTS
  VG         V  B GROUND SMU4 0.001 LIN        1    0          -5         101  -0.05     
  VS         V  E GROUND SMU2 0.1 CON        0
  VB         V  C GROUND SMU3 0.1 LIN        3    0          5          3    2.5       
  VD         V  S GROUND SMU1 0.1 LIN        2    -0.1       -5         2    -4.9      
 ICCAP_OUTPUTS
  IG         I  B GROUND SMU4 B
  ID         I  S GROUND SMU1 B
  IB         I  C GROUND SMU3 B
END_HEADER

BEGIN_DB
 ICCAP_VAR VS         0              
 ICCAP_VAR VB         0              
 ICCAP_VAR VD         -0.1           

 #VG              IG              ID              IB             
  0               7.779e-010      7.985e-010      2.7685e-008    
  -0.05           9.238e-010      2.3392e-009     -8.058e-009    
  -0.1            -1.6113e-009    1.7885e-009     1.1819e-008    
  -0.15           -1.8212e-009    -1.5212e-009    6.952e-009     
  -0.2            -4.474e-010     -2.2516e-009    -1.3199e-008   
  -0.25           -6.624e-010     -2.2518e-009    -1.2639e-008   
  -0.3            2.35e-009       -1.559e-009     -2.1305e-008   
  -0.35           1.3824e-009     2.1098e-009     -6.401e-009    
  -0.4            1.5661e-009     1.8002e-009     1.1096e-008    
  -0.45           -1.231e-010     1.8392e-009     1.1018e-008    
  -0.5            -1.4902e-009    1.982e-010      2.5193e-008    
  -0.55           -1.4057e-009    -2.9751e-009    7.985e-009     
  -0.6            -1.3942e-009    -8.2613e-009    8.984e-009     
  -0.65           -2.2675e-009    -2.2283e-008    -2.502e-008    
  -0.7            -1.5994e-009    -4.9746e-008    3.813e-009     
  -0.75           -1.3903e-009    -9.7779e-008    6.986e-009     
  -0.8            8.462e-010      -1.6991e-007    -1.8453e-008   
  -0.85           -1.4605e-009    -2.7177e-007    1.3858e-008    
  -0.9            -1.398e-009     -3.9842e-007    8.384e-009     
  -0.95           -2.6716e-009    -5.4305e-007    1.2276e-008    
  -1              -2.216e-009     -7.0284e-007    1.4e-009       
  -1.05           -1.5661e-009    -8.7163e-007    4.26e-009      
  -1.1            -1.3929e-009    -1.04559e-006   7.276e-009     
  -1.15           -2.7059e-009    -1.2243e-006    -1.8957e-008   
  -1.2            -7.984e-010     -1.4024e-006    -1.312e-008    
  -1.25           1.6693e-009     -1.5808e-006    -1.7413e-008   
  -1.3            1.3164e-009     -1.7521e-006    -8.873e-009    
  -1.35           2.8577e-009     -1.9246e-006    -8.849e-009    
  -1.4            -1.3795e-009    -2.0866e-006    2.6678e-008    
  -1.45           -2.397e-009     -2.2525e-006    1.5164e-008    
  -1.5            -1.711e-009     -2.4159e-006    3.24e-009      
  -1.55           -1.3974e-009    -2.5736e-006    5.932e-009     
  -1.6            -1.3965e-009    -2.7284e-006    9.022e-009     
  -1.65           -2.5587e-009    -2.8784e-006    1.4036e-008    
  -1.7            -1.9374e-009    -3.0293e-006    1.502e-009     
  -1.75           -1.4381e-009    -3.1747e-006    4.846e-009     
  -1.8            -1.4002e-009    -3.317e-006     8.522e-009     
  -1.85           -2.6556e-009    -3.458e-006     1.2425e-008    
  -1.9            -2.1504e-009    -3.5983e-006    1.355e-009     
  -1.95           -1.5305e-009    -3.7313e-006    4.69e-009      
  -2              -1.3942e-009    -3.8648e-006    7.572e-009     
  -2.05           -1.3727e-009    -3.9946e-006    1.1161e-008    
  -2.1            -2.3888e-009    -4.1219e-006    1.5346e-008    
  -2.15           -1.6898e-009    -4.2491e-006    3.076e-009     
  -2.2            -1.4009e-009    -4.3694e-006    6.153e-009     
  -2.25           -1.3978e-009    -4.494e-006     9.383e-009     
  -2.3            -2.5512e-009    -4.6117e-006    1.3603e-008    
  -2.35           -1.9014e-009    -4.7323e-006    2.233e-009     
  -2.4            -1.4366e-009    -4.8476e-006    5.473e-009     
  -2.45           -1.4049e-009    -4.9615e-006    8.515e-009     
  -2.5            -2.6545e-009    -5.073e-006     1.2619e-008    
  -2.55           -2.1302e-009    -5.1853e-006    1.483e-009     
  -2.6            -1.5206e-009    -5.2943e-006    4.597e-009     
  -2.65           -1.3965e-009    -5.4017e-006    7.457e-009     
  -2.7            -1.3682e-009    -5.5069e-006    1.1439e-008    
  -2.75           -2.3683e-009    -5.61e-006      1.5401e-008    
  -2.8            -1.6795e-009    -5.7156e-006    3.383e-009     
  -2.85           -1.4002e-009    -5.8135e-006    6.366e-009     
  -2.9            -1.3982e-009    -5.9143e-006    9.512e-009     
  -2.95           -2.5477e-009    -6.0136e-006    1.3643e-008    
  -3              -1.8937e-009    -6.1142e-006    1.959e-009     
  -3.05           -1.4374e-009    -6.2099e-006    5.152e-009     
  -3.1            -1.4061e-009    -6.3045e-006    8.56e-009      
  -3.15           -2.6539e-009    -6.3946e-006    1.2626e-008    
  -3.2            -2.1381e-009    -6.4916e-006    1.477e-009     
  -3.25           -1.5257e-009    -6.5831e-006    4.592e-009     
  -3.3            -1.3968e-009    -6.6691e-006    7.671e-009     
  -3.35           -2.7063e-009    -6.7586e-006    1.1435e-008    
  -3.4            1.8523e-009     -6.8521e-006    -2.0596e-008   
  -3.45           1.3462e-009     -6.9332e-006    -8.545e-009    
  -3.5            2.8634e-009     -7.0224e-006    -8.243e-009    
  -3.55           -1.3953e-009    -7.1054e-006    2.849e-008     
  -3.6            -2.5172e-009    -7.1868e-006    1.4043e-008    
  -3.65           -1.8691e-009    -7.2747e-006    2.184e-009     
  -3.7            -1.4303e-009    -7.3565e-006    5.361e-009     
  -3.75           -1.4029e-009    -7.4348e-006    8.676e-009     
  -3.8            -2.6411e-009    -7.5128e-006    1.2788e-008    
  -3.85           -2.1026e-009    -7.5939e-006    1.474e-009     
  -3.9            -1.5092e-009    -7.6725e-006    4.73e-009      
  -3.95           -1.4018e-009    -7.7533e-006    7.892e-009     
  -4              -2.7016e-009    -7.8258e-006    1.1675e-008    
  -4.05           1.8148e-009     -7.9069e-006    -1.9876e-008   
  -4.1            1.3366e-009     -7.9766e-006    -8.596e-009    
  -4.15           2.8615e-009     -8.0536e-006    -8.535e-009    
  -4.2            -1.3937e-009    -8.12e-006      2.8362e-008    
  -4.25           -2.4991e-009    -8.1929e-006    1.4008e-008    
  -4.3            -1.8298e-009    -8.2669e-006    2.382e-009     
  -4.35           -1.4217e-009    -8.3371e-006    5.452e-009     
  -4.4            -1.4038e-009    -8.4062e-006    8.807e-009     
  -4.45           -2.6295e-009    -8.4751e-006    1.2894e-008    
  -4.5            -2.0727e-009    -8.545e-006     1.511e-009     
  -4.55           -1.4941e-009    -8.6109e-006    5.038e-009     
  -4.6            -1.4013e-009    -8.6775e-006    8.024e-009     
  -4.65           -2.6964e-009    -8.7433e-006    1.2276e-008    
  -4.7            1.7726e-009     -8.8099e-006    -1.8995e-008   
  -4.75           1.329e-009      -8.873e-006     -8.636e-009    
  -4.8            2.8638e-009     -8.9367e-006    -8.224e-009    
  -4.85           -1.3879e-009    -8.9994e-006    2.8032e-008    
  -4.9            -2.4805e-009    -9.0632e-006    1.4989e-008    
  -4.95           -1.7981e-009    -9.1251e-006    2.701e-009     
  -5              -1.4157e-009    -9.1867e-006    5.35e-009      
END_DB

BEGIN_DB
 ICCAP_VAR VS         0              
 ICCAP_VAR VB         0              
 ICCAP_VAR VD         -5             

 #VG              IG              ID              IB             
  0               -1.3871e-009    -1.3464e-009    1.276e-008     
  -0.05           2.3396e-009     -1.5661e-009    -2.1156e-008   
  -0.1            1.3953e-009     2.1161e-009     -6.28e-009     
  -0.15           -1.3842e-009    1.3114e-009     2.9068e-008    
  -0.2            -1.3768e-009    -2.1041e-009    1.1234e-008    
  -0.25           1.3193e-009     -1.3248e-009    -2.6592e-008   
  -0.3            1.308e-009      4.57e-011       -8.506e-009    
  -0.35           2.8556e-009     -3.302e-010     -1.0689e-008   
  -0.4            -1.3867e-009    2.702e-010      2.8731e-008    
  -0.45           -1.3894e-009    -3.3221e-009    1.1906e-008    
  -0.5            -1.895e-009     -1.1844e-008    -8.451e-009    
  -0.55           -8.377e-010     -2.8045e-008    -1.2623e-008   
  -0.6            1.6329e-009     -6.4911e-008    -1.5441e-008   
  -0.65           2.8561e-009     -1.3256e-007    -1.0862e-008   
  -0.7            2.185e-009      -2.5372e-007    1.3271e-008    
  -0.75           1.0305e-009     -4.4042e-007    1.5966e-008    
  -0.8            1.4286e-009     -7.1035e-007    1.8474e-008    
  -0.85           1.8603e-009     -1.06166e-006   2.3978e-008    
  -0.9            -2.358e-010     -1.5028e-006    1.1433e-008    
  -0.95           2.086e-010      -2.0487e-006    3.2744e-008    
  -1              6.736e-010      -2.6953e-006    3.9793e-008    
  -1.05           1.0595e-009     -3.4337e-006    4.2671e-008    
  -1.1            1.465e-009      -4.2759e-006    4.8676e-008    
  -1.15           1.891e-009      -5.1776e-006    5.6307e-008    
  -1.2            2.2964e-009     -6.1426e-006    5.9292e-008    
  -1.25           2.6279e-009     -7.2015e-006    6.4944e-008    
  -1.3            2.8277e-009     -8.3306e-006    6.9276e-008    
  -1.35           2.8547e-009     -9.5157e-006    6.7407e-008    
  -1.4            2.5849e-009     -1.07684e-005   7.0729e-008    
  -1.45           -1.9909e-009    -1.2058e-005    9.3356e-008    
  -1.5            -2.3381e-009    -1.3428e-005    7.1151e-008    
  -1.55           -1.454e-010     -1.4843e-005    1.08806e-007   
  -1.6            -2.0527e-009    -1.63e-005      1.03053e-007   
  -1.65           -1.4805e-009    -1.7792e-005    9.513e-008     
  -1.7            -1.3849e-009    -1.9332e-005    1.0067e-007    
  -1.75           -2.6695e-009    -2.0913e-005    1.0638e-007    
  -1.8            -2.2886e-009    -2.2562e-005    9.709e-008     
  -1.85           -1.6301e-009    -2.4244e-005    1.0093e-007    
  -1.9            -1.3848e-009    -2.5932e-005    1.0518e-007    
  -1.95           -1.3822e-009    -2.7655e-005    1.0919e-007    
  -2              -2.4972e-009    -2.9416e-005    1.1313e-007    
  -2.05           -1.8695e-009    -3.1215e-005    1.0081e-007    
  -2.1            -1.4246e-009    -3.3041e-005    1.0337e-007    
  -2.15           -1.3913e-009    -3.4874e-005    1.0605e-007    
  -2.2            -2.6254e-009    -3.6741e-005    1.0866e-007    
  -2.25           -2.1296e-009    -3.8643e-005    9.619e-008     
  -2.3            -1.525e-009     -4.0559e-005    9.792e-008     
  -2.35           -1.3883e-009    -4.2492e-005    9.945e-008     
  -2.4            -2.6856e-009    -4.4438e-005    1.0091e-007    
  -2.45           2.3414e-009     -4.648e-005     6.8222e-008    
  -2.5            -1.604e-010     -4.8449e-005    1.094e-007     
  -2.55           -7.029e-010     -5.0459e-005    6.9356e-008    
  -2.6            -1.1031e-009    -5.2489e-005    6.9149e-008    
  -2.65           -1.5103e-009    -5.4499e-005    6.7234e-008    
  -2.7            -1.8734e-009    -5.6584e-005    6.2601e-008    
  -2.75           -2.1413e-009    -5.87e-005      6.2523e-008    
  -2.8            -2.5504e-009    -6.0797e-005    6.0611e-008    
  -2.85           -2.7444e-009    -6.2894e-005    5.8912e-008    
  -2.9            -2.7044e-009    -6.503e-005     6.0707e-008    
  -2.95           -2.4908e-009    -6.7161e-005    6.1217e-008    
  -3              -1.8605e-009    -6.9293e-005    6.0005e-008    
  -3.05           -1.4177e-009    -7.1466e-005    6.0539e-008    
  -3.1            -1.3951e-009    -7.3628e-005    6.1449e-008    
  -3.15           -2.6229e-009    -7.5761e-005    6.2463e-008    
  -3.2            -2.1318e-009    -7.7977e-005    4.8468e-008    
  -3.25           -1.521e-009     -8.0171e-005    4.9345e-008    
  -3.3            -1.3889e-009    -8.2433e-005    5.0356e-008    
  -3.35           -2.6862e-009    -8.4661e-005    5.139e-008     
  -3.4            -2.35e-009      -8.6908e-005    3.839e-008     
  -3.45           -1.6962e-009    -8.9139e-005    3.8619e-008    
  -3.5            -1.3891e-009    -9.1371e-005    3.9569e-008    
  -3.55           -1.3886e-009    -9.3635e-005    4.0799e-008    
  -3.6            -2.5468e-009    -9.5907e-005    4.293e-008     
  -3.65           -1.9446e-009    -9.8143e-005    2.9003e-008    
  -3.7            -1.4416e-009    -0.000100417    3.0802e-008    
  -3.75           -1.3953e-009    -0.000102734    3.2471e-008    
  -3.8            -2.6532e-009    -0.000105041    3.4654e-008    
  -3.85           -2.2026e-009    -0.000107338    2.2081e-008    
  -3.9            -1.5721e-009    -0.000109691    2.3584e-008    
  -3.95           -1.3845e-009    -0.000112008    2.5584e-008    
  -4              1.5934e-009     -0.0001143      2.7687e-008    
  -4.05           2.855e-009      -0.00011655     2.0874e-008    
  -4.1            2.2019e-009     -0.0001189      2.3667e-008    
  -4.15           2.5563e-009     -0.0001212      2.2372e-008    
  -4.2            2.7922e-009     -0.00012355     2.1369e-008    
  -4.25           1.8674e-009     -0.00012592     2.2953e-008    
  -4.3            2.2813e-009     -0.00012821     1.9454e-008    
  -4.35           1.1218e-009     -0.0001306      1.9077e-008    
  -4.4            1.5355e-009     -0.00013298     1.9435e-008    
  -4.45           1.9583e-009     -0.00013535     1.9423e-008    
  -4.5            8.292e-010      -0.0001376      1.9894e-008    
  -4.55           1.2046e-009     -0.00014002     1.5986e-008    
  -4.6            1.6216e-009     -0.0001424      1.6533e-008    
  -4.65           2.0501e-009     -0.00014472     1.6689e-008    
  -4.7            9.009e-010      -0.00014708     1.6728e-008    
  -4.75           1.2822e-009     -0.00014947     1.3945e-008    
  -4.8            1.7084e-009     -0.00015187     1.5837e-008    
  -4.85           2.1299e-009     -0.00015416     1.4044e-008    
  -4.9            9.827e-010      -0.00015655     1.4323e-008    
  -4.95           1.3712e-009     -0.00015894     1.276e-008     
  -5              1.8003e-009     -0.00016129     1.4622e-008    
END_DB

BEGIN_DB
 ICCAP_VAR VS         0              
 ICCAP_VAR VB         2.5            
 ICCAP_VAR VD         -0.1           

 #VG              IG              ID              IB             
  0               -1.3906e-009    -1.4036e-009    1.2412e-008    
  -0.05           2.4226e-009     -1.5336e-009    -2.2751e-008   
  -0.1            1.3242e-009     2.1695e-009     -5.46e-009     
  -0.15           -1.3872e-009    1.2611e-009     2.8749e-008    
  -0.2            -1.3144e-009    -2.1342e-009    1.0672e-008    
  -0.25           -1.482e-009     -1.9924e-009    -1.1331e-008   
  -0.3            1.305e-009      -1.378e-009     -2.6268e-008   
  -0.35           2.8543e-009     8.8e-011        -9.484e-009    
  -0.4            -1.3853e-009    1.289e-009      2.8829e-008    
  -0.45           -1.3419e-009    -2.1154e-009    1.1254e-008    
  -0.5            1.756e-010      -1.9554e-009    -1.0562e-008   
  -0.55           1.652e-009      -1.0045e-009    -2.1751e-008   
  -0.6            1.7638e-009     1.6049e-009     -8.777e-009    
  -0.65           3.574e-010      2.2875e-009     1.2614e-008    
  -0.7            5.526e-010      2.3259e-009     1.256e-008     
  -0.75           7.347e-010      2.3409e-009     1.1136e-008    
  -0.8            -1.3734e-009    1.6233e-009     1.8517e-008    
  -0.85           -2.6318e-009    2.702e-010      1.539e-008     
  -0.9            -2.0304e-009    -1.2733e-009    1.268e-009     
  -0.95           -8.193e-010     -2.3792e-009    -1.1778e-008   
  -1              2.1297e-009     -2.2231e-009    -1.7326e-008   
  -1.05           1.7802e-009     -1.9284e-009    -7.713e-009    
  -1.1            1.5138e-009     -8.2697e-009    -8.999e-009    
  -1.15           -2.1575e-009    -2.5728e-008    -2.2814e-008   
  -1.2            -1.5474e-009    -6.0783e-008    4.646e-009     
  -1.25           -1.6748e-009    -1.1961e-007    -5.827e-009    
  -1.3            -1.3899e-009    -2.1369e-007    6.989e-009     
  -1.35           -1.3865e-009    -3.3252e-007    1.027e-008     
  -1.4            -2.5183e-009    -4.734e-007     1.3994e-008    
  -1.45           -1.914e-009     -6.3017e-007    1.654e-009     
  -1.5            -1.4395e-009    -7.9384e-007    5.523e-009     
  -1.55           -1.3936e-009    -9.6243e-007    8.909e-009     
  -1.6            -2.6362e-009    -1.13181e-006   1.2233e-008    
  -1.65           -2.2764e-009    -1.3033e-006    -1.8141e-008   
  -1.7            2.3347e-009     -1.4709e-006    -2.6138e-008   
  -1.75           1.5594e-009     -1.6291e-006    -6.284e-009    
  -1.8            2.8293e-009     -1.7871e-006    -8.389e-009    
  -1.85           9.115e-010      -1.94e-006      1.1715e-008    
  -1.9            -1.4409e-009    -2.0899e-006    1.2893e-008    
  -1.95           -1.3931e-009    -2.2378e-006    8.707e-009     
  -2              -2.6382e-009    -2.3802e-006    1.2547e-008    
  -2.05           -2.1697e-009    -2.5214e-006    1.226e-009     
  -2.1            -1.5581e-009    -2.6589e-006    4.461e-009     
  -2.15           -1.3897e-009    -2.7928e-006    7.623e-009     
  -2.2            -2.6944e-009    -2.9229e-006    1.1144e-008    
  -2.25           1.9436e-009     -3.0558e-006    -2.2468e-008   
  -2.3            1.3575e-009     -3.1808e-006    -8.59e-009     
  -2.35           2.8509e-009     -3.3048e-006    -8.027e-009    
  -2.4            2.7833e-009     -3.4251e-006    -1.82e-010     
  -2.45           1.4893e-009     -3.5456e-006    9.39e-009      
  -2.5            -1.3847e-009    -3.6606e-006    2.8357e-008    
  -2.55           -2.4778e-009    -3.778e-006     1.4771e-008    
  -2.6            -1.8406e-009    -3.8942e-006    2.64e-009      
  -2.65           -1.4166e-009    -4.0063e-006    5.679e-009     
  -2.7            -1.3978e-009    -4.116e-006     8.694e-009     
  -2.75           -2.624e-009     -4.2237e-006    1.283e-008     
  -2.8            -2.1269e-009    -4.3321e-006    1.319e-009     
  -2.85           -1.5216e-009    -4.4381e-006    4.783e-009     
  -2.9            -1.3903e-009    -4.5413e-006    8.108e-009     
  -2.95           -2.6882e-009    -4.6428e-006    1.1428e-008    
  -3              1.8844e-009     -4.747e-006     -2.1318e-008   
  -3.05           1.3447e-009     -4.8443e-006    -8.783e-009    
  -3.1            2.8524e-009     -4.943e-006     -8.052e-009    
  -3.15           -1.3951e-009    -5.0371e-006    2.9221e-008    
  -3.2            -2.5531e-009    -5.1333e-006    1.3682e-008    
  -3.25           -1.9539e-009    -5.2297e-006    1.621e-009     
  -3.3            -1.4503e-009    -5.3215e-006    5.056e-009     
  -3.35           -1.3967e-009    -5.4138e-006    8.687e-009     
  -3.4            -2.6539e-009    -5.5031e-006    1.2147e-008    
  -3.45           -2.2447e-009    -5.5947e-006    1.156e-009     
  -3.5            -1.5977e-009    -5.6797e-006    4.252e-009     
  -3.55           -1.3874e-009    -5.7688e-006    7.296e-009     
  -3.6            -1.3838e-009    -5.8551e-006    1.0558e-008    
  -3.65           -2.4841e-009    -5.9379e-006    1.4664e-008    
  -3.7            -1.8399e-009    -6.0239e-006    2.359e-009     
  -3.75           -1.4145e-009    -6.108e-006     5.687e-009     
  -3.8            -1.3958e-009    -6.1891e-006    8.928e-009     
  -3.85           -2.6269e-009    -6.2694e-006    1.2437e-008    
  -3.9            -2.1265e-009    -6.3511e-006    1.478e-009     
  -3.95           -1.5296e-009    -6.4301e-006    4.842e-009     
  -4              -1.3882e-009    -6.5053e-006    7.974e-009     
  -4.05           -2.6899e-009    -6.5821e-006    1.146e-008     
  -4.1            -4.248e-010     -6.6608e-006    -1.2166e-008   
  -4.15           -9.113e-010     -6.7361e-006    -1.2822e-008   
