! VERSION = 6.00
BEGIN_HEADER
 ICCAP_INPUTS
  VG         V  B GROUND SMU4 0.001 LIN        1    0          -5         101  -0.05     
  VS         V  E GROUND SMU3 0.1 CON        0
  VB         V  C GROUND SMU1 0.1 LIN        3    0          5          3    2.5       
  VD         V  S GROUND SMU2 0.1 LIN        2    -0.1       -5         2    -4.9      
 ICCAP_OUTPUTS
  IG         I  B GROUND SMU4 B
  ID         I  S GROUND SMU2 B
  IB         I  C GROUND SMU1 B
END_HEADER

BEGIN_DB
 ICCAP_VAR VS         0              
 ICCAP_VAR VB         0              
 ICCAP_VAR VD         -0.1           

 #VG              IG              ID              IB             
  0               -1.568e-010     -2.1027e-009    -3.427e-009    
  -0.05           8.345e-010      2.1978e-009     -3.461e-009    
  -0.1            1.4663e-009     -2.4406e-009    -1.53e-009     
  -0.15           -1.4294e-009    1.3757e-009     5.4177e-009    
  -0.2            -6.684e-010     -2.3361e-009    2.07e-011      
  -0.25           8.274e-010      2.1982e-009     -6.3591e-009   
  -0.3            -9.758e-010     -2.0736e-009    3.533e-009     
  -0.35           7.378e-010      2.1888e-009     -5.8425e-009   
  -0.4            -8.517e-010     -2.4468e-009    4.3695e-009    
  -0.45           1.4145e-009     -2.4797e-009    -3.9082e-009   
  -0.5            7.023e-010      -2.1374e-009    1.49e-009      
  -0.55           -1.4766e-009    -1.2585e-008    -4.828e-009    
  -0.6            -6.711e-010     -3.3611e-008    -3.834e-010    
  -0.65           1.4198e-009     -9.6065e-008    -4.365e-009    
  -0.7            -1.2172e-009    -1.8855e-007    5.0848e-009    
  -0.75           1.4932e-009     -4.1911e-007    -6.3532e-009   
  -0.8            6.37e-010       -7.6833e-007    2.6482e-009    
  -0.85           -1.4845e-009    -1.1206e-006    2.4346e-009    
  -0.9            -6.372e-010     -1.5277e-006    -6.254e-010    
  -0.95           1.4329e-009     -2.139e-006     -4.5347e-009   
  -1              8.092e-010      -2.7886e-006    1.2947e-009    
  -1.05           -1.4906e-009    -3.2989e-006    5.3435e-009    
  -1.1            -6.127e-010     -3.8156e-006    -8.155e-010    
  -1.15           1.4403e-009     -4.5003e-006    -4.667e-009    
  -1.2            7.84e-010       -5.1706e-006    1.4658e-009    
  -1.25           -1.3905e-009    -5.6765e-006    5.4112e-009    
  -1.3            -9.33e-010      -6.1538e-006    7.871e-010     
  -1.35           1.4498e-009     -6.8327e-006    -3.2484e-009   
  -1.4            7.583e-010      -7.4456e-006    1.6403e-009    
  -1.45           -1.4035e-009    -7.9148e-006    5.4605e-009    
  -1.5            -8.933e-010     -8.3521e-006    6.564e-010     
  -1.55           1.4574e-009     -8.9718e-006    -3.3491e-009   
  -1.6            7.326e-010      -9.53e-006      1.8178e-009    
  -1.65           -1.4177e-009    -9.9631e-006    5.5059e-009    
  -1.7            -8.616e-010     -1.03567e-005   5.238e-010     
  -1.75           1.4668e-009     -1.09265e-005   -3.4729e-009   
  -1.8            -1.4894e-009    -1.128e-005     2.0184e-009    
  -1.85           1.4744e-009     -1.188e-005     -2.8776e-009   
  -1.9            -1.4425e-009    -1.2272e-005    5.5881e-009    
  -1.95           -7.794e-010     -1.2626e-005    1.831e-010     
  -2              1.4941e-009     -1.3132e-005    -3.8487e-009   
  -2.05           -1.3934e-009    -1.3539e-005    5.423e-009     
  -2.1            -9.292e-010     -1.3878e-005    7.809e-010     
  -2.15           1.4483e-009     -1.4355e-005    -3.2535e-009   
  -2.2            7.563e-010      -1.4782e-005    1.6526e-009    
  -2.25           -1.4086e-009    -1.512e-005     5.4633e-009    
  -2.3            -8.937e-010     -1.5426e-005    6.441e-010     
  -2.35           1.4568e-009     -1.5875e-005    -3.363e-009    
  -2.4            7.307e-010      -1.6272e-005    1.839e-009     
  -2.45           -1.421e-009     -1.6584e-005    5.512e-009     
  -2.5            -8.582e-010     -1.6871e-005    5.07e-010      
  -2.55           1.4665e-009     -1.7285e-005    -3.4751e-009   
  -2.6            7.057e-010      -1.7657e-005    2.0688e-009    
  -2.65           -1.4285e-009    -1.7944e-005    5.5429e-009    
  -2.7            -8.299e-010     -1.8214e-005    3.909e-010     
  -2.75           1.4792e-009     -1.8598e-005    -3.6083e-009   
  -2.8            6.773e-010      -1.8943e-005    2.2945e-009    
  -2.85           -1.4389e-009    -1.9219e-005    5.5686e-009    
  -2.9            -8.026e-010     -1.9465e-005    2.715e-010     
  -2.95           1.4889e-009     -1.9826e-005    -3.7361e-009   
  -3              6.525e-010      -2.0151e-005    2.5086e-009    
  -3.05           -1.447e-009     -2.0403e-005    5.5848e-009    
  -3.1            -7.753e-010     -2.064e-005     1.581e-010     
  -3.15           1.4954e-009     -2.0978e-005    -3.8786e-009   
  -3.2            -1.3946e-009    -2.1249e-005    5.4305e-009    
  -3.25           -9.169e-010     -2.1478e-005    7.467e-010     
  -3.3            1.4518e-009     -2.1804e-005    -3.2751e-009   
  -3.35           7.508e-010      -2.2091e-005    1.7042e-009    
  -3.4            -1.4113e-009    -2.2317e-005    5.4776e-009    
  -3.45           -8.87e-010      -2.2533e-005    6.088e-010     
  -3.5            1.4591e-009     -2.2838e-005    -3.3903e-009   
  -3.55           7.236e-010      -2.3113e-005    1.8917e-009    
  -3.6            -1.4219e-009    -2.333e-005     5.5201e-009    
  -3.65           -8.543e-010     -2.3529e-005    4.826e-010     
  -3.7            1.4699e-009     -2.3817e-005    -3.5099e-009   
  -3.75           6.98e-010       -2.4082e-005    2.1235e-009    
  -3.8            -1.4331e-009    -2.428e-005     5.5461e-009    
  -3.85           -8.225e-010     -2.4466e-005    3.576e-010     
  -3.9            1.4817e-009     -2.4739e-005    -3.653e-009    
  -3.95           6.728e-010      -2.4983e-005    2.3477e-009    
  -4              -1.4394e-009    -2.5174e-005    5.5737e-009    
  -4.05           -7.946e-010     -2.5355e-005    2.408e-010     
  -4.1            1.4923e-009     -2.5615e-005    -3.7719e-009   
  -4.15           6.456e-010      -2.5843e-005    2.5772e-009    
  -4.2            -1.4483e-009    -2.6026e-005    5.5882e-009    
  -4.25           -7.676e-010     -2.6194e-005    1.173e-010     
  -4.3            1.4962e-009     -2.6438e-005    -3.9144e-009   
  -4.35           -1.3989e-009    -2.663e-005     5.4504e-009    
  -4.4            -9.087e-010     -2.6796e-005    7.138e-010     
  -4.45           1.4507e-009     -2.7033e-005    -3.3104e-009   
  -4.5            7.428e-010      -2.7237e-005    1.7259e-009    
  -4.55           -1.4142e-009    -2.7402e-005    5.4835e-009    
  -4.6            -8.768e-010     -2.7564e-005    5.787e-010     
  -4.65           1.4611e-009     -2.7789e-005    -3.4208e-009   
  -4.7            7.195e-010      -2.7985e-005    1.9398e-009    
  -4.75           -1.4242e-009    -2.8139e-005    5.5227e-009    
  -4.8            -8.437e-010     -2.8287e-005    4.546e-010     
  -4.85           1.4744e-009     -2.8497e-005    -3.5465e-009   
  -4.9            6.927e-010      -2.8682e-005    2.1695e-009    
  -4.95           -1.4334e-009    -2.8829e-005    5.5504e-009    
  -5              -8.149e-010     -2.8967e-005    3.289e-010     
END_DB

BEGIN_DB
 ICCAP_VAR VS         0              
 ICCAP_VAR VB         0              
 ICCAP_VAR VD         -5             

 #VG              IG              ID              IB             
  0               1.14e-011       -2.0021e-009    -4.12e-009     
  -0.05           9.46e-010       2.073e-009      -3.905e-009    
  -0.1            8.656e-010      2.1469e-009     -3.484e-009    
  -0.15           1.4572e-009     -2.4641e-009    -1.3555e-009   
  -0.2            5.773e-010      2.3443e-009     2.4607e-009    
  -0.25           -1.185e-009     -2.0273e-009    3.8373e-009    
  -0.3            1.421e-009      -1.2249e-009    -7.6147e-009   
  -0.35           -1.2301e-009    -1.9369e-009    5.7381e-009    
  -0.4            1.4083e-009     -6.1442e-009    -7.185e-009    
  -0.45           5.493e-010      -1.787e-008     3.6802e-009    
  -0.5            -1.48e-009      -5.0905e-008    6.6519e-009    
  -0.55           1.3953e-009     -1.4119e-007    5.874e-009     
  -0.6            8.969e-010      -3.6816e-007    5.7839e-009    
  -0.65           -1.4469e-009    -6.8031e-007    1.446e-008     
  -0.7            1.4958e-009     -1.3584e-006    2.4667e-008    
  -0.75           7.521e-010      -2.2933e-006    3.2658e-008    
  -0.8            -1.4844e-009    -3.3216e-006    4.8829e-008    
  -0.85           -6.946e-010     -4.5599e-006    5.1745e-008    
  -0.9            1.5128e-009     -6.6653e-006    6.4642e-008    
  -0.95           7.365e-010      -9.1396e-006    9.9097e-008    
  -1              -1.4255e-009    -1.0953e-005    1.1921e-007    
  -1.05           -8.39e-010      -1.3539e-005    1.3038e-007    
  -1.1            1.456e-009      -1.7111e-005    1.4704e-007    
  -1.15           8.84e-010       -2.0938e-005    1.819e-007     
  -1.2            -1.4358e-009    -2.4106e-005    2.0584e-007    
  -1.25           -8.101e-010     -2.7169e-005    2.1303e-007    
  -1.3            1.466e-009      -3.1953e-005    2.2786e-007    
  -1.35           8.512e-010      -3.6871e-005    2.5905e-007    
  -1.4            -1.4493e-009    -4.0742e-005    2.7867e-007    
  -1.45           -7.83e-010      -4.4501e-005    2.8214e-007    
  -1.5            1.4712e-009     -5.022e-005     2.9158e-007    
  -1.55           8.2e-010        -5.598e-005     3.1526e-007    
  -1.6            -1.4586e-009    -6.0481e-005    3.2809e-007    
  -1.65           -7.605e-010     -6.4837e-005    3.2669e-007    
  -1.7            1.4792e-009     -7.1289e-005    3.2955e-007    
  -1.75           7.884e-010      -7.7729e-005    3.4585e-007    
  -1.8            -1.474e-009     -8.2717e-005    3.5211e-007    
  -1.85           -7.359e-010     -8.7614e-005    3.4562e-007    
  -1.9            1.4866e-009     -9.4693e-005    3.4296e-007    
  -1.95           7.59e-010       -0.000101684    3.5206e-007    
  -2              -1.4856e-009    -0.00010706     3.515e-007     
  -2.05           -7.184e-010     -0.000112289    3.4092e-007    
  -2.1            -1.0109e-009    -0.00011864     3.3438e-007    
  -2.15           1.395e-009      -0.00012627     3.2918e-007    
  -2.2            1.0179e-009     -0.00013375     3.3033e-007    
  -2.25           -1.4128e-009    -0.00013998     3.2446e-007    
  -2.3            -9.659e-010     -0.00014512     3.1062e-007    
  -2.35           1.4056e-009     -0.00015322     2.994e-007     
  -2.4            9.738e-010      -0.00016106     2.9713e-007    
  -2.45           -1.4241e-009    -0.00016746     2.8845e-007    
  -2.5            -9.308e-010     -0.00017293     2.7347e-007    
  -2.55           1.4168e-009     -0.00018137     2.6072e-007    
  -2.6            9.357e-010      -0.00018952     2.5694e-007    
  -2.65           -1.4321e-009    -0.00019603     2.4746e-007    
  -2.7            -8.943e-010     -0.00020171     2.3161e-007    
  -2.75           1.427e-009      -0.00021047     2.1824e-007    
  -2.8            9.029e-010      -0.00021893     2.1396e-007    
  -2.85           -1.441e-009     -0.00022556     2.0433e-007    
  -2.9            -8.581e-010     -0.00023148     1.8905e-007    
  -2.95           1.4355e-009     -0.00024045     1.7606e-007    
  -3              8.685e-010      -0.00024913     1.7259e-007    
  -3.05           -1.451e-009     -0.00025581     1.6419e-007    
  -3.1            -8.281e-010     -0.00026202     1.4945e-007    
  -3.15           1.4479e-009     -0.00027118     1.3737e-007    
  -3.2            8.389e-010      -0.00028002     1.3566e-007    
  -3.25           -1.4598e-009    -0.00028676     1.2822e-007    
  -3.3            -7.991e-010     -0.00029304     1.144e-007     
  -3.35           1.4596e-009     -0.00030248     1.0361e-007    
  -3.4            8.079e-010      -0.00031143     1.0379e-007    
  -3.45           -7.596e-010     -0.00031696     9.1998e-008    
  -3.5            1.4742e-009     -0.00032633     8.1985e-008    
  -3.55           7.718e-010      -0.0003354      8.3754e-008    
  -3.6            -1.486e-009     -0.00034241     7.9281e-008    
  -3.65           -7.332e-010     -0.00034909     6.6908e-008    
  -3.7            1.4871e-009     -0.00035851     5.8166e-008    
  -3.75           7.442e-010      -0.00036782     6.1968e-008    
  -3.8            -1.4902e-009    -0.0003749      5.8843e-008    
  -3.85           -7.054e-010     -0.00038168     4.7169e-008    
  -3.9            1.4989e-009     -0.00039118     3.9693e-008    
  -3.95           7.161e-010      -0.00040065     4.5817e-008    
  -4              -1.494e-009     -0.00040773     4.3413e-008    
  -4.05           -6.77e-010      -0.00041463     3.2145e-008    
  -4.1            1.5037e-009     -0.00042419     2.5916e-008    
  -4.15           6.858e-010      -0.00043378     3.3867e-008    
  -4.2            -1.3932e-009    -0.00044092     3.1947e-008    
  -4.25           -1.0398e-009    -0.00044766     2.2617e-008    
  -4.3            1.3834e-009     -0.00045746     1.7354e-008    
  -4.35           1.046e-009      -0.00046688     2.3643e-008    
  -4.4            -1.4075e-009    -0.00047472     2.3765e-008    
  -4.45           -9.93e-010      -0.00048093     1.4811e-008    
  -4.5            1.3956e-009     -0.00049086     1.0191e-008    
  -4.55           9.991e-010      -0.00050031     1.73e-008      
  -4.6            -1.4183e-009    -0.00050811     1.7909e-008    
  -4.65           -9.499e-010     -0.00051455     9.381e-009     
  -4.7            6.762e-010      -0.00052559     1.5304e-008    
  -4.75           -1.4007e-009    -0.00053289     1.4858e-008    
  -4.8            7.447e-010      -0.00054239     1.2359e-008    
  -4.85           -1.4929e-009    -0.00054976     1.3262e-008    
  -4.9            -1.4573e-009    -0.00055938     1.2603e-008    
  -4.95           -1.4227e-009    -0.00056693     1.1878e-008    
  -5              -1.4013e-009    -0.00057503     1.1298e-008    
END_DB

BEGIN_DB
 ICCAP_VAR VS         0              
 ICCAP_VAR VB         2.5            
 ICCAP_VAR VD         -0.1           

 #VG              IG              ID              IB             
  0               -1.079e-010     2.2162e-009     4.838e-009     
  -0.05           -1.4266e-009    5.003e-010      8.799e-009     
  -0.1            -8.402e-010     -2.126e-009     5.384e-009     
  -0.15           -9.739e-010     -2.0159e-009    6.853e-009     
  -0.2            -7.129e-010     -2.2475e-009    4.808e-009     
  -0.25           -8.076e-010     -2.1594e-009    5.208e-009     
  -0.3            -9.338e-010     -2.0443e-009    6.387e-009     
  -0.35           -1.4292e-009    2.4011e-009     4.1988e-009    
  -0.4            7.026e-010      2.2794e-009     2.9477e-009    
  -0.45           6.766e-010      2.2739e-009     5.415e-009     
  -0.5            -1.436e-009     3.664e-010      7.172e-009     
  -0.55           -7.626e-010     -2.2058e-009    5.002e-009     
  -0.6            -8.757e-010     -2.0936e-009    5.689e-009     
  -0.65           -1.437e-009     4.008e-010      7.445e-009     
  -0.7            -7.79e-010      -2.1923e-009    5.058e-009     
  -0.75           -8.926e-010     -2.0788e-009    5.877e-009     
  -0.8            -1.4357e-009    4.222e-010      7.734e-009     
  -0.85           -7.966e-010     -2.2044e-009    5.132e-009     
  -0.9            -9.148e-010     -2.1953e-009    6.092e-009     
  -0.95           -1.0705e-009    -2.533e-009     8.115e-009     
  -1              -1.2944e-009    -3.0124e-009    4.998e-009     
  -1.05           6.047e-010      -1.119e-008     4.341e-009     
  -1.1            -1.4076e-009    -4.0826e-008    7.982e-009     
  -1.15           -1.2598e-009    -1.2411e-007    5.683e-009     
  -1.2            -1.4016e-009    -2.7226e-007    5.06e-009      
  -1.25           -1.4352e-009    -5.5506e-007    5.904e-009     
  -1.3            -1.4132e-009    -9.5051e-007    7.853e-009     
  -1.35           8.793e-010      -1.5261e-006    7.959e-009     
  -1.4            -1.4371e-009    -1.9618e-006    5.993e-009     
  -1.45           -1.4074e-009    -2.5458e-006    7.96e-009      
  -1.5            -1.3863e-009    -3.0901e-006    4.971e-009     
  -1.55           -1.4347e-009    -3.6927e-006    5.662e-009     
  -1.6            -1.4153e-009    -4.2909e-006    7.473e-009     
  -1.65           -1.3595e-009    -4.8196e-006    4.896e-009     
  -1.7            -1.4306e-009    -5.392e-006     5.424e-009     
  -1.75           -1.4259e-009    -5.9485e-006    6.923e-009     
  -1.8            -1.326e-009     -6.4293e-006    4.836e-009     
  -1.85           -1.4186e-009    -6.9632e-006    5.229e-009     
  -1.9            -1.4345e-009    -7.4849e-006    6.382e-009     
  -1.95           -1.3947e-009    -7.9753e-006    8.529e-009     
  -2              -1.4051e-009    -8.418e-006     5.081e-009     
  -2.05           -1.4348e-009    -8.8991e-006    5.947e-009     
  -2.1            -1.4061e-009    -9.3579e-006    7.895e-009     
  -2.15           -1.3818e-009    -9.7708e-006    4.979e-009     
  -2.2            -1.4341e-009    -1.02131e-005   5.619e-009     
  -2.25           -1.4179e-009    -1.06464e-005   7.35e-009      
  -2.3            -1.3548e-009    -1.10304e-005   4.889e-009     
  -2.35           -1.3175e-009    -1.1455e-005    3.0737e-009    
  -2.4            -9.553e-010     -1.1869e-005    2.0191e-009    
  -2.45           1.4002e-009     -1.2256e-005    4.2728e-009    
  -2.5            8.243e-010      -1.2688e-005    2.9423e-009    
  -2.55           -1.4174e-009    -1.2983e-005    5.1867e-009    
  -2.6            -6.593e-010     -1.3367e-005    2.209e-010     
  -2.65           1.4083e-009     -1.3727e-005    2.5631e-009    
  -2.7            7.942e-010      -1.4127e-005    2.976e-009     
  -2.75           -1.4247e-009    -1.4403e-005    5.2816e-009    
  -2.8            -6.376e-010     -1.477e-005     -1.1e-012      
  -2.85           1.4178e-009     -1.5098e-005    2.7241e-009    
  -2.9            7.678e-010      -1.5464e-005    3.0125e-009    
  -2.95           -1.4325e-009    -1.5724e-005    5.3951e-009    
  -3              -6.118e-010     -1.6061e-005    -2.025e-010    
  -3.05           1.4275e-009     -1.6369e-005    2.8816e-009    
  -3.1            7.432e-010      -1.6712e-005    3.0479e-009    
  -3.15           -1.3296e-009    -1.6959e-005    5.5095e-009    
  -3.2            -9.228e-010     -1.7276e-005    1.8511e-009    
  -3.25           1.4091e-009     -1.7561e-005    4.2994e-009    
  -3.3            7.982e-010      -1.7881e-005    2.9743e-009    
  -3.35           -1.4235e-009    -1.8113e-005    5.268e-009     
  -3.4            -6.406e-010     -1.8407e-005    4.04e-011      
  -3.45           1.415e-009      -1.8681e-005    2.7085e-009    
  -3.5            7.712e-010      -1.8991e-005    3.0073e-009    
  -3.55           -1.4335e-009    -1.9201e-005    5.3819e-009    
  -3.6            -6.173e-010     -1.9479e-005    -1.824e-010    
  -3.65           1.4259e-009     -1.9735e-005    2.8698e-009    
  -3.7            7.452e-010      -2.0017e-005    3.0413e-009    
  -3.75           -1.3277e-009    -2.0224e-005    5.5023e-009    
  -3.8            -9.279e-010     -2.0478e-005    1.8754e-009    
  -3.85           1.407e-009      -2.0725e-005    4.2945e-009    
  -3.9            8.02e-010       -2.0998e-005    2.9605e-009    
  -3.95           -1.4251e-009    -2.1184e-005    5.2477e-009    
  -4              -6.437e-010     -2.1436e-005    5.1e-011       
  -4.05           1.4129e-009     -2.1659e-005    2.6598e-009    
  -4.1            7.735e-010      -2.1911e-005    2.9992e-009    
  -4.15           -1.4325e-009    -2.209e-005     5.3567e-009    
