! VERSION = 6.00
BEGIN_HEADER
 ICCAP_INPUTS
  VG         V  B GROUND SMU4 0.001 LIN        1    0          -5         101  -0.05     
  VS         V  E GROUND SMU2 0.1 CON        0
  VB         V  C GROUND SMU3 0.1 LIN        3    0          5          3    2.5       
  VD         V  S GROUND SMU1 0.1 LIN        2    -0.1       -5         2    -4.9      
 ICCAP_OUTPUTS
  IG         I  B GROUND SMU4 B
  ID         I  S GROUND SMU1 B
  IB         I  C GROUND SMU3 B
END_HEADER

BEGIN_DB
 ICCAP_VAR VS         0              
 ICCAP_VAR VB         0              
 ICCAP_VAR VD         -0.1           

 #VG              IG              ID              IB             
  0               1.019e-009      1.0205e-009     1.5694e-008    
  -0.05           1.2191e-009     2.2554e-009     9.278e-009     
  -0.1            1.3796e-009     2.1326e-009     1.088e-008     
  -0.15           1.5538e-009     1.9411e-009     1.2569e-008    
  -0.2            -1.4066e-009    1.415e-009      2.7615e-008    
  -0.25           -1.4025e-009    5.6e-012        9.681e-009     
  -0.3            -1.3841e-009    1.468e-010      1.0312e-008    
  -0.35           -2.6134e-009    3.044e-010      1.278e-008     
  -0.4            -1.0734e-009    -2.2081e-009    1.066e-009     
  -0.45           1.5639e-009     -1.7605e-009    -1.0733e-008   
  -0.5            8.836e-010      2.3027e-009     -8.824e-009    
  -0.55           -1.4034e-009    1.3858e-009     9.133e-009     
  -0.6            -2.3523e-009    -1.6973e-009    1.0086e-008    
  -0.65           2.5663e-009     -3.3581e-009    -2.762e-008    
  -0.7            2.2925e-009     -5.6565e-009    -4.26e-009     
  -0.75           -1.4737e-009    -1.8844e-008    -1.0366e-008   
  -0.8            -1.4053e-009    -4.3359e-008    8.355e-009     
  -0.85           -1.3762e-009    -8.4445e-008    9.801e-009     
  -0.9            2.4231e-009     -1.4113e-007    -1.7509e-008   
  -0.95           -1.4077e-009    -2.1444e-007    2.9135e-008    
  -1              -2.571e-009     -3.0259e-007    1.007e-008     
  -1.05           -2.0371e-009    -4.0063e-007    1.073e-009     
  -1.1            2.5506e-009     -5.0829e-007    -2.7941e-008   
  -1.15           1.7964e-009     -6.1577e-007    -4.353e-009    
  -1.2            1.3218e-009     -7.3001e-007    -9.295e-009    
  -1.25           2.8726e-009     -8.4571e-007    -9.251e-009    
  -1.3            -1.4064e-009    -9.5743e-007    2.8849e-008    
  -1.35           -2.546e-009     -1.07262e-006   1.0181e-008    
  -1.4            -1.8759e-009    -1.1877e-006    -1.0687e-008   
  -1.45           -8.051e-010     -1.3013e-006    -1.3007e-008   
  -1.5            1.6566e-009     -1.4114e-006    -1.9103e-008   
  -1.55           2.8333e-009     -1.5163e-006    -9.141e-009    
  -1.6            8.529e-010      -1.6198e-006    1.2137e-008    
  -1.65           -1.5023e-009    -1.7249e-006    1.4636e-008    
  -1.7            -1.4006e-009    -1.8285e-006    8.15e-009      
  -1.75           -1.382e-009     -1.9282e-006    9.622e-009     
  -1.8            -2.3635e-009    -2.0267e-006    1.2929e-008    
  -1.85           -8.695e-010     -2.1283e-006    -1.2725e-008   
  -1.9            1.5573e-009     -2.2235e-006    -1.7116e-008   
  -1.95           2.8474e-009     -2.3141e-006    -8.851e-009    
  -2              2.0186e-009     -2.4045e-006    1.3283e-008    
  -2.05           8.366e-010      -2.4936e-006    1.2196e-008    
  -2.1            -1.5143e-009    -2.5849e-006    1.5106e-008    
  -2.15           -1.401e-009     -2.6728e-006    8.151e-009     
  -2.2            -1.3849e-009    -2.7578e-006    9.596e-009     
  -2.25           -2.3884e-009    -2.8418e-006    1.2576e-008    
  -2.3            -8.544e-010     -2.9307e-006    -1.2889e-008   
  -2.35           1.5738e-009     -3.0138e-006    -1.7474e-008   
  -2.4            2.8443e-009     -3.0911e-006    -8.943e-009    
  -2.45           8.959e-010      -3.1691e-006    1.1674e-008    
  -2.5            1.266e-009      -3.2488e-006    9.167e-009     
  -2.55           1.6957e-009     -3.3272e-006    1.2263e-008    
  -2.6            2.1096e-009     -3.4045e-006    1.2535e-008    
  -2.65           9.215e-010      -3.4799e-006    1.1517e-008    
  -2.7            1.2898e-009     -3.5557e-006    9.133e-009     
  -2.75           1.7187e-009     -3.6304e-006    1.2535e-008    
  -2.8            2.1361e-009     -3.7034e-006    1.2478e-008    
  -2.85           9.405e-010      -3.7755e-006    1.1304e-008    
  -2.9            1.3143e-009     -3.847e-006     9.089e-009     
  -2.95           1.7413e-009     -3.9182e-006    1.1725e-008    
  -3              2.1581e-009     -3.9882e-006    1.2947e-008    
  -3.05           9.653e-010      -4.0553e-006    1.1474e-008    
  -3.1            1.3354e-009     -4.1239e-006    9.019e-009     
  -3.15           1.7677e-009     -4.1913e-006    1.2757e-008    
  -3.2            5.961e-010      -4.2556e-006    1.2689e-008    
  -3.25           9.83e-010       -4.3217e-006    1.0739e-008    
  -3.3            1.3627e-009     -4.387e-006     9.475e-009     
  -3.35           1.7927e-009     -4.4503e-006    1.2912e-008    
  -3.4            6.191e-010      -4.5155e-006    1.2722e-008    
  -3.45           1.0066e-009     -4.5775e-006    1.0471e-008    
  -3.5            -2.537e-010     -4.6416e-006    1.0436e-008    
  -3.55           -1.4476e-009    -4.7006e-006    2.24e-008      
  -3.6            -1.4079e-009    -4.7642e-006    8.204e-009     
  -3.65           -2.6479e-009    -4.8247e-006    9.664e-009     
  -3.7            -2.2283e-009    -4.883e-006     1.035e-009     
  -3.75           1.226e-010      -4.949e-006     -1.0098e-008   
  -3.8            1.3441e-009     -5.002e-006     -2.2682e-008   
  -3.85           2.8726e-009     -5.0562e-006    -8.972e-009    
  -3.9            -1.4076e-009    -5.1115e-006    2.9252e-008    
  -3.95           -2.5735e-009    -5.1701e-006    1.0029e-008    
  -4              -2.0455e-009    -5.2266e-006    1.136e-009     
  -4.05           2.5505e-009     -5.2806e-006    -2.8028e-008   
  -4.1            1.7885e-009     -5.3343e-006    -4.323e-009    
  -4.15           1.319e-009      -5.3872e-006    -9.307e-009    
  -4.2            2.8649e-009     -5.4408e-006    -9.216e-009    
  -4.25           -1.4047e-009    -5.4944e-006    2.891e-008     
  -4.3            -2.546e-009     -5.5467e-006    1.0216e-008    
  -4.35           -1.9828e-009    -5.6004e-006    1.25e-009      
  -4.4            -1.4765e-009    -5.6532e-006    5.098e-009     
  -4.45           -1.4056e-009    -5.703e-006     8.192e-009     
  -4.5            -1.3767e-009    -5.7524e-006    9.683e-009     
  -4.55           -2.3316e-009    -5.801e-006     1.3143e-008    
  -4.6            1.701e-010      -5.8558e-006    -1.1151e-008   
  -4.65           1.3911e-009     -5.9017e-006    -2.152e-008    
  -4.7            2.872e-009      -5.9479e-006    -8.592e-009    
  -4.75           2.8195e-009     -5.9955e-006    1.7e-010       
  -4.8            1.44e-009       -6.0388e-006    1.0101e-008    
  -4.85           1.8728e-009     -6.0904e-006    1.3304e-008    
  -4.9            6.984e-010      -6.1336e-006    1.2591e-008    
  -4.95           1.0751e-009     -6.1795e-006    9.889e-009     
  -5              1.4661e-009     -6.2292e-006    1.0379e-008    
END_DB

BEGIN_DB
 ICCAP_VAR VS         0              
 ICCAP_VAR VB         0              
 ICCAP_VAR VD         -5             

 #VG              IG              ID              IB             
  0               1.2992e-009     1.3813e-009     -1.3184e-008   
  -0.05           4.03e-011       2.1636e-009     1.1703e-008    
  -0.1            2.328e-010      2.2441e-009     1.2567e-008    
  -0.15           4.276e-010      2.2965e-009     1.275e-008     
  -0.2            6.05e-010       2.3263e-009     1.2056e-008    
  -0.25           7.709e-010      2.3416e-009     1.0566e-008    
  -0.3            9.216e-010      2.3415e-009     9.435e-009     
  -0.35           1.0686e-009     2.3283e-009     9.215e-009     
  -0.4            1.2127e-009     2.2631e-009     9.397e-009     
  -0.45           1.37e-009       2.1289e-009     1.0764e-008    
  -0.5            1.5482e-009     1.894e-009      1.227e-008     
  -0.55           -1.4082e-009    1.2062e-009     2.7401e-008    
  -0.6            -2.7105e-009    -1.6717e-009    9.751e-009     
  -0.65           2.6047e-009     -4.1804e-009    -2.7871e-008   
  -0.7            2.3347e-009     -8.3836e-009    -3.82e-009     
  -0.75           -2.6558e-009    -2.6839e-008    -2.5578e-008   
  -0.8            -2.2665e-009    -6.3599e-008    1.74e-009      
  -0.85           1.6671e-009     -1.2902e-007    -2.328e-008    
  -0.9            2.0907e-009     -2.3668e-007    1.5701e-008    
  -0.95           9.053e-010      -3.9025e-007    1.6012e-008    
  -1              1.2709e-009     -6.0047e-007    1.494e-008     
  -1.05           1.7123e-009     -8.6418e-007    1.8873e-008    
  -1.1            -1.4567e-009    -1.1734e-006    4.925e-009     
  -1.15           -1.4032e-009    -1.5497e-006    2.0794e-008    
  -1.2            -2.6473e-009    -1.9779e-006    2.4535e-008    
  -1.25           -2.2121e-009    -2.4701e-006    1.8656e-008    
  -1.3            -1.618e-009     -3.0055e-006    2.4166e-008    
  -1.35           -1.401e-009     -3.5955e-006    3.0202e-008    
  -1.4            -1.3962e-009    -4.2335e-006    3.4894e-008    
  -1.45           -2.4901e-009    -4.9183e-006    3.8983e-008    
  -1.5            -1.8947e-009    -5.6553e-006    3.2343e-008    
  -1.55           -1.453e-009     -6.4284e-006    3.8114e-008    
  -1.6            -1.4059e-009    -7.2437e-006    4.3343e-008    
  -1.65           -2.6479e-009    -8.0956e-006    4.664e-008     
  -1.7            -2.2118e-009    -8.9985e-006    3.957e-008     
  -1.75           -1.6141e-009    -9.9213e-006    4.3556e-008    
  -1.8            -1.4065e-009    -1.08839e-005   4.842e-008     
  -1.85           2.3269e-009     -1.1909e-005    4.7018e-008    
  -1.9            1.5583e-009     -1.2933e-005    3.6452e-008    
  -1.95           2.8501e-009     -1.3995e-005    3.4401e-008    
  -2              2.8617e-009     -1.5072e-005    4.4605e-008    
  -2.05           2.6004e-009     -1.6184e-005    4.2924e-008    
  -2.1            1.9174e-009     -1.733e-005     4.0075e-008    
  -2.15           1.3594e-009     -1.8494e-005    3.4206e-008    
  -2.2            2.8777e-009     -1.9685e-005    3.3577e-008    
  -2.25           2.7914e-009     -2.0886e-005    4.1804e-008    
  -2.3            2.304e-009      -2.2121e-005    3.9587e-008    
  -2.35           1.5661e-009     -2.3387e-005    3.3729e-008    
  -2.4            2.8458e-009     -2.4663e-005    3.0118e-008    
  -2.45           2.8632e-009     -2.5956e-005    3.8715e-008    
  -2.5            2.6114e-009     -2.7271e-005    3.5784e-008    
  -2.55           1.9213e-009     -2.8592e-005    3.1776e-008    
  -2.6            1.3653e-009     -2.9967e-005    2.4918e-008    
  -2.65           2.8751e-009     -3.1342e-005    2.3443e-008    
  -2.7            2.7912e-009     -3.2701e-005    3.0976e-008    
  -2.75           2.3014e-009     -3.4112e-005    2.8185e-008    
  -2.8            1.5656e-009     -3.5554e-005    2.1696e-008    
  -2.85           2.8723e-009     -3.6968e-005    3.1626e-008    
  -2.9            2.7667e-009     -3.84e-005      2.4954e-008    
  -2.95           2.2297e-009     -3.9871e-005    2.2201e-008    
  -3              2.8129e-009     -4.1371e-005    3.2831e-008    
  -3.05           2.874e-009      -4.2844e-005    2.4959e-008    
  -3.1            2.7351e-009     -4.4351e-005    1.9244e-008    
  -3.15           2.6189e-009     -4.5868e-005    2.9805e-008    
  -3.2            2.828e-009      -4.7397e-005    2.6938e-008    
  -3.25           1.9296e-009     -4.8964e-005    2.9267e-008    
  -3.3            2.3322e-009     -5.0499e-005    2.6874e-008    
  -3.35           2.6427e-009     -5.2059e-005    2.4765e-008    
  -3.4            2.8369e-009     -5.3641e-005    2.2053e-008    
  -3.45           1.9681e-009     -5.5246e-005    2.5244e-008    
  -3.5            2.3659e-009     -5.682e-005     2.2714e-008    
  -3.55           1.164e-009      -5.8436e-005    1.969e-008     
  -3.6            1.5823e-009     -6.007e-005     1.9356e-008    
  -3.65           2.014e-009      -6.1681e-005    2.1711e-008    
  -3.7            8.316e-010      -6.3282e-005    2.0162e-008    
  -3.75           1.2056e-009     -6.4978e-005    1.6447e-008    
  -3.8            1.6268e-009     -6.6665e-005    1.6881e-008    
  -3.85           2.056e-009      -6.8264e-005    1.8829e-008    
  -3.9            8.708e-010      -6.9915e-005    1.7536e-008    
  -3.95           1.2395e-009     -7.1627e-005    1.4063e-008    
  -4              1.6697e-009     -7.3315e-005    1.6433e-008    
  -4.05           2.101e-009      -7.5008e-005    1.6552e-008    
  -4.1            9.099e-010      -7.664e-005     1.507e-008     
  -4.15           1.2821e-009     -7.8429e-005    1.2437e-008    
  -4.2            1.7162e-009     -8.0103e-005    1.5271e-008    
  -4.25           2.1399e-009     -8.1791e-005    1.507e-008     
  -4.3            9.407e-010      -8.3474e-005    1.3531e-008    
  -4.35           1.3149e-009     -8.5297e-005    1.1398e-008    
  -4.4            1.7534e-009     -8.7001e-005    1.4286e-008    
  -4.45           5.812e-010      -8.8698e-005    1.4124e-008    
  -4.5            9.803e-010      -9.0436e-005    1.2541e-008    
  -4.55           1.3586e-009     -9.2216e-005    1.037e-008     
  -4.6            1.8023e-009     -9.3956e-005    1.3456e-008    
  -4.65           6.291e-010      -9.5698e-005    1.3597e-008    
  -4.7            1.0142e-009     -9.7449e-005    1.1161e-008    
  -4.75           1.4012e-009     -9.9222e-005    1.0653e-008    
  -4.8            1.8416e-009     -0.000100985    1.3714e-008    
  -4.85           6.675e-010      -0.000102725    1.3162e-008    
  -4.9            1.0538e-009     -0.000104517    1.0663e-008    
  -4.95           1.4468e-009     -0.000106341    1.0732e-008    
  -5              1.8808e-009     -0.000108109    1.3659e-008    
END_DB

BEGIN_DB
 ICCAP_VAR VS         0              
 ICCAP_VAR VB         2.5            
 ICCAP_VAR VD         -0.1           

 #VG              IG              ID              IB             
  0               -1.2985e-009    -1.1764e-009    -1.6964e-008   
  -0.05           2.6819e-009     -1.3856e-009    -2.8374e-008   
  -0.1            1.1723e-009     2.3034e-009     -3.113e-009    
  -0.15           1.3257e-009     2.1875e-009     1.1631e-008    
  -0.2            1.4971e-009     2.017e-009      1.2688e-008    
  -0.25           1.83e-011       2.1528e-009     1.1794e-008    
  -0.3            2.017e-010      2.2312e-009     1.2642e-008    
  -0.35           3.897e-010      2.2875e-009     1.2668e-008    
  -0.4            5.746e-010      2.3205e-009     1.2247e-008    
  -0.45           7.438e-010      2.3388e-009     1.0811e-008    
  -0.5            8.859e-010      2.341e-009      9.464e-009     
  -0.55           1.0355e-009     2.3318e-009     9.163e-009     
  -0.6            -1.5338e-009    1.8613e-009     9.955e-009     
  -0.65           -1.8448e-009    -1.441e-009     7.834e-009     
  -0.7            -4.747e-010     -2.2524e-009    -1.3037e-008   
  -0.75           -6.646e-010     -2.2551e-009    -1.2431e-008   
  -0.8            2.3602e-009     -1.5475e-009    -2.3535e-008   
  -0.85           1.38e-009       2.1459e-009     -6.178e-009    
  -0.9            1.5567e-009     1.9377e-009     1.291e-008     
  -0.95           -1.4037e-009    1.4147e-009     2.7294e-008    
  -1              -1.4037e-009    8.1e-012        9.55e-009      
  -1.05           -1.3818e-009    1.514e-010      1.0224e-008    
  -1.1            -2.6027e-009    2.976e-010      1.2797e-008    
  -1.15           -2.0038e-009    -1.2885e-009    1.191e-009     
  -1.2            -7.963e-010     -2.548e-009     -1.1837e-008   
  -1.25           2.156e-009      -3.1111e-009    -1.9601e-008   
  -1.3            1.8146e-009     -5.7957e-009    -7.72e-009     
  -1.35           -2.446e-009     -2.2217e-008    -2.8193e-008   
  -1.4            -8.009e-010     -5.708e-008     -1.2841e-008   
  -1.45           1.6762e-009     -1.12621e-007   -1.948e-008    
  -1.5            -1.3869e-009    -1.8616e-007    2.0408e-008    
  -1.55           2.4993e-009     -2.7522e-007    -2.8055e-008   
  -1.6            1.7363e-009     -3.712e-007     -4.947e-009    
  -1.65           2.8163e-009     -4.7535e-007    -9.35e-009     
  -1.7            1.8919e-009     -5.8056e-007    1.336e-008     
  -1.75           7.176e-010      -6.8705e-007    1.2726e-008    
  -1.8            1.0894e-009     -7.957e-007     9.605e-009     
  -1.85           1.4951e-009     -9.042e-007     1.0672e-008    
  -1.9            3.072e-010      -1.00578e-006   1.1528e-008    
  -1.95           7.516e-010      -1.10873e-006   1.2566e-008    
  -2              -1.4021e-009    -1.2108e-006    -1.3042e-008   
  -2.05           -1.398e-009     -1.3087e-006    9.305e-009     
  -2.1            -2.464e-009     -1.4048e-006    1.1459e-008    
  -2.15           -8.048e-010     -1.5027e-006    -1.2915e-008   
  -2.2            1.6612e-009     -1.5955e-006    -1.9113e-008   
  -2.25           2.8271e-009     -1.6831e-006    -9.055e-009    
  -2.3            8.491e-010      -1.7702e-006    1.2339e-008    
  -2.35           -1.4969e-009    -1.8592e-006    1.4386e-008    
  -2.4            -1.4077e-009    -1.9451e-006    8.037e-009     
  -2.45           -1.3848e-009    -2.0279e-006    9.635e-009     
  -2.5            -2.3646e-009    -2.1119e-006    1.3003e-008    
  -2.55           -8.718e-010     -2.1975e-006    -1.2944e-008   
  -2.6            1.5476e-009     -2.2782e-006    -1.6867e-008   
  -2.65           2.8434e-009     -2.3552e-006    -8.802e-009    
  -2.7            2.0229e-009     -2.4317e-006    1.3121e-008    
  -2.75           8.421e-010      -2.5079e-006    1.2136e-008    
  -2.8            -1.5156e-009    -2.5859e-006    1.5322e-008    
  -2.85           -1.4008e-009    -2.6622e-006    8.215e-009     
  -2.9            -1.3828e-009    -2.7359e-006    9.674e-009     
  -2.95           -2.3704e-009    -2.8078e-006    1.2498e-008    
  -3              -8.65e-010      -2.8816e-006    -1.3009e-008   
  -3.05           1.5699e-009     -2.9534e-006    -1.7219e-008   
  -3.1            2.849e-009      -3.02e-006      -8.807e-009    
  -3.15           9.116e-010      -3.0888e-006    1.1941e-008    
  -3.2            1.2808e-009     -3.1596e-006    9.191e-009     
  -3.25           1.7132e-009     -3.2269e-006    1.2317e-008    
  -3.3            2.1323e-009     -3.2943e-006    1.2466e-008    
  -3.35           9.327e-010      -3.3607e-006    1.1415e-008    
  -3.4            1.306e-009      -3.4235e-006    9.331e-009     
  -3.45           1.7425e-009     -3.4906e-006    1.2403e-008    
  -3.5            2.1666e-009     -3.555e-006     1.2295e-008    
  -3.55           9.629e-010      -3.6182e-006    1.1106e-008    
  -3.6            1.34e-009       -3.6807e-006    9.499e-009     
  -3.65           1.77e-009       -3.7408e-006    1.2743e-008    
  -3.7            5.928e-010      -3.8002e-006    1.2593e-008    
  -3.75           9.871e-010      -3.8626e-006    1.093e-008     
  -3.8            -2.674e-010     -3.9234e-006    1.1041e-008    
  -3.85           -1.4609e-009    -3.9833e-006    2.2224e-008    
  -3.9            -1.4096e-009    -4.0407e-006    8.166e-009     
  -3.95           -2.6591e-009    -4.0985e-006    9.752e-009     
  -4              -2.2477e-009    -4.1572e-006    9.35e-010      
  -4.05           1.359e-010      -4.2166e-006    -1.0326e-008   
  -4.1            1.3519e-009     -4.2688e-006    -2.259e-008    
  -4.15           2.8637e-009     -4.3218e-006    -8.791e-009    
