! VERSION = 6.00
BEGIN_HEADER
 ICCAP_INPUTS
  VG         V  B GROUND SMU4 0.001 LIN        2    0          -5         6    -1        
  VS         V  E GROUND SMU2 0.1 CON        0
  VD         V  S GROUND SMU1 0.1 LIN        1    0          -5         101  -0.05     
  VB         V  C GROUND SMU3 0.1 LIN        3    0          2.5        2    2.5       
 ICCAP_OUTPUTS
  ID         I  S GROUND SMU1 B
  IB         I  C GROUND SMU3 B
  IG         I  B GROUND SMU4 B
END_HEADER

BEGIN_DB
 ICCAP_VAR VG         0              
 ICCAP_VAR VS         0              
 ICCAP_VAR VB         0              

 #VD              ID              IB              IG             
  0               2.2941e-009     -1.0787e-008    2.3157e-009    
  -0.05           2.3068e-009     1.2695e-008     4.486e-010     
  -0.1            2.3371e-009     1.2133e-008     6.39e-010      
  -0.15           2.3492e-009     1.0538e-008     8.145e-010     
  -0.2            2.3407e-009     9.663e-009      9.654e-010     
  -0.25           2.3085e-009     9.117e-009      1.1163e-009    
  -0.3            2.2192e-009     9.739e-009      1.272e-009     
  -0.35           2.0636e-009     1.2323e-008     1.4466e-009    
  -0.4            1.8341e-009     1.3172e-008     1.6346e-009    
  -0.45           1.5719e-009     1.2775e-008     1.8107e-009    
  -0.5            2.2868e-009     1.2565e-008     3.686e-010     
  -0.55           2.3252e-009     1.2283e-008     5.618e-010     
  -0.6            2.3455e-009     1.0995e-008     7.394e-010     
  -0.65           2.3443e-009     9.723e-009      8.977e-010     
  -0.7            2.3247e-009     9.268e-009      1.0491e-009    
  -0.75           2.2649e-009     9.369e-009      1.2014e-009    
  -0.8            2.1387e-009     1.0549e-008     1.3668e-009    
  -0.85           1.9475e-009     1.2299e-008     1.5475e-009    
  -0.9            2.1774e-009     1.1893e-008     7.35e-011      
  -0.95           2.2552e-009     1.2503e-008     2.765e-010     
  -1              2.3115e-009     1.2666e-008     4.758e-010     
  -1.05           2.3403e-009     1.1683e-008     6.607e-010     
  -1.1            2.3495e-009     1.0185e-008     8.298e-010     
  -1.15           1.705e-009      1.5364e-008     -1.3734e-009   
  -1.2            3.455e-010      1.3319e-008     -2.5685e-009   
  -1.25           -2.196e-009     1.181e-009      -1.1184e-009   
  -1.3            -1.7922e-009    -1.0454e-008    1.4914e-009    
  -1.35           2.3442e-009     -8.547e-009     9.444e-010     
  -1.4            2.3144e-009     9.463e-009      1.0979e-009    
  -1.45           2.2323e-009     1.0635e-008     1.2533e-009    
  -1.5            2.0856e-009     1.111e-008      1.4219e-009    
  -1.55           1.8692e-009     1.2899e-008     1.6088e-009    
  -1.6            1.6091e-009     1.3206e-008     1.7885e-009    
  -1.65           2.2814e-009     1.2519e-008     3.424e-010     
  -1.7            2.3259e-009     1.2627e-008     5.368e-010     
  -1.75           2.3448e-009     1.124e-008      7.15e-010      
  -1.8            2.347e-009      9.764e-009      8.777e-010     
  -1.85           2.3321e-009     9.304e-009      1.0291e-009    
  -1.9            2.2789e-009     9.94e-009       1.1818e-009    
  -1.95           2.1607e-009     1.1516e-008     1.3461e-009    
  -2              1.9816e-009     1.2627e-008     1.5194e-009    
  -2.05           2.168e-009      1.1616e-008     5.67e-011      
  -2.1            2.2521e-009     1.2453e-008     2.495e-010     
  -2.15           2.3087e-009     1.2555e-008     4.451e-010     
  -2.2            2.341e-009      1.2274e-008     6.355e-010     
  -2.25           2.3513e-009     1.0657e-008     8.045e-010     
  -2.3            1.6819e-009     1.6156e-008     -1.3786e-009   
  -2.35           3.252e-010      1.298e-008      -2.5934e-009   
  -2.4            -2.2023e-009    1.24e-009       -1.0979e-009   
  -2.45           -1.7753e-009    -1.0532e-008    1.5216e-009    
  -2.5            2.3449e-009     -8.701e-009     9.217e-010     
  -2.55           2.3243e-009     9.302e-009      1.0724e-009    
  -2.6            2.251e-009      1.0318e-008     1.2256e-009    
  -2.65           2.1123e-009     1.2023e-008     1.3922e-009    
  -2.7            1.915e-009      1.286e-008      1.5798e-009    
  -2.75           1.655e-009      1.3176e-008     1.7614e-009    
  -2.8            2.2734e-009     1.2546e-008     3.047e-010     
  -2.85           2.3213e-009     1.242e-008      5.053e-010     
  -2.9            2.3452e-009     1.155e-008      6.903e-010     
  -2.95           2.3499e-009     1.0284e-008     8.509e-010     
  -3              1.7212e-009     1.4664e-008     -1.369e-009    
  -3.05           3.691e-010      1.3819e-008     -2.5553e-009   
  -3.1            -2.1893e-009    1.236e-009      -1.1447e-009   
  -3.15           -1.8052e-009    -1.0328e-008    1.4646e-009    
  -3.2            2.3424e-009     -8.58e-009      9.693e-010     
  -3.25           2.3114e-009     8.576e-009      1.1162e-009    
  -3.3            2.2242e-009     9.352e-009      1.2738e-009    
  -3.35           2.0643e-009     1.1225e-008     1.4487e-009    
  -3.4            1.8437e-009     1.2986e-008     1.63e-009      
  -3.45           1.5827e-009     1.3153e-008     1.8094e-009    
  -3.5            2.1716e-009     1.2715e-008     8.82e-011      
  -3.55           2.2511e-009     1.2507e-008     2.951e-010     
  -3.6            2.3108e-009     1.2651e-008     4.8e-010       
  -3.65           2.3433e-009     1.2051e-008     6.648e-010     
  -3.7            2.3499e-009     1.0441e-008     8.259e-010     
  -3.75           1.6832e-009     1.5689e-008     -1.3744e-009   
  -3.8            3.423e-010      1.3132e-008     -2.5793e-009   
  -3.85           -2.1965e-009    1.164e-009      -1.1182e-009   
  -3.9            -1.7888e-009    -1.0381e-008    1.4977e-009    
  -3.95           2.3431e-009     -8.584e-009     9.429e-010     
  -4              2.3144e-009     9.483e-009      1.0937e-009    
  -4.05           2.2325e-009     1.0598e-008     1.2433e-009    
  -4.1            2.0826e-009     1.2096e-008     1.4147e-009    
  -4.15           1.8849e-009     1.2971e-008     1.6016e-009    
  -4.2            1.6269e-009     1.2937e-008     1.7642e-009    
  -4.25           2.2781e-009     1.2578e-008     3.391e-010     
  -4.3            2.323e-009      1.2355e-008     5.114e-010     
  -4.35           2.3474e-009     1.1323e-008     7.081e-010     
  -4.4            2.3481e-009     1.0061e-008     8.715e-010     
  -4.45           2.3334e-009     9.223e-009      1.0228e-009    
  -4.5            2.2854e-009     9.117e-009      1.1758e-009    
  -4.55           2.1658e-009     1.03e-008       1.3302e-009    
  -4.6            1.993e-009      1.2e-008        1.5086e-009    
  -4.65           2.165e-009      1.1502e-008     3.71e-011      
  -4.7            2.2463e-009     1.2421e-008     2.355e-010     
  -4.75           2.3086e-009     1.2677e-008     4.325e-010     
  -4.8            2.342e-009      1.2309e-008     6.235e-010     
  -4.85           2.3514e-009     1.0888e-008     7.951e-010     
  -4.9            2.344e-009      9.631e-009      9.448e-010     
  -4.95           2.3177e-009     9.035e-009      1.0928e-009    
  -5              2.2361e-009     9.621e-009      1.2517e-009    
END_DB

BEGIN_DB
 ICCAP_VAR VG         -1             
 ICCAP_VAR VS         0              
 ICCAP_VAR VB         0              

 #VD              ID              IB              IG             
  0               -2.7197e-009    -1.9908e-008    -1.0371e-009   
  -0.05           -1.8422e-007    1.2507e-008     -2.6889e-009   
  -0.1            -3.0133e-007    1.0871e-008     -2.594e-010    
  -0.15           -3.7852e-007    -1.3727e-008    2.8232e-009    
  -0.2            -4.2145e-007    -2.5568e-008    2.7287e-009    
  -0.25           -4.4492e-007    -2.7469e-008    2.579e-009     
  -0.3            -4.5813e-007    -2.811e-008     2.3675e-009    
  -0.35           -4.6629e-007    -2.6735e-008    2.1162e-009    
  -0.4            -4.711e-007     -1.2838e-008    -6.04e-010     
  -0.45           -4.7153e-007    1.8812e-008     -1.723e-009    
  -0.5            -4.7575e-007    1.2582e-008     7.126e-010     
  -0.55           -4.8463e-007    -1.9765e-008    1.5668e-009    
  -0.6            -4.8491e-007    -1.2419e-008    -9.115e-010    
  -0.65           -4.8456e-007    7.838e-009      -1.3984e-009   
  -0.7            -4.8606e-007    2.8761e-008     -1.4032e-009   
  -0.75           -4.9318e-007    1.039e-008      1.4818e-009    
  -0.8            -4.9701e-007    -2.604e-008     2.077e-009     
  -0.85           -4.9792e-007    -1.2888e-008    -6.231e-010    
  -0.9            -4.9575e-007    1.9057e-008     -1.7033e-009   
  -0.95           -4.9818e-007    1.2561e-008     7.287e-010     
  -1              -5.0506e-007    -1.99e-008      1.5419e-009    
  -1.05           -5.0412e-007    -1.221e-008     -9.295e-010    
  -1.1            -5.0346e-007    7.732e-009      -1.3989e-009   
  -1.15           -5.0374e-007    2.8526e-008     -1.4004e-009   
  -1.2            -5.1083e-007    9.581e-009      1.5057e-009    
  -1.25           -5.142e-007     -2.5562e-008    2.0356e-009    
  -1.3            -5.1652e-007    -2.1188e-008    1.7665e-009    
  -1.35           -5.1497e-007    -1.2958e-008    -8.07e-010     
  -1.4            -5.1192e-007    2.1091e-008     -1.5287e-009   
  -1.45           -5.148e-007     1.2225e-008     8.824e-010     
  -1.5            -5.199e-007     -8.892e-009     2.86e-009      
  -1.55           -5.1987e-007    -1.0965e-008    -1.0656e-009   
  -1.6            -5.1842e-007    8.449e-009      -1.4039e-009   
  -1.65           -5.2409e-007    9.139e-009      1.394e-009     
  -1.7            -5.2763e-007    -2.7661e-008    2.2354e-009    
  -1.75           -5.2912e-007    -2.4663e-008    1.9616e-009    
  -1.8            -5.2808e-007    -1.296e-008     -6.931e-010    
  -1.85           -5.2507e-007    1.9751e-008     -1.6273e-009   
  -1.9            -5.2694e-007    1.2423e-008     7.869e-010     
  -1.95           -5.3195e-007    -9.452e-009     2.8372e-009    
  -2              -5.3559e-007    -2.569e-008     2.0541e-009    
  -2.05           -5.3484e-007    -1.2877e-008    -6.41e-010     
  -2.1            -5.3179e-007    1.9263e-008     -1.6816e-009   
  -2.15           -5.3301e-007    1.2499e-008     7.495e-010     
  -2.2            -5.4097e-007    -2.0194e-008    1.5213e-009    
  -2.25           -5.431e-007     -1.2397e-008    2.24e-010      
  -2.3            -5.3648e-007    9.722e-009      -1.3651e-009   
  -2.35           -5.4172e-007    1.2581e-008     1.7676e-009    
  -2.4            -5.464e-007     -1.748e-008     1.6012e-009    
  -2.45           -5.4349e-007    -1.2566e-008    -8.889e-010    
  -2.5            -5.4113e-007    7.561e-009      -1.3968e-009   
  -2.55           -5.4083e-007    2.8756e-008     -1.403e-009    
  -2.6            -5.4809e-007    1.01e-008       1.4596e-009    
  -2.65           -5.5085e-007    -2.6693e-008    2.1253e-009    
  -2.7            -5.5243e-007    -2.2497e-008    1.8468e-009    
  -2.75           -5.5052e-007    -1.2845e-008    -7.629e-010    
  -2.8            -5.4736e-007    2.0588e-008     -1.5634e-009   
  -2.85           -5.4904e-007    1.2178e-008     8.419e-010     
  -2.9            -5.54e-007      -9.16e-009      2.8512e-009    
  -2.95           -5.5722e-007    -2.3983e-008    1.9255e-009    
  -3              -5.5588e-007    -1.301e-008     -7.147e-010    
  -3.05           -5.5275e-007    2.0043e-008     -1.6062e-009   
  -3.1            -5.5425e-007    1.2685e-008     8.099e-010     
  -3.15           -5.5891e-007    -9.393e-009     2.8417e-009    
  -3.2            -5.5913e-007    -1.1839e-008    -9.934e-010    
  -3.25           -5.5691e-007    8.268e-009      -1.4039e-009   
  -3.3            -5.6183e-007    9.178e-009      1.3067e-009    
  -3.35           -5.648e-007     -2.8e-008       2.3893e-009    
  -3.4            -5.6605e-007    -2.6963e-008    2.131e-009     
  -3.45           -5.6781e-007    -2.2635e-008    1.859e-009     
  -3.5            -5.6542e-007    -1.298e-008     -7.564e-010    
  -3.55           -5.6251e-007    2.062e-008      -1.5666e-009   
  -3.6            -5.6405e-007    1.2681e-008     8.412e-010     
  -3.65           -5.6887e-007    -9.003e-009     2.8512e-009    
  -3.7            -5.72e-007      -2.411e-008     1.9353e-009    
  -3.75           -5.7094e-007    -1.2796e-008    -7.091e-010    
  -3.8            -5.6687e-007    2.0079e-008     -1.6126e-009   
  -3.85           -5.6871e-007    1.2641e-008     8.05e-010      
  -3.9            -5.7369e-007    -9.031e-009     2.8389e-009    
  -3.95           -5.7694e-007    -2.5128e-008    2.0158e-009    
  -4              -5.7549e-007    -1.2535e-008    -6.562e-010    
  -4.05           -5.7192e-007    1.9812e-008     -1.6597e-009   
  -4.1            -5.7335e-007    1.3046e-008     7.588e-010     
  -4.15           -5.8087e-007    -1.9677e-008    1.4984e-009    
  -4.2            -5.8354e-007    -1.1372e-008    2.082e-010     
  -4.25           -5.7599e-007    1.0425e-008     -1.3612e-009   
  -4.3            -5.813e-007     1.3608e-008     1.78e-009      
  -4.35           -5.86e-007      -1.6203e-008    1.5864e-009    
  -4.4            -5.8709e-007    -1.221e-008     2.603e-010     
  -4.45           -5.7943e-007    1.1182e-008     -1.3758e-009   
  -4.5            -5.8632e-007    1.4032e-008     1.7172e-009    
  -4.55           -5.8963e-007    -1.7323e-008    1.6823e-009    
  -4.6            -5.9339e-007    -1.2985e-008    1.4814e-009    
  -4.65           -5.9145e-007    -1.5835e-008    2.6503e-009    
  -4.7            -5.9193e-007    -1.6763e-008    2.2571e-009    
  -4.75           -5.9385e-007    -1.6084e-008    1.7525e-009    
  -4.8            -5.9636e-007    -1.2812e-008    1.5341e-009    
  -4.85           -5.9602e-007    -1.3583e-008    2.6933e-009    
  -4.9            -5.9696e-007    -1.5098e-008    2.3326e-009    
  -4.95           -5.9961e-007    -1.4512e-008    1.8273e-009    
  -5              -6.0067e-007    -7.89e-009      2.8208e-009    
END_DB

BEGIN_DB
 ICCAP_VAR VG         -2             
 ICCAP_VAR VS         0              
 ICCAP_VAR VB         0              

 #VD              ID              IB              IG             
  0               -1.4827e-008    1.133e-008      4.505e-010     
  -0.05           -1.251e-006     -9.396e-009     -1.3923e-009   
  -0.1            -2.415e-006     2.8024e-008     -1.4039e-009   
  -0.15           -3.5177e-006    1.0438e-008     1.0149e-009    
  -0.2            -4.5559e-006    -9.24e-009      2.832e-009     
  -0.25           -5.5242e-006    -1.2968e-008    -7.717e-010    
  -0.3            -6.4148e-006    1.7284e-008     -1.8737e-009   
  -0.35           -7.2466e-006    1.1636e-008     3.272e-010     
  -0.4            -8.0193e-006    -1.9493e-008    2.6059e-009    
  -0.45           -8.7138e-006    -2.6327e-008    2.7146e-009    
  -0.5            -9.3431e-006    -1.0243e-008    1.227e-010     
  -0.55           -9.8844e-006    9.274e-009      -1.3938e-009   
  -0.6            -1.04009e-005   9.446e-009      1.3665e-009    
  -0.65           -1.0834e-005    -2.727e-008     2.6628e-009    
  -0.7            -1.12126e-005   -2.5431e-008    2.7624e-009    
  -0.75           -1.1505e-005    -1.4677e-008    7.6e-011       
  -0.8            -1.1804e-005    -1.9481e-008    2.1251e-009    
  -0.85           -1.2024e-005    -1.3005e-008    -8.573e-010    
  -0.9            -1.2202e-005    2.6607e-008     -1.4039e-009   
  -0.95           -1.2369e-005    2.5924e-008     -1.388e-009    
  -1              -1.2523e-005    1.25e-008       8.393e-010     
  -1.05           -1.2659e-005    -2.6127e-008    2.7451e-009    
  -1.1            -1.2761e-005    -2.7834e-008    2.1835e-009    
  -1.15           -1.2844e-005    -1.3091e-008    -8.313e-010    
  -1.2            -1.2911e-005    8.177e-009      -1.411e-009    
  -1.25           -1.3025e-005    1.0532e-008     1.6223e-009    
  -1.3            -1.3078e-005    -1.4175e-008    1.4572e-009    
  -1.35           -1.3139e-005    -2.8492e-008    2.4883e-009    
  -1.4            -1.3193e-005    -1.3111e-008    -6.423e-010    
  -1.45           -1.3226e-005    7.362e-009      -1.402e-009    
  -1.5            -1.327e-005     2.4436e-008     -1.3826e-009   
  -1.55           -1.3334e-005    1.186e-008      8.749e-010     
  -1.6            -1.3393e-005    -2.6659e-008    2.6991e-009    
  -1.65           -1.3436e-005    -2.6946e-008    2.1105e-009    
  -1.7            -1.3466e-005    -1.2767e-008    -8.618e-010    
  -1.75           -1.349e-005     8.197e-009      -1.4116e-009   
  -1.8            -1.357e-005     1.1995e-008     1.6638e-009    
  -1.85           -1.3596e-005    -1.3136e-008    2.738e-010     
  -1.9            -1.3593e-005    1.0419e-008     -2.547e-009    
  -1.95           -1.3643e-005    1.1765e-008     3.393e-010     
  -2              -1.3697e-005    -1.8879e-008    1.6944e-009    
  -2.05           -1.3732e-005    -2.6507e-008    2.7012e-009    
  -2.1            -1.3756e-005    -2.6807e-008    2.0932e-009    
  -2.15           -1.3779e-005    -1.2743e-008    -8.675e-010    
  -2.2            -1.3795e-005    8.237e-009      -1.4101e-009   
  -2.25           -1.3867e-005    1.2115e-008     1.666e-009     
  -2.3            -1.3889e-005    -1.3039e-008    2.67e-010      
  -2.35           -1.388e-005     1.0473e-008     -2.5423e-009   
  -2.4            -1.3915e-005    1.1751e-008     3.473e-010     
  -2.45           -1.3967e-005    -1.8974e-008    1.6945e-009    
  -2.5            -1.3994e-005    -2.6579e-008    2.6973e-009    
  -2.55           -1.4016e-005    -2.6839e-008    2.085e-009     
  -2.6            -1.4035e-005    -1.27e-008      -8.723e-010    
  -2.65           -1.4046e-005    8.196e-009      -1.4116e-009   
  -2.7            -1.4115e-005    1.2218e-008     1.6724e-009    
  -2.75           -1.4129e-005    -1.2931e-008    2.641e-010     
  -2.8            -1.4115e-005    1.0561e-008     -2.5416e-009   
  -2.85           -1.415e-005     1.1822e-008     3.537e-010     
  -2.9            -1.4198e-005    -1.8789e-008    1.6843e-009    
  -2.95           -1.4218e-005    -2.654e-008     2.6973e-009    
  -3              -1.4245e-005    -2.6701e-008    2.0823e-009    
  -3.05           -1.4255e-005    -1.268e-008     -8.744e-010    
  -3.1            -1.4261e-005    8.331e-009      -1.4113e-009   
  -3.15           -1.4334e-005    1.2266e-008     1.6773e-009    
  -3.2            -1.4346e-005    -1.2846e-008    2.618e-010     
  -3.25           -1.4324e-005    1.0718e-008     -2.5364e-009   
  -3.3            -1.4354e-005    1.1943e-008     3.541e-010     
  -3.35           -1.4402e-005    -1.8714e-008    1.6831e-009    
  -3.4            -1.4425e-005    -2.671e-008     2.6977e-009    
  -3.45           -1.4434e-005    -2.6414e-008    2.0836e-009    
  -3.5            -1.4446e-005    -1.2537e-008    -8.714e-010    
  -3.55           -1.445e-005     2.7202e-008     -1.4022e-009   
  -3.6            -1.4472e-005    2.531e-008      -1.3882e-009   
  -3.65           -1.4508e-005    1.2502e-008     8.547e-010     
  -3.7            -1.4549e-005    -2.5903e-008    2.7303e-009    
  -3.75           -1.4565e-005    -2.6775e-008    2.1344e-009    
  -3.8            -1.4573e-005    -1.214e-008     -8.456e-010    
  -3.85           -1.4574e-005    2.749e-008      -1.4027e-009   
  -3.9            -1.4627e-005    1.0754e-008     1.3782e-009    
  -3.95           -1.4642e-005    -2.0105e-008    1.7955e-009    
  -4              -1.4666e-005    -1.7343e-008    2.6282e-009    
  -4.05           -1.4681e-005    -2.2727e-008    1.9614e-009    
  -4.1            -1.4706e-005    -1.5274e-008    2.724e-009     
  -4.15           -1.4718e-005    -1.6214e-008    1.891e-009     
