! VERSION = 6.00
BEGIN_HEADER
 ICCAP_INPUTS
  VG         V  B GROUND SMU4 0.001 LIN        2    0          -5         6    -1        
  VS         V  E GROUND SMU3 0.1 CON        0
  VD         V  S GROUND SMU2 0.1 LIN        1    0          -5         101  -0.05     
  VB         V  C GROUND SMU1 0.1 LIN        3    0          2.5        2    2.5       
 ICCAP_OUTPUTS
  ID         I  S GROUND SMU2 B
  IB         I  C GROUND SMU1 B
  IG         I  B GROUND SMU4 B
END_HEADER

BEGIN_DB
 ICCAP_VAR VG         0              
 ICCAP_VAR VS         0              
 ICCAP_VAR VB         0              

 #VD              ID              IB              IG             
  0               -1.9471e-009    -5.02e-009      9.93e-011      
  -0.05           -3.408e-010     -5.006e-009     1.508e-009     
  -0.1            2.1009e-009     -3.829e-009     9.406e-010     
  -0.15           2.1771e-009     -3.552e-009     8.647e-010     
  -0.2            -2.4516e-009    -1.3449e-009    1.456e-009     
  -0.25           2.3849e-009     2.4222e-009     5.8e-010       
  -0.3            -2.3181e-009    3.8817e-009     -7.027e-010    
  -0.35           2.1732e-009     -6.6291e-009    8.689e-010     
  -0.4            -2.0186e-009    3.6628e-009     -1.0433e-009   
  -0.45           2.2621e-009     -6.0891e-009    7.806e-010     
  -0.5            -2.1204e-009    3.4318e-009     -9.097e-010    
  -0.55           2.3199e-009     -5.6376e-009    6.979e-010     
  -0.6            -2.2281e-009    4.2232e-009     -8.083e-010    
  -0.65           2.0338e-009     -5.2544e-009    1.0203e-009    
  -0.7            -2.308e-009     3.9503e-009     -7.222e-010    
  -0.75           2.1454e-009     -6.7773e-009    8.98e-010      
  -0.8            -1.9857e-009    3.7159e-009     -1.0828e-009   
  -0.85           2.2446e-009     -6.2077e-009    8.013e-010     
  -0.9            -2.094e-009     3.4895e-009     -9.399e-010    
  -0.95           2.3063e-009     -5.7518e-009    7.147e-010     
  -1              -2.2029e-009    4.3091e-009     -8.317e-010    
  -1.05           2.0097e-009     -5.3429e-009    1.0586e-009    
  -1.1            -2.2888e-009    4.0092e-009     -7.462e-010    
  -1.15           2.1156e-009     -6.9735e-009    9.254e-010     
  -1.2            -2.3441e-009    3.7779e-009     -6.622e-010    
  -1.25           2.221e-009      -6.3436e-009    8.241e-010     
  -1.3            -2.0629e-009    3.5479e-009     -9.75e-010     
  -1.35           2.2926e-009     -5.8686e-009    7.362e-010     
  -1.4            -2.1755e-009    4.4062e-009     -8.566e-010    
  -1.45           1.9834e-009     -5.4604e-009    1.1001e-009    
  -1.5            -2.2729e-009    4.0755e-009     -7.633e-010    
  -1.55           2.0852e-009     -7.1522e-009    9.547e-010     
  -1.6            -2.3319e-009    3.8387e-009     -6.813e-010    
  -1.65           2.1944e-009     -6.4892e-009    8.478e-010     
  -1.7            -2.0383e-009    3.6023e-009     -1.0113e-009   
  -1.75           2.2762e-009     -5.9904e-009    7.6e-010       
  -1.8            -2.1436e-009    4.5134e-009     -8.857e-010    
  -1.85           1.9563e-009     -5.5609e-009    1.1428e-009    
  -1.9            -2.2489e-009    4.164e-009      -7.885e-010    
  -1.95           2.0588e-009     -7.3433e-009    9.874e-010     
  -2              -2.3182e-009    3.8855e-009     -7.037e-010    
  -2.05           2.1657e-009     -6.6667e-009    8.745e-010     
  -2.1            -2.0103e-009    3.666e-009      -1.0486e-009   
  -2.15           2.262e-009      -6.0855e-009    7.827e-010     
  -2.2            -2.1162e-009    3.4407e-009     -9.135e-010    
  -2.25           2.3166e-009     -5.6597e-009    6.969e-010     
  -2.3            -2.2235e-009    4.2417e-009     -8.131e-010    
  -2.35           2.0307e-009     -5.246e-009     1.0261e-009    
  -2.4            -2.3014e-009    3.9522e-009     -7.27e-010     
  -2.45           2.1338e-009     -6.8281e-009    9.028e-010     
  -2.5            -1.978e-009     3.726e-009      -1.0869e-009   
  -2.55           2.241e-009      -6.2246e-009    8.05e-010      
  -2.6            -2.0873e-009    3.495e-009      -9.461e-010    
  -2.65           2.3051e-009     -5.7883e-009    7.19e-010      
  -2.7            -2.1928e-009    4.3283e-009     -8.363e-010    
  -2.75           2.0057e-009     -5.36e-009      1.0649e-009    
  -2.8            -2.2891e-009    4.0224e-009     -7.461e-010    
  -2.85           2.1075e-009     -7.007e-009     9.324e-010     
  -2.9            -2.3431e-009    3.7797e-009     -6.679e-010    
  -2.95           2.2174e-009     -6.3618e-009    8.289e-010     
  -3              -2.057e-009     3.5691e-009     -9.839e-010    
  -3.05           2.2938e-009     -5.8881e-009    7.422e-010     
  -3.1            -2.1687e-009    4.4267e-009     -8.609e-010    
  -3.15           1.9773e-009     -5.4783e-009    1.1061e-009    
  -3.2            -2.2659e-009    4.096e-009      -7.68e-010     
  -3.25           2.0798e-009     -7.1862e-009    9.617e-010     
  -3.3            -2.3303e-009    3.8419e-009     -6.863e-010    
  -3.35           2.1903e-009     -6.5198e-009    8.517e-010     
  -3.4            -2.0321e-009    3.6193e-009     -1.0192e-009   
  -3.45           2.2762e-009     -6.0004e-009    7.652e-010     
  -3.5            -2.1396e-009    4.5335e-009     -8.895e-010    
  -3.55           2.331e-009      -5.5779e-009    6.794e-010     
  -3.6            -2.2448e-009    4.1734e-009     -7.923e-010    
  -3.65           2.0533e-009     -7.3796e-009    9.953e-010     
  -3.7            -2.3157e-009    3.9036e-009     -7.084e-010    
  -3.75           2.162e-009      -6.6774e-009    8.797e-010     
  -3.8            -2.0019e-009    3.673e-009      -1.0529e-009   
  -3.85           2.2587e-009     -6.1274e-009    7.864e-010     
  -3.9            -2.1112e-009    3.4558e-009     -9.19e-010     
  -3.95           2.3149e-009     -5.6887e-009    6.989e-010     
  -4              -2.2211e-009    4.2552e-009     -8.156e-010    
  -4.05           2.0265e-009     -5.2612e-009    1.0349e-009    
  -4.1            -2.2972e-009    3.9726e-009     -7.302e-010    
  -4.15           2.1317e-009     -6.8596e-009    9.046e-010     
  -4.2            -1.9735e-009    3.7371e-009     -1.0921e-009   
  -4.25           2.2356e-009     -6.2522e-009    8.077e-010     
  -4.3            -2.0848e-009    3.5138e-009     -9.515e-010    
  -4.35           2.3029e-009     -5.792e-009     7.22e-010      
  -4.4            -2.1959e-009    4.3458e-009     -8.411e-010    
  -4.45           2.003e-009      -5.3667e-009    1.0693e-009    
  -4.5            -2.2819e-009    4.0273e-009     -7.468e-010    
  -4.55           2.1062e-009     -7.0432e-009    9.317e-010     
  -4.6            -2.3385e-009    3.7898e-009     -6.652e-010    
  -4.65           2.2101e-009     -6.3782e-009    8.307e-010     
  -4.7            -2.0596e-009    3.5744e-009     -9.844e-010    
  -4.75           2.2896e-009     -5.8881e-009    7.434e-010     
  -4.8            -2.1685e-009    4.4396e-009     -8.632e-010    
  -4.85           1.9757e-009     -5.4893e-009    1.1077e-009    
  -4.9            -2.263e-009     4.1003e-009     -7.699e-010    
  -4.95           2.0806e-009     -7.1889e-009    9.644e-010     
  -5              -2.3221e-009    3.8421e-009     -6.859e-010    
END_DB

BEGIN_DB
 ICCAP_VAR VG         -1             
 ICCAP_VAR VS         0              
 ICCAP_VAR VB         0              

 #VD              ID              IB              IG             
  0               3.1162e-008     -2.6e-009       -3.596e-010    
  -0.05           -1.4029e-006    -3.702e-009     -7.529e-010    
  -0.1            -2.5036e-006    -3.576e-009     1.4849e-009    
  -0.15           -3.3097e-006    -1.3956e-009    1.2385e-009    
  -0.2            -3.8885e-006    -7.5473e-009    1.4974e-009    
  -0.25           -4.2896e-006    -6.4815e-009    1.5081e-009    
  -0.3            -4.5779e-006    -6.9706e-009    1.5114e-009    
  -0.35           -4.7941e-006    -7.3812e-009    1.3723e-009    
  -0.4            -4.965e-006     -4.149e-009     1.3909e-009    
  -0.45           -5.1077e-006    -4.2968e-009    1.4052e-009    
  -0.5            -5.2334e-006    -4.4405e-009    1.4187e-009    
  -0.55           -5.3451e-006    -4.6225e-009    1.4353e-009    
  -0.6            -5.4496e-006    -4.8694e-009    1.4519e-009    
  -0.65           -5.5428e-006    -5.1921e-009    1.4673e-009    
  -0.7            -5.6356e-006    -5.5828e-009    1.4829e-009    
  -0.75           -5.7242e-006    -6.0469e-009    1.5002e-009    
  -0.8            -5.8085e-006    -6.5764e-009    1.511e-009     
  -0.85           -5.8919e-006    -7.0536e-009    1.5117e-009    
  -0.9            -5.9683e-006    -7.4168e-009    1.3753e-009    
  -0.95           -6.0473e-006    -4.1705e-009    1.3927e-009    
  -1              -6.1177e-006    -4.3241e-009    1.4081e-009    
  -1.05           -6.1925e-006    -4.4715e-009    1.4228e-009    
  -1.1            -6.2615e-006    -4.6662e-009    1.4363e-009    
  -1.15           -6.3332e-006    -4.9138e-009    1.4517e-009    
  -1.2            -6.4026e-006    -5.2459e-009    1.4688e-009    
  -1.25           -6.4721e-006    -5.6415e-009    1.4856e-009    
  -1.3            -6.543e-006     -6.124e-009     1.5024e-009    
  -1.35           -6.6066e-006    -6.6417e-009    1.5119e-009    
  -1.4            -6.6732e-006    -7.098e-009     1.3584e-009    
  -1.45           -6.738e-006     -4.0395e-009    1.3777e-009    
  -1.5            -6.7978e-006    -4.1874e-009    1.3956e-009    
  -1.55           -6.8606e-006    -4.3439e-009    1.41e-009      
  -1.6            -6.9245e-006    -4.4976e-009    1.4251e-009    
  -1.65           -6.9868e-006    -4.7004e-009    1.4404e-009    
  -1.7            -7.047e-006     -4.9586e-009    1.4539e-009    
  -1.75           -7.1111e-006    -5.3112e-009    1.4731e-009    
  -1.8            -7.1719e-006    -5.7288e-009    1.4893e-009    
  -1.85           -7.2342e-006    -6.2012e-009    1.5059e-009    
  -1.9            -7.2933e-006    -6.7413e-009    1.5118e-009    
  -1.95           -7.3495e-006    -7.1703e-009    1.3627e-009    
  -2              -7.4111e-006    -4.0718e-009    1.382e-009     
  -2.05           -7.4695e-006    -4.2177e-009    1.3987e-009    
  -2.1            -7.5261e-006    -4.3716e-009    1.4126e-009    
  -2.15           -7.5825e-006    -4.5339e-009    1.4259e-009    
  -2.2            -7.6402e-006    -4.7408e-009    1.4426e-009    
  -2.25           -7.6942e-006    -5.0155e-009    1.4579e-009    
  -2.3            -7.7523e-006    -5.3834e-009    1.4774e-009    
  -2.35           -7.8156e-006    -5.7877e-009    1.4923e-009    
  -2.4            -7.8711e-006    -6.3116e-009    1.5064e-009    
  -2.45           -7.9249e-006    -6.7905e-009    1.5112e-009    
  -2.5            -7.9856e-006    -7.2234e-009    1.3668e-009    
  -2.55           -8.0401e-006    -4.088e-009     1.3838e-009    
  -2.6            -8.0915e-006    -4.2278e-009    1.4005e-009    
  -2.65           -8.1497e-006    -4.3741e-009    1.4163e-009    
  -2.7            -8.2041e-006    -4.5251e-009    1.43e-009      
  -2.75           -8.2535e-006    -4.7413e-009    1.4457e-009    
  -2.8            -8.32e-006      -5.0148e-009    1.4597e-009    
  -2.85           -8.372e-006     -5.3605e-009    1.4775e-009    
  -2.9            -8.4284e-006    -5.7887e-009    1.4955e-009    
  -2.95           -8.4836e-006    -6.2596e-009    1.5089e-009    
  -3              -8.5395e-006    -6.7427e-009    1.5111e-009    
  -3.05           -8.5943e-006    -7.1253e-009    1.3711e-009    
  -3.1            -8.6525e-006    -3.8863e-009    1.3891e-009    
  -3.15           -8.7001e-006    -3.9749e-009    1.4026e-009    
  -3.2            -8.7523e-006    -4.049e-009     1.4179e-009    
  -3.25           -8.802e-006     -4.1451e-009    1.4326e-009    
  -3.3            -8.8555e-006    -4.2622e-009    1.4489e-009    
  -3.35           -8.9119e-006    -4.4535e-009    1.4632e-009    
  -3.4            -8.968e-006     -4.6726e-009    1.4808e-009    
  -3.45           -9.023e-006     -4.9585e-009    1.4971e-009    
  -3.5            -9.0739e-006    -5.2427e-009    1.5084e-009    
  -3.55           -9.1319e-006    -5.4708e-009    1.5134e-009    
  -3.6            -9.1822e-006    -5.5754e-009    1.3722e-009    
  -3.65           -9.2437e-006    -5.2423e-009    1.5047e-009    
  -3.7            -9.3052e-006    -2.9672e-009    1.3093e-009    
  -3.75           -9.3435e-006    -4.705e-009     1.4767e-009    
  -3.8            -9.4257e-006    -2.1398e-009    1.3918e-009    
  -3.85           -9.4667e-006    5.2e-012        1.448e-009     
  -3.9            -9.5016e-006    3.13e-011       1.4665e-009    
  -3.95           -9.5659e-006    5.743e-010      -1.4935e-009   
  -4              -9.5719e-006    1.3723e-008     -1.4595e-009   
  -4.05           -9.6263e-006    1.4238e-008     -1.3953e-009   
  -4.1            -9.6768e-006    1.6193e-008     -1.5011e-009   
  -4.15           -9.738e-006     1.7753e-008     -1.4865e-009   
  -4.2            -9.794e-006     1.9567e-008     -1.4702e-009   
  -4.25           -9.8426e-006    2.1653e-008     -1.4508e-009   
  -4.3            -9.9003e-006    2.4058e-008     -1.4352e-009   
  -4.35           -9.9499e-006    2.6993e-008     -1.4147e-009   
  -4.4            -1.00088e-005   3.029e-008      -1.3925e-009   
  -4.45           -1.00609e-005   3.3832e-008     -1.4982e-009   
  -4.5            -1.01313e-005   3.7784e-008     -1.483e-009    
  -4.55           -1.01866e-005   4.2214e-008     -1.4646e-009   
  -4.6            -1.02478e-005   4.7285e-008     -1.4481e-009   
  -4.65           -1.03074e-005   5.2964e-008     -1.4288e-009   
  -4.7            -1.03671e-005   5.9462e-008     -1.4083e-009   
  -4.75           -1.04233e-005   6.6697e-008     -1.4982e-009   
  -4.8            -1.04896e-005   7.4457e-008     -1.4926e-009   
  -4.85           -1.05515e-005   8.3084e-008     -1.4741e-009   
  -4.9            -1.06161e-005   9.2768e-008     -1.4551e-009   
  -4.95           -1.0676e-005    1.0327e-007     -1.4342e-009   
  -5              -1.0745e-005    1.1333e-007     -1.4092e-009   
END_DB

BEGIN_DB
 ICCAP_VAR VG         -2             
 ICCAP_VAR VS         0              
 ICCAP_VAR VB         0              

 #VD              ID              IB              IG             
  0               1.0489e-007     -3.922e-009     7.613e-010     
  -0.05           -5.7898e-006    1.3104e-009     -1.4625e-009   
  -0.1            -1.1469e-005    -4.8101e-009    -1.458e-009    
  -0.15           -1.6919e-005    5.4429e-009     -1.4062e-009   
  -0.2            -2.2149e-005    5.1693e-009     -1.484e-009    
  -0.25           -2.7156e-005    5.5255e-009     -1.4366e-009   
  -0.3            -3.1915e-005    5.325e-009      -1.501e-009    
  -0.35           -3.6411e-005    5.5939e-009     -1.4616e-009   
  -0.4            -4.0654e-005    5.4515e-009     -1.4089e-009   
  -0.45           -4.4636e-005    5.1822e-009     -1.484e-009    
  -0.5            -4.836e-005     5.5317e-009     -1.4391e-009   
  -0.55           -5.1812e-005    5.3334e-009     -1.5019e-009   
  -0.6            -5.5041e-005    5.6078e-009     -1.4637e-009   
  -0.65           -5.7957e-005    5.4609e-009     -1.4111e-009   
  -0.7            -6.0644e-005    5.1984e-009     -1.4881e-009   
  -0.75           -6.3083e-005    5.5375e-009     -1.4414e-009   
  -0.8            -6.5279e-005    5.3522e-009     -1.5029e-009   
  -0.85           -6.7244e-005    5.6152e-009     -1.4654e-009   
  -0.9            -6.9023e-005    5.4678e-009     -1.4156e-009   
  -0.95           -7.0584e-005    5.2095e-009     -1.4888e-009   
  -1              -7.2047e-005    5.5379e-009     -1.4409e-009   
  -1.05           -7.3289e-005    5.3627e-009     -1.5017e-009   
  -1.1            -7.444e-005     5.6166e-009     -1.4669e-009   
  -1.15           -7.5483e-005    5.474e-009      -1.4179e-009   
  -1.2            -7.6373e-005    5.2249e-009     -1.4912e-009   
  -1.25           -7.7281e-005    5.5446e-009     -1.445e-009    
  -1.3            -7.8025e-005    5.3756e-009     -1.5018e-009   
  -1.35           -7.8747e-005    5.6204e-009     -1.4691e-009   
  -1.4            -7.9422e-005    5.4837e-009     -1.4195e-009   
  -1.45           -8.0015e-005    5.237e-009      -1.4936e-009   
  -1.5            -8.0662e-005    5.5518e-009     -1.4478e-009   
  -1.55           -8.1187e-005    5.3884e-009     -1.3907e-009   
  -1.6            -8.1707e-005    5.1023e-009     -1.472e-009    
  -1.65           -8.2248e-005    5.4922e-009     -1.4214e-009   
  -1.7            -8.275e-005     5.2549e-009     -1.4972e-009   
  -1.75           -8.3248e-005    5.5632e-009     -1.4502e-009   
  -1.8            -8.3692e-005    5.3964e-009     -1.3932e-009   
  -1.85           -8.4068e-005    5.1135e-009     -1.4744e-009   
  -1.9            -8.4507e-005    5.4994e-009     -1.4235e-009   
  -1.95           -8.4939e-005    5.2676e-009     -1.4984e-009   
  -2              -8.536e-005     5.5672e-009     -1.45e-009     
  -2.05           -8.5777e-005    5.4058e-009     -1.3964e-009   
  -2.1            -8.6128e-005    5.1252e-009     -1.475e-009    
  -2.15           -8.6513e-005    5.499e-009      -1.4279e-009   
  -2.2            -8.687e-005     5.2787e-009     -1.4983e-009   
  -2.25           -8.7244e-005    5.5682e-009     -1.453e-009    
  -2.3            -8.7545e-005    5.4244e-009     -1.3996e-009   
  -2.35           -8.7926e-005    5.1483e-009     -1.4762e-009   
  -2.4            -8.8329e-005    5.5113e-009     -1.4312e-009   
  -2.45           -8.8607e-005    5.2919e-009     -1.4993e-009   
  -2.5            -8.9007e-005    5.5767e-009     -1.4557e-009   
  -2.55           -8.9288e-005    5.4344e-009     -1.4035e-009   
  -2.6            -8.9588e-005    5.1567e-009     -1.4801e-009   
  -2.65           -8.9954e-005    5.5221e-009     -1.4309e-009   
  -2.7            -9.0259e-005    5.3161e-009     -1.5009e-009   
  -2.75           -9.061e-005     5.5966e-009     -1.4578e-009   
  -2.8            -9.0909e-005    5.4533e-009     -1.4056e-009   
  -2.85           -9.1145e-005    5.1903e-009     -1.482e-009    
  -2.9            -9.1518e-005    5.5496e-009     -1.4338e-009   
  -2.95           -9.1733e-005    5.3609e-009     -1.5014e-009   
  -3              -9.2142e-005    5.6516e-009     -1.4595e-009   
  -3.05           -9.2418e-005    5.5339e-009     -1.4097e-009   
  -3.1            -9.2703e-005    5.295e-009      -1.4839e-009   
  -3.15           -9.2965e-005    5.6707e-009     -1.4376e-009   
  -3.2            -9.3218e-005    5.5364e-009     -1.5025e-009   
  -3.25           -9.3545e-005    5.8595e-009     -1.4609e-009   
  -3.3            -9.3733e-005    5.8106e-009     -1.4108e-009   
  -3.35           -9.4024e-005    5.6565e-009     -1.4842e-009   
  -3.4            -9.4305e-005    6.1268e-009     -1.4393e-009   
  -3.45           -9.4626e-005    6.117e-009      -1.502e-009    
  -3.5            -9.4814e-005    6.5951e-009     -1.4647e-009   
  -3.55           -9.5137e-005    6.7277e-009     -1.4126e-009   
  -3.6            -9.5314e-005    6.8071e-009     -1.4883e-009   
  -3.65           -9.5611e-005    7.5588e-009     -1.4405e-009   
  -3.7            -9.5878e-005    7.9011e-009     -1.501e-009    
  -3.75           -9.6168e-005    8.8044e-009     -1.467e-009    
  -3.8            -9.6445e-005    9.4384e-009     -1.4153e-009   
  -3.85           -9.676e-005     1.01358e-008    -1.4971e-009   
  -3.9            -9.7004e-005    1.943e-009      1.0756e-009    
  -3.95           -9.7353e-005    1.3182e-008     6.792e-010     
  -4              -9.7606e-005    1.5377e-008     6.452e-010     
  -4.05           -9.7844e-005    1.5483e-008     9.703e-010     
  -4.1            -9.8082e-005    1.0876e-008     1.4153e-009    
  -4.15           -9.8375e-005    1.1389e-008     1.4678e-009    
