! VERSION = 6.00
BEGIN_HEADER
 ICCAP_INPUTS
  VG         V  B GROUND SMU4 0.001 LIN        1    0          -5         101  -0.05     
  VS         V  E GROUND SMU3 0.1 CON        0
  VB         V  C GROUND SMU1 0.1 LIN        3    0          5          3    2.5       
  VD         V  S GROUND SMU2 0.1 LIN        2    -0.1       -5         2    -4.9      
 ICCAP_OUTPUTS
  IG         I  B GROUND SMU4 B
  ID         I  S GROUND SMU2 B
  IB         I  C GROUND SMU1 B
END_HEADER

BEGIN_DB
 ICCAP_VAR VS         0              
 ICCAP_VAR VB         0              
 ICCAP_VAR VD         -0.1           

 #VG              IG              ID              IB             
  0               -3.098e-010     -2.1116e-009    -4.311e-009    
  -0.05           8.306e-010      2.2084e-009     -4.367e-009    
  -0.1            1.5013e-009     -2.4805e-009    -1.5147e-009   
  -0.15           -1.3978e-009    1.4062e-009     5.3914e-009    
  -0.2            -6.749e-010     -2.2601e-009    -6.13e-011     
  -0.25           8.673e-010      2.1709e-009     -6.8343e-009   
  -0.3            -1.0203e-009    -1.9452e-009    4.2128e-009    
  -0.35           7.807e-010      2.1859e-009     -6.4518e-009   
  -0.4            -9.238e-010     -2.2322e-009    4.9615e-009    
  -0.45           1.5589e-009     -2.0325e-009    -3.9943e-009   
  -0.5            -1.4462e-009    -2.1653e-009    5.5073e-009    
  -0.55           1.5493e-009     -7.9041e-009    -6.0239e-009   
  -0.6            1.0748e-009     -1.8593e-008    5.2437e-009    
  -0.65           -1.4056e-009    -5.7071e-008    4.6432e-009    
  -0.7            1.419e-009      -1.4731e-007    2.929e-010     
  -0.75           -1.4825e-009    -3.0403e-007    3.6783e-009    
  -0.8            -6.969e-010     -5.5845e-007    -4.224e-010    
  -0.85           1.546e-009      -9.1654e-007    -4.5066e-009   
  -0.9            -1.5218e-009    -1.3344e-006    -4.8276e-009   
  -0.95           -6.026e-010     -1.83e-006      -9.356e-010    
  -1              1.436e-009      -2.3785e-006    -5.0075e-009   
  -1.05           8.124e-010      -2.9767e-006    1.537e-009     
  -1.1            -1.5195e-009    -3.4945e-006    5.3495e-009    
  -1.15           -6.08e-010      -4.0654e-006    -9.089e-010    
  -1.2            1.4319e-009     -4.6555e-006    -4.9929e-009   
  -1.25           8.126e-010      -5.2113e-006    1.5009e-009    
  -1.3            -1.52e-009      -5.7596e-006    5.34e-009      
  -1.35           -6.066e-010     -6.3019e-006    -8.893e-010    
  -1.4            1.4337e-009     -6.8482e-006    -4.9634e-009   
  -1.45           8.191e-010      -7.3583e-006    1.5074e-009    
  -1.5            -1.5187e-009    -7.8583e-006    5.3367e-009    
  -1.55           -6.087e-010     -8.3422e-006    -8.792e-010    
  -1.6            1.4303e-009     -8.841e-006     -4.9134e-009   
  -1.65           8.202e-010      -9.2956e-006    1.5154e-009    
  -1.7            -1.5188e-009    -9.7452e-006    5.3487e-009    
  -1.75           -6.079e-010     -1.01833e-005   -8.611e-010    
  -1.8            1.4298e-009     -1.06268e-005   -4.9239e-009   
  -1.85           8.224e-010      -1.1048e-005    1.4938e-009    
  -1.9            1.5575e-009     -1.1459e-005    -4.771e-010    
  -1.95           -1.5219e-009    -1.1829e-005    5.4314e-009    
  -2              -5.522e-010     -1.2222e-005    -1.1836e-009   
  -2.05           1.4649e-009     -1.2637e-005    -5.4938e-009   
  -2.1            7.606e-010      -1.2993e-005    1.8519e-009    
  -2.15           -1.5249e-009    -1.3352e-005    5.4255e-009    
  -2.2            -5.562e-010     -1.3712e-005    -1.1783e-009   
  -2.25           1.4652e-009     -1.4076e-005    -5.4828e-009   
  -2.3            7.619e-010      -1.4394e-005    1.8498e-009    
  -2.35           -1.5236e-009    -1.4729e-005    5.4254e-009    
  -2.4            -5.572e-010     -1.5059e-005    -1.1675e-009   
  -2.45           1.465e-009      -1.5399e-005    -5.4718e-009   
  -2.5            7.631e-010      -1.5697e-005    1.8291e-009    
  -2.55           -1.5203e-009    -1.5989e-005    5.4343e-009    
  -2.6            -5.552e-010     -1.6248e-005    -1.1649e-009   
  -2.65           1.4652e-009     -1.6594e-005    -5.4292e-009   
  -2.7            7.661e-010      -1.6866e-005    1.833e-009     
  -2.75           -1.5258e-009    -1.716e-005     5.4214e-009    
  -2.8            -5.589e-010     -1.7377e-005    -1.1514e-009   
  -2.85           1.4622e-009     -1.7727e-005    -5.4318e-009   
  -2.9            7.644e-010      -1.7976e-005    1.831e-009     
  -2.95           -1.5231e-009    -1.8246e-005    5.4285e-009    
  -3              -5.585e-010     -1.8508e-005    -1.1587e-009   
  -3.05           1.4624e-009     -1.8769e-005    -5.4304e-009   
  -3.1            7.624e-010      -1.9007e-005    1.8168e-009    
  -3.15           -1.523e-009     -1.9257e-005    5.426e-009     
  -3.2            -5.586e-010     -1.9493e-005    -1.1558e-009   
  -3.25           1.463e-009      -1.9749e-005    -5.4503e-009   
  -3.3            7.658e-010      -1.9966e-005    1.8122e-009    
  -3.35           -1.5221e-009    -2.0184e-005    5.4214e-009    
  -3.4            -5.593e-010     -2.0402e-005    -1.1652e-009   
  -3.45           1.4633e-009     -2.0668e-005    -5.4498e-009   
  -3.5            7.665e-010      -2.0852e-005    1.8202e-009    
  -3.55           -1.5259e-009    -2.1056e-005    5.4246e-009    
  -3.6            -5.603e-010     -2.128e-005     -1.1585e-009   
  -3.65           1.4599e-009     -2.15e-005      -5.4386e-009   
  -3.7            7.615e-010      -2.1693e-005    1.8204e-009    
  -3.75           -1.5216e-009    -2.1905e-005    5.4229e-009    
  -3.8            -5.584e-010     -2.2099e-005    -1.1703e-009   
  -3.85           1.4612e-009     -2.2299e-005    -5.4626e-009   
  -3.9            7.617e-010      -2.248e-005     1.8166e-009    
  -3.95           -1.5201e-009    -2.267e-005     5.4189e-009    
  -4              -5.564e-010     -2.2832e-005    -1.1642e-009   
  -4.05           1.465e-009      -2.3039e-005    -5.4502e-009   
  -4.1            7.644e-010      -2.3227e-005    1.8267e-009    
  -4.15           -1.5236e-009    -2.3437e-005    5.4216e-009    
  -4.2            -5.553e-010     -2.3583e-005    -1.1638e-009   
  -4.25           1.4646e-009     -2.3736e-005    -5.4585e-009   
  -4.3            7.591e-010      -2.3905e-005    1.8291e-009    
  -4.35           -1.5236e-009    -2.4058e-005    5.4187e-009    
  -4.4            -5.556e-010     -2.423e-005     -1.1664e-009   
  -4.45           1.4623e-009     -2.4402e-005    -5.4683e-009   
  -4.5            7.588e-010      -2.4526e-005    1.8479e-009    
  -4.55           -1.5202e-009    -2.4681e-005    5.4195e-009    
  -4.6            -5.556e-010     -2.4904e-005    -1.1743e-009   
  -4.65           1.4603e-009     -2.5059e-005    -5.4474e-009   
  -4.7            7.595e-010      -2.5154e-005    1.8363e-009    
  -4.75           -1.5216e-009    -2.532e-005     5.4264e-009    
  -4.8            -5.495e-010     -2.547e-005     -1.1727e-009   
  -4.85           1.4568e-009     -2.5633e-005    -5.4373e-009   
  -4.9            7.542e-010      -2.5768e-005    1.8527e-009    
  -4.95           -1.5243e-009    -2.5891e-005    5.4243e-009    
  -5              -5.514e-010     -2.5999e-005    -1.1774e-009   
END_DB

BEGIN_DB
 ICCAP_VAR VS         0              
 ICCAP_VAR VB         0              
 ICCAP_VAR VD         -5             

 #VG              IG              ID              IB             
  0               -2.498e-010     -2.0438e-009    -4.32e-009     
  -0.05           8.725e-010      2.1747e-009     -4.373e-009    
  -0.1            8.089e-010      2.2381e-009     -4.58e-009     
  -0.15           1.5064e-009     -2.4834e-009    -1.6075e-009   
  -0.2            -1.4172e-009    1.3183e-009     5.503e-009     
  -0.25           -6.338e-010     -2.376e-009     -2.58e-010     
  -0.3            8.228e-010      1.9314e-009     -4.1849e-009   
  -0.35           -1.5102e-009    -2.3338e-009    5.0751e-009    
  -0.4            1.4973e-009     -4.5868e-009    -5.1549e-009   
  -0.45           1.124e-009      -1.0844e-008    5.6589e-009    
  -0.5            -1.4014e-009    -3.525e-008     5.3042e-009    
  -0.55           -8.739e-010     -1.06771e-007   2.4278e-009    
  -0.6            1.4276e-009     -2.681e-007     8.7802e-009    
  -0.65           -1.5104e-009    -5.6857e-007    1.649e-008     
  -0.7            -6.23e-010      -1.08719e-006   1.4862e-008    
  -0.75           -7.012e-010     -1.8521e-006    2.4784e-008    
  -0.8            1.5465e-009     -2.9131e-006    3.6841e-008    
  -0.85           7.253e-010      -4.2621e-006    6.5291e-008    
  -0.9            -1.4915e-009    -5.9269e-006    8.6057e-008    
  -0.95           -6.77e-010      -7.9287e-006    9.7391e-008    
  -1              1.4993e-009     -1.0255e-005    1.2859e-007    
  -1.05           -1.3962e-009    -1.2876e-005    1.4701e-007    
  -1.1            -8.869e-010     -1.5804e-005    1.6595e-007    
  -1.15           1.4443e-009     -1.9065e-005    1.8501e-007    
  -1.2            9.416e-010      -2.2547e-005    2.1625e-007    
  -1.25           -1.4047e-009    -2.6243e-005    2.4016e-007    
  -1.3            -8.75e-010      -3.0277e-005    2.5196e-007    
  -1.35           1.4467e-009     -3.4565e-005    2.6702e-007    
  -1.4            9.238e-010      -3.9005e-005    2.935e-007     
  -1.45           -1.4139e-009    -4.3602e-005    3.1066e-007    
  -1.5            -8.687e-010     -4.848e-005     3.1596e-007    
  -1.55           1.4445e-009     -5.3614e-005    3.228e-007     
  -1.6            9.029e-010      -5.8799e-005    3.4109e-007    
  -1.65           -1.4213e-009    -6.4087e-005    3.5106e-007    
  -1.7            -8.58e-010      -6.9653e-005    3.4796e-007    
  -1.75           1.4453e-009     -7.5427e-005    3.4687e-007    
  -1.8            8.835e-010      -8.1193e-005    3.5749e-007    
  -1.85           -1.4315e-009    -8.7117e-005    3.5911e-007    
  -1.9            -8.472e-010     -9.322e-005     3.4951e-007    
  -1.95           1.4534e-009     -9.9464e-005    3.4211e-007    
  -2              8.648e-010      -0.000105672    3.461e-007     
  -2.05           -1.4362e-009    -0.000111945    3.4304e-007    
  -2.1            -1.408e-009     -0.00011838     3.2736e-007    
  -2.15           -9.211e-010     -0.00012498     3.193e-007     
  -2.2            1.4209e-009     -0.00013172     3.0645e-007    
  -2.25           9.422e-010      -0.00013845     3.0586e-007    
  -2.3            -1.4148e-009    -0.00014517     2.9771e-007    
  -2.35           -9.137e-010     -0.00015212     2.7897e-007    
  -2.4            1.423e-009      -0.00015918     2.6394e-007    
  -2.45           9.274e-010      -0.00016621     2.6225e-007    
  -2.5            -1.415e-009     -0.00017323     2.5251e-007    
  -2.55           -8.97e-010      -0.00018043     2.3364e-007    
  -2.6            1.4238e-009     -0.00018782     2.1817e-007    
  -2.65           9.124e-010      -0.00019507     2.1594e-007    
  -2.7            -1.4193e-009    -0.00020233     2.0621e-007    
  -2.75           -8.875e-010     -0.00020978     1.8702e-007    
  -2.8            1.4293e-009     -0.00021736     1.7216e-007    
  -2.85           9.027e-010      -0.00022487     1.6956e-007    
  -2.9            -1.422e-009     -0.00023233     1.6166e-007    
  -2.95           -8.685e-010     -0.00023997     1.437e-007     
  -3              1.4306e-009     -0.00024776     1.2926e-007    
  -3.05           8.862e-010      -0.0002554      1.2885e-007    
  -3.1            -1.4257e-009    -0.00026306     1.223e-007     
  -3.15           -8.583e-010     -0.00027091     1.0606e-007    
  -3.2            8.531e-010      -0.00027879     1.02577e-007   
  -3.25           -1.4403e-009    -0.00028647     9.7538e-008    
  -3.3            -8.284e-010     -0.00029442     8.2051e-008    
  -3.35           1.4588e-009     -0.00030245     7.1346e-008    
  -3.4            8.403e-010      -0.00031035     7.466e-008     
  -3.45           -1.4516e-009    -0.00031831     7.1219e-008    
  -3.5            -8.137e-010     -0.00032637     5.7446e-008    
  -3.55           1.4705e-009     -0.00033455     4.7782e-008    
  -3.6            8.26e-010       -0.0003426      5.2883e-008    
  -3.65           -1.4597e-009    -0.00035055     5.1086e-008    
  -3.7            -7.978e-010     -0.00035872     3.8462e-008    
  -3.75           1.4826e-009     -0.000367       3.0352e-008    
  -3.8            8.095e-010      -0.00037522     3.6998e-008    
  -3.85           -1.4697e-009    -0.00038331     3.6283e-008    
  -3.9            -7.801e-010     -0.00039155     2.4789e-008    
  -3.95           1.4937e-009     -0.00039993     1.783e-008     
  -4              7.925e-010      -0.00040808     2.5913e-008    
  -4.05           -1.478e-009     -0.00041631     2.6036e-008    
  -4.1            -7.631e-010     -0.0004246      1.5227e-008    
  -4.15           1.5057e-009     -0.00043295     9.253e-009     
  -4.2            7.761e-010      -0.00044123     1.8297e-008    
  -4.25           -1.4848e-009    -0.00044954     1.9074e-008    
  -4.3            -7.483e-010     -0.00045799     8.906e-009     
  -4.35           8.799e-010      -0.00046621     1.3398e-008    
  -4.4            -1.4318e-009    -0.00047452     1.5231e-008    
  -4.45           5.691e-010      -0.00048298     1.3397e-008    
  -4.5            -1.4115e-009    -0.0004913      1.2832e-008    
  -4.55           6.728e-010      -0.00049972     1.1509e-008    
  -4.6            -1.5147e-009    -0.00050807     1.1922e-008    
  -4.65           -1.4691e-009    -0.00051638     1.1553e-008    
  -4.7            -1.4213e-009    -0.00052483     8.968e-009     
  -4.75           1.5448e-009     -0.00053324     -8.5e-011      
  -4.8            -1.4329e-009    -0.00054153     9.0704e-009    
  -4.85           -7.727e-010     -0.00054998     2.9315e-009    
  -4.9            1.5036e-009     -0.00055867     -5.263e-009    
  -4.95           6.72e-010       -0.00056692     4.726e-009     
  -5              -1.4125e-009    -0.00057538     7.6935e-009    
END_DB

BEGIN_DB
 ICCAP_VAR VS         0              
 ICCAP_VAR VB         2.5            
 ICCAP_VAR VD         -0.1           

 #VG              IG              ID              IB             
  0               -2.65e-011      -1.8547e-009    -4.369e-009    
  -0.05           1.0064e-009     1.9979e-009     -4.299e-009    
  -0.1            9.319e-010      2.098e-009      -4.229e-009    
  -0.15           8.66e-010       2.1825e-009     -4.322e-009    
  -0.2            1.486e-009      -2.4867e-009    -1.4151e-009   
  -0.25           -1.5095e-009    1.4286e-009     5.414e-009     
  -0.3            1.5302e-009     -1.0668e-009    -5.385e-009    
  -0.35           -1.4154e-009    1.3476e-009     5.467e-009     
  -0.4            -6.354e-010     -2.2894e-009    -2.519e-010    
  -0.45           8.159e-010      2.2193e-009     -6.638e-009    
  -0.5            -9.54e-010      -2.0227e-009    4.0688e-009    
  -0.55           7.084e-010      2.2709e-009     -6.184e-009    
  -0.6            -8.559e-010     -2.1472e-009    4.8065e-009    
  -0.65           1.0579e-009     1.9362e-009     -5.6233e-009   
  -0.7            -7.599e-010     -2.2154e-009    4.6197e-009    
  -0.75           9.402e-010      2.0822e-009     -4.9641e-009   
  -0.8            -1.1129e-009    -1.835e-009     4.4138e-009    
  -0.85           8.476e-010      2.1848e-009     -6.7574e-009   
  -0.9            -9.835e-010     -2.0568e-009    4.1499e-009    
  -0.95           1.5545e-009     -1.921e-009     -3.7314e-009   
  -1              -1.4377e-009    -2.3886e-009    5.4986e-009    
  -1.05           -5.703e-010     -8.8546e-009    -5.742e-010    
  -1.1            -1.5057e-009    -2.6329e-008    -8.001e-009    
  -1.15           1.4141e-009     -7.9283e-008    -4.6952e-009   
  -1.2            -1.2079e-009    -2.0028e-007    5.0804e-009    
  -1.25           1.5519e-009     -4.241e-007     -7.3465e-009   
  -1.3            -1.5267e-009    -7.4902e-007    5.409e-009     
  -1.35           1.4929e-009     -1.1899e-006    3.769e-010     
  -1.4            7.226e-010      -1.6871e-006    2.0697e-009    
  -1.45           -1.511e-009     -2.232e-006     5.4713e-009    
  -1.5            1.4086e-009     -2.81e-006      -4.6272e-009   
  -1.55           8.783e-010      -3.3788e-006    1.2238e-009    
  -1.6            -1.5034e-009    -3.9403e-006    5.2306e-009    
  -1.65           -6.579e-010     -4.501e-006     -6.037e-010    
  -1.7            1.4145e-009     -5.0511e-006    -4.6891e-009   
  -1.75           8.606e-010      -5.5701e-006    1.3148e-009    
  -1.8            -1.5109e-009    -6.0772e-006    5.2862e-009    
  -1.85           -6.401e-010     -6.5821e-006    -7.001e-010    
  -1.9            1.4223e-009     -7.0724e-006    -4.8032e-009   
  -1.95           8.407e-010      -7.5349e-006    1.3941e-009    
  -2              -1.5183e-009    -7.9838e-006    5.3322e-009    
  -2.05           -6.187e-010     -8.4264e-006    -8.104e-010    
  -2.1            1.4336e-009     -8.8682e-006    -4.9248e-009   
  -2.15           8.246e-010      -9.2747e-006    1.5126e-009    
  -2.2            -1.525e-009     -9.6798e-006    5.3707e-009    
  -2.25           -6.02e-010      -1.00773e-005   -9.141e-010    
  -2.3            1.4404e-009     -1.04799e-005   -5.0512e-009   
  -2.35           8.037e-010      -1.08524e-005   1.603e-009     
  -2.4            -1.5301e-009    -1.12179e-005   5.3989e-009    
  -2.45           7.867e-010      -1.1578e-005    -1.2462e-009   
  -2.5            1.485e-009      -1.1928e-005    -4.0621e-009   
  -2.55           7.059e-010      -1.228e-005     2.1323e-009    
  -2.6            -1.3984e-009    -1.262e-005     5.4886e-009    
  -2.65           -8.683e-010     -1.2946e-005    3.411e-010     
  -2.7            1.4953e-009     -1.3283e-005    -3.8226e-009   
  -2.75           6.839e-010      -1.3592e-005    2.2558e-009    
  -2.8            -1.4042e-009    -1.3907e-005    5.5077e-009    
  -2.85           -8.521e-010     -1.4213e-005    2.851e-010     
  -2.9            1.5046e-009     -1.4518e-005    -3.929e-009    
  -2.95           6.595e-010      -1.4805e-005    2.3807e-009    
  -3              -1.4107e-009    -1.5088e-005    5.5222e-009    
  -3.05           -8.346e-010     -1.5381e-005    2.104e-010     
  -3.1            1.5231e-009     -1.566e-005     -4.0245e-009   
  -3.15           -1.5081e-009    -1.5926e-005    5.3938e-009    
  -3.2            -6.041e-010     -1.6208e-005    -8.785e-010    
  -3.25           1.4298e-009     -1.6478e-005    -4.9776e-009   
  -3.3            8.102e-010      -1.6729e-005    1.5902e-009    
  -3.35           -1.5169e-009    -1.6985e-005    5.4219e-009    
  -3.4            -5.846e-010     -1.7236e-005    -9.946e-010    
  -3.45           1.44e-009       -1.7484e-005    -5.1622e-009   
  -3.5            7.858e-010      -1.772e-005     1.7222e-009    
  -3.55           -1.5176e-009    -1.7964e-005    5.4548e-009    
  -3.6            -5.637e-010     -1.8202e-005    -1.1023e-009   
  -3.65           1.4492e-009     -1.8451e-005    -5.333e-009    
  -3.7            7.659e-010      -1.8662e-005    1.8361e-009    
  -3.75           -1.5175e-009    -1.8882e-005    5.4769e-009    
  -3.8            -5.436e-010     -1.9091e-005    -1.2068e-009   
  -3.85           1.4607e-009     -1.9303e-005    -5.5446e-009   
  -3.9            7.406e-010      -1.9532e-005    1.9575e-009    
  -3.95           -1.5173e-009    -1.9742e-005    5.4938e-009    
  -4              1.5502e-009     -1.9955e-005    -4.5872e-009   
  -4.05           -1.4077e-009    -2.0147e-005    5.5164e-009    
  -4.1            -8.463e-010     -2.0353e-005    2.59e-010      
  -4.15           1.5124e-009     -2.0553e-005    -3.9572e-009   
