! VERSION = 6.00
BEGIN_HEADER
 ICCAP_INPUTS
  VG         V  B GROUND SMU4 0.001 LIN        2    0          -5         6    -1        
  VS         V  E GROUND SMU2 0.1 CON        0
  VD         V  S GROUND SMU1 0.1 LIN        1    0          -5         101  -0.05     
  VB         V  C GROUND SMU3 0.1 LIN        3    0          2.5        2    2.5       
 ICCAP_OUTPUTS
  ID         I  S GROUND SMU1 B
  IB         I  C GROUND SMU3 B
  IG         I  B GROUND SMU4 B
END_HEADER

BEGIN_DB
 ICCAP_VAR VG         0              
 ICCAP_VAR VS         0              
 ICCAP_VAR VB         0              

 #VD              ID              IB              IG             
  0               -1.1111e-009    -1.3719e-008    -1.2553e-009   
  -0.05           -2.023e-009     -1.1098e-008    1.76e-011      
  -0.1            -2.1461e-009    -1.0814e-008    -1.588e-010    
  -0.15           -2.2304e-009    -1.1067e-008    -3.599e-010    
  -0.2            -2.2802e-009    -1.129e-008     -5.659e-010    
  -0.25           -1.5115e-009    -2.1493e-008    1.2637e-009    
  -0.3            -8.2e-011       -1.1471e-008    2.8896e-009    
  -0.35           2.0727e-009     1.0417e-008     2.88e-011      
  -0.4            2.1818e-009     1.045e-008      1.991e-010     
  -0.45           2.2807e-009     1.0549e-008     3.809e-010     
  -0.5            2.3461e-009     1.0845e-008     5.638e-010     
  -0.55           1.4962e-009     2.2999e-008     -1.3342e-009   
  -0.6            1.348e-010      1.1837e-008     -2.7197e-009   
  -0.65           -1.3641e-009    6.87e-010       -1.9265e-009   
  -0.7            -2.281e-009     -1.1343e-008    -5.904e-010    
  -0.75           -1.5287e-009    -2.0929e-008    1.262e-009     
  -0.8            -1.013e-010     -1.2113e-008    2.8815e-009    
  -0.85           2.3251e-009     1.0561e-008     1.0355e-009    
  -0.9            1.8623e-009     1.2423e-008     -1.537e-009    
  -0.95           -1.4056e-009    9.373e-009      -1.8998e-009   
  -1              -2.2702e-009    -1.1235e-008    -5.368e-010    
  -1.05           -2.2921e-009    -1.1481e-008    -7.351e-010    
  -1.1            -1.5998e-009    -1.7956e-008    2.1584e-009    
  -1.15           1.9837e-009     -7.194e-009     1.4489e-009    
  -1.2            2.0829e-009     1.0486e-008     4.92e-011      
  -1.25           2.1874e-009     1.0442e-008     2.204e-010     
  -1.3            2.2854e-009     1.0624e-008     3.985e-010     
  -1.35           2.3486e-009     1.08e-008       5.815e-010     
  -1.4            1.5059e-009     2.2435e-008     -1.3329e-009   
  -1.45           1.529e-010      1.1896e-008     -2.7131e-009   
  -1.5            -1.3506e-009    7.18e-010       -1.937e-009    
  -1.55           -2.2817e-009    -1.1315e-008    -6.121e-010    
  -1.6            -1.5414e-009    -2.046e-008     1.2596e-009    
  -1.65           -1.146e-010     -1.2259e-008    2.876e-009     
  -1.7            2.0959e-009     1.0437e-008     6.84e-011      
  -1.75           2.2022e-009     1.0473e-008     2.42e-010      
  -1.8            2.2968e-009     1.0649e-008     4.262e-010     
  -1.85           2.3562e-009     1.0807e-008     6.062e-010     
  -1.9            1.5265e-009     2.1818e-008     -1.3306e-009   
  -1.95           1.709e-010      1.2269e-008     -2.7025e-009   
  -2              -1.3316e-009    7.68e-010       -1.9495e-009   
  -2.05           -2.2851e-009    -1.133e-008     -6.4e-010      
  -2.1            -1.5554e-009    -1.994e-008     1.2574e-009    
  -2.15           -1.397e-010     -1.2799e-008    2.8751e-009    
  -2.2            2.3046e-009     1.0616e-008     1.0639e-009    
  -2.25           1.8831e-009     1.2148e-008     -1.5063e-009   
  -2.3            -1.3714e-009    9.667e-009      -1.9199e-009   
  -2.35           -2.2768e-009    -1.1262e-008    -5.814e-010    
  -2.4            -1.5198e-009    -2.1112e-008    1.2655e-009    
  -2.45           -8.79e-011      -1.1767e-008    2.8894e-009    
  -2.5            1.4497e-009     -4.61e-010      1.8745e-009    
  -2.55           2.3135e-009     1.0642e-008     4.657e-010     
  -2.6            1.4184e-009     2.5109e-008     -1.3518e-009   
  -2.65           6.5e-011        1.1489e-008     -1.322e-009    
  -2.7            2.015e-010      1.27e-008       -2.6769e-009   
  -2.75           -1.3108e-009    7.8e-010        -1.9708e-009   
  -2.8            -2.2891e-009    -1.1419e-008    -6.821e-010    
  -2.85           -1.5765e-009    -1.8942e-008    1.2498e-009    
  -2.9            -1.718e-010     -1.3231e-008    2.856e-009     
  -2.95           2.1275e-009     1.0503e-008     1.292e-010     
  -3              2.2343e-009     1.0456e-008     2.999e-010     
  -3.05           2.3199e-009     1.0713e-008     4.839e-010     
  -3.1            1.4272e-009     2.4945e-008     -1.349e-009    
  -3.15           7.18e-011       1.1326e-008     -1.3207e-009   
  -3.2            2.163e-010      1.2684e-008     -2.669e-009    
  -3.25           -1.3011e-009    9.02e-010       -1.9815e-009   
  -3.3            -1.7238e-009    -1.2919e-008    1.6758e-009    
  -3.35           1.5865e-009     -9.157e-009     1.7591e-009    
  -3.4            2.2568e-009     1.0381e-008     3.556e-010     
  -3.45           2.3347e-009     1.0763e-008     5.283e-010     
  -3.5            1.4684e-009     2.3751e-008     -1.3416e-009   
  -3.55           1.087e-010      1.1652e-008     -1.3136e-009   
  -3.6            2.507e-010      1.3464e-008     -2.6397e-009   
  -3.65           -1.2815e-009    8.65e-010       -2.0016e-009   
  -3.7            -2.2939e-009    -1.1331e-008    -7.517e-010    
  -3.75           -1.608e-009     -1.7587e-008    2.1416e-009    
  -3.8            1.9721e-009     -7.67e-009      1.467e-009     
  -3.85           2.0886e-009     1.0471e-008     6.21e-011      
  -3.9            2.1958e-009     1.0357e-008     2.323e-010     
  -3.95           2.2947e-009     1.0567e-008     4.194e-010     
  -4              2.3539e-009     1.0782e-008     5.966e-010     
  -4.05           1.519e-009      2.24e-008       -1.3302e-009   
  -4.1            1.613e-010      1.2094e-008     -2.7045e-009   
  -4.15           -1.3444e-009    6.5e-010        -1.9464e-009   
  -4.2            -2.2848e-009    -1.1464e-008    -6.345e-010    
  -4.25           -1.5494e-009    -2.0244e-008    1.2561e-009    
  -4.3            -1.332e-010     -1.2672e-008    2.8727e-009    
  -4.35           2.104e-009      1.0466e-008     7.93e-011      
  -4.4            2.2112e-009     1.0456e-008     2.576e-010     
  -4.45           2.3033e-009     1.0728e-008     4.429e-010     
  -4.5            1.3946e-009     2.5674e-008     -1.3559e-009   
  -4.55           4.2e-011        1.1292e-008     -1.3235e-009   
  -4.6            1.802e-010      1.2083e-008     -2.6965e-009   
  -4.65           -1.3255e-009    7.17e-010       -1.957e-009    
  -4.7            -2.2875e-009    -1.1365e-008    -6.55e-010     
  -4.75           -2.285e-009     -1.1251e-008    -8.455e-010    
  -4.8            -2.2524e-009    -1.1055e-008    -9.929e-010    
  -4.85           -1.7163e-009    -1.32e-008      1.711e-009     
  -4.9            1.6179e-009     -9.308e-009     1.743e-009     
  -4.95           2.2523e-009     1.0428e-008     3.388e-010     
  -5              2.3303e-009     1.0839e-008     5.186e-010     
END_DB

BEGIN_DB
 ICCAP_VAR VG         -1             
 ICCAP_VAR VS         0              
 ICCAP_VAR VB         0              

 #VD              ID              IB              IG             
  0               -1.8675e-008    -9.023e-009     -1.4151e-009   
  -0.05           -9.3423e-007    -1.0993e-008    2.8863e-009    
  -0.1            -1.5491e-006    1.0439e-008     1.3673e-009    
  -0.15           -1.9296e-006    -1.134e-008     -9.316e-010    
  -0.2            -2.1697e-006    2.1306e-008     -1.6366e-009   
  -0.25           -2.3506e-006    1.0149e-008     2.0937e-009    
  -0.3            -2.4871e-006    -1.3878e-008    3.086e-010     
  -0.35           -2.551e-006     1.0359e-008     -1.3441e-009   
  -0.4            -2.6584e-006    1.0579e-008     1.15e-009      
  -0.45           -2.742e-006     -2.4939e-008    1.367e-009     
  -0.5            -2.7815e-006    -1.1453e-008    -9.417e-010    
  -0.55           -2.8409e-006    2.1528e-008     -1.6282e-009   
  -0.6            -2.9204e-006    1.0064e-008     2.0994e-009    
  -0.65           -2.9918e-006    -1.37e-008      2.947e-010     
  -0.7            -3.0087e-006    1.0324e-008     -1.3412e-009   
  -0.75           -3.0955e-006    1.059e-008      1.1592e-009    
  -0.8            -3.1581e-006    -2.4817e-008    1.3641e-009    
  -0.85           -3.1828e-006    -1.1472e-008    -9.5e-010      
  -0.9            -3.2279e-006    2.1527e-008     -1.6237e-009   
  -0.95           -3.299e-006     9.952e-009      2.1097e-009    
  -1              -3.3693e-006    -1.3639e-008    2.909e-010     
  -1.05           -3.3752e-006    1.0587e-008     -1.3406e-009   
  -1.1            -3.4278e-006    1.1198e-008     7.98e-011      
  -1.15           -3.5188e-006    -1.1607e-008    2.7629e-009    
  -1.2            -3.5703e-006    -1.2897e-008    2.231e-010     
  -1.25           -3.5729e-006    1.1142e-008     -1.327e-009    
  -1.3            -3.6257e-006    1.8874e-008     -1.8758e-009   
  -1.35           -3.6746e-006    1.0471e-008     3.106e-010     
  -1.4            -3.7651e-006    -1.533e-008     2.5171e-009    
  -1.45           -3.8128e-006    -1.1779e-008    2.3e-012       
  -1.5            -3.8143e-006    1.1446e-008     -2.6743e-009   
  -1.55           -3.9039e-006    1.0524e-008     1.2242e-009    
  -1.6            -3.9553e-006    -2.549e-008     1.3286e-009    
  -1.65           -3.9675e-006    -1.1413e-008    -1.0112e-009   
  -1.7            -4.0081e-006    2.2518e-008     -1.5537e-009   
  -1.75           -4.0625e-006    1.0359e-008     6.103e-010     
  -1.8            -4.144e-006     -1.8982e-008    2.0807e-009    
  -1.85           -4.182e-006     -1.1075e-008    -3.034e-010    
  -1.9            -4.1943e-006    1.3007e-008     -2.409e-009    
  -1.95           -4.2497e-006    1.1826e-008     -6.03e-011     
  -2              -4.3374e-006    -9.192e-009     2.8504e-009    
  -2.05           -4.3849e-006    -1.4782e-008    1.5462e-009    
  -2.1            -4.4035e-006    -1.1039e-008    -7.227e-010    
  -2.15           -4.4325e-006    1.8566e-008     -1.9104e-009   
  -2.2            -4.481e-006     1.052e-008      2.939e-010     
  -2.25           -4.577e-006     -1.5029e-008    2.5484e-009    
  -2.3            -4.6221e-006    -1.1884e-008    2.77e-011      
  -2.35           -4.6162e-006    1.1408e-008     -2.6884e-009   
  -2.4            -4.7086e-006    1.046e-008      1.2052e-009    
  -2.45           -4.7633e-006    -2.5226e-008    1.3407e-009    
  -2.5            -4.8151e-006    -1.2706e-008    1.876e-010     
  -2.55           -4.8054e-006    1.1418e-008     -1.3218e-009   
  -2.6            -4.9036e-006    1.0642e-008     1.2799e-009    
  -2.65           -4.9525e-006    -2.5804e-008    1.3097e-009    
  -2.7            -4.9547e-006    -1.1237e-008    -1.062e-009    
  -2.75           -4.9982e-006    2.3341e-008     -1.5148e-009   
  -2.8            -5.0579e-006    1.0566e-008     6.668e-010     
  -2.85           -5.1385e-006    -1.9794e-008    1.9777e-009    
  -2.9            -5.1726e-006    -1.0834e-008    -3.714e-010    
  -2.95           -5.1837e-006    1.4021e-008     -2.3475e-009   
  -3              -5.2952e-006    1.1758e-008     1.5706e-009    
  -3.05           -5.3261e-006    -2.418e-008     1.2502e-009    
  -3.1            -5.3742e-006    -1.1118e-008    -1.734e-010    
  -3.15           -5.3729e-006    1.2105e-008     -2.5393e-009   
  -3.2            -5.436e-006     1.3212e-008     -1.638e-010    
  -3.25           -5.5239e-006    -7.972e-009     2.8908e-009    
  -3.3            -5.5711e-006    -1.6502e-008    1.6908e-009    
  -3.35           -5.5952e-006    -1.0246e-008    -5.924e-010    
  -3.4            -5.6165e-006    1.7492e-008     -2.0782e-009   
  -3.45           -5.6643e-006    1.194e-008      1.741e-010     
  -3.5            -5.7717e-006    -1.2051e-008    2.6784e-009    
  -3.55           -5.8225e-006    -1.0784e-008    1.369e-010     
  -3.6            -5.8134e-006    1.3419e-008     -1.3131e-009   
  -3.65           -5.9179e-006    1.2769e-008     1.3324e-009    
  -3.7            -5.9607e-006    -5.871e-009     2.9005e-009    
  -3.75           -6.0127e-006    -1.743e-008     1.7757e-009    
  -3.8            -6.0646e-006    -1.7224e-008    1.7384e-009    
  -3.85           -6.1117e-006    -1.6622e-008    1.7043e-009    
  -3.9            -6.1705e-006    -3.599e-009     2.881e-009     
  -3.95           -6.2198e-006    -2.792e-009     2.8678e-009    
  -4              -6.2727e-006    -2.116e-009     2.8578e-009    
  -4.05           -6.3215e-006    -1.38e-009      2.8437e-009    
  -4.1            -6.3726e-006    -2.3e-010       2.8334e-009    
  -4.15           -6.4234e-006    1.002e-009      2.8177e-009    
  -4.2            -6.4751e-006    2.211e-009      2.7986e-009    
  -4.25           -6.5318e-006    3.958e-009      2.7822e-009    
  -4.3            -6.5434e-006    2.6179e-008     2.436e-009     
  -4.35           -6.5988e-006    2.4243e-008     2.9053e-009    
  -4.4            -6.6299e-006    1.0828e-008     -1.0839e-009   
  -4.45           -6.6763e-006    4.904e-008      -1.4951e-009   
  -4.5            -6.762e-006     3.8635e-008     2.2347e-009    
  -4.55           -6.8517e-006    2.0623e-008     1.55e-010      
  -4.6            -6.8381e-006    4.8752e-008     -1.3145e-009   
  -4.65           -6.9206e-006    5.1306e-008     2.722e-009     
  -4.7            -6.9842e-006    3.7161e-008     -5.738e-010    
  -4.75           -7.0065e-006    7.0724e-008     -2.0873e-009   
  -4.8            -7.1409e-006    7.2587e-008     1.7604e-009    
  -4.85           -7.1786e-006    4.7486e-008     1.9739e-009    
  -4.9            -7.1901e-006    6.5435e-008     -1.9074e-009   
  -4.95           -7.2784e-006    1.06081e-007    1.2685e-009    
  -5              -7.3682e-006    8.7687e-008     1.4411e-009    
END_DB

BEGIN_DB
 ICCAP_VAR VG         -2             
 ICCAP_VAR VS         0              
 ICCAP_VAR VB         0              

 #VD              ID              IB              IG             
  0               -8.4106e-008    1.0522e-008     1.407e-010     
  -0.05           -6.2486e-006    -9.276e-009     -1.3743e-009   
  -0.1            -1.2124e-005    1.108e-008      1.857e-010     
  -0.15           -1.7647e-005    1.3383e-008     -2.3837e-009   
  -0.2            -2.2906e-005    1.0334e-008     2.0339e-009    
  -0.25           -2.7817e-005    -1.1529e-008    -9.7e-011      
  -0.3            -3.2345e-005    1.8051e-008     -1.9557e-009   
  -0.35           -3.6598e-005    1.072e-008      7.644e-010     
  -0.4            -4.0519e-005    -2.5346e-008    1.3342e-009    
  -0.45           -4.4064e-005    -1.0981e-008    -3.331e-010    
  -0.5            -4.7251e-005    2.0761e-008     -1.6918e-009   
  -0.55           -5.0184e-005    1.253e-008      -1.455e-010    
  -0.6            -5.2877e-005    -1.5619e-008    2.4925e-009    
  -0.65           -5.5174e-005    -1.0955e-008    -5.844e-010    
  -0.7            -5.7197e-005    2.3449e-008     -1.5049e-009   
  -0.75           -5.9133e-005    1.0596e-008     1.1357e-009    
  -0.8            -6.0748e-005    -2.3467e-008    1.2412e-009    
  -0.85           -6.2142e-005    -1.1214e-008    -8.108e-010    
  -0.9            -6.3381e-005    2.6037e-008     -1.4111e-009   
  -0.95           -6.4654e-005    1.0679e-008     1.3239e-009    
  -1              -6.5644e-005    -1.8922e-008    1.8249e-009    
  -1.05           -6.6596e-005    -1.2617e-008    1.83e-010      
  -1.1            -6.7292e-005    1.3633e-008     -2.379e-009    
  -1.15           -6.8189e-005    1.0385e-008     2.0495e-009    
  -1.2            -6.8917e-005    -1.1418e-008    -1.031e-010    
  -1.25           -6.9455e-005    1.8106e-008     -1.9459e-009   
  -1.3            -7.015e-005     1.088e-008      7.783e-010     
  -1.35           -7.0811e-005    -2.5395e-008    1.3281e-009    
  -1.4            -7.133e-005     -1.0928e-008    -3.544e-010    
  -1.45           -7.1768e-005    2.08e-008       -1.6704e-009   
  -1.5            -7.2308e-005    1.2404e-008     -1.379e-010    
  -1.55           -7.2927e-005    -1.5777e-008    2.4646e-009    
  -1.6            -7.3323e-005    -1.0969e-008    -5.997e-010    
  -1.65           -7.3705e-005    2.3463e-008     -1.4954e-009   
  -1.7            -7.4294e-005    1.0585e-008     1.1491e-009    
  -1.75           -7.4706e-005    -2.3229e-008    2.1352e-009    
  -1.8            -7.5065e-005    -1.1346e-008    -8.27e-010     
  -1.85           -7.5412e-005    2.6272e-008     -1.4079e-009   
  -1.9            -7.6007e-005    1.0782e-008     1.345e-009     
  -1.95           -7.636e-005     -1.849e-008     1.8035e-009    
  -2              -7.6651e-005    -1.1407e-008    -1.0112e-009   
  -2.05           -7.6987e-005    2.8001e-008     -1.3612e-009   
  -2.1            -7.7414e-005    1.037e-008      4.714e-010     
  -2.15           -7.7889e-005    -2.2249e-008    1.5301e-009    
  -2.2            -7.8257e-005    -1.1685e-008    -2.34e-011     
  -2.25           -7.8452e-005    1.6883e-008     -2.0721e-009   
  -2.3            -7.8886e-005    1.065e-008      6.888e-010     
  -2.35           -7.9316e-005    -2.4705e-008    1.3659e-009    
  -2.4            -7.9638e-005    -1.1085e-008    -2.481e-010    
  -2.45           -7.9853e-005    1.9921e-008     -1.7795e-009   
  -2.5            -8.0285e-005    1.0952e-008     8.858e-010     
  -2.55           -8.0673e-005    -2.6162e-008    1.2893e-009    
  -2.6            -8.0945e-005    -1.0814e-008    -4.947e-010    
  -2.65           -8.1174e-005    2.2341e-008     -1.5602e-009   
  -2.7            -8.1634e-005    1.0565e-008     1.0697e-009    
  -2.75           -8.1951e-005    -2.469e-008     1.2511e-009    
  -2.8            -8.2197e-005    -1.1025e-008    -7.338e-010    
  -2.85           -8.243e-005     2.5167e-008     -1.4369e-009   
  -2.9            -8.2759e-005    1.0879e-008     1.742e-010     
  -2.95           -8.3207e-005    -1.9749e-008    1.9442e-009    
  -3              -8.3403e-005    -1.1309e-008    -9.356e-010    
  -3.05           -8.3654e-005    2.7619e-008     -1.3769e-009   
  -3.1            -8.3994e-005    1.0623e-008     3.896e-010     
  -3.15           -8.442e-005     -2.0864e-008    1.6324e-009    
  -3.2            -8.4729e-005    -1.1381e-008    6.01e-011      
  -3.25           -8.4835e-005    1.6209e-008     -2.1992e-009   
  -3.3            -8.5261e-005    1.0703e-008     2.1627e-009    
  -3.35           -8.5591e-005    -2.2297e-008    1.4199e-009    
  -3.4            -8.5895e-005    -1.7714e-008    2.0391e-009    
  -3.45           -8.6191e-005    -2.2342e-008    1.3839e-009    
  -3.5            -8.6454e-005    -1.7383e-008    1.9439e-009    
  -3.55           -8.6771e-005    -1.0555e-008    2.6479e-009    
  -3.6            -8.7035e-005    -1.6659e-008    1.8535e-009    
  -3.65           -8.7334e-005    -9.966e-009     2.5853e-009    
  -3.7            -8.7589e-005    -1.4938e-008    1.7789e-009    
  -3.75           -8.7896e-005    -8.162e-009     2.5251e-009    
  -3.8            -8.8169e-005    -6.6e-011       2.8852e-009    
  -3.85           -8.8442e-005    -5.313e-009     2.4469e-009    
  -3.9            -8.8624e-005    2.2318e-008     2.314e-009     
  -3.95           -8.898e-005     2.359e-009      2.6812e-009    
  -4              -8.9091e-005    7.43e-009       -1.9307e-009   
  -4.05           -8.9369e-005    3.404e-008      -1.81e-011     
  -4.1            -8.9759e-005    2.3527e-008     1.8475e-009    
  -4.15           -8.9958e-005    2.3206e-008     -2.3102e-009   
