! VERSION = 6.00
BEGIN_HEADER
 ICCAP_INPUTS
  VG         V  B GROUND SMU4 0.001 LIN        1    0          -5         101  -0.05     
  VS         V  E GROUND SMU2 0.1 CON        0
  VB         V  C GROUND SMU3 0.1 LIN        3    0          5          3    2.5       
  VD         V  S GROUND SMU1 0.1 LIN        2    -0.1       -5         2    -4.9      
 ICCAP_OUTPUTS
  IG         I  B GROUND SMU4 B
  ID         I  S GROUND SMU1 B
  IB         I  C GROUND SMU3 B
END_HEADER

BEGIN_DB
 ICCAP_VAR VS         0              
 ICCAP_VAR VB         0              
 ICCAP_VAR VD         -0.1           

 #VG              IG              ID              IB             
  0               -1.3286e-009    -1.2072e-009    -8.425e-009    
  -0.05           1.6184e-009     -1.7746e-009    -1.2587e-008   
  -0.1            1.8659e-009     1.5137e-009     -9.002e-009    
  -0.15           4.43e-010       2.3495e-009     1.059e-008     
  -0.2            6.467e-010      2.4044e-009     1.1088e-008    
  -0.25           -1.3333e-009    1.5916e-009     2.0763e-008    
  -0.3            -2.6847e-009    2.151e-010      1.3038e-008    
  -0.35           -2.0054e-009    -1.3137e-009    9.16e-010      
  -0.4            -7.464e-010     -2.3488e-009    -1.175e-008    
  -0.45           -9.32e-010      -2.3761e-009    -1.1477e-008   
  -0.5            -1.0963e-009    -2.5211e-009    -1.1326e-008   
  -0.55           1.571e-009      -2.8293e-009    -1.245e-008    
  -0.6            1.3985e-009     -3.4305e-009    -8.771e-009    
  -0.65           -1.9808e-009    -1.2738e-008    -1.1315e-008   
  -0.7            -1.4977e-009    -3.9433e-008    4.816e-009     
  -0.75           2.5456e-009     -1.0984e-007    -1.2817e-008   
  -0.8            4.266e-010      -2.8466e-007    1.0401e-008    
  -0.85           8.758e-010      -6.7378e-007    1.1156e-008    
  -0.9            -2.5783e-009    -1.4202e-006    -1.1351e-008   
  -0.95           -1.996e-009     -2.6862e-006    1.438e-009     
  -1              -1.5117e-009    -4.541e-006     4.571e-009     
  -1.05           -1.3687e-009    -6.9494e-006    9.757e-009     
  -1.1            -2.6749e-009    -9.7456e-006    1.0999e-008    
  -1.15           1.3948e-009     -1.2893e-005    9.46e-010      
  -1.2            1.2603e-009     -1.6066e-005    -8.347e-009    
  -1.25           2.7111e-009     -1.9283e-005    -1.3099e-008   
  -1.3            6.34e-010       -2.2424e-005    1.0506e-008    
  -1.35           1.0511e-009     -2.5608e-005    1.0942e-008    
  -1.4            -1.17e-010      -2.8627e-005    1.2163e-008    
  -1.45           3.136e-010      -3.1633e-005    1.0215e-008    
  -1.5            7.641e-010      -3.459e-005     1.073e-008     
  -1.55           -1.5769e-009    -3.741e-005     1.7649e-008    
  -1.6            -1.3822e-009    -4.0156e-005    9.071e-009     
  -1.65           -2.7163e-009    -4.2827e-005    1.1351e-008    
  -1.7            -2.2897e-009    -4.5458e-005    8.72e-010      
  -1.75           -1.686e-009     -4.7982e-005    3.206e-009     
  -1.8            -1.4092e-009    -5.0471e-005    7.532e-009     
  -1.85           -1.3311e-009    -5.2863e-005    1.1435e-008    
  -1.9            -2.4486e-009    -5.5167e-005    1.323e-008     
  -1.95           -1.8274e-009    -5.7465e-005    2.446e-009     
  -2              -1.449e-009     -5.9663e-005    6.106e-009     
  -2.05           -1.3473e-009    -6.1812e-005    1.066e-008     
  -2.1            -2.5716e-009    -6.3895e-005    1.1594e-008    
  -2.15           -1.992e-009     -6.5956e-005    1.452e-009     
  -2.2            -1.5106e-009    -6.7946e-005    4.861e-009     
  -2.25           -1.3674e-009    -6.9896e-005    9.74e-009      
  -2.3            -2.6674e-009    -7.1788e-005    1.1365e-008    
  -2.35           -2.1633e-009    -7.3673e-005    9.02e-010      
  -2.4            -1.5985e-009    -7.5482e-005    3.822e-009     
  -2.45           -1.3872e-009    -7.7268e-005    8.705e-009     
  -2.5            -2.7355e-009    -7.9011e-005    1.1436e-008    
  -2.55           -2.3293e-009    -8.0734e-005    7.2e-010       
  -2.6            -1.7263e-009    -8.24e-005      2.895e-009     
  -2.65           -1.4194e-009    -8.4035e-005    7.074e-009     
  -2.7            -1.3342e-009    -8.5636e-005    1.1231e-008    
  -2.75           -2.4853e-009    -8.7199e-005    1.2674e-008    
  -2.8            -7.872e-010     -8.8786e-005    -1.1167e-008   
  -2.85           1.674e-009      -9.0357e-005    -1.6813e-008   
  -2.9            1.3197e-009     -9.1815e-005    -9.043e-009    
  -2.95           2.9033e-009     -9.3283e-005    -8.894e-009    
  -3              3.313e-010      -9.4673e-005    1.0364e-008    
  -3.05           7.904e-010      -9.6109e-005    1.0925e-008    
  -3.1            -1.5601e-009    -9.7501e-005    1.7161e-008    
  -3.15           -1.3776e-009    -9.8827e-005    9.149e-009     
  -3.2            -2.7106e-009    -0.00010014     1.124e-008     
  -3.25           -2.2516e-009    -0.000101482    8.87e-010      
  -3.3            -1.6641e-009    -0.00010277     3.216e-009     
  -3.35           -1.404e-009     -0.000104031    7.898e-009     
  -3.4            -1.3267e-009    -0.000105279    1.1561e-008    
  -3.45           -2.4251e-009    -0.000106493    1.3426e-008    
  -3.5            -1.7949e-009    -0.000107704    2.457e-009     
  -3.55           -1.4399e-009    -0.000108899    6.317e-009     
  -3.6            -1.3448e-009    -0.000110055    1.0908e-008    
  -3.65           -2.5512e-009    -0.000111188    1.1925e-008    
  -3.7            -1.9642e-009    -0.000112355    1.639e-009     
  -3.75           -1.4996e-009    -0.00011347     5.055e-009     
  -3.8            2.0453e-009     -0.0001146      9.795e-009     
  -3.85           1.4545e-009     -0.0001157      -8.464e-009    
  -3.9            1.2745e-009     -0.00011676     -8.788e-009    
  -3.95           2.788e-009      -0.00011779     -1.1189e-008   
  -4              5.354e-010      -0.0001188      1.0468e-008    
  -4.05           -1.8254e-009    -0.00011984     2.3579e-008    
  -4.1            -1.4441e-009    -0.00012082     6.106e-009     
  -4.15           -1.3447e-009    -0.00012181     1.0828e-008    
  -4.2            -2.5582e-009    -0.00012275     1.1685e-008    
  -4.25           -1.9679e-009    -0.00012375     1.64e-009      
  -4.3            -1.5014e-009    -0.00012466     4.735e-009     
  -4.35           -1.3633e-009    -0.0001256      1.0037e-008    
  -4.4            -2.6583e-009    -0.00012651     1.1236e-008    
  -4.45           -2.1404e-009    -0.00012741     8.82e-010      
  -4.5            -1.5867e-009    -0.00012829     3.909e-009     
  -4.55           -1.3867e-009    -0.00012917     8.883e-009     
  -4.6            -2.7322e-009    -0.00013005     1.1383e-008    
  -4.65           -2.3078e-009    -0.0001309      8.13e-010      
  -4.7            -1.7001e-009    -0.00013171     3.137e-009     
  -4.75           -1.416e-009     -0.00013255     7.419e-009     
  -4.8            -1.3309e-009    -0.00013334     1.121e-008     
  -4.85           -2.4703e-009    -0.00013412     1.2789e-008    
  -4.9            -1.8447e-009    -0.00013495     2.312e-009     
  -4.95           -1.4566e-009    -0.00013571     6.051e-009     
  -5              -1.3502e-009    -0.00013649     1.0514e-008    
END_DB

BEGIN_DB
 ICCAP_VAR VS         0              
 ICCAP_VAR VB         0              
 ICCAP_VAR VD         -5             

 #VG              IG              ID              IB             
  0               8.928e-010      8.696e-010      2.4695e-008    
  -0.05           1.7142e-009     1.6984e-009     -9.148e-009    
  -0.1            1.9143e-009     1.4392e-009     9.919e-009     
  -0.15           5.005e-010      2.3607e-009     1.0698e-008    
  -0.2            -1.3507e-009    1.4803e-009     2.4237e-008    
  -0.25           -1.3231e-009    9.66e-011       1.1459e-008    
  -0.3            -2.6385e-009    2.149e-010      1.4026e-008    
  -0.35           -2.043e-009     -1.481e-009     1.072e-009     
  -0.4            -8.299e-010     -3.0352e-009    -1.1429e-008   
  -0.45           2.0029e-009     -4.1732e-009    -1.5696e-008   
  -0.5            1.687e-009      -8.0877e-009    -8.677e-009    
  -0.55           -2.2074e-009    -2.8002e-008    -1.0774e-008   
  -0.6            -1.6131e-009    -8.4537e-008    5.466e-009     
  -0.65           1.3584e-009     -2.4907e-007    4.76e-009      
  -0.7            2.923e-009      -6.2678e-007    3.689e-009     
  -0.75           8.764e-010      -1.409e-006     2.8196e-008    
  -0.8            1.2812e-009     -2.967e-006     6.3508e-008    
  -0.85           -3.803e-010     -5.6215e-006    1.0924e-007    
  -0.9            -8.621e-010     -9.7273e-006    1.4901e-007    
  -0.95           9.996e-010      -1.5711e-005    2.2472e-007    
  -1              1.4172e-009     -2.3697e-005    3.6449e-007    
  -1.05           1.8804e-009     -3.3481e-005    4.8738e-007    
  -1.1            2.307e-009      -4.4893e-005    6.192e-007     
  -1.15           2.6225e-009     -5.8132e-005    7.5937e-007    
  -1.2            2.9491e-009     -7.3087e-005    9.0242e-007    
  -1.25           3.0034e-009     -8.954e-005     1.03905e-006   
  -1.3            -5.186e-010     -0.0001072      1.2004e-006    
  -1.35           -1.792e-010     -0.00012611     1.3288e-006    
  -1.4            2.229e-010      -0.00014622     1.4517e-006    
  -1.45           6.835e-010      -0.0001677      1.5736e-006    
  -1.5            1.0962e-009     -0.00019021     1.6894e-006    
  -1.55           1.5112e-009     -0.00021371     1.792e-006     
  -1.6            1.9584e-009     -0.00023759     1.8851e-006    
  -1.65           2.3418e-009     -0.00026197     1.9645e-006    
  -1.7            2.6433e-009     -0.00028739     2.0348e-006    
  -1.75           2.9399e-009     -0.00031351     2.0937e-006    
  -1.8            2.9139e-009     -0.00034074     2.1365e-006    
  -1.85           2.5111e-009     -0.00036819     2.1728e-006    
  -1.9            1.8015e-009     -0.0003961      2.1975e-006    
  -1.95           1.3678e-009     -0.00042461     2.2103e-006    
  -2              1.2674e-009     -0.00045344     2.2207e-006    
  -2.05           2.6448e-009     -0.0004828      2.2144e-006    
  -2.1            1.9501e-009     -0.00051222     2.2176e-006    
  -2.15           1.4157e-009     -0.00054232     2.1947e-006    
  -2.2            1.2722e-009     -0.00057277     2.1689e-006    
  -2.25           2.7417e-009     -0.00060365     2.1385e-006    
  -2.3            2.1214e-009     -0.00063439     2.1094e-006    
  -2.35           1.494e-009      -0.00066587     2.0632e-006    
  -2.4            1.2852e-009     -0.00069757     2.0128e-006    
  -2.45           2.8181e-009     -0.00072962     1.9621e-006    
  -2.5            2.2936e-009     -0.00076155     1.9121e-006    
  -2.55           1.5983e-009     -0.00079407     1.8522e-006    
  -2.6            1.3035e-009     -0.00082672     1.7861e-006    
  -2.65           2.8763e-009     -0.00085978     1.7234e-006    
  -2.7            2.4462e-009     -0.00089252     1.6672e-006    
  -2.75           1.7329e-009     -0.00092587     1.6009e-006    
  -2.8            1.3383e-009     -0.00095945     1.5275e-006    
  -2.85           2.9105e-009     -0.00099311     1.4633e-006    
  -2.9            2.5867e-009     -0.00102666     1.404e-006     
  -2.95           1.8939e-009     -0.00106072     1.3366e-006    
  -3              1.3863e-009     -0.00109489     1.2646e-006    
  -3.05           1.2581e-009     -0.00112918     1.1983e-006    
  -3.1            -2.3339e-009    -0.0011623      1.1463e-006    
  -3.15           -1.7078e-009    -0.0011967      1.0882e-006    
  -3.2            -1.4159e-009    -0.0012314      1.0309e-006    
  -3.25           2.7892e-009     -0.0012666      9.6489e-007    
  -3.3            2.2383e-009     -0.0013018      9.0657e-007    
  -3.35           1.556e-009      -0.0013369      8.4765e-007    
  -3.4            1.2972e-009     -0.0013718      7.9344e-007    
  -3.45           2.8564e-009     -0.0014071      7.4229e-007    
  -3.5            2.3919e-009     -0.0014422      7.025e-007     
  -3.55           1.6827e-009     -0.0014775      6.5192e-007    
  -3.6            1.3266e-009     -0.0015129      6.042e-007     
  -3.65           2.9012e-009     -0.0015487      5.6248e-007    
  -3.7            2.5446e-009     -0.0015845      5.3062e-007    
  -3.75           1.8431e-009     -0.0016202      4.8978e-007    
  -3.8            1.3696e-009     -0.0016559      4.4974e-007    
  -3.85           2.9262e-009     -0.0016916      4.1718e-007    
  -3.9            2.6664e-009     -0.0017272      3.9391e-007    
  -3.95           2.0064e-009     -0.0017631      3.6163e-007    
  -4              1.4331e-009     -0.0017992      3.2796e-007    
  -4.05           1.2716e-009     -0.0018351      3.0193e-007    
  -4.1            2.7722e-009     -0.0018713      2.75e-007      
  -4.15           2.193e-009      -0.0019067      2.6244e-007    
  -4.2            1.5304e-009     -0.0019431      2.3584e-007    
  -4.25           1.2916e-009     -0.0019791      2.1486e-007    
  -4.3            2.8475e-009     -0.0020152      1.9528e-007    
  -4.35           2.3521e-009     -0.0020511      1.872e-007     
  -4.4            1.6469e-009     -0.0020872      1.6697e-007    
  -4.45           1.3179e-009     -0.0021236      1.4927e-007    
  -4.5            2.8899e-009     -0.0021598      1.3625e-007    
  -4.55           2.5121e-009     -0.0021953      1.3181e-007    
  -4.6            1.8019e-009     -0.0022317      1.1696e-007    
  -4.65           2.3082e-009     -0.0022675      1.2003e-007    
  -4.7            2.6247e-009     -0.0023036      1.0889e-007    
  -4.75           6.69e-011       -0.0023404      8.017e-008     
  -4.8            -2.5492e-009    -0.0023758      9.3275e-008    
  -4.85           -1.3272e-009    -0.0024111      6.7607e-008    
  -4.9            -2.4282e-009    -0.0024472      8.2686e-008    
  -4.95           -1.7985e-009    -0.0024833      6.5784e-008    
  -5              -1.4391e-009    -0.0025196      6.4101e-008    
END_DB

BEGIN_DB
 ICCAP_VAR VS         0              
 ICCAP_VAR VB         2.5            
 ICCAP_VAR VD         -0.1           

 #VG              IG              ID              IB             
  0               1.2011e-009     1.079e-009      1.1367e-008    
  -0.05           1.7854e-009     1.6072e-009     -2.06e-010     
  -0.1            3.731e-010      2.3066e-009     1.0503e-008    
  -0.15           5.792e-010      2.3834e-009     1.0891e-008    
  -0.2            -1.3424e-009    1.5464e-009     2.2216e-008    
  -0.25           -2.716e-009     1.773e-010      1.2407e-008    
  -0.3            -1.98e-009      -1.3243e-009    8.6e-010       
  -0.35           -7.132e-010     -2.3247e-009    -1.1418e-008   
  -0.4            2.1782e-009     -1.6127e-009    -1.8201e-008   
  -0.45           1.4925e-009     1.9766e-009     -7.683e-009    
  -0.5            8.88e-011       2.1417e-009     1.0438e-008    
  -0.55           2.779e-010      2.2611e-009     1.0506e-008    
  -0.6            4.95e-010       2.3526e-009     1.0702e-008    
  -0.65           -1.3585e-009    1.4735e-009     2.4369e-008    
  -0.7            -1.3269e-009    1.068e-010      1.1756e-008    
  -0.75           -2.6466e-009    2.708e-010      1.383e-008     
  -0.8            -2.0419e-009    -1.2744e-009    9.88e-010      
  -0.85           1.5561e-009     -1.7983e-009    -1.2251e-008   
  -0.9            9.395e-010      2.382e-009      -8.595e-009    
  -0.95           1.1098e-009     2.2621e-009     1.0795e-008    
  -1              -1.486e-009     1.6822e-009     1.1723e-008    
  -1.05           -2.8047e-009    -2.2161e-009    1.0167e-008    
  -1.1            -6.928e-010     -7.1931e-009    -1.1563e-008   
  -1.15           2.7939e-009     -1.8113e-008    2.7216e-008    
  -1.2            1.4904e-009     -6.4578e-008    1.1407e-008    
  -1.25           2.9087e-009     -1.9488e-007    -1.1148e-008   
  -1.3            1.2651e-009     -5.1161e-007    1.0603e-008    
  -1.35           -1.9611e-009    -1.1399e-006    -1.2565e-008   
  -1.4            -1.4971e-009    -2.3009e-006    4.782e-009     
  -1.45           -1.3659e-009    -4.0746e-006    9.973e-009     
  -1.5            -2.651e-009     -6.3995e-006    1.1525e-008    
  -1.55           -2.1059e-009    -9.156e-006     9.57e-010      
  -1.6            2.5983e-009     -1.2141e-005    -1.1063e-008   
  -1.65           4.99e-010       -1.5147e-005    1.0407e-008    
  -1.7            -1.3208e-009    -1.814e-005     2.3915e-008    
  -1.75           -2.2924e-009    -2.1086e-005    1.4722e-008    
  -1.8            -1.6628e-009    -2.4035e-005    3.237e-009     
  -1.85           -1.4064e-009    -2.682e-005     7.645e-009     
  -1.9            -1.3306e-009    -2.9518e-005    1.1342e-008    
  -1.95           -2.418e-009     -3.2123e-005    1.3573e-008    
  -2              -1.7819e-009    -3.4681e-005    2.653e-009     
  -2.05           -1.4378e-009    -3.7136e-005    6.457e-009     
  -2.1            -1.3457e-009    -3.9511e-005    1.0844e-008    
  -2.15           -2.5312e-009    -4.1813e-005    1.207e-008     
  -2.2            -7.51e-010      -4.4107e-005    -1.1072e-008   
  -2.25           -1.1674e-009    -4.6269e-005    -1.135e-008    
  -2.3            6.79e-011       -4.8478e-005    -1.1927e-008   
  -2.35           -4.096e-010     -5.0525e-005    -1.092e-008    
  -2.4            -9.073e-010     -5.2523e-005    -1.1444e-008   
  -2.45           -1.3096e-009    -5.4485e-005    -1.1203e-008   
  -2.5            -7.28e-011      -5.648e-005     -1.1656e-008   
  -2.55           -5.968e-010     -5.8343e-005    -1.1041e-008   
  -2.6            -1.0434e-009    -6.0167e-005    -1.1627e-008   
  -2.65           1.924e-010      -6.2049e-005    -1.2686e-008   
  -2.7            -2.488e-010     -6.3776e-005    -1.1099e-008   
  -2.75           -7.736e-010     -6.5481e-005    -1.1124e-008   
  -2.8            1.6775e-009     -6.7226e-005    -1.6787e-008   
  -2.85           1.3214e-009     -6.8855e-005    -8.906e-009    
  -2.9            2.8982e-009     -7.0498e-005    -8.789e-009    
  -2.95           3.376e-010      -7.2055e-005    1.0415e-008    
  -3              7.999e-010      -7.3632e-005    1.0836e-008    
  -3.05           -1.542e-009     -7.5182e-005    1.646e-008     
  -3.1            -1.3774e-009    -7.6655e-005    9.53e-009      
  -3.15           -2.6945e-009    -7.8116e-005    1.129e-008     
  -3.2            -2.1885e-009    -7.9588e-005    9.27e-010      
  -3.25           -1.608e-009     -8.1011e-005    3.443e-009     
  -3.3            -1.3969e-009    -8.2404e-005    8.366e-009     
  -3.35           -2.7525e-009    -8.3772e-005    1.153e-008     
  -3.4            -2.3282e-009    -8.5143e-005    7.36e-010      
  -3.45           -1.7077e-009    -8.6467e-005    3.041e-009     
  -3.5            -1.4184e-009    -8.7762e-005    7.128e-009     
  -3.55           -1.3362e-009    -8.9057e-005    1.146e-008     
  -3.6            -2.4651e-009    -9.0291e-005    1.2954e-008    
  -3.65           -8.162e-010     -9.1574e-005    -1.1233e-008   
  -3.7            1.6324e-009     -9.2871e-005    -1.5915e-008   
  -3.75           1.3097e-009     -9.4042e-005    -8.718e-009    
  -3.8            2.8802e-009     -9.5212e-005    -9.138e-009    
  -3.85           3.818e-010      -9.6352e-005    1.0291e-008    
  -3.9            8.414e-010      -9.7503e-005    1.1008e-008    
  -3.95           -1.5126e-009    -9.8655e-005    1.5518e-008    
  -4              -1.3691e-009    -9.9725e-005    9.8e-009       
  -4.05           -2.6667e-009    -0.000100814    1.1415e-008    
  -4.1            -2.1295e-009    -0.000101905    8.77e-010      
  -4.15           -1.578e-009     -0.000102963    4.023e-009     
