! VERSION = 6.00
BEGIN_HEADER
 ICCAP_INPUTS
  VG         V  B GROUND SMU4 0.001 LIN        1    0          -5         101  -0.05     
  VS         V  E GROUND SMU2 0.1 CON        0
  VB         V  C GROUND SMU3 0.1 LIN        3    0          5          3    2.5       
  VD         V  S GROUND SMU1 0.1 LIN        2    -0.1       -5         2    -4.9      
 ICCAP_OUTPUTS
  IG         I  B GROUND SMU4 B
  ID         I  S GROUND SMU1 B
  IB         I  C GROUND SMU3 B
END_HEADER

BEGIN_DB
 ICCAP_VAR VS         0              
 ICCAP_VAR VB         0              
 ICCAP_VAR VD         -0.1           

 #VG              IG              ID              IB             
  0               9.597e-010      9.365e-010      2.2127e-008    
  -0.05           1.4366e-009     2.0175e-009     -6.812e-009    
  -0.1            2.75e-011       2.1071e-009     1.0484e-008    
  -0.15           2.221e-010      2.2121e-009     1.0552e-008    
  -0.2            4.429e-010      2.3128e-009     1.0662e-008    
  -0.25           6.442e-010      2.3706e-009     1.1099e-008    
  -0.3            8.221e-010      2.3838e-009     1.1042e-008    
  -0.35           9.53e-010       2.3534e-009     1.1081e-008    
  -0.4            1.1164e-009     2.2758e-009     1.1798e-008    
  -0.45           -1.4697e-009    1.9577e-009     1.1403e-008    
  -0.5            -1.9456e-009    -1.3118e-009    9.195e-009     
  -0.55           1.6645e-009     -1.7432e-009    -1.3779e-008   
  -0.6            8.532e-010      2.2922e-009     -9.477e-009    
  -0.65           -1.357e-009     1.1764e-009     1.1232e-008    
  -0.7            -2.6768e-009    -2.2928e-009    9.148e-009     
  -0.75           -2.5275e-009    -5.6414e-009    2.3e-011       
  -0.8            -1.5145e-009    -1.6261e-008    -1.3304e-008   
  -0.85           -1.3851e-009    -4.1391e-008    9.065e-009     
  -0.9            -2.6557e-009    -9.2584e-008    8.91e-009      
  -0.95           7.368e-010      -1.7472e-007    -1.6244e-008   
  -1              1.0849e-009     -2.9511e-007    1.1062e-008    
  -1.05           1.5634e-009     -4.4319e-007    1.2606e-008    
  -1.1            2.0253e-009     -6.0794e-007    1.2763e-008    
  -1.15           8.455e-010      -7.8451e-007    1.108e-008     
  -1.2            1.2026e-009     -9.6967e-007    1.1087e-008    
  -1.25           -1.4113e-009    -1.1524e-006    -1.1043e-008   
  -1.3            -1.3463e-009    -1.3377e-006    9.461e-009     
  -1.35           -2.3754e-009    -1.5213e-006    1.0634e-008    
  -1.4            1.775e-010      -1.7107e-006    -1.3838e-008   
  -1.45           -2.228e-010     -1.8893e-006    -1.1238e-008   
  -1.5            -7.009e-010     -2.0638e-006    -1.0983e-008   
  -1.55           1.7518e-009     -2.2381e-006    -2.0296e-008   
  -1.6            1.3261e-009     -2.4049e-006    -9.681e-009    
  -1.65           2.908e-009      -2.5727e-006    -1.0327e-008   
  -1.7            2.6087e-009     -2.734e-006     1.48e-010      
  -1.75           1.9316e-009     -2.8944e-006    -3.151e-009    
  -1.8            1.397e-009      -3.0539e-006    -9.558e-009    
  -1.85           2.9295e-009     -3.2075e-006    -1.0015e-008   
  -1.9            2.7263e-009     -3.3566e-006    6.23e-010      
  -1.95           6.299e-010      -3.5031e-006    1.0608e-008    
  -2              9.978e-010      -3.6489e-006    1.1161e-008    
  -2.05           1.4447e-009     -3.7935e-006    1.2052e-008    
  -2.1            2.958e-010      -3.9298e-006    1.0365e-008    
  -2.15           7.573e-010      -4.0696e-006    1.083e-008     
  -2.2            1.1141e-009     -4.2042e-006    1.1102e-008    
  -2.25           1.6029e-009     -4.3386e-006    1.274e-008     
  -2.3            2.0565e-009     -4.4675e-006    1.2822e-008    
  -2.35           8.615e-010      -4.595e-006     1.1197e-008    
  -2.4            1.2397e-009     -4.7222e-006    1.1191e-008    
  -2.45           1.7341e-009     -4.8474e-006    1.2924e-008    
  -2.5            5.913e-010      -4.9676e-006    1.0498e-008    
  -2.55           9.54e-010       -5.0893e-006    1.119e-008     
  -2.6            1.3906e-009     -5.2099e-006    1.1789e-008    
  -2.65           2.442e-010      -5.324e-006     1.0476e-008    
  -2.7            7.199e-010      -5.4391e-006    1.0714e-008    
  -2.75           1.0674e-009     -5.553e-006     1.1146e-008    
  -2.8            1.5561e-009     -5.6664e-006    1.2595e-008    
  -2.85           2.0084e-009     -5.7754e-006    1.292e-008     
  -2.9            8.282e-010      -5.8838e-006    1.1091e-008    
  -2.95           1.1943e-009     -5.9907e-006    1.1192e-008    
  -3              5.63e-011       -6.0964e-006    1.1047e-008    
  -3.05           5.434e-010      -6.2001e-006    1.0446e-008    
  -3.1            9.25e-010       -6.3031e-006    1.1229e-008    
  -3.15           1.3427e-009     -6.4053e-006    1.1561e-008    
  -3.2            1.8297e-009     -6.5053e-006    1.3002e-008    
  -3.25           6.772e-010      -6.6019e-006    1.0552e-008    
  -3.3            1.0346e-009     -6.6992e-006    1.1137e-008    
  -3.35           1.4955e-009     -6.7951e-006    1.2338e-008    
  -3.4            3.421e-010      -6.8872e-006    1.038e-008     
  -3.45           7.954e-010      -6.9827e-006    1.1012e-008    
  -3.5            1.1562e-009     -7.0745e-006    1.1092e-008    
  -3.55           1.44e-011       -7.1675e-006    1.1205e-008    
  -3.6            4.904e-010      -7.252e-006     1.0464e-008    
  -3.65           8.92e-010       -7.3427e-006    1.1212e-008    
  -3.7            1.2874e-009     -7.4307e-006    1.1413e-008    
  -3.75           1.7806e-009     -7.5173e-006    1.2977e-008    
  -3.8            6.351e-010      -7.6013e-006    1.0563e-008    
  -3.85           1e-009          -7.685e-006     1.1157e-008    
  -3.9            1.4421e-009     -7.7676e-006    1.2032e-008    
  -3.95           2.924e-010      -7.8474e-006    1.0375e-008    
  -4              7.635e-010      -7.9314e-006    1.0779e-008    
  -4.05           1.1156e-009     -8.0115e-006    1.1115e-008    
  -4.1            1.6042e-009     -8.0882e-006    1.2703e-008    
  -4.15           2.0559e-009     -8.1677e-006    1.2798e-008    
  -4.2            8.656e-010      -8.2431e-006    1.12e-008      
  -4.25           1.2501e-009     -8.3203e-006    1.1228e-008    
  -4.3            9.79e-011       -8.3953e-006    1.0963e-008    
  -4.35           5.9e-010        -8.4677e-006    1.0596e-008    
  -4.4            9.608e-010      -8.5404e-006    1.118e-008     
  -4.45           1.3945e-009     -8.6129e-006    1.1808e-008    
  -4.5            2.415e-010      -8.6829e-006    1.0528e-008    
  -4.55           7.286e-010      -8.7532e-006    1.0658e-008    
  -4.6            1.0762e-009     -8.8241e-006    1.1101e-008    
  -4.65           1.5541e-009     -8.8937e-006    1.2633e-008    
  -4.7            2.0257e-009     -8.9594e-006    1.2886e-008    
  -4.75           8.396e-010      -9.0259e-006    1.1083e-008    
  -4.8            1.1993e-009     -9.0928e-006    1.1154e-008    
  -4.85           5.83e-011       -9.1577e-006    1.1049e-008    
  -4.9            5.523e-010      -9.2238e-006    1.0525e-008    
  -4.95           9.308e-010      -9.2857e-006    1.1245e-008    
  -5              1.3476e-009     -9.3485e-006    1.1594e-008    
END_DB

BEGIN_DB
 ICCAP_VAR VS         0              
 ICCAP_VAR VB         0              
 ICCAP_VAR VD         -5             

 #VG              IG              ID              IB             
  0               6.7e-011        -5.598e-010     -2.1257e-008   
  -0.05           2.6592e-009     -4.414e-010     -1.8638e-008   
  -0.1            1.1293e-009     2.2732e-009     -2.187e-009    
  -0.15           -1.4643e-009    1.9679e-009     1.1288e-008    
  -0.2            -1.9592e-009    -1.2996e-009    9.34e-009      
  -0.25           1.6457e-009     -1.7335e-009    -1.3517e-008   
  -0.3            1.8592e-009     1.5415e-009     -9.504e-009    
  -0.35           4.416e-010      2.3225e-009     1.0733e-008    
  -0.4            6.564e-010      2.3806e-009     1.1188e-008    
  -0.45           8.311e-010      2.387e-009      1.1133e-008    
  -0.5            9.723e-010      2.3404e-009     1.1173e-008    
  -0.55           1.1355e-009     2.2258e-009     1.1862e-008    
  -0.6            -1.46e-009      1.8414e-009     1.1278e-008    
  -0.65           -2.7848e-009    -1.561e-009     9.306e-009     
  -0.7            1.4899e-009     -3.6979e-009    -1.2385e-008   
  -0.75           1.3473e-009     -6.6721e-009    -9.456e-009    
  -0.8            -1.5619e-009    -2.2172e-008    -1.3991e-008   
  -0.85           -1.3961e-009    -5.8012e-008    9.479e-009     
  -0.9            1.306e-009      -1.3172e-007    -1.9873e-008   
  -0.95           1.8008e-009     -2.6428e-007    1.611e-008     
  -1              6.546e-010      -4.6503e-007    1.5706e-008    
  -1.05           1.0167e-009     -7.5334e-007    1.8876e-008    
  -1.1            1.4623e-009     -1.13297e-006   2.2939e-008    
  -1.15           -1.4147e-009    -1.5777e-006    6.621e-009     
  -1.2            -1.348e-009     -2.136e-006     2.7441e-008    
  -1.25           -2.3836e-009    -2.784e-006     3.2144e-008    
  -1.3            -1.7565e-009    -3.5265e-006    2.6832e-008    
  -1.35           -1.4378e-009    -4.3517e-006    3.576e-008     
  -1.4            -1.3585e-009    -5.2615e-006    4.2389e-008    
  -1.45           -2.5068e-009    -6.2517e-006    4.5297e-008    
  -1.5            -1.901e-009     -7.3316e-006    3.9882e-008    
  -1.55           -1.4826e-009    -8.476e-006     4.7765e-008    
  -1.6            -1.3765e-009    -9.6932e-006    5.4182e-008    
  -1.65           -2.6049e-009    -1.09868e-005   5.587e-008     
  -1.7            2.2751e-009     -1.2382e-005    4.6553e-008    
  -1.75           1.5622e-009     -1.3807e-005    4.3891e-008    
  -1.8            1.2855e-009     -1.5322e-005    4.2164e-008    
  -1.85           2.8609e-009     -1.6883e-005    4.081e-008     
  -1.9            2.4304e-009     -1.8479e-005    5.2456e-008    
  -1.95           1.7144e-009     -2.0146e-005    4.7958e-008    
  -2              1.3212e-009     -2.1864e-005    4.3101e-008    
  -2.05           2.9036e-009     -2.3643e-005    4.1778e-008    
  -2.1            2.5787e-009     -2.5449e-005    5.1526e-008    
  -2.15           1.8848e-009     -2.7323e-005    4.7323e-008    
  -2.2            1.3749e-009     -2.924e-005     3.9764e-008    
  -2.25           2.9239e-009     -3.1201e-005    3.8033e-008    
  -2.3            2.7004e-009     -3.3188e-005    4.6821e-008    
  -2.35           2.0802e-009     -3.5244e-005    4.3225e-008    
  -2.4            1.461e-009      -3.7328e-005    3.4715e-008    
  -2.45           1.2624e-009     -3.9457e-005    3.1569e-008    
  -2.5            2.8049e-009     -4.1627e-005    2.6044e-008    
  -2.55           2.2631e-009     -4.3811e-005    3.6644e-008    
  -2.6            1.5718e-009     -4.6048e-005    2.8785e-008    
  -2.65           1.2873e-009     -4.8323e-005    2.4068e-008    
  -2.7            2.6773e-009     -5.0603e-005    3.1855e-008    
  -2.75           2.026e-009      -5.2948e-005    2.7721e-008    
  -2.8            1.4369e-009     -5.5315e-005    1.9119e-008    
  -2.85           2.8774e-009     -5.77e-005      2.6661e-008    
  -2.9            2.5093e-009     -6.0106e-005    2.3957e-008    
  -2.95           2.7258e-009     -6.2548e-005    3.2988e-008    
  -3              2.9246e-009     -6.5027e-005    2.6468e-008    
  -3.05           2.1901e-009     -6.7549e-005    3.1646e-008    
  -3.1            2.52e-009       -7.0067e-005    2.8851e-008    
  -3.15           2.82e-009       -7.2608e-005    2.5848e-008    
  -3.2            1.8811e-009     -7.5245e-005    2.7868e-008    
  -3.25           2.3037e-009     -7.7798e-005    2.5387e-008    
  -3.3            2.6097e-009     -8.0426e-005    2.242e-008     
  -3.35           1.5561e-009     -8.3142e-005    2.37e-008      
  -3.4            2.0301e-009     -8.5777e-005    2.3016e-008    
  -3.45           2.4036e-009     -8.8434e-005    2.0846e-008    
  -3.5            1.2142e-009     -9.1181e-005    1.9424e-008    
  -3.55           1.7109e-009     -9.3919e-005    2.0228e-008    
  -3.6            2.1625e-009     -9.6651e-005    1.927e-008     
  -3.65           9.398e-010      -9.9405e-005    1.7181e-008    
  -3.7            1.3669e-009     -0.00010228     1.6938e-008    
  -3.75           1.86e-009       -0.000105069    1.7883e-008    
  -3.8            7.025e-010      -0.000107819    1.4897e-008    
  -3.85           1.0594e-009     -0.00011069     1.4796e-008    
  -3.9            1.5352e-009     -0.000113575    1.5776e-008    
  -3.95           2.1879e-009     -0.00011632     1.4771e-008    
  -4              9.583e-010      -0.0001192      1.3783e-008    
  -4.05           1.4018e-009     -0.00012216     1.3893e-008    
  -4.1            2.515e-010      -0.00012493     1.2578e-008    
  -4.15           7.303e-010      -0.00012789     1.2445e-008    
  -4.2            1.0858e-009     -0.00013084     1.2611e-008    
  -4.25           1.5708e-009     -0.00013385     1.3979e-008    
  -4.3            2.0342e-009     -0.00013677     1.3957e-008    
  -4.35           8.423e-010      -0.00013971     1.2035e-008    
  -4.4            1.2159e-009     -0.00014271     1.1942e-008    
  -4.45           1.713e-009      -0.00014572     1.3514e-008    
  -4.5            5.638e-010      -0.00014863     1.1121e-008    
  -4.55           9.43e-010       -0.00015169     1.1774e-008    
  -4.6            1.3708e-009     -0.00015474     1.207e-008     
  -4.65           2.25e-010       -0.00015768     1.1033e-008    
  -4.7            7.054e-010      -0.00016074     1.1022e-008    
  -4.75           1.0631e-009     -0.00016381     1.14e-008      
  -4.8            1.5336e-009     -0.00016688     1.2712e-008    
  -4.85           2.0038e-009     -0.00016993     1.3168e-008    
  -4.9            8.236e-010      -0.00017295     1.1133e-008    
  -4.95           1.1933e-009     -0.00017606     1.1244e-008    
  -5              4.13e-011       -0.00017905     1.1301e-008    
END_DB

BEGIN_DB
 ICCAP_VAR VS         0              
 ICCAP_VAR VB         2.5            
 ICCAP_VAR VD         -0.1           

 #VG              IG              ID              IB             
  0               -1.5224e-009    -1.6941e-009    -5.191e-009    
  -0.05           1.12e-010       -1.9115e-009    -1.1657e-008   
  -0.1            -4.1e-011       -2.0546e-009    -1.0992e-008   
  -0.15           -2.438e-010     -2.186e-009     -1.0974e-008   
  -0.2            -4.622e-010     -2.2668e-009    -1.1066e-008   
  -0.25           1.2648e-009     -1.4523e-009    -2.5213e-008   
  -0.3            2.9144e-009     -4.03e-011      -1.3012e-008   
  -0.35           1.8891e-009     1.5115e-009     1.75e-010      
  -0.4            4.65e-010       2.3272e-009     1.0651e-008    
  -0.45           6.71e-010       2.3794e-009     1.1244e-008    
  -0.5            8.398e-010      2.3806e-009     1.1056e-008    
  -0.55           9.806e-010      2.341e-009      1.1194e-008    
  -0.6            1.1513e-009     2.2533e-009     1.1844e-008    
  -0.65           -1.4578e-009    1.9804e-009     1.1242e-008    
  -0.7            -1.9661e-009    -1.29e-009      9.432e-009     
  -0.75           1.619e-009      -1.7383e-009    -1.3352e-008   
  -0.8            1.8915e-009     1.5138e-009     -9.489e-009    
  -0.85           4.687e-010      2.3284e-009     1.0648e-008    
  -0.9            6.774e-010      2.3814e-009     1.1181e-008    
  -0.95           8.496e-010      2.383e-009      1.1109e-008    
  -1              9.822e-010      2.3413e-009     1.1176e-008    
  -1.05           1.1531e-009     2.2529e-009     1.1843e-008    
  -1.1            -2.232e-010     1.9755e-009     1.1228e-008    
  -1.15           -4.91e-011      2.06e-009       1.0616e-008    
  -1.2            1.441e-010      2.118e-009      1.0396e-008    
  -1.25           3.562e-010      2.0002e-009     1.0553e-008    
  -1.3            -2.7007e-009    -2.2884e-009    1.1008e-008    
  -1.35           -2.575e-009     -6.6289e-009    2.37e-010      
  -1.4            1.2724e-009     -2.1735e-008    1.2702e-008    
  -1.45           2.8317e-009     -5.9378e-008    -1.2454e-008   
  -1.5            -7.749e-010     -1.3286e-007    9.649e-009     
  -1.55           1.6379e-009     -2.4472e-007    -1.8382e-008   
  -1.6            1.2973e-009     -3.825e-007     -9.484e-009    
  -1.65           2.8789e-009     -5.4242e-007    -1.0852e-008   
  -1.7            1.3088e-009     -7.0838e-007    1.135e-008     
  -1.75           1.8203e-009     -8.7969e-007    1.2951e-008    
  -1.8            6.632e-010      -1.04957e-006   1.0569e-008    
  -1.85           -1.4136e-009    -1.2184e-006    -1.1036e-008   
  -1.9            -1.3464e-009    -1.3833e-006    9.636e-009     
  -1.95           -2.3829e-009    -1.546e-006     1.0505e-008    
  -2              1.799e-010      -1.7106e-006    -1.3833e-008   
  -2.05           -2.26e-010      -1.8652e-006    -1.1181e-008   
  -2.1            -7.125e-010     -2.0154e-006    -1.1017e-008   
  -2.15           1.7399e-009     -2.1659e-006    -2.0001e-008   
  -2.2            1.3206e-009     -2.3096e-006    -9.615e-009    
  -2.25           2.9034e-009     -2.4535e-006    -1.0361e-008   
  -2.3            2.5806e-009     -2.5923e-006    1.27e-010      
  -2.35           1.8865e-009     -2.7302e-006    -2.956e-009    
  -2.4            1.3741e-009     -2.8661e-006    -9.615e-009    
  -2.45           2.9201e-009     -2.9999e-006    -9.879e-009    
  -2.5            2.6993e-009     -3.1283e-006    4.01e-010      
  -2.55           2.0677e-009     -3.2564e-006    -1.508e-009    
  -2.6            1.454e-009      -3.3828e-006    -8.504e-009    
  -2.65           1.2581e-009     -3.5073e-006    -9.583e-009    
  -2.7            2.7998e-009     -3.6302e-006    -1.3261e-008   
  -2.75           1.4898e-009     -3.7488e-006    1.2268e-008    
  -2.8            3.414e-010      -3.8648e-006    1.0309e-008    
  -2.85           8.138e-010      -3.9819e-006    1.0935e-008    
  -2.9            1.1627e-009     -4.097e-006     1.1186e-008    
  -2.95           1.96e-011       -4.2093e-006    1.1319e-008    
  -3              5.087e-010      -4.3195e-006    1.049e-008     
  -3.05           9.2e-010        -4.4291e-006    1.1265e-008    
  -3.1            1.3069e-009     -4.5385e-006    1.1532e-008    
  -3.15           1.8063e-009     -4.6455e-006    1.2836e-008    
  -3.2            6.578e-010      -4.748e-006     1.0548e-008    
  -3.25           1.0169e-009     -4.8526e-006    1.113e-008     
  -3.3            1.4591e-009     -4.9558e-006    1.2203e-008    
  -3.35           3.19e-010       -5.0548e-006    1.0321e-008    
  -3.4            7.94e-010       -5.154e-006     1.0905e-008    
  -3.45           1.1464e-009     -5.2519e-006    1.1113e-008    
  -3.5            -4e-012         -5.3501e-006    1.1281e-008    
  -3.55           4.835e-010      -5.4444e-006    1.0446e-008    
  -3.6            9.076e-010      -5.5391e-006    1.1235e-008    
  -3.65           1.2752e-009     -5.6321e-006    1.1378e-008    
  -3.7            1.7844e-009     -5.7249e-006    1.2825e-008    
  -3.75           6.355e-010      -5.8134e-006    1.0518e-008    
  -3.8            1.0069e-009     -5.9043e-006    1.1155e-008    
  -3.85           1.4267e-009     -5.9921e-006    1.1911e-008    
  -3.9            2.932e-010      -6.0779e-006    1.0421e-008    
  -3.95           7.767e-010      -6.1641e-006    1.0754e-008    
  -4              1.1196e-009     -6.2473e-006    1.1041e-008    
  -4.05           -3.06e-011      -6.333e-006     1.1329e-008    
  -4.1            4.479e-010      -6.4137e-006    1.0375e-008    
  -4.15           8.947e-010      -6.4944e-006    1.115e-008     
