! VERSION = 6.00
BEGIN_HEADER
 ICCAP_INPUTS
  VG         V  B GROUND SMU4 0.001 LIN        1    0          -5         101  -0.05     
  VS         V  E GROUND SMU2 0.1 CON        0
  VB         V  C GROUND SMU3 0.1 LIN        3    0          5          3    2.5       
  VD         V  S GROUND SMU1 0.1 LIN        2    -0.1       -5         2    -4.9      
 ICCAP_OUTPUTS
  IG         I  B GROUND SMU4 B
  ID         I  S GROUND SMU1 B
  IB         I  C GROUND SMU3 B
END_HEADER

BEGIN_DB
 ICCAP_VAR VS         0              
 ICCAP_VAR VB         0              
 ICCAP_VAR VD         -0.1           

 #VG              IG              ID              IB             
  0               1.6095e-009     1.8502e-009     -1.1124e-008   
  -0.05           8.379e-010      2.3501e-009     1.05e-008      
  -0.1            9.811e-010      2.3128e-009     1.0526e-008    
  -0.15           -1.5704e-009    1.8084e-009     1.3269e-008    
  -0.2            -1.8417e-009    -1.4526e-009    8.661e-009     
  -0.25           -4.594e-010     -2.2307e-009    -1.088e-008    
  -0.3            -6.421e-010     -2.2714e-009    -1.1265e-008   
  -0.35           -8.307e-010     -2.2875e-009    -1.1207e-008   
  -0.4            2.0057e-009     -1.6994e-009    -1.5997e-008   
  -0.45           5.841e-010      2.0728e-009     -8.489e-009    
  -0.5            -1.3207e-009    6.608e-010      2.2483e-008    
  -0.55           -2.6942e-009    -2.5337e-009    1.1833e-008    
  -0.6            -2.5833e-009    -8.7952e-009    6.36e-010      
  -0.65           2.8423e-009     -2.0482e-008    2.059e-008     
  -0.7            -8.08e-011      -5.0023e-008    1.2055e-008    
  -0.75           3.309e-010      -1.024e-007     1.0377e-008    
  -0.8            2.8769e-009     -1.8294e-007    -1.1033e-008   
  -0.85           2.5975e-009     -2.897e-007     -3.67e-010     
  -0.9            2.5389e-009     -4.1762e-007    8.616e-009     
  -0.95           4.675e-010      -5.6479e-007    1.0442e-008    
  -1              8.75e-010       -7.2842e-007    1.08e-008      
  -1.05           1.2461e-009     -9.0311e-007    1.0627e-008    
  -1.1            9.99e-011       -1.0773e-006    1.1195e-008    
  -1.15           -1.3512e-009    -1.2622e-006    -1.1047e-008   
  -1.2            -2.6575e-009    -1.4463e-006    1.1378e-008    
  -1.25           -2.2123e-009    -1.6336e-006    7.08e-010      
  -1.3            -1.6431e-009    -1.8157e-006    3.257e-009     
  -1.35           -1.3916e-009    -1.9974e-006    7.476e-009     
  -1.4            -1.3118e-009    -2.1747e-006    1.1431e-008    
  -1.45           -2.4754e-009    -2.3492e-006    1.2353e-008    
  -1.5            -1.8914e-009    -2.5222e-006    1.943e-009     
  -1.55           -1.4677e-009    -2.6895e-006    5.137e-009     
  -1.6            -1.3464e-009    -2.8526e-006    9.858e-009     
  -1.65           -2.6426e-009    -3.0117e-006    1.1455e-008    
  -1.7            -2.1821e-009    -3.1708e-006    8.99e-010      
  -1.75           -1.623e-009     -3.3237e-006    3.261e-009     
  -1.8            -1.3858e-009    -3.4752e-006    7.7e-009       
  -1.85           -1.3114e-009    -3.6219e-006    1.1523e-008    
  -1.9            -2.4542e-009    -3.7643e-006    1.2682e-008    
  -1.95           -1.86e-009      -3.9084e-006    2.002e-009     
  -2              -1.4602e-009    -4.0459e-006    5.274e-009     
  -2.05           -1.3423e-009    -4.181e-006     1.0178e-008    
  -2.1            -2.629e-009     -4.3127e-006    1.1318e-008    
  -2.15           -2.1629e-009    -4.4451e-006    7.99e-010      
  -2.2            -1.6071e-009    -4.5729e-006    3.565e-009     
  -2.25           -1.3823e-009    -4.6978e-006    7.986e-009     
  -2.3            -1.3084e-009    -4.826e-006     1.1569e-008    
  -2.35           -2.4304e-009    -4.9415e-006    1.2676e-008    
  -2.4            -7.878e-010     -5.0649e-006    -1.1041e-008   
  -2.45           1.6859e-009     -5.185e-006     -1.702e-008    
  -2.5            1.3212e-009     -5.2963e-006    -9.255e-009    
  -2.55           2.8736e-009     -5.4109e-006    -8.609e-009    
  -2.6            2.6054e-009     -5.5214e-006    -3.57e-010     
  -2.65           2.5364e-009     -5.6318e-006    8.739e-009     
  -2.7            4.648e-010      -5.7377e-006    1.0452e-008    
  -2.75           8.731e-010      -5.8451e-006    1.074e-008     
  -2.8            -1.4826e-009    -5.9528e-006    1.4999e-008    
  -2.85           -1.3475e-009    -6.0554e-006    1.0034e-008    
  -2.9            -2.6495e-009    -6.1565e-006    1.1376e-008    
  -2.95           -2.1912e-009    -6.2569e-006    7.44e-010      
  -3              -1.6329e-009    -6.3534e-006    3.123e-009     
  -3.05           -1.3885e-009    -6.4531e-006    7.632e-009     
  -3.1            -1.3089e-009    -6.5498e-006    1.1406e-008    
  -3.15           -2.4478e-009    -6.6433e-006    1.2382e-008    
  -3.2            -1.8648e-009    -6.7387e-006    1.983e-009     
  -3.25           -1.4647e-009    -6.8311e-006    5.207e-009     
  -3.3            -1.3433e-009    -6.9191e-006    1.0246e-008    
  -3.35           -2.6313e-009    -7.0082e-006    1.143e-008     
  -3.4            -2.1508e-009    -7.0986e-006    9.2e-010       
  -3.45           -1.6056e-009    -7.189e-006     3.254e-009     
  -3.5            -1.3826e-009    -7.2721e-006    7.989e-009     
  -3.55           -1.3054e-009    -7.3579e-006    1.1343e-008    
  -3.6            -2.4223e-009    -7.44e-006      1.2595e-008    
  -3.65           -1.8318e-009    -7.5243e-006    2.113e-009     
  -3.7            -1.4541e-009    -7.6069e-006    5.475e-009     
  -3.75           -1.3391e-009    -7.6878e-006    1.0266e-008    
  -3.8            -2.6109e-009    -7.7676e-006    1.1298e-008    
  -3.85           -2.1115e-009    -7.8477e-006    7.81e-010      
  -3.9            -1.5829e-009    -7.9236e-006    3.422e-009     
  -3.95           -1.3786e-009    -7.9963e-006    8.213e-009     
  -4              -1.3039e-009    -8.0771e-006    1.1575e-008    
  -4.05           -2.3963e-009    -8.1497e-006    1.3192e-008    
  -4.1            -1.795e-009     -8.2267e-006    2.303e-009     
  -4.15           -1.4444e-009    -8.299e-006     5.867e-009     
  -4.2            -1.3345e-009    -8.372e-006     1.033e-008     
  -4.25           -2.5958e-009    -8.4431e-006    1.1473e-008    
  -4.3            -2.0804e-009    -8.5135e-006    1.002e-009     
  -4.35           -1.5632e-009    -8.5822e-006    3.578e-009     
  -4.4            -1.3746e-009    -8.6515e-006    8.631e-009     
  -4.45           -2.7124e-009    -8.7204e-006    1.1479e-008    
  -4.5            -3.633e-010     -8.7898e-006    -1.0982e-008   
  -4.55           -8.319e-010     -8.858e-006     -1.113e-008    
  -4.6            1.6346e-009     -8.9279e-006    -1.6215e-008   
  -4.65           1.308e-009      -8.9869e-006    -9.027e-009    
  -4.7            2.8676e-009     -9.0523e-006    -8.609e-009    
  -4.75           1.2332e-009     -9.1139e-006    1.0522e-008    
  -4.8            8.83e-011       -9.1779e-006    1.1156e-008    
  -4.85           5.065e-010      -9.24e-006      1.0421e-008    
  -4.9            -1.2988e-009    -9.3046e-006    2.4309e-008    
  -4.95           -2.327e-009     -9.365e-006     1.4026e-008    
  -5              -8.683e-010     -9.4261e-006    -1.123e-008    
END_DB

BEGIN_DB
 ICCAP_VAR VS         0              
 ICCAP_VAR VB         0              
 ICCAP_VAR VD         -5             

 #VG              IG              ID              IB             
  0               5.16e-010       6.028e-010      2.4181e-008    
  -0.05           1.2501e-009     2.38e-011       -9.179e-009    
  -0.1            2.872e-009      -1.036e-010     -1.1483e-008   
  -0.15           7.734e-010      2.3012e-009     -4.57e-010     
  -0.2            -1.8405e-009    1.5014e-009     1.7448e-008    
  -0.25           -2.5009e-009    -1.5667e-009    5.905e-009     
  -0.3            -1.886e-010     -3.5127e-009    -1.0821e-008   
  -0.35           -3.899e-010     -6.2803e-009    -1.0813e-008   
  -0.4            -2.5788e-009    -1.211e-008     -1.1034e-008   
  -0.45           -2.0559e-009    -3.0236e-008    1.567e-009     
  -0.5            -1.5434e-009    -6.8805e-008    5.273e-009     
  -0.55           1.2487e-009     -1.4488e-007    3.604e-009     
  -0.6            2.7209e-009     -2.6863e-007    -7.649e-009    
  -0.65           1.5084e-009     -4.5582e-007    1.9111e-008    
  -0.7            1.9388e-009     -7.2026e-007    2.2241e-008    
  -0.75           2.2777e-009     -1.06938e-006   2.5532e-008    
  -0.8            -1.4984e-009    -1.5125e-006    1.534e-008     
  -0.85           -1.3426e-009    -2.052e-006     3.7812e-008    
  -0.9            -2.6604e-009    -2.6888e-006    4.6674e-008    
  -0.95           -2.2333e-009    -3.435e-006     4.3232e-008    
  -1              -1.6575e-009    -4.2678e-006    5.3548e-008    
  -1.05           -1.3865e-009    -5.1776e-006    6.6502e-008    
  -1.1            -1.3068e-009    -6.1773e-006    7.9248e-008    
  -1.15           -2.4774e-009    -7.2487e-006    8.8809e-008    
  -1.2            -1.4598e-009    -8.436e-006     9.4844e-008    
  -1.25           8.955e-010      -9.6939e-006    9.539e-008     
  -1.3            1.274e-009      -1.1021e-005    7.493e-008     
  -1.35           -2.2306e-009    -1.2355e-005    1.2094e-007    
  -1.4            -2.6063e-009    -1.3782e-005    1.0729e-007    
  -1.45           -2.7638e-009    -1.5241e-005    1.1648e-007    
  -1.5            -2.6618e-009    -1.6763e-005    1.2666e-007    
  -1.55           -2.2604e-009    -1.8331e-005    1.3443e-007    
  -1.6            -1.6777e-009    -1.9943e-005    1.4103e-007    
  -1.65           -1.3969e-009    -2.1604e-005    1.4921e-007    
  -1.7            -1.3127e-009    -2.331e-005     1.5679e-007    
  -1.75           -2.5097e-009    -2.5036e-005    1.604e-007     
  -1.8            -1.9441e-009    -2.6846e-005    1.5338e-007    
  -1.85           -1.4875e-009    -2.8652e-005    1.5823e-007    
  -1.9            -1.3494e-009    -3.049e-005     1.641e-007     
  -1.95           -2.661e-009     -3.2363e-005    1.6603e-007    
  -2              -2.229e-009     -3.4269e-005    1.5594e-007    
  -2.05           -1.6621e-009    -3.6185e-005    1.5825e-007    
  -2.1            -1.394e-009     -3.8137e-005    1.6157e-007    
  -2.15           -1.3135e-009    -4.0104e-005    1.6455e-007    
  -2.2            -2.4925e-009    -4.2105e-005    1.635e-007     
  -2.25           -1.911e-009     -4.4136e-005    1.512e-007     
  -2.3            -1.4841e-009    -4.6175e-005    1.5194e-007    
  -2.35           -1.3466e-009    -4.8247e-005    1.5365e-007    
  -2.4            -2.6505e-009    -5.0327e-005    1.5196e-007    
  -2.45           -2.2155e-009    -5.2475e-005    1.3852e-007    
  -2.5            -1.6429e-009    -5.4575e-005    1.3715e-007    
  -2.55           -1.388e-009     -5.6722e-005    1.3815e-007    
  -2.6            -1.3109e-009    -5.8874e-005    1.3803e-007    
  -2.65           -2.4716e-009    -6.1035e-005    1.3493e-007    
  -2.7            -1.8951e-009    -6.3238e-005    1.2036e-007    
  -2.75           -1.4704e-009    -6.545e-005     1.1928e-007    
  -2.8            -1.3444e-009    -6.7653e-005    1.2013e-007    
  -2.85           -2.6352e-009    -6.9883e-005    1.171e-007     
  -2.9            -2.1817e-009    -7.2158e-005    1.0224e-007    
  -2.95           -1.6196e-009    -7.4403e-005    1.0058e-007    
  -3              -1.3834e-009    -7.6681e-005    1.009e-007     
  -3.05           -1.308e-009     -7.8963e-005    1.0046e-007    
  -3.1            -2.4417e-009    -8.124e-005     9.729e-008     
  -3.15           1.7698e-009     -8.3587e-005    6.0239e-008    
  -3.2            1.345e-009      -8.589e-005     6.7199e-008    
  -3.25           2.8825e-009     -8.8191e-005    6.4107e-008    
  -3.3            2.662e-009      -9.0562e-005    6.8883e-008    
  -3.35           2.0722e-009     -9.2919e-005    6.3277e-008    
  -3.4            1.4811e-009     -9.5272e-005    5.3997e-008    
  -3.45           1.2723e-009     -9.7606e-005    4.9684e-008    
  -3.5            2.8211e-009     -9.9992e-005    4.5322e-008    
  -3.55           2.3897e-009     -0.000102345    5.1027e-008    
  -3.6            1.721e-009      -0.000104739    4.4292e-008    
  -3.65           1.3346e-009     -0.000107184    3.6753e-008    
  -3.7            2.8783e-009     -0.000109568    3.4837e-008    
  -3.75           2.6421e-009     -0.000112       4.0434e-008    
  -3.8            -2.7471e-009    -0.00011427     3.5547e-008    
  -3.85           -2.5021e-009    -0.0001167      3.5719e-008    
  -3.9            -1.9493e-009    -0.00011904     3.4951e-008    
  -3.95           -1.4954e-009    -0.00012155     3.6021e-008    
  -4              -1.351e-009     -0.00012396     3.8949e-008    
  -4.05           -2.6628e-009    -0.00012641     3.8637e-008    
  -4.1            -2.2307e-009    -0.00012889     2.6212e-008    
  -4.15           -1.6594e-009    -0.00013133     2.6704e-008    
  -4.2            -1.3985e-009    -0.00013376     2.935e-008     
  -4.25           -1.313e-009     -0.00013622     3.1852e-008    
  -4.3            -2.4798e-009    -0.00013867     3.133e-008     
  -4.35           -1.9038e-009    -0.00014116     1.955e-008     
  -4.4            -1.479e-009     -0.00014363     2.1561e-008    
  -4.45           -1.3474e-009    -0.00014609     2.5249e-008    
  -4.5            -2.6467e-009    -0.00014848     2.5581e-008    
  -4.55           -2.184e-009     -0.00015101     1.4124e-008    
  -4.6            -1.6331e-009    -0.00015352     1.5629e-008    
  -4.65           -1.3896e-009    -0.00015596     1.9065e-008    
  -4.7            -1.3097e-009    -0.00015842     2.1842e-008    
  -4.75           -2.4592e-009    -0.00016085     2.2377e-008    
  -4.8            -1.8692e-009    -0.00016337     1.1009e-008    
  -4.85           -1.464e-009     -0.00016588     1.3572e-008    
  -4.9            -1.3414e-009    -0.00016836     1.7977e-008    
  -4.95           -2.6297e-009    -0.00017091     1.85e-008      
  -5              -2.1539e-009    -0.00017335     7.368e-009     
END_DB

BEGIN_DB
 ICCAP_VAR VS         0              
 ICCAP_VAR VB         2.5            
 ICCAP_VAR VD         -0.1           

 #VG              IG              ID              IB             
  0               8.719e-010      8.415e-010      1.1051e-008    
  -0.05           1.6982e-009     1.6545e-009     -9.422e-009    
  -0.1            5.12e-011       2.0468e-009     9.813e-009     
  -0.15           2.175e-010      2.1582e-009     1.0386e-008    
  -0.2            3.85e-010       2.2545e-009     1.0469e-008    
  -0.25           5.597e-010      2.3194e-009     1.0775e-008    
  -0.3            -1.3242e-009    1.4762e-009     2.3274e-008    
  -0.35           -2.7056e-009    1.294e-010      1.1466e-008    
  -0.4            -1.908e-009     -1.3701e-009    5.13e-010      
  -0.45           -5.758e-010     -2.2532e-009    -1.1189e-008   
  -0.5            -7.618e-010     -2.267e-009     -1.1343e-008   
  -0.55           2.1154e-009     -1.5986e-009    -1.7659e-008   
  -0.6            1.4645e-009     1.9463e-009     -7.82e-009     
  -0.65           7.16e-011       2.0642e-009     1.0382e-008    
  -0.7            2.346e-010      2.1685e-009     1.0358e-008    
  -0.75           4.09e-010       2.2581e-009     1.0477e-008    
  -0.8            5.833e-010      2.3147e-009     1.0768e-008    
  -0.85           -1.3167e-009    1.467e-009      2.2681e-008    
  -0.9            -2.6909e-009    1.95e-011       1.1753e-008    
  -0.95           -1.9195e-009    -1.8952e-009    6.06e-010      
  -1              -5.999e-010     -4.4536e-009    -1.1192e-008   
  -1.05           -7.922e-010     -1.02936e-008   -1.1218e-008   
  -1.1            2.7536e-009     -2.4417e-008    2.7555e-008    
  -1.15           5.116e-010      -6.1777e-008    1.0337e-008    
  -1.2            2.7013e-009     -1.3124e-007    -1.127e-008    
  -1.25           5.707e-010      -2.2915e-007    1.0358e-008    
  -1.3            -1.785e-009     -3.5603e-007    2.3032e-008    
  -1.35           -1.4213e-009    -5.0267e-007    6.447e-009     
  -1.4            -1.3232e-009    -6.6332e-007    1.0551e-008    
  -1.45           -2.5639e-009    -8.3494e-007    1.1233e-008    
  -1.5            -2.0337e-009    -1.00792e-006   1.134e-009     
  -1.55           -2.0996e-009    -1.1861e-006    -1.4046e-008   
  -1.6            1.81e-011       -1.367e-006     -1.1833e-008   
  -1.65           -4.444e-010     -1.5418e-006    -1.0772e-008   
  -1.7            -8.946e-010     -1.7138e-006    -1.1303e-008   
  -1.75           -1.2719e-009    -1.8816e-006    -1.0863e-008   
  -1.8            -3.98e-011      -2.0542e-006    -1.178e-008    
  -1.85           -5.05e-010      -2.2144e-006    -1.0887e-008   
  -1.9            -9.403e-010     -2.3716e-006    -1.1274e-008   
  -1.95           2.941e-010      -2.5288e-006    -1.4044e-008   
  -2              -8.16e-011      -2.6784e-006    -1.1577e-008   
  -2.05           -5.716e-010     -2.8248e-006    -1.0854e-008   
  -2.1            1.9873e-009     -2.9674e-006    -2.1644e-008   
  -2.15           1.4208e-009     -3.1053e-006    -8.997e-009    
  -2.2            1.2554e-009     -3.2431e-006    -8.78e-009     
  -2.25           2.7776e-009     -3.3782e-006    -1.0927e-008   
  -2.3            4.817e-010      -3.5052e-006    1.0446e-008    
  -2.35           -1.2982e-009    -3.6345e-006    2.5104e-008    
  -2.4            -2.3518e-009    -3.762e-006     1.3784e-008    
  -2.45           -1.7536e-009    -3.8879e-006    2.667e-009     
  -2.5            -1.4188e-009    -4.0101e-006    6.448e-009     
  -2.55           -1.322e-009     -4.1296e-006    1.068e-008     
  -2.6            -2.5528e-009    -4.2472e-006    1.1657e-008    
  -2.65           -2.0092e-009    -4.3644e-006    1.285e-009     
  -2.7            -1.5188e-009    -4.4777e-006    4.418e-009     
  -2.75           -1.3577e-009    -4.5896e-006    9.207e-009     
  -2.8            -2.6808e-009    -4.6986e-006    1.1563e-008    
  -2.85           -2.2875e-009    -4.8083e-006    6.69e-010      
  -2.9            -8.89e-010      -4.9164e-006    -1.1242e-008   
  -2.95           -1.2659e-009    -5.021e-006     -1.0949e-008   
  -3              -2.7e-011       -5.127e-006     -1.1747e-008   
  -3.05           -5.06e-010      -5.2275e-006    -1.0843e-008   
  -3.1            -9.368e-010     -5.3277e-006    -1.1332e-008   
  -3.15           2.923e-010      -5.4258e-006    -1.4059e-008   
  -3.2            -8.75e-011      -5.5244e-006    -1.1601e-008   
  -3.25           -5.695e-010     -5.6196e-006    -1.0959e-008   
  -3.3            1.9783e-009     -5.7106e-006    -2.1555e-008   
  -3.35           1.4207e-009     -5.8045e-006    -8.967e-009    
  -3.4            1.2554e-009     -5.8944e-006    -8.886e-009    
  -3.45           2.7735e-009     -5.9877e-006    -1.0952e-008   
  -3.5            4.941e-010      -6.0702e-006    1.0485e-008    
  -3.55           -1.2985e-009    -6.1624e-006    2.4711e-008    
  -3.6            -2.3389e-009    -6.2463e-006    1.3908e-008    
  -3.65           -1.7387e-009    -6.3339e-006    2.731e-009     
  -3.7            -1.4182e-009    -6.4195e-006    6.458e-009     
  -3.75           -1.3232e-009    -6.5027e-006    1.0887e-008    
  -3.8            -2.5436e-009    -6.5857e-006    1.1645e-008    
  -3.85           -1.9988e-009    -6.6698e-006    1.184e-009     
  -3.9            -1.5121e-009    -6.7496e-006    4.335e-009     
  -3.95           -1.3569e-009    -6.8291e-006    9.253e-009     
  -4              -2.6727e-009    -6.9047e-006    1.1577e-008    
  -4.05           -2.2698e-009    -6.9846e-006    7.57e-010      
  -4.1            -1.6903e-009    -7.0591e-006    2.902e-009     
  -4.15           -1.4032e-009    -7.136e-006     7.021e-009     
