! VERSION = 6.00
BEGIN_HEADER
 ICCAP_INPUTS
  VG         V  B GROUND SMU4 0.001 LIN        2    0          -5         6    -1        
  VS         V  E GROUND SMU2 0.1 CON        0
  VD         V  S GROUND SMU1 0.1 LIN        1    0          -5         101  -0.05     
  VB         V  C GROUND SMU3 0.1 LIN        3    0          2.5        2    2.5       
 ICCAP_OUTPUTS
  ID         I  S GROUND SMU1 B
  IB         I  C GROUND SMU3 B
  IG         I  B GROUND SMU4 B
END_HEADER

BEGIN_DB
 ICCAP_VAR VG         0              
 ICCAP_VAR VS         0              
 ICCAP_VAR VB         0              

 #VD              ID              IB              IG             
  0               -2.497e-010     1.0695e-008     -8.554e-010    
  -0.05           -1.4126e-008    -1.3853e-008    -2.2741e-009   
  -0.1            -2.1087e-008    1.3669e-008     -1.4735e-009   
  -0.15           -3.0841e-008    1.0421e-008     3.274e-010     
  -0.2            -4.5777e-008    -1.2046e-008    2.8177e-009    
  -0.25           -6.1105e-008    -2.424e-008     2.0289e-009    
  -0.3            -7.7113e-008    -1.197e-008     6.24e-011      
  -0.35           -9.5007e-008    8.891e-009      -1.3811e-009   
  -0.4            -1.1672e-007    2.2593e-008     -1.4503e-009   
  -0.45           -1.3703e-007    8.033e-009      -2.5835e-009   
  -0.5            -1.6297e-007    1.1159e-008     1.583e-009     
  -0.55           -1.9391e-007    -2.1444e-008    1.864e-009     
  -0.6            -2.2355e-007    -1.147e-008     -7.153e-010    
  -0.65           -2.4893e-007    2.1489e-008     -1.5805e-009   
  -0.7            -2.8548e-007    1.1277e-008     8.27e-010      
  -0.75           -3.2306e-007    -2.3397e-008    1.4341e-009    
  -0.8            -3.6304e-007    -1.2497e-008    1.173e-010     
  -0.85           -3.9832e-007    8.136e-009      -2.5519e-009   
  -0.9            -4.4096e-007    1.2337e-008     1.6324e-009    
  -0.95           -4.894e-007     -2.0408e-008    1.7892e-009    
  -1              -5.3444e-007    -1.1464e-008    -7.633e-010    
  -1.05           -5.8063e-007    2.2224e-008     -1.5463e-009   
  -1.1            -6.3123e-007    1.1222e-008     8.64e-010      
  -1.15           -6.8446e-007    -2.3945e-008    1.3993e-009    
  -1.2            -7.4116e-007    -1.2146e-008    8.01e-011      
  -1.25           -7.8805e-007    8.435e-009      -2.5098e-009   
  -1.3            -8.4849e-007    1.0861e-008     1.98e-011      
  -1.35           -9.1237e-007    -1.644e-008     2.5186e-009    
  -1.4            -9.7852e-007    -1.0931e-008    -2.31e-010     
  -1.45           -1.03086e-006   1.389e-008      -2.0819e-009   
  -1.5            -1.0977e-006    1.03e-008       3.798e-010     
  -1.55           -1.1645e-006    1.5665e-008     2.4723e-009    
  -1.6            -1.2464e-006    -1.1226e-008    -1.359e-010    
  -1.65           -1.3091e-006    8.363e-009      -2.5119e-009   
  -1.7            -1.3911e-006    1.1158e-008     1.4161e-009    
  -1.75           -1.4649e-006    -2.7206e-008    2.5176e-009    
  -1.8            -1.5438e-006    -1.1763e-008    1.2e-011       
  -1.85           -1.6164e-006    8.209e-009      -2.6453e-009   
  -1.9            -1.7027e-006    1.0781e-008     1.2478e-009    
  -1.95           -1.7882e-006    -2.5868e-008    1.3072e-009    
  -2              -1.8752e-006    -1.2914e-008    1.487e-010     
  -2.05           -1.9475e-006    9.131e-009      -1.3473e-009   
  -2.1            -2.0451e-006    1.0774e-008     1.3326e-009    
  -2.15           -2.1397e-006    -2.68e-008      1.2807e-009    
  -2.2            -2.213e-006     -1.1621e-008    -1.0617e-009   
  -2.25           -2.3069e-006    2.3716e-008     -1.4903e-009   
  -2.3            -2.4088e-006    1.1193e-008     7.068e-010     
  -2.35           -2.5133e-006    -1.9731e-008    1.9164e-009    
  -2.4            -2.6055e-006    -1.9746e-008    1.8775e-009    
  -2.45           -2.7021e-006    -1.0813e-008    -4.126e-010    
  -2.5            -2.7862e-006    1.2255e-008     -2.2244e-009   
  -2.55           -2.9023e-006    1.0934e-008     1.37e-011      
  -2.6            -3.0266e-006    -1.3122e-008    2.7761e-009    
  -2.65           -3.1248e-006    -1.3885e-008    2.177e-010     
  -2.7            -3.2126e-006    9.27e-009       -1.3572e-009   
  -2.75           -3.3537e-006    1.0823e-008     1.239e-009     
  -2.8            -3.4759e-006    -2.566e-008     1.3111e-009    
  -2.85           -3.5934e-006    -1.2821e-008    1.552e-010     
  -2.9            -3.6839e-006    9.35e-009       -1.3479e-009   
  -2.95           -3.8183e-006    1.0996e-008     1.3261e-009    
  -3              -3.944e-006     -2.6383e-008    1.2819e-009    
  -3.05           -4.0653e-006    -1.1397e-008    -1.0576e-009   
  -3.1            -4.1709e-006    2.3525e-008     -1.4965e-009   
  -3.15           -4.2991e-006    1.1479e-008     6.959e-010     
  -3.2            -4.4662e-006    -1.9423e-008    1.9323e-009    
  -3.25           -4.5687e-006    -1.0282e-008    -3.723e-010    
  -3.3            -4.6848e-006    1.2333e-008     -2.2673e-009   
  -3.35           -4.8474e-006    1.2281e-008     1.6268e-009    
  -3.4            -4.9741e-006    -1.1369e-008    2.7973e-009    
  -3.45           -5.1267e-006    -1.3299e-008    2.469e-010     
  -3.5            -5.2327e-006    1.0685e-008     -1.3605e-009   
  -3.55           -5.3793e-006    1.2774e-008     1.2021e-009    
  -3.6            -5.4904e-006    -6.889e-009     2.8859e-009    
  -3.65           -5.657e-006     -1.6389e-008    2.0253e-009    
  -3.7            -5.7976e-006    -1.6112e-008    1.9785e-009    
  -3.75           -5.9413e-006    -1.5737e-008    1.9273e-009    
  -3.8            -6.0784e-006    -1.5242e-008    1.8707e-009    
  -3.85           -6.2403e-006    -1.4506e-008    1.831e-009     
  -3.9            -6.3901e-006    -1.3488e-008    1.7907e-009    
  -3.95           -6.5135e-006    -1.243e-008     1.7447e-009    
  -4              -6.6849e-006    -8.57e-010      2.8712e-009    
  -4.05           -6.8265e-006    5.06e-010       2.8663e-009    
  -4.1            -6.968e-006     2.3963e-008     2.3335e-009    
  -4.15           -7.1351e-006    2.2281e-008     2.8743e-009    
  -4.2            -7.2876e-006    1.579e-008      2.3171e-009    
  -4.25           -7.4305e-006    8.911e-009      -1.7107e-009   
  -4.3            -7.5743e-006    4.7219e-008     -1.3435e-009   
  -4.35           -7.7665e-006    3.7199e-008     2.7522e-009    
  -4.4            -7.929e-006     1.9269e-008     -5.97e-010     
  -4.45           -8.0682e-006    5.0095e-008     -1.9937e-009   
  -4.5            -8.2966e-006    5.2693e-008     1.8305e-009    
  -4.55           -8.4243e-006    2.3813e-008     1.9042e-009    
  -4.6            -8.6114e-006    4.309e-008      -1.8656e-009   
  -4.65           -8.7763e-006    7.715e-008      -1.5835e-009   
  -4.7            -8.9684e-006    8.0045e-008     2.1633e-009    
  -4.75           -9.1489e-006    6.2545e-008     1.4681e-009    
  -4.8            -9.3246e-006    7.9723e-008     -2.0519e-009   
  -4.85           -9.5705e-006    1.05354e-007    2.334e-009     
  -4.9            -9.8145e-006    1.0427e-007     2.2661e-009    
  -4.95           -9.9981e-006    1.1573e-007     -1.7097e-009   
  -5              -1.02481e-005   1.6542e-007     -1.7898e-009   
END_DB

BEGIN_DB
 ICCAP_VAR VG         -1             
 ICCAP_VAR VS         0              
 ICCAP_VAR VB         0              

 #VD              ID              IB              IG             
  0               -2.8419e-008    -2.198e-008     -6.362e-010    
  -0.05           -1.6998e-006    -1.2505e-008    -1.8582e-009   
  -0.1            -3.2226e-006    1.033e-008      2.688e-010     
  -0.15           -4.6064e-006    -1.6358e-008    2.5375e-009    
  -0.2            -5.8389e-006    -1.1756e-008    2.64e-011      
  -0.25           -6.9059e-006    8.376e-009      -2.6557e-009   
  -0.3            -7.8826e-006    1.0723e-008     1.2314e-009    
  -0.35           -8.7276e-006    -2.5677e-008    1.3148e-009    
  -0.4            -9.4986e-006    -1.302e-008     1.622e-010     
  -0.45           -1.01496e-005   9.319e-009      -1.351e-009    
  -0.5            -1.07969e-005   1.0987e-008     1.3147e-009    
  -0.55           -1.13603e-005   -2.6637e-008    1.2832e-009    
  -0.6            -1.1887e-005    -2.5844e-008    1.6854e-009    
  -0.65           -1.2364e-005    -1.3876e-008    2.226e-010     
  -0.7            -1.2783e-005    9.139e-009      -2.4359e-009   
  -0.75           -1.3214e-005    1.0267e-008     3.66e-010      
  -0.8            -1.3644e-005    -2.0921e-008    1.6194e-009    
  -0.85           -1.4033e-005    -1.1976e-008    5.64e-011      
  -0.9            -1.436e-005     1.2929e-008     -2.1614e-009   
  -0.95           -1.4712e-005    1.0882e-008     6.049e-010     
  -1              -1.5084e-005    -2.3895e-008    1.4023e-009    
  -1.05           -1.5417e-005    -1.1187e-008    -1.22e-010     
  -1.1            -1.5707e-005    1.7276e-008     -1.8702e-009   
  -1.15           -1.6045e-005    1.1398e-008     8.211e-010     
  -1.2            -1.6373e-005    -2.6204e-008    1.2957e-009    
  -1.25           -1.6677e-005    -1.0883e-008    -3.625e-010    
  -1.3            -1.6952e-005    2.089e-008      -1.6224e-009   
  -1.35           -1.7278e-005    1.1441e-008     1.0107e-009    
  -1.4            -1.7583e-005    -2.7019e-008    2.4099e-009    
  -1.45           -1.7858e-005    -1.1126e-008    -6.091e-010    
  -1.5            -1.8128e-005    2.4096e-008     -1.4725e-009   
  -1.55           -1.8457e-005    1.0805e-008     1.1963e-009    
  -1.6            -1.8726e-005    -2.4572e-008    2.0728e-009    
  -1.65           -1.8996e-005    -1.1583e-008    -8.413e-010    
  -1.7            -1.9263e-005    2.6636e-008     -1.4084e-009   
  -1.75           -1.9602e-005    1.1496e-008     1.4128e-009    
  -1.8            -1.9864e-005    -1.9246e-008    1.7263e-009    
  -1.85           -2.0151e-005    -1.2482e-008    1.174e-010     
  -1.9            -2.0367e-005    1.1592e-008     -2.2698e-009   
  -1.95           -2.0672e-005    1.1854e-008     2.1273e-009    
  -2              -2.0958e-005    -1.1206e-008    -1.521e-010    
  -2.05           -2.1183e-005    1.7556e-008     -1.837e-009    
  -2.1            -2.1484e-005    1.1214e-008     8.398e-010     
  -2.15           -2.1774e-005    -2.6428e-008    1.2864e-009    
  -2.2            -2.2026e-005    -1.0877e-008    -3.935e-010    
  -2.25           -2.225e-005     2.1227e-008     -1.5983e-009   
  -2.3            -2.2561e-005    1.1168e-008     1.0275e-009    
  -2.35           -2.2829e-005    -2.6978e-008    2.3856e-009    
  -2.4            -2.3093e-005    -1.112e-008     -6.382e-010    
  -2.45           -2.3324e-005    2.439e-008      -1.4682e-009   
  -2.5            -2.3647e-005    1.0762e-008     1.2185e-009    
  -2.55           -2.3886e-005    -1.3943e-008    2.7258e-009    
  -2.6            -2.415e-005     -1.094e-008     -2.98e-010     
  -2.65           -2.438e-005     1.9923e-008     -1.6846e-009   
  -2.7            -2.4657e-005    1.1352e-008     9.584e-010     
  -2.75           -2.4926e-005    -2.7188e-008    1.2574e-009    
  -2.8            -2.5164e-005    -1.0773e-008    -5.398e-010    
  -2.85           -2.5389e-005    2.3248e-008     -1.5058e-009   
  -2.9            -2.5701e-005    1.1055e-008     1.1399e-009    
  -2.95           -2.5945e-005    -1.2498e-008    2.7836e-009    
  -3              -2.6193e-005    -2.6476e-008    2.3275e-009    
  -3.05           -2.643e-005     -1.0932e-008    -6.74e-010     
  -3.1            -2.6648e-005    2.5334e-008     -1.453e-009    
  -3.15           -2.695e-005     1.1425e-008     1.2478e-009    
  -3.2            -2.7221e-005    -1.3649e-008    2.7018e-009    
  -3.25           -2.7449e-005    -1.8504e-008    1.9317e-009    
  -3.3            -2.771e-005     -1.2777e-008    2.194e-010     
  -3.35           -2.7904e-005    1.0904e-008     -2.435e-009    
  -3.4            -2.816e-005     1.2267e-008     3.718e-010     
  -3.45           -2.8463e-005    -1.8604e-008    1.62e-009      
  -3.5            -2.8704e-005    -1.4302e-008    2.3729e-009    
  -3.55           -2.8953e-005    -1.7894e-008    1.5486e-009    
  -3.6            -2.9213e-005    -1.3188e-008    2.2846e-009    
  -3.65           -2.9468e-005    -6.861e-009     2.806e-009     
  -3.7            -2.9701e-005    -1.1897e-008    2.1878e-009    
  -3.75           -2.995e-005     -5.662e-009     2.7736e-009    
  -3.8            -3.0243e-005    -9.676e-009     2.0912e-009    
  -3.85           -3.0493e-005    -3.227e-009     2.7249e-009    
  -3.9            -3.0733e-005    2.2208e-008     2.825e-009     
  -3.95           -3.0989e-005    2.6731e-008     2.3558e-009    
  -4              -3.1225e-005    2.7624e-008     2.6247e-009    
  -4.05           -3.148e-005     9.621e-009      -9.272e-010    
  -4.1            -3.1705e-005    5.2493e-008     -1.3891e-009   
  -4.15           -3.1997e-005    3.8692e-008     2.8225e-009    
  -4.2            -3.2213e-005    2.3259e-008     -1.1896e-009   
  -4.25           -3.2485e-005    6.5475e-008     -1.3502e-009   
  -4.3            -3.2779e-005    5.22e-008       2.888e-009     
  -4.35           -3.3002e-005    4.2483e-008     -1.4872e-009   
  -4.4            -3.3286e-005    8.0159e-008     -1.6102e-009   
  -4.45           -3.3542e-005    8.2726e-008     2.4849e-009    
  -4.5            -3.3845e-005    7.1424e-008     -7.368e-010    
  -4.55           -3.414e-005     9.389e-008      -1.4041e-009   
  -4.6            -3.4399e-005    1.1986e-007     2.7729e-009    
  -4.65           -3.4588e-005    1.1367e-007     -1.1131e-009   
  -4.7            -3.494e-005     1.6939e-007     -1.3591e-009   
  -4.75           -3.5234e-005    1.6845e-007     2.8925e-009    
  -4.8            -3.55e-005      1.7359e-007     -1.3927e-009   
  -4.85           -3.5838e-005    2.2939e-007     -1.6984e-009   
  -4.9            -3.6222e-005    2.4785e-007     2.4367e-009    
  -4.95           -3.6442e-005    2.5616e-007     -6.117e-010    
  -5              -3.6685e-005    3.2423e-007     -1.454e-009    
END_DB

BEGIN_DB
 ICCAP_VAR VG         -2             
 ICCAP_VAR VS         0              
 ICCAP_VAR VB         0              

 #VD              ID              IB              IG             
  0               -5.2389e-008    1.1565e-008     3.771e-010     
  -0.05           -3.2862e-006    -8.753e-009     -1.2703e-009   
  -0.1            -6.4172e-006    2.6598e-008     -1.4126e-009   
  -0.15           -9.4505e-006    1.1613e-008     9.275e-010     
  -0.2            -1.2357e-005    -8.922e-009     -1.3479e-009   
  -0.25           -1.5166e-005    1.2418e-008     1.8949e-009    
  -0.3            -1.7861e-005    -1.1961e-008    6.86e-011      
  -0.35           -2.0385e-005    1.2603e-008     -2.1875e-009   
  -0.4            -2.2836e-005    1.0845e-008     5.864e-010     
  -0.45           -2.5146e-005    -2.3538e-008    1.4238e-009    
  -0.5            -2.7331e-005    -1.1309e-008    -1.095e-010    
  -0.55           -2.9349e-005    1.6833e-008     -1.8878e-009   
  -0.6            -3.1267e-005    1.1353e-008     8.017e-010     
  -0.65           -3.3093e-005    -2.6056e-008    1.3021e-009    
  -0.7            -3.4778e-005    -1.0913e-008    -3.484e-010    
  -0.75           -3.6336e-005    2.0591e-008     -1.6401e-009   
  -0.8            -3.7819e-005    1.1425e-008     9.927e-010     
  -0.85           -3.9192e-005    -2.725e-008     2.4483e-009    
  -0.9            -4.0452e-005    -1.1112e-008    -5.867e-010    
  -0.95           -4.1597e-005    2.3653e-008     -1.4902e-009   
  -1              -4.2762e-005    1.1005e-008     1.1757e-009    
  -1.05           -4.3802e-005    -1.3358e-008    2.7649e-009    
  -1.1            -4.4785e-005    -1.0972e-008    -2.366e-010    
  -1.15           -4.5606e-005    1.9156e-008     -1.7305e-009   
  -1.2            -4.6503e-005    1.1571e-008     9.154e-010     
  -1.25           -4.7329e-005    -2.7138e-008    1.2678e-009    
  -1.3            -4.8079e-005    -1.0911e-008    -4.809e-010    
  -1.35           -4.8786e-005    2.2353e-008     -1.542e-009    
  -1.4            -4.9502e-005    1.1187e-008     1.0933e-009    
  -1.45           -5.0162e-005    -2.6254e-008    2.2657e-009    
  -1.5            -5.0749e-005    -1.1455e-008    -7.257e-010    
  -1.55           -5.133e-005     2.5346e-008     -1.4388e-009   
  -1.6            -5.1956e-005    1.0687e-008     1.2894e-009    
  -1.65           -5.2484e-005    -2.2526e-008    1.9147e-009    
  -1.7            -5.3013e-005    -1.3808e-008    2.115e-010     
  -1.75           -5.342e-005     9.428e-009      -2.4249e-009   
  -1.8            -5.3941e-005    1.0252e-008     3.771e-010     
  -1.85           -5.4468e-005    -2.1101e-008    1.6057e-009    
  -1.9            -5.4953e-005    -1.1861e-008    4.56e-011      
  -1.95           -5.5365e-005    1.3074e-008     -2.1461e-009   
  -2              -5.5823e-005    1.0906e-008     6.123e-010     
  -2.05           -5.6297e-005    -2.417e-008     1.3992e-009    
  -2.1            -5.6731e-005    -1.1206e-008    -1.316e-010    
  -2.15           -5.7118e-005    1.7481e-008     -1.8563e-009   
  -2.2            -5.7551e-005    1.1491e-008     8.269e-010     
  -2.25           -5.7992e-005    -2.6356e-008    1.2923e-009    
  -2.3            -5.8402e-005    -1.0778e-008    -3.685e-010    
  -2.35           -5.8776e-005    2.1018e-008     -1.6181e-009   
  -2.4            -5.9161e-005    1.1543e-008     1.0116e-009    
  -2.45           -5.9584e-005    -2.7099e-008    2.4077e-009    
  -2.5            -5.9958e-005    -1.1193e-008    -6.119e-010    
  -2.55           -6.0343e-005    2.4015e-008     -1.4759e-009   
  -2.6            -6.0733e-005    1.0966e-008     1.1983e-009    
  -2.65           -6.1129e-005    -1.3708e-008    2.7486e-009    
  -2.7            -6.1496e-005    -1.0926e-008    -2.712e-010    
  -2.75           -6.179e-005     1.9579e-008     -1.703e-009    
  -2.8            -6.22e-005      1.1666e-008     9.405e-010     
  -2.85           -6.2578e-005    -2.7305e-008    2.5373e-009    
  -2.9            -6.2912e-005    -1.0921e-008    -5.136e-010    
  -2.95           -6.3259e-005    2.2758e-008     -1.5201e-009   
  -3              -6.3726e-005    1.1281e-008     1.1176e-009    
  -3.05           -6.4016e-005    -2.5835e-008    2.2261e-009    
  -3.1            -6.4361e-005    -1.1384e-008    -7.466e-010    
  -3.15           -6.4684e-005    2.5849e-008     -1.4316e-009   
  -3.2            -6.5137e-005    1.1106e-008     1.3162e-009    
  -3.25           -6.5455e-005    -2.1351e-008    1.8781e-009    
  -3.3            -6.5809e-005    -1.3082e-008    1.903e-010     
  -3.35           -6.6049e-005    1.0568e-008     -2.3933e-009   
  -3.4            -6.6466e-005    1.3009e-008     2.0414e-009    
  -3.45           -6.6862e-005    -2.0317e-008    1.574e-009     
  -3.5            -6.7144e-005    -1.6311e-008    2.3197e-009    
  -3.55           -6.7429e-005    -9.894e-009     -6.777e-010    
  -3.6            -6.773e-005     2.6883e-008     -1.4518e-009   
  -3.65           -6.8156e-005    1.3108e-008     1.2505e-009    
  -3.7            -6.8467e-005    -1.1614e-008    2.6961e-009    
  -3.75           -6.8801e-005    -1.6034e-008    1.9251e-009    
  -3.8            -6.9126e-005    -1.0649e-008    2.6461e-009    
  -3.85           -6.9425e-005    -1.4497e-008    1.8365e-009    
  -3.9            -6.9767e-005    -9.019e-009     2.5836e-009    
  -3.95           -7.0074e-005    -1.2041e-008    1.7514e-009    
  -4              -7.0453e-005    -6.427e-009     2.5168e-009    
  -4.05           -7.0732e-005    2.3548e-008     2.3062e-009    
  -4.1            -7.1052e-005    7.08e-010       2.7275e-009    
  -4.15           -7.1361e-005    8.031e-009      -1.8291e-009   
