! VERSION = 6.00
BEGIN_HEADER
 ICCAP_INPUTS
  VG         V  B GROUND SMU4 0.001 LIN        2    0          -5         6    -1        
  VS         V  E GROUND SMU2 0.1 CON        0
  VD         V  S GROUND SMU1 0.1 LIN        1    0          -5         101  -0.05     
  VB         V  C GROUND SMU3 0.1 LIN        3    0          2.5        2    2.5       
 ICCAP_OUTPUTS
  ID         I  S GROUND SMU1 B
  IB         I  C GROUND SMU3 B
  IG         I  B GROUND SMU4 B
END_HEADER

BEGIN_DB
 ICCAP_VAR VG         0              
 ICCAP_VAR VS         0              
 ICCAP_VAR VB         0              

 #VD              ID              IB              IG             
  0               2.4134e-009     -1.9279e-008    2.7992e-009    
  -0.05           2.1165e-009     1.0385e-008     2.54e-011      
  -0.1            2.2092e-009     1.0377e-008     1.984e-010     
  -0.15           2.3054e-009     1.0535e-008     3.785e-010     
  -0.2            2.3742e-009     1.0946e-008     5.38e-010      
  -0.25           2.4124e-009     1.1225e-008     6.755e-010     
  -0.3            2.4065e-009     1.1019e-008     8.289e-010     
  -0.35           2.3698e-009     1.1139e-008     9.78e-010      
  -0.4            2.3002e-009     1.1709e-008     1.1518e-009    
  -0.45           2.172e-009      1.2494e-008     1.3409e-009    
  -0.5            1.9937e-009     1.2828e-008     1.5067e-009    
  -0.55           2.1282e-009     1.0345e-008     4.85e-011      
  -0.6            2.2221e-009     1.0391e-008     2.34e-010      
  -0.65           2.3185e-009     1.0527e-008     4.131e-010     
  -0.7            2.3818e-009     1.0997e-008     5.673e-010     
  -0.75           2.4102e-009     1.1237e-008     6.983e-010     
  -0.8            2.4033e-009     1.1112e-008     8.511e-010     
  -0.85           2.3612e-009     1.1154e-008     1.0005e-009    
  -0.9            2.2814e-009     1.1867e-008     1.1812e-009    
  -0.95           2.1471e-009     1.264e-008      1.369e-009     
  -1              2.0654e-009     1.0775e-008     -8.67e-011     
  -1.05           2.1447e-009     1.0318e-008     8.03e-011      
  -1.1            2.241e-009      1.0385e-008     2.604e-010     
  -1.15           2.333e-009      1.0592e-008     4.367e-010     
  -1.2            2.3882e-009     1.1067e-008     5.917e-010     
  -1.25           2.4119e-009     1.1312e-008     7.272e-010     
  -1.3            2.4e-009        1.1062e-008     8.717e-010     
  -1.35           2.3519e-009     1.1256e-008     1.0332e-009    
  -1.4            2.2588e-009     1.2118e-008     1.2066e-009    
  -1.45           2.1179e-009     1.2661e-008     1.4045e-009    
  -1.5            1.9247e-009     1.2787e-008     1.5677e-009    
  -1.55           2.1624e-009     1.0299e-008     1.141e-010     
  -1.6            2.2591e-009     1.0478e-008     2.937e-010     
  -1.65           2.3475e-009     1.0657e-008     4.667e-010     
  -1.7            2.3963e-009     1.1157e-008     6.203e-010     
  -1.75           2.4131e-009     1.1292e-008     7.485e-010     
  -1.8            2.3925e-009     1.1092e-008     9.069e-010     
  -1.85           2.3367e-009     1.1373e-008     1.0623e-009    
  -1.9            2.2364e-009     1.2235e-008     1.2433e-009    
  -1.95           2.0897e-009     1.2847e-008     1.4278e-009    
  -2              1.8832e-009     1.2749e-008     1.5981e-009    
  -2.05           2.1793e-009     1.0327e-008     1.468e-010     
  -2.1            2.2785e-009     1.0502e-008     3.275e-010     
  -2.15           2.3568e-009     1.0694e-008     4.969e-010     
  -2.2            2.404e-009      1.1223e-008     6.314e-010     
  -2.25           2.4134e-009     1.118e-008      7.784e-010     
  -2.3            2.3851e-009     1.1109e-008     9.337e-010     
  -2.35           2.325e-009      1.1405e-008     1.0944e-009    
  -2.4            2.2216e-009     1.2405e-008     1.2874e-009    
  -2.45           2.0586e-009     1.2771e-008     1.4564e-009    
  -2.5            2.1044e-009     1.0445e-008     -9e-013        
  -2.55           2.1935e-009     1.0289e-008     1.778e-010     
  -2.6            2.2948e-009     1.0542e-008     3.601e-010     
  -2.65           2.3685e-009     1.0822e-008     5.189e-010     
  -2.7            2.408e-009      1.1244e-008     6.543e-010     
  -2.75           2.4105e-009     1.1199e-008     8.068e-010     
  -2.8            2.3729e-009     1.1098e-008     9.567e-010     
  -2.85           2.3118e-009     1.1505e-008     1.1279e-009    
  -2.9            2.1929e-009     1.2481e-008     1.3154e-009    
  -2.95           2.0173e-009     1.287e-008      1.4879e-009    
  -3              2.114e-009      1.0404e-008     3.18e-011      
  -3.05           2.2118e-009     1.0313e-008     2.054e-010     
  -3.1            2.3106e-009     1.0527e-008     3.922e-010     
  -3.15           2.3764e-009     1.0967e-008     5.448e-010     
  -3.2            2.4096e-009     1.1274e-008     6.804e-010     
  -3.25           2.4063e-009     1.1093e-008     8.308e-010     
  -3.3            2.3648e-009     1.1203e-008     9.837e-010     
  -3.35           2.294e-009      1.1729e-008     1.1573e-009    
  -3.4            2.1638e-009     1.2626e-008     1.3478e-009    
  -3.45           2.0535e-009     1.0918e-008     -1.08e-010     
  -3.5            2.1337e-009     1.0338e-008     6.33e-011      
  -3.55           2.2312e-009     1.0398e-008     2.37e-010      
  -3.6            2.323e-009      1.0624e-008     4.174e-010     
  -3.65           2.3852e-009     1.1045e-008     5.752e-010     
  -3.7            2.4141e-009     1.133e-008      7.124e-010     
  -3.75           2.4037e-009     1.1126e-008     8.63e-010      
  -3.8            2.3563e-009     1.126e-008      1.0168e-009    
  -3.85           2.2701e-009     1.1962e-008     1.1952e-009    
  -3.9            2.132e-009      1.2629e-008     1.3846e-009    
  -3.95           2.0691e-009     1.0725e-008     -7.83e-011     
  -4              2.1512e-009     1.0328e-008     1.021e-010     
  -4.05           2.2512e-009     1.0428e-008     2.843e-010     
  -4.1            2.3417e-009     1.0621e-008     4.568e-010     
  -4.15           2.3931e-009     1.1108e-008     6.093e-010     
  -4.2            2.4087e-009     1.118e-008      7.477e-010     
  -4.25           2.3944e-009     1.1121e-008     9.004e-010     
  -4.3            2.3381e-009     1.1318e-008     1.0594e-009    
  -4.35           2.2395e-009     1.2232e-008     1.2448e-009    
  -4.4            2.0859e-009     1.2709e-008     1.4272e-009    
  -4.45           2.0926e-009     1.0487e-008     -2.74e-011     
  -4.5            2.1773e-009     1.0309e-008     1.465e-010     
  -4.55           2.2791e-009     1.0439e-008     3.284e-010     
  -4.6            2.3569e-009     1.078e-008      4.982e-010     
  -4.65           2.4009e-009     1.1237e-008     6.431e-010     
  -4.7            2.4103e-009     1.1167e-008     7.89e-010      
  -4.75           2.3831e-009     1.1139e-008     9.416e-010     
  -4.8            2.3156e-009     1.1525e-008     1.1099e-009    
  -4.85           2.2027e-009     1.236e-008      1.2949e-009    
  -4.9            2.0314e-009     1.0862e-008     -1.542e-010    
  -4.95           2.1086e-009     1.0406e-008     1.34e-011      
  -5              2.2078e-009     1.0259e-008     1.952e-010     
END_DB

BEGIN_DB
 ICCAP_VAR VG         -1             
 ICCAP_VAR VS         0              
 ICCAP_VAR VB         0              

 #VD              ID              IB              IG             
  0               -1.6e-009       -1.6317e-008    -1.3079e-009   
  -0.05           -3.3341e-008    1.1281e-008     2.1577e-009    
  -0.1            -4.9418e-008    -1.2591e-008    9.42e-011      
  -0.15           -5.3275e-008    8.405e-009      -1.4078e-009   
  -0.2            -5.1477e-008    1.0579e-008     6.405e-010     
  -0.25           -5.4226e-008    -1.6285e-008    2.6277e-009    
  -0.3            -5.6014e-008    -1.7481e-008    1.6227e-009    
  -0.35           -5.643e-008     -1.1274e-008    -2.343e-010    
  -0.4            -5.4973e-008    9.67e-009       -1.3588e-009   
  -0.45           -5.195e-008     1.1287e-008     9.403e-010     
  -0.5            -5.5051e-008    -1.9271e-008    2.1193e-009    
  -0.55           -5.6289e-008    -1.2419e-008    7.36e-011      
  -0.6            -5.5341e-008    8.581e-009      -1.4041e-009   
  -0.65           -5.2326e-008    1.0694e-008     6.574e-010     
  -0.7            -5.4934e-008    -1.6489e-008    2.6035e-009    
  -0.75           -5.6569e-008    -1.7074e-008    1.604e-009     
  -0.8            -5.6796e-008    -1.12e-008      -2.439e-010    
  -0.85           -5.5426e-008    9.64e-009       -1.3583e-009   
  -0.9            -5.2394e-008    1.1233e-008     9.599e-010     
  -0.95           -5.5571e-008    -1.9569e-008    2.0917e-009    
  -1              -5.6753e-008    -1.2392e-008    5.96e-011      
  -1.05           -5.5688e-008    8.721e-009      -1.4011e-009   
  -1.1            -5.271e-008     1.0569e-008     6.765e-010     
  -1.15           -5.534e-008     -1.6802e-008    2.5828e-009    
  -1.2            -5.6949e-008    -1.6644e-008    1.5791e-009    
  -1.25           -5.712e-008     -1.1183e-008    -2.795e-010    
  -1.3            -5.5757e-008    9.46e-009       -1.3557e-009   
  -1.35           -5.2685e-008    1.1164e-008     9.77e-010      
  -1.4            -5.5748e-008    -1.9717e-008    2.0556e-009    
  -1.45           -5.7048e-008    -1.2242e-008    4.05e-011      
  -1.5            -5.5947e-008    8.88e-009       -1.3989e-009   
  -1.55           -5.3054e-008    1.0712e-008     6.892e-010     
  -1.6            -5.5644e-008    -1.6903e-008    2.5574e-009    
  -1.65           -5.7202e-008    -1.622e-008     1.5568e-009    
  -1.7            -5.7445e-008    -1.1079e-008    -2.927e-010    
  -1.75           -5.6007e-008    9.632e-009      -1.3549e-009   
  -1.8            -5.3056e-008    1.1168e-008     9.945e-010     
  -1.85           -5.6063e-008    -1.976e-008     2.0319e-009    
  -1.9            -5.732e-008     -1.2109e-008    2.2e-011       
  -1.95           -5.6197e-008    9.05e-009       -1.3943e-009   
  -2              -5.3333e-008    1.0755e-008     7.064e-010     
  -2.05           -5.5877e-008    -1.7208e-008    2.5377e-009    
  -2.1            -5.7441e-008    -1.5852e-008    1.5398e-009    
  -2.15           -5.7772e-008    -1.1036e-008    -3.134e-010    
  -2.2            -5.6246e-008    9.674e-009      -1.3531e-009   
  -2.25           -5.3187e-008    1.1191e-008     1.0148e-009    
  -2.3            -5.6402e-008    -1.9944e-008    1.9961e-009    
  -2.35           -5.7584e-008    -1.2048e-008    4.6e-012       
  -2.4            -5.6447e-008    9.077e-009      -1.3914e-009   
  -2.45           -5.3459e-008    1.0804e-008     7.178e-010     
  -2.5            -5.6151e-008    -1.7442e-008    2.5067e-009    
  -2.55           -5.772e-008     -1.5414e-008    1.5191e-009    
  -2.6            -5.7939e-008    -1.1032e-008    -3.36e-010     
  -2.65           -5.6419e-008    9.51e-009       -1.352e-009    
  -2.7            -5.3448e-008    1.1132e-008     1.0316e-009    
  -2.75           -5.6631e-008    -2.0092e-008    1.9608e-009    
  -2.8            -5.7778e-008    -1.1987e-008    -1.42e-011     
  -2.85           -5.6663e-008    9.133e-009      -1.3889e-009   
  -2.9            -5.3699e-008    1.0796e-008     7.404e-010     
  -2.95           -5.6315e-008    -1.7583e-008    2.4754e-009    
  -3              -5.7894e-008    -1.5156e-008    1.4969e-009    
  -3.05           -5.8291e-008    -1.0898e-008    -3.58e-010     
  -3.1            -5.6639e-008    9.426e-009      -1.3504e-009   
  -3.15           -5.3646e-008    1.1103e-008     1.0553e-009    
  -3.2            -5.6801e-008    -2.0199e-008    1.924e-009     
  -3.25           -5.8032e-008    -1.1911e-008    -3.11e-011     
  -3.3            -5.6858e-008    9.272e-009      -1.3857e-009   
  -3.35           -5.3803e-008    1.0987e-008     7.579e-010     
  -3.4            -5.6569e-008    -1.7731e-008    2.4524e-009    
  -3.45           -5.8165e-008    -1.4891e-008    2.565e-010     
  -3.5            -5.705e-008     6.387e-009      -1.4472e-009   
  -3.55           -5.4281e-008    1.0479e-008     4.845e-010     
  -3.6            -5.6338e-008    -1.3483e-008    2.8076e-009    
  -3.65           -5.8148e-008    -2.189e-008     1.8955e-009    
  -3.7            -5.8233e-008    -1.1818e-008    -5.13e-011     
  -3.75           -5.7182e-008    9.266e-009      -1.3833e-009   
  -3.8            -5.4076e-008    1.1045e-008     7.751e-010     
  -3.85           -5.6938e-008    -1.7916e-008    2.4185e-009    
  -3.9            -5.8411e-008    -1.4457e-008    2.34e-010      
  -3.95           -5.7282e-008    6.661e-009      -1.4421e-009   
  -4              -5.446e-008     1.0525e-008     5.042e-010     
  -4.05           -5.6613e-008    -1.3922e-008    2.7873e-009    
  -4.1            -5.8449e-008    -2.1371e-008    1.8554e-009    
  -4.15           -5.8515e-008    -1.1677e-008    -7.39e-011     
  -4.2            -5.7313e-008    9.26e-009       -1.381e-009    
  -4.25           -5.4358e-008    1.112e-008      7.945e-010     
  -4.3            -5.7152e-008    -1.7999e-008    2.3927e-009    
  -4.35           -5.8661e-008    -1.4013e-008    2.165e-010     
  -4.4            -5.7557e-008    7.077e-009      -1.436e-009    
  -4.45           -5.478e-008     1.0704e-008     5.223e-010     
  -4.5            -5.7035e-008    -1.398e-008     2.7733e-009    
  -4.55           -5.8747e-008    -2.0794e-008    1.8324e-009    
  -4.6            -5.8917e-008    -1.139e-008     -9.53e-011     
  -4.65           -5.7687e-008    9.565e-009      -1.3758e-009   
  -4.7            -5.477e-008     1.144e-008      8.112e-010     
  -4.75           -5.7599e-008    -1.7881e-008    2.356e-009     
  -4.8            -5.9134e-008    -1.3466e-008    1.998e-010     
  -4.85           -5.8082e-008    7.531e-009      -1.431e-009    
  -4.9            -5.5272e-008    1.0916e-008     5.377e-010     
  -4.95           -5.7548e-008    -1.3981e-008    2.7555e-009    
  -5              -5.9479e-008    -1.9769e-008    1.7962e-009    
END_DB

BEGIN_DB
 ICCAP_VAR VG         -2             
 ICCAP_VAR VS         0              
 ICCAP_VAR VB         0              

 #VD              ID              IB              IG             
  0               -5.0927e-009    2.2784e-008     2.6203e-009    
  -0.05           -4.5115e-007    -2.0831e-008    1.0964e-009    
  -0.1            -8.7482e-007    -2.7222e-008    1.3007e-009    
  -0.15           -1.2662e-006    1.0615e-008     1.2784e-009    
  -0.2            -1.6349e-006    -1.1944e-008    -2.88e-011     
  -0.25           -1.9703e-006    9.079e-009      -1.3473e-009   
  -0.3            -2.2826e-006    1.235e-008      1.525e-009     
  -0.35           -2.5693e-006    -2.7178e-008    1.2674e-009    
  -0.4            -2.8278e-006    -1.1678e-008    -9.2e-011      
  -0.45           -3.0515e-006    8.872e-009      -2.6491e-009   
  -0.5            -3.2582e-006    1.135e-008      1.3211e-009    
  -0.55           -3.4356e-006    -2.6847e-008    1.315e-009     
  -0.6            -3.5865e-006    -1.2567e-008    9.01e-011      
  -0.65           -3.7014e-006    9.607e-009      -1.357e-009    
  -0.7            -3.8074e-006    1.1556e-008     1.3877e-009    
  -0.75           -3.8852e-006    -2.7352e-008    1.2964e-009    
  -0.8            -3.9443e-006    -1.2192e-008    3.44e-011      
  -0.85           -3.9728e-006    9.592e-009      -1.351e-009    
  -0.9            -4.0105e-006    1.1892e-008     1.4504e-009    
  -0.95           -4.0302e-006    -2.7362e-008    1.2816e-009    
  -1              -4.045e-006     -1.2005e-008    -2.57e-011     
  -1.05           -4.0428e-006    9.308e-009      -1.3467e-009   
  -1.1            -4.0611e-006    1.234e-008      1.515e-009     
  -1.15           -4.0669e-006    -2.7222e-008    1.2697e-009    
  -1.2            -4.0743e-006    -1.1804e-008    -8.09e-011     
  -1.25           -4.0664e-006    8.947e-009      -2.65e-009     
  -1.3            -4.0783e-006    1.1321e-008     1.3131e-009    
  -1.35           -4.0843e-006    -2.6721e-008    1.3164e-009    
  -1.4            -4.0892e-006    -1.2645e-008    9.82e-011      
  -1.45           -4.0796e-006    9.65e-009       -1.358e-009    
  -1.5            -4.0921e-006    1.1472e-008     1.3781e-009    
  -1.55           -4.0967e-006    -2.7309e-008    1.2964e-009    
  -1.6            -4.1011e-006    -1.2271e-008    3.95e-011      
  -1.65           -4.0901e-006    9.531e-009      -1.3515e-009   
  -1.7            -4.1037e-006    1.1672e-008     1.441e-009     
  -1.75           -4.1049e-006    -2.7365e-008    1.2843e-009    
  -1.8            -4.1092e-006    -1.2047e-008    -1.45e-011     
  -1.85           -4.0992e-006    9.286e-009      -1.3476e-009   
  -1.9            -4.1126e-006    1.2263e-008     1.5064e-009    
  -1.95           -4.1136e-006    -2.7292e-008    1.2702e-009    
  -2              -4.1168e-006    -1.1727e-008    -7.11e-011     
  -2.05           -4.1075e-006    8.951e-009      -2.6528e-009   
  -2.1            -4.1185e-006    1.1277e-008     1.3031e-009    
  -2.15           -4.1222e-006    -2.6822e-008    1.3171e-009    
  -2.2            -4.1256e-006    -1.2629e-008    1.032e-010     
  -2.25           -4.1144e-006    9.626e-009      -1.3576e-009   
  -2.3            -4.1264e-006    1.1465e-008     1.3733e-009    
  -2.35           -4.1282e-006    -2.7315e-008    1.2989e-009    
  -2.4            -4.1324e-006    -1.2252e-008    4.58e-011      
  -2.45           -4.1209e-006    9.485e-009      -1.351e-009    
  -2.5            -4.1332e-006    1.172e-008      1.4335e-009    
  -2.55           -4.1351e-006    -2.75e-008      1.2844e-009    
  -2.6            -4.1391e-006    -1.2045e-008    -1.08e-011     
  -2.65           -4.1271e-006    9.155e-009      -1.3483e-009   
  -2.7            -4.1401e-006    1.2164e-008     1.4988e-009    
  -2.75           -4.1413e-006    -2.7311e-008    1.2729e-009    
  -2.8            -4.1441e-006    -1.1833e-008    -6.84e-011     
  -2.85           -4.1318e-006    9.036e-009      -2.6619e-009   
  -2.9            -4.1441e-006    1.1251e-008     1.293e-009     
  -2.95           -4.1466e-006    -2.6665e-008    1.3208e-009    
  -3              -4.15e-006      -1.2689e-008    1.073e-010     
  -3.05           -4.139e-006     9.683e-009      -1.3602e-009   
  -3.1            -4.15e-006      1.14e-008       1.363e-009     
  -3.15           -4.1527e-006    -2.7356e-008    1.3012e-009    
  -3.2            -4.1554e-006    -1.2354e-008    4.62e-011      
  -3.25           -4.1442e-006    9.461e-009      -1.3537e-009   
  -3.3            -4.1546e-006    1.1698e-008     1.4298e-009    
  -3.35           -4.1572e-006    -2.7501e-008    1.2865e-009    
  -3.4            -4.1602e-006    -1.1981e-008    -2.8e-012      
  -3.45           -4.1485e-006    9.327e-009      -1.3469e-009   
  -3.5            -4.1604e-006    1.2189e-008     1.4969e-009    
  -3.55           -4.1621e-006    -2.7263e-008    1.2735e-009    
  -3.6            -4.1648e-006    -1.1781e-008    -6.06e-011     
  -3.65           -4.153e-006     9.081e-009      -2.6611e-009   
  -3.7            -4.1641e-006    1.13e-008       1.2895e-009    
  -3.75           -4.1668e-006    -2.642e-008     1.3236e-009    
  -3.8            -4.1695e-006    -1.2654e-008    1.145e-010     
  -3.85           -4.1573e-006    9.854e-009      -1.3598e-009   
  -3.9            -4.1689e-006    1.1603e-008     1.3553e-009    
  -3.95           -4.1717e-006    -2.7032e-008    1.3034e-009    
  -4              -4.1742e-006    -1.2033e-008    5.61e-011      
  -4.05           -4.1622e-006    9.875e-009      -1.3539e-009   
  -4.1            -4.1739e-006    1.2071e-008     1.4193e-009    
  -4.15           -4.1758e-006    -2.6974e-008    1.29e-009      
