! VERSION = 6.00
BEGIN_HEADER
 ICCAP_INPUTS
  VG         V  B GROUND SMU4 0.001 LIN        2    0          -5         6    -1        
  VS         V  E GROUND SMU2 0.1 CON        0
  VD         V  S GROUND SMU1 0.1 LIN        1    0          -5         101  -0.05     
  VB         V  C GROUND SMU3 0.1 LIN        3    0          2.5        2    2.5       
 ICCAP_OUTPUTS
  ID         I  S GROUND SMU1 B
  IB         I  C GROUND SMU3 B
  IG         I  B GROUND SMU4 B
END_HEADER

BEGIN_DB
 ICCAP_VAR VG         0              
 ICCAP_VAR VS         0              
 ICCAP_VAR VB         0              

 #VD              ID              IB              IG             
  0               -6.559e-010     1.0494e-008     -5.525e-010    
  -0.05           -2.0585e-009    1.151e-008      -1.3368e-009   
  -0.1            -1.9185e-009    -1.1609e-008    1.388e-010     
  -0.15           -2.0511e-009    -1.0913e-008    -2.17e-011     
  -0.2            -2.1683e-009    -1.0903e-008    -2.134e-010    
  -0.25           -2.2444e-009    -1.1026e-008    -4.153e-010    
  -0.3            -2.2827e-009    -1.1457e-008    -6.213e-010    
  -0.35           -2.2809e-009    -1.1495e-008    -8.221e-010    
  -0.4            -1.6326e-009    -1.6347e-008    2.0301e-009    
  -0.45           1.8774e-009     -8.645e-009     1.5396e-009    
  -0.5            2.1304e-009     1.027e-008      1.319e-010     
  -0.55           2.2413e-009     1.0466e-008     3.094e-010     
  -0.6            2.3249e-009     1.0781e-008     4.937e-010     
  -0.65           1.4375e-009     2.4834e-008     -1.3437e-009   
  -0.7            8.73e-011       1.1472e-008     -1.3163e-009   
  -0.75           2.249e-010      1.3056e-008     -2.6476e-009   
  -0.8            -1.2943e-009    7.87e-010       -1.9846e-009   
  -0.85           -1.7273e-009    -1.301e-008     1.6682e-009    
  -0.9            1.5698e-009     -9.122e-009     1.7831e-009    
  -0.95           2.2721e-009     1.0562e-008     3.734e-010     
  -1              2.3409e-009     1.0858e-008     5.58e-010      
  -1.05           1.4958e-009     2.3328e-008     -1.3338e-009   
  -1.1            1.29e-010       1.1572e-008     -2.71e-009     
  -1.15           -1.3714e-009    6.77e-010       -1.9244e-009   
  -1.2            -2.2794e-009    -1.1294e-008    -5.923e-010    
  -1.25           -2.283e-009     -1.1494e-008    -7.972e-010    
  -1.3            -1.6211e-009    -1.6868e-008    2.0755e-009    
  -1.35           1.9098e-009     -8.349e-009     1.5158e-009    
  -1.4            2.1119e-009     1.0345e-008     1.022e-010     
  -1.45           2.2217e-009     1.0421e-008     2.788e-010     
  -1.5            2.3098e-009     1.0659e-008     4.619e-010     
  -1.55           1.4147e-009     2.5289e-008     -1.3481e-009   
  -1.6            6.39e-011       1.1365e-008     -1.3195e-009   
  -1.65           2.02e-010       1.2697e-008     -2.6643e-009   
  -1.7            -1.3081e-009    8.38e-010       -1.973e-009    
  -1.75           -2.2888e-009    -1.1489e-008    -6.972e-010    
  -1.8            -1.5808e-009    -1.8938e-008    1.2455e-009    
  -1.85           -1.889e-010     -1.3508e-008    2.8366e-009    
  -1.9            2.1341e-009     1.0366e-008     1.355e-010     
  -1.95           2.2431e-009     1.0396e-008     3.241e-010     
  -2              2.3226e-009     1.0745e-008     5.068e-010     
  -2.05           1.4467e-009     2.4481e-008     -1.3412e-009   
  -2.1            9.02e-011       1.1466e-008     -1.3138e-009   
  -2.15           2.367e-010      1.331e-008      -2.6447e-009   
  -2.2            -1.284e-009     8.85e-010       -1.9879e-009   
  -2.25           -2.2875e-009    -1.1467e-008    -7.387e-010    
  -2.3            -1.597e-009     -1.8136e-008    2.1562e-009    
  -2.35           1.9748e-009     -7.555e-009     1.4545e-009    
  -2.4            2.0845e-009     1.0405e-008     5.43e-011      
  -2.45           2.1924e-009     1.0485e-008     2.288e-010     
  -2.5            2.2829e-009     1.0596e-008     4.077e-010     
  -2.55           2.3507e-009     1.0961e-008     5.939e-010     
  -2.6            1.5192e-009     2.233e-008      -1.3295e-009   
  -2.65           1.595e-010      1.2e-008        -2.6934e-009   
  -2.7            -1.3454e-009    8.04e-010       -1.9404e-009   
  -2.75           -2.2835e-009    -1.1453e-008    -6.31e-010     
  -2.8            -2.2804e-009    -1.1498e-008    -8.295e-010    
  -2.85           -2.2477e-009    -1.1081e-008    -9.832e-010    
  -2.9            -1.7012e-009    -1.3353e-008    1.7371e-009    
  -2.95           1.6365e-009     -9.147e-009     1.7227e-009    
  -3              1.4061e-009     1.0014e-008     1.9065e-009    
  -3.05           2.3242e-009     1.0791e-008     4.956e-010     
  -3.1            1.4492e-009     2.456e-008      -1.344e-009    
  -3.15           8.56e-011       1.1382e-008     -1.3163e-009   
  -3.2            2.306e-010      1.3058e-008     -2.6511e-009   
  -3.25           -1.2895e-009    9.32e-010       -1.9857e-009   
  -3.3            -2.2868e-009    -1.144e-008     -7.34e-010     
  -3.35           -1.595e-009     -1.8149e-008    2.165e-009     
  -3.4            1.9863e-009     -7.574e-009     1.4514e-009    
  -3.45           2.0806e-009     1.0385e-008     4.64e-011      
  -3.5            2.1859e-009     1.0385e-008     2.183e-010     
  -3.55           2.2846e-009     1.0628e-008     4.053e-010     
  -3.6            2.3501e-009     1.1014e-008     5.867e-010     
  -3.65           1.5126e-009     2.2563e-008     -1.3306e-009   
  -3.7            1.528e-010      1.2079e-008     -2.7004e-009   
  -3.75           -1.3464e-009    7.55e-010       -1.9381e-009   
  -3.8            -2.2847e-009    -1.1424e-008    -6.289e-010    
  -3.85           -2.2835e-009    -1.1383e-008    -8.233e-010    
  -3.9            -1.6296e-009    -1.629e-008     2.0231e-009    
  -3.95           1.8762e-009     -8.732e-009     1.5407e-009    
  -4              2.1299e-009     1.0315e-008     1.281e-010     
  -4.05           2.236e-009      1.0462e-008     3.087e-010     
  -4.1            2.3187e-009     1.0761e-008     4.921e-010     
  -4.15           1.4364e-009     2.4905e-008     -1.3434e-009   
  -4.2            8.08e-011       1.1454e-008     -1.3159e-009   
  -4.25           2.246e-010      1.3086e-008     -2.6519e-009   
  -4.3            -1.294e-009     8.25e-010       -1.9788e-009   
  -4.35           -2.2909e-009    -1.1483e-008    -7.296e-010    
  -4.4            -1.5886e-009    -1.8363e-008    1.2422e-009    
  -4.45           -2.121e-010     -1.3985e-008    2.8285e-009    
  -4.5            2.1487e-009     1.0309e-008     1.574e-010     
  -4.55           2.2537e-009     1.0416e-008     3.412e-010     
  -4.6            2.3305e-009     1.0897e-008     5.269e-010     
  -4.65           1.4668e-009     2.4202e-008     -1.3387e-009   
  -4.7            1.09e-010       1.1397e-008     -1.3106e-009   
  -4.75           2.535e-010      1.3375e-008     -2.6301e-009   
  -4.8            -1.28e-009      8.61e-010       -1.9984e-009   
  -4.85           -2.2875e-009    -1.1474e-008    -7.596e-010    
  -4.9            -1.6067e-009    -1.7787e-008    2.1282e-009    
  -4.95           1.9605e-009     -7.666e-009     1.4769e-009    
  -5              2.094e-009      1.0328e-008     7.54e-011      
END_DB

BEGIN_DB
 ICCAP_VAR VG         -1             
 ICCAP_VAR VS         0              
 ICCAP_VAR VB         0              

 #VD              ID              IB              IG             
  0               -9.722e-009     5.702e-009      1.4843e-009    
  -0.05           -7.4952e-007    9.901e-009      -1.5003e-009   
  -0.1            -1.2679e-006    -1.0895e-008    -1.405e-009    
  -0.15           -1.6206e-006    1.3471e-008     -2.055e-010    
  -0.2            -1.8674e-006    -8.568e-009     2.8943e-009    
  -0.25           -2.0352e-006    -1.8203e-008    1.7626e-009    
  -0.3            -2.1505e-006    -1.0905e-008    -5.303e-010    
  -0.35           -2.2358e-006    1.6182e-008     -2.157e-009    
  -0.4            -2.3193e-006    1.1013e-008     1.185e-010     
  -0.45           -2.4212e-006    -1.2285e-008    2.7247e-009    
  -0.5            -2.4909e-006    -1.2708e-008    1.868e-010     
  -0.55           -2.5259e-006    1.1405e-008     -1.321e-009    
  -0.6            -2.5861e-006    1.0748e-008     1.949e-010     
  -0.65           -2.6716e-006    -1.36e-008      2.6549e-009    
  -0.7            -2.7284e-006    -1.2286e-008    1.135e-010     
  -0.75           -2.752e-006     1.1275e-008     -1.3112e-009   
  -0.8            -2.8322e-006    1.0823e-008     1.3572e-009    
  -0.85           -2.8802e-006    -2.6004e-008    1.2886e-009    
  -0.9            -2.9315e-006    -1.1946e-008    4.4e-011       
  -0.95           -2.9471e-006    1.1431e-008     -2.6904e-009   
  -1              -3.0005e-006    1.6741e-008     -1.538e-009    
  -1.05           -3.05e-006      1.05e-008       6.44e-010      
  -1.1            -3.1157e-006    -1.9553e-008    2.0339e-009    
  -1.15           -3.1537e-006    -1.0897e-008    -3.324e-010    
  -1.2            -3.1746e-006    1.375e-008      -2.3778e-009   
  -1.25           -3.2227e-006    1.165e-008      -4.22e-011     
  -1.3            -3.2963e-006    -9.732e-009     2.8309e-009    
  -1.35           -3.3039e-006    -1.112e-008     -1.2978e-009   
  -1.4            -3.347e-006     2.6209e-008     -1.4031e-009   
  -1.45           -3.3966e-006    1.3394e-008     -1.979e-010    
  -1.5            -3.4628e-006    -8.425e-009     2.8937e-009    
  -1.55           -3.5042e-006    -1.7996e-008    1.7528e-009    
  -1.6            -3.5338e-006    -1.0871e-008    -5.421e-010    
  -1.65           -3.5549e-006    1.6421e-008     -2.1366e-009   
  -1.7            -3.5972e-006    1.0976e-008     1.298e-010     
  -1.75           -3.674e-006     -1.2558e-008    2.7145e-009    
  -1.8            -3.7161e-006    -1.2628e-008    1.753e-010     
  -1.85           -3.7172e-006    1.1315e-008     -1.3193e-009   
  -1.9            -3.793e-006     1.0601e-008     1.2927e-009    
  -1.95           -3.8341e-006    -2.5647e-008    1.3044e-009    
  -2              -3.8426e-006    -1.132e-008     -1.0748e-009   
  -2.05           -3.8773e-006    2.334e-008      -1.5127e-009   
  -2.1            -3.9269e-006    1.0514e-008     6.794e-010     
  -2.15           -3.9908e-006    -1.9985e-008    1.9749e-009    
  -2.2            -4.0189e-006    -1.0871e-008    -3.759e-010    
  -2.25           -4.0308e-006    1.4124e-008     -2.3364e-009   
  -2.3            -4.0741e-006    1.1521e-008     -7.2e-012      
  -2.35           -4.1479e-006    -1.0159e-008    2.816e-009     
  -2.4            -4.1874e-006    -1.4048e-008    3.024e-010     
  -2.45           -4.1864e-006    1.0292e-008     -1.3414e-009   
  -2.5            -4.2563e-006    1.0696e-008     1.157e-009     
  -2.55           -4.3029e-006    -2.4753e-008    1.3616e-009    
  -2.6            -4.3117e-006    -1.1443e-008    -9.41e-010     
  -2.65           -4.3407e-006    2.1677e-008     -1.6277e-009   
  -2.7            -4.4023e-006    1.0081e-008     2.0993e-009    
  -2.75           -4.4546e-006    -1.3907e-008    2.956e-010     
  -2.8            -4.4516e-006    1.0389e-008     -1.3402e-009   
  -2.85           -4.5236e-006    1.0718e-008     1.1626e-009    
  -2.9            -4.5684e-006    -2.4725e-008    1.362e-009     
  -2.95           -4.5758e-006    -1.1414e-008    -9.512e-010    
  -3              -4.6048e-006    2.174e-008      -1.6314e-009   
  -3.05           -4.6678e-006    1.0254e-008     2.1028e-009    
  -3.1            -4.7201e-006    -1.363e-008     2.905e-010     
  -3.15           -4.7144e-006    1.0603e-008     -1.3407e-009   
  -3.2            -4.7876e-006    1.0932e-008     1.167e-009     
  -3.25           -4.8332e-006    -2.4257e-008    1.3597e-009    
  -3.3            -4.8382e-006    -1.1093e-008    -9.522e-010    
  -3.35           -4.8672e-006    2.2285e-008     -1.6284e-009   
  -3.4            -4.93e-006      1.0634e-008     2.1029e-009    
  -3.45           -4.984e-006     -1.3005e-008    2.934e-010     
  -3.5            -4.9751e-006    1.131e-008      -1.3395e-009   
  -3.55           -5.052e-006     1.1698e-008     1.17e-009      
  -3.6            -5.0964e-006    -2.3368e-008    1.3566e-009    
  -3.65           -5.135e-006     -1.1446e-008    2.264e-010     
  -3.7            -5.1248e-006    1.2896e-008     -1.3281e-009   
  -3.75           -5.205e-006     1.2896e-008     1.2378e-009    
  -3.8            -5.2419e-006    -5.817e-009     1.2618e-009    
  -3.85           -5.2807e-006    -1.5228e-008    2.1527e-009    
  -3.9            -5.3194e-006    -1.4934e-008    2.11e-009      
  -3.95           -5.3578e-006    -1.4736e-008    2.069e-009     
  -4              -5.395e-006     -1.417e-008     2.0196e-009    
  -4.05           -5.435e-006     -1.3873e-008    1.9843e-009    
  -4.1            -5.4729e-006    -1.3112e-008    1.9358e-009    
  -4.15           -5.5121e-006    -1.2189e-008    1.8961e-009    
  -4.2            -5.5484e-006    7.1e-010        1.2479e-009    
  -4.25           -5.5639e-006    2.936e-009      -2.6489e-009   
  -4.3            -5.5929e-006    2.2815e-008     4.217e-010     
  -4.35           -5.6756e-006    -2.295e-009     2.3766e-009    
  -4.4            -5.6869e-006    2.4796e-008     2.7041e-009    
  -4.45           -5.7254e-006    2.6784e-008     2.6262e-009    
  -4.5            -5.7781e-006    1.0748e-008     -4.342e-010    
  -4.55           -5.7894e-006    3.947e-008      -2.2679e-009   
  -4.6            -5.889e-006     3.9373e-008     1.6222e-009    
  -4.65           -5.9128e-006    7.933e-009      1.2438e-009    
  -4.7            -5.9377e-006    2.8061e-008     -2.6851e-009   
  -4.75           -5.9712e-006    5.0661e-008     4.846e-010     
  -4.8            -6.0537e-006    2.7805e-008     2.2917e-009    
  -4.85           -6.0449e-006    3.9138e-008     -1.7871e-009   
  -4.9            -6.1021e-006    8.235e-008      -1.3027e-009   
  -4.95           -6.1684e-006    7.3117e-008     2.7765e-009    
  -5              -6.2211e-006    6.0507e-008     -6.349e-010    
END_DB

BEGIN_DB
 ICCAP_VAR VG         -2             
 ICCAP_VAR VS         0              
 ICCAP_VAR VB         0              

 #VD              ID              IB              IG             
  0               -5.6533e-008    -1.2031e-008    -1.531e-010    
  -0.05           -4.2141e-006    5.935e-009      1.2602e-009    
  -0.1            -8.1779e-006    -2.5681e-008    1.3172e-009    
  -0.15           -1.1934e-005    -2.2528e-008    1.7363e-009    
  -0.2            -1.549e-005     -1.2543e-008    1.867e-010     
  -0.25           -1.8792e-005    1.3653e-008     -2.3877e-009   
  -0.3            -2.1909e-005    1.0374e-008     4.552e-010     
  -0.35           -2.4826e-005    -2.2037e-008    1.5556e-009    
  -0.4            -2.7496e-005    -1.1825e-008    -5e-013        
  -0.45           -2.99e-005      1.6476e-008     -2.1143e-009   
  -0.5            -3.2153e-005    1.0548e-008     6.548e-010     
  -0.55           -3.4211e-005    -2.4435e-008    1.3869e-009    
  -0.6            -3.6038e-005    -1.1303e-008    -2.065e-010    
  -0.65           -3.7635e-005    1.9564e-008     -1.8259e-009   
  -0.7            -3.913e-005     1.0885e-008     8.508e-010     
  -0.75           -4.0464e-005    -2.5955e-008    1.303e-009     
  -0.8            -4.161e-005     -1.0936e-008    -4.378e-010    
  -0.85           -4.2598e-005    2.1817e-008     -1.6077e-009   
  -0.9            -4.3547e-005    1.1877e-008     -7.22e-011     
  -0.95           -4.4415e-005    -1.6885e-008    2.3619e-009    
  -1              -4.5119e-005    -1.1071e-008    -6.71e-010     
  -1.05           -4.575e-005     2.4275e-008     -1.4645e-009   
  -1.1            -4.6411e-005    1.1022e-008     1.168e-010     
  -1.15           -4.7055e-005    -1.9333e-008    2.0531e-009    
  -1.2            -4.7531e-005    -1.1427e-008    -8.772e-010    
  -1.25           -4.7985e-005    2.6792e-008     -1.395e-009    
  -1.3            -4.8559e-005    1.1003e-008     1.3961e-009    
  -1.35           -4.8968e-005    -1.7546e-008    1.7316e-009    
  -1.4            -4.9309e-005    -1.1436e-008    -1.0513e-009   
  -1.45           -4.9676e-005    2.8186e-008     -1.3562e-009   
  -1.5            -5.0181e-005    1.1528e-008     1.5923e-009    
  -1.55           -5.0528e-005    -1.3866e-008    3.066e-010     
  -1.6            -5.0769e-005    1.1815e-008     -2.5368e-009   
  -1.65           -5.112e-005     1.0378e-008     3.141e-010     
  -1.7            -5.1517e-005    -2.0706e-008    1.7343e-009    
  -1.75           -5.1749e-005    -1.1566e-008    -1.0466e-009   
  -1.8            -5.2029e-005    2.8079e-008     -1.356e-009    
  -1.85           -5.2468e-005    1.1634e-008     1.5852e-009    
  -1.9            -5.2728e-005    -1.3841e-008    3.095e-010     
  -1.95           -5.2914e-005    1.1774e-008     -2.5459e-009   
  -2              -5.3204e-005    1.0412e-008     3.072e-010     
  -2.05           -5.3568e-005    -2.0801e-008    1.743e-009     
  -2.1            -5.376e-005     -1.146e-008     -1.0406e-009   
  -2.15           -5.3995e-005    2.8145e-008     -1.356e-009    
  -2.2            -5.4401e-005    1.1516e-008     1.5848e-009    
  -2.25           -5.4624e-005    -1.3932e-008    3.13e-010      
  -2.3            -5.4764e-005    1.1803e-008     -2.5451e-009   
  -2.35           -5.505e-005     1.0411e-008     3.033e-010     
  -2.4            -5.5335e-005    -2.0775e-008    1.7491e-009    
  -2.45           -5.5593e-005    -1.2276e-008    1.392e-010     
  -2.5            -5.5735e-005    1.4271e-008     -2.3173e-009   
  -2.55           -5.6072e-005    1.0055e-008     2.0851e-009    
  -2.6            -5.6312e-005    -1.1441e-008    -1.473e-010    
  -2.65           -5.645e-005     1.8858e-008     -1.8907e-009   
  -2.7            -5.674e-005     1.0897e-008     8.07e-010      
  -2.75           -5.7027e-005    -2.5622e-008    1.3172e-009    
  -2.8            -5.7203e-005    -1.0855e-008    -3.852e-010    
  -2.85           -5.7357e-005    2.1365e-008     -1.6469e-009   
  -2.9            -5.7588e-005    1.2326e-008     -1.135e-010    
  -2.95           -5.7914e-005    -1.6173e-008    2.4435e-009    
  -3              -5.809e-005     -1.0852e-008    -6.186e-010    
  -3.05           -5.8215e-005    2.3798e-008     -1.4908e-009   
  -3.1            -5.8538e-005    1.0802e-008     1.1608e-009    
  -3.15           -5.8726e-005    -2.2653e-008    2.1285e-009    
  -3.2            -5.889e-005     -1.0928e-008    -8.381e-010    
  -3.25           -5.9028e-005    2.6711e-008     -1.4072e-009   
  -3.3            -5.9369e-005    1.146e-008      1.3488e-009    
  -3.35           -5.9557e-005    -1.3867e-008    2.5789e-009    
  -3.4            -5.9706e-005    -1.0006e-008    -4.951e-010    
  -3.45           -5.984e-005     2.3642e-008     -1.5644e-009   
  -3.5            -6.0144e-005    1.2143e-008     1.0702e-009    
  -3.55           -6.0354e-005    -7.927e-009     2.8302e-009    
  -3.6            -6.0533e-005    -1.5179e-008    2.26e-009      
  -3.65           -6.0677e-005    -8.173e-009     -7.523e-010    
  -3.7            -6.0816e-005    2.8998e-008     -1.4327e-009   
  -3.75           -6.1153e-005    1.5128e-008     1.266e-009     
  -3.8            -6.135e-005     -8.093e-009     2.665e-009     
  -3.85           -6.1499e-005    -1.3464e-008    1.8835e-009    
  -3.9            -6.1717e-005    -6.125e-009     2.6109e-009    
  -3.95           -6.1889e-005    1.398e-009      2.8997e-009    
  -4              -6.2092e-005    -3.07e-009      2.5537e-009    
  -4.05           -6.2234e-005    2.0574e-008     2.8985e-009    
  -4.1            -6.2414e-005    2.6412e-008     2.4354e-009    
  -4.15           -6.2647e-005    2.0286e-008     2.6035e-009    
