! VERSION = 6.00
BEGIN_HEADER
 ICCAP_INPUTS
  VG         V  B GROUND SMU4 0.001 LIN        1    0          -5         101  -0.05     
  VS         V  E GROUND SMU2 0.1 CON        0
  VB         V  C GROUND SMU3 0.1 LIN        3    0          5          3    2.5       
  VD         V  S GROUND SMU1 0.1 LIN        2    -0.1       -5         2    -4.9      
 ICCAP_OUTPUTS
  IG         I  B GROUND SMU4 B
  ID         I  S GROUND SMU1 B
  IB         I  C GROUND SMU3 B
END_HEADER

BEGIN_DB
 ICCAP_VAR VS         0              
 ICCAP_VAR VB         0              
 ICCAP_VAR VD         -0.1           

 #VG              IG              ID              IB             
  0               -1.39e-009      -1.1962e-009    -7.662e-009    
  -0.05           -6.32e-010      -2.2744e-009    -1.3162e-008   
  -0.1            -8.433e-010     -2.2573e-009    -1.1477e-008   
  -0.15           2.0532e-009     -1.6489e-009    -1.5918e-008   
  -0.2            1.5687e-009     1.9308e-009     -8.292e-009    
  -0.25           1.752e-009      1.6237e-009     1.1026e-008    
  -0.3            3.594e-010      2.2928e-009     1.2759e-008    
  -0.35           5.673e-010      2.3233e-009     1.2536e-008    
  -0.4            7.521e-010      2.3243e-009     1.1019e-008    
  -0.45           -1.9281e-009    1.5588e-009     1.8114e-008    
  -0.5            -2.5696e-009    -1.4911e-009    5.501e-009     
  -0.55           2.255e-009      -2.6523e-009    -1.9299e-008   
  -0.6            1.8806e-009     -2.9165e-009    -7.286e-009    
  -0.65           -2.2794e-009    -1.1716e-008    -2.5022e-008   
  -0.7            -1.6131e-009    -3.0945e-008    3.777e-009     
  -0.75           -1.392e-009     -7.2375e-008    7.213e-009     
  -0.8            5.114e-010      -1.4361e-007    -1.1295e-008   
  -0.85           9.273e-010      -2.5246e-007    1.1596e-008    
  -0.9            -2.793e-010     -3.9323e-007    1.2006e-008    
  -0.95           -1.4648e-009    -5.5964e-007    2.1041e-008    
  -1              -1.4009e-009    -7.4278e-007    8.557e-009     
  -1.05           -2.661e-009     -9.3529e-007    1.289e-008     
  -1.1            -2.2087e-009    -1.13372e-006   1.175e-009     
  -1.15           -2.5991e-009    -1.3334e-006    -1.8804e-008   
  -1.2            -5.434e-010     -1.5318e-006    -1.2886e-008   
  -1.25           -9.884e-010     -1.7249e-006    -1.2397e-008   
  -1.3            2.922e-010      -1.9196e-006    -1.1948e-008   
  -1.35           1.4731e-009     -2.1026e-006    -1.9681e-008   
  -1.4            1.3205e-009     -2.2837e-006    -7.692e-009    
  -1.45           2.8385e-009     -2.4623e-006    -1.0892e-008   
  -1.5            4.789e-010      -2.631e-006     1.2471e-008    
  -1.55           9.036e-010      -2.8011e-006    1.1371e-008    
  -1.6            -1.4401e-009    -2.9664e-006    1.2517e-008    
  -1.65           -1.4049e-009    -3.1304e-006    8.803e-009     
  -1.7            -2.6508e-009    -3.2879e-006    1.2973e-008    
  -1.75           -2.1357e-009    -3.4458e-006    1.439e-009     
  -1.8            -1.5202e-009    -3.5974e-006    4.755e-009     
  -1.85           -1.3974e-009    -3.7484e-006    8.131e-009     
  -1.9            -2.6941e-009    -3.8943e-006    1.2041e-008    
  -1.95           -4.808e-010     -4.0414e-006    -1.2786e-008   
  -2              -9.446e-010     -4.1825e-006    -1.2839e-008   
  -2.05           3.333e-010      -4.3239e-006    -1.2616e-008   
  -2.1            1.5264e-009     -4.4558e-006    -1.8983e-008   
  -2.15           2.8296e-009     -4.5884e-006    -7.741e-009    
  -2.2            2.0482e-009     -4.7178e-006    1.0882e-008    
  -2.25           9.146e-010      -4.8464e-006    1.1764e-008    
  -2.3            -1.4298e-009    -4.9743e-006    1.2055e-008    
  -2.35           -1.4055e-009    -5.0988e-006    8.805e-009     
  -2.4            -2.6477e-009    -5.2204e-006    1.3351e-008    
  -2.45           -2.1175e-009    -5.3438e-006    1.236e-009     
  -2.5            -1.5057e-009    -5.4632e-006    5.036e-009     
  -2.55           -1.3996e-009    -5.5804e-006    7.939e-009     
  -2.6            -2.6957e-009    -5.6953e-006    1.2247e-008    
  -2.65           -4.962e-010     -5.8129e-006    -1.2898e-008   
  -2.7            -9.63e-010      -5.9252e-006    -1.2234e-008   
  -2.75           3.251e-010      -6.038e-006     -1.2423e-008   
  -2.8            1.5077e-009     -6.1444e-006    -1.9198e-008   
  -2.85           1.3211e-009     -6.2507e-006    -7.755e-009    
  -2.9            2.8547e-009     -6.3584e-006    -1.0421e-008   
  -2.95           -1.7064e-009    -6.4623e-006    2.1813e-008    
  -3              -1.3922e-009    -6.5672e-006    6.616e-009     
  -3.05           -1.398e-009     -6.6681e-006    1.0151e-008    
  -3.1            -2.5385e-009    -6.7678e-006    1.4713e-008    
  -3.15           -1.8847e-009    -6.8704e-006    1.888e-009     
  -3.2            -1.4248e-009    -6.9691e-006    5.463e-009     
  -3.25           -1.407e-009     -7.0637e-006    8.92e-009      
  -3.3            -2.6414e-009    -7.1586e-006    1.3416e-008    
  -3.35           -2.1046e-009    -7.2562e-006    1.226e-009     
  -3.4            -1.4912e-009    -7.3475e-006    4.876e-009     
  -3.45           -1.4005e-009    -7.4407e-006    8.209e-009     
  -3.5            -2.6912e-009    -7.5332e-006    1.2438e-008    
  -3.55           1.7656e-009     -7.6267e-006    -1.9173e-008   
  -3.6            1.329e-009      -7.7143e-006    -8.764e-009    
  -3.65           2.867e-009      -7.8047e-006    -8.204e-009    
  -3.7            -1.391e-009     -7.8883e-006    2.8067e-008    
  -3.75           -2.4583e-009    -7.9772e-006    1.6006e-008    
  -3.8            -1.7703e-009    -8.0646e-006    2.787e-009     
  -3.85           -1.4041e-009    -8.1496e-006    5.93e-009      
  -3.9            -1.4057e-009    -8.2314e-006    9.259e-009     
  -3.95           -2.589e-009     -8.3136e-006    1.3807e-008    
  -4              -1.9788e-009    -8.3959e-006    1.608e-009     
  -4.05           -1.448e-009     -8.4775e-006    5.391e-009     
  -4.1            -1.406e-009     -8.5556e-006    8.763e-009     
  -4.15           -2.6699e-009    -8.6361e-006    1.2915e-008    
  -4.2            -2.1945e-009    -8.7113e-006    1.268e-009     
  -4.25           -1.5475e-009    -8.7927e-006    4.365e-009     
  -4.3            -1.3968e-009    -8.8655e-006    7.751e-009     
  -4.35           -2.7031e-009    -8.9453e-006    1.1704e-008    
  -4.4            1.8789e-009     -9.0217e-006    -2.1057e-008   
  -4.45           1.3418e-009     -9.0918e-006    -8.766e-009    
  -4.5            2.8629e-009     -9.1666e-006    -7.758e-009    
  -4.55           -1.3961e-009    -9.2314e-006    2.8833e-008    
  -4.6            -2.5167e-009    -9.302e-006     1.4947e-008    
  -4.65           -1.8531e-009    -9.3746e-006    2.276e-009     
  -4.7            -1.4156e-009    -9.4403e-006    5.495e-009     
  -4.75           -1.4067e-009    -9.5178e-006    9.04e-009      
  -4.8            -2.6285e-009    -9.5863e-006    1.3603e-008    
  -4.85           -2.07e-009      -9.6504e-006    1.257e-009     
  -4.9            -1.4813e-009    -9.7212e-006    4.981e-009     
  -4.95           -1.4025e-009    -9.7877e-006    8.345e-009     
  -5              -2.6844e-009    -9.8568e-006    1.2726e-008    
END_DB

BEGIN_DB
 ICCAP_VAR VS         0              
 ICCAP_VAR VB         0              
 ICCAP_VAR VD         -5             

 #VG              IG              ID              IB             
  0               6.276e-010      7.255e-010      1.2427e-008    
  -0.05           1.165e-009      2.3158e-009     -8.321e-009    
  -0.1            1.3364e-009     2.1865e-009     1.0884e-008    
  -0.15           -1.3938e-009    1.2779e-009     2.9232e-008    
  -0.2            -1.3351e-009    -2.1481e-009    1.1234e-008    
  -0.25           1.3391e-009     -1.274e-009     -2.6592e-008   
  -0.3            1.1406e-009     2.299e-009      -8.176e-009    
  -0.35           1.3153e-009     2.1164e-009     1.0687e-008    
  -0.4            -1.3915e-009    9.349e-010      2.9205e-008    
  -0.45           -2.7391e-009    -2.0864e-009    1.1015e-008    
  -0.5            1.3189e-009     -5.0602e-009    -2.6572e-008   
  -0.55           -2.7049e-009    -1.2203e-008    -1.3105e-008   
  -0.6            1.9216e-009     -3.4024e-008    -2.1497e-008   
  -0.65           1.3559e-009     -8.0538e-008    -7.846e-009    
  -0.7            8.827e-010      -1.7647e-007    -1.6177e-008   
  -0.75           1.2704e-009     -3.501e-007     1.2894e-008    
  -0.8            1.7159e-009     -6.1304e-007    1.8004e-008    
  -0.85           2.1332e-009     -9.7336e-007    1.9958e-008    
  -0.9            7.44e-011       -1.4381e-006    1.2297e-008    
  -0.95           5.631e-010      -2.0221e-006    3.1359e-008    
  -1              9.727e-010      -2.7158e-006    3.4641e-008    
  -1.05           1.3736e-009     -3.5225e-006    3.796e-008     
  -1.1            1.8081e-009     -4.4128e-006    4.5934e-008    
  -1.15           2.2301e-009     -5.3689e-006    5.0087e-008    
  -1.2            2.5897e-009     -6.4317e-006    5.486e-008     
  -1.25           2.8174e-009     -7.5751e-006    5.9711e-008    
  -1.3            2.8675e-009     -8.7814e-006    5.8074e-008    
  -1.35           2.6403e-009     -1.00678e-005   6.0529e-008    
  -1.4            -1.6305e-009    -1.138e-005     6.2332e-008    
  -1.45           -1.3889e-009    -1.2782e-005    7.735e-008     
  -1.5            -1.3826e-009    -1.4236e-005    8.5322e-008    
  -1.55           -2.4542e-009    -1.574e-005     9.3387e-008    
  -1.6            -1.7704e-009    -1.7298e-005    8.3726e-008    
  -1.65           -2.0157e-009    -1.8916e-005    9.9723e-008    
  -1.7            -1.4534e-009    -2.0543e-005    9.154e-008     
  -1.75           -1.3992e-009    -2.2222e-005    9.701e-008     
  -1.8            -2.6651e-009    -2.3932e-005    1.0317e-007    
  -1.85           -2.1959e-009    -2.5733e-005    9.27e-008      
  -1.9            -1.5491e-009    -2.7518e-005    9.689e-008     
  -1.95           -1.3908e-009    -2.933e-005     1.0063e-007    
  -2              -2.6947e-009    -3.1166e-005    1.0526e-007    
  -2.05           -2.3619e-009    -3.3066e-005    9.402e-008     
  -2.1            -1.676e-009     -3.4965e-005    9.62e-008      
  -2.15           -1.3926e-009    -3.6896e-005    9.858e-008     
  -2.2            -1.3907e-009    -3.8847e-005    1.011e-007     
  -2.25           -2.5148e-009    -4.0819e-005    1.0457e-007    
  -2.3            -6.002e-010     -4.2881e-005    6.947e-008     
  -2.35           -2.7353e-009    -4.49e-005      7.5428e-008    
  -2.4            -2.6252e-009    -4.6869e-005    7.5832e-008    
  -2.45           -3.31e-010      -4.8976e-005    1.0242e-007    
  -2.5            -8.577e-010     -5.1048e-005    6.7312e-008    
  -2.55           -1.2424e-009    -5.3127e-005    6.8544e-008    
  -2.6            -1.6713e-009    -5.5204e-005    6.458e-008     
  -2.65           -1.9825e-009    -5.7373e-005    6.2034e-008    
  -2.7            -2.3294e-009    -5.9526e-005    6.2301e-008    
  -2.75           -2.7024e-009    -6.1687e-005    5.9596e-008    
  -2.8            -2.7365e-009    -6.3841e-005    6.0321e-008    
  -2.85           -2.657e-009     -6.6033e-005    6.2496e-008    
  -2.9            -2.1867e-009    -6.8222e-005    6.1765e-008    
  -2.95           -1.5406e-009    -7.0431e-005    6.2594e-008    
  -3              -1.3955e-009    -7.266e-005     6.3033e-008    
  -3.05           -2.698e-009     -7.4885e-005    6.4594e-008    
  -3.1            -2.353e-009     -7.7146e-005    5.1189e-008    
  -3.15           -1.6765e-009    -7.9405e-005    5.1159e-008    
  -3.2            -1.3934e-009    -8.1663e-005    5.1925e-008    
  -3.25           -1.3914e-009    -8.3935e-005    5.3347e-008    
  -3.3            -2.5093e-009    -8.6228e-005    5.538e-008     
  -3.35           -1.8462e-009    -8.8531e-005    4.0538e-008    
  -3.4            -1.4154e-009    -9.081e-005     4.1814e-008    
  -3.45           -1.4013e-009    -9.3137e-005    4.3111e-008    
  -3.5            -2.606e-009     -9.5438e-005    4.584e-008     
  -3.55           -2.0297e-009    -9.7795e-005    3.1608e-008    
  -3.6            -1.4673e-009    -0.000100129    3.365e-008     
  -3.65           -1.4015e-009    -0.00010248     3.5243e-008    
  -3.7            -2.6732e-009    -0.000104816    3.7547e-008    
  -3.75           -2.2192e-009    -0.00010723     2.4624e-008    
  -3.8            -1.5629e-009    -0.000109592    2.6331e-008    
  -3.85           -1.3926e-009    -0.000111947    2.8134e-008    
  -3.9            1.5493e-009     -0.00011429     3.0656e-008    
  -3.95           2.8669e-009     -0.00011669     2.2256e-008    
  -4              2.2593e-009     -0.00011904     2.5343e-008    
  -4.05           2.6084e-009     -0.00012143     2.4156e-008    
  -4.1            2.8231e-009     -0.00012384     2.232e-008     
  -4.15           1.9677e-009     -0.00012628     2.4411e-008    
  -4.2            2.3754e-009     -0.00012862     2.121e-008     
  -4.25           2.6901e-009     -0.00013103     2.0221e-008    
  -4.3            1.6786e-009     -0.00013349     2.079e-008     
  -4.35           2.1029e-009     -0.0001359      2.0369e-008    
  -4.4            9.7e-010        -0.00013824     2.0067e-008    
  -4.45           1.3701e-009     -0.00014064     1.7038e-008    
  -4.5            1.8078e-009     -0.00014304     1.8858e-008    
  -4.55           2.2301e-009     -0.0001454      1.6729e-008    
  -4.6            1.0902e-009     -0.0001479      1.6195e-008    
  -4.65           1.5126e-009     -0.0001504      1.6187e-008    
  -4.7            1.9375e-009     -0.0001528      1.6846e-008    
  -4.75           8.284e-010      -0.00015517     1.7437e-008    
  -4.8            1.212e-009      -0.00015761     1.3676e-008    
  -4.85           1.6486e-009     -0.0001601      1.5501e-008    
  -4.9            2.0761e-009     -0.0001625      1.4358e-008    
  -4.95           9.424e-010      -0.00016488     1.4689e-008    
  -5              1.3372e-009     -0.00016735     1.2096e-008    
END_DB

BEGIN_DB
 ICCAP_VAR VS         0              
 ICCAP_VAR VB         2.5            
 ICCAP_VAR VD         -0.1           

 #VG              IG              ID              IB             
  0               1.405e-010      3.599e-010      9.826e-009     
  -0.05           2.7378e-009     -4.43e-010      -1.846e-008    
  -0.1            4.265e-010      2.3029e-009     1.2703e-008    
  -0.15           6.289e-010      2.3382e-009     1.2152e-008    
  -0.2            8.159e-010      2.3547e-009     1.0299e-008    
  -0.25           -1.8047e-009    1.7049e-009     1.5487e-008    
  -0.3            -1.7336e-009    -1.6951e-009    5.755e-009     
  -0.35           -2.849e-010     -2.2465e-009    -1.3024e-008   
  -0.4            -5.313e-010     -2.2711e-009    -1.3095e-008   
  -0.45           -7.622e-010     -2.2591e-009    -1.2139e-008   
  -0.5            -9.406e-010     -2.242e-009     -1.0402e-008   
  -0.55           1.8228e-009     -1.7052e-009    -1.2877e-008   
  -0.6            1.6927e-009     1.7431e-009     -8.97e-009     
  -0.65           1.8739e-009     1.4276e-009     1.0458e-008    
  -0.7            5.103e-010      2.3221e-009     1.2519e-008    
  -0.75           7.057e-010      2.3465e-009     1.1095e-008    
  -0.8            -1.3816e-009    1.6108e-009     1.9204e-008    
  -0.85           -2.6489e-009    2.703e-010      1.5467e-008    
  -0.9            -1.1036e-009    -2.2374e-009    1.366e-009     
  -0.95           1.5297e-009     -1.8526e-009    -1.0162e-008   
  -1              1.361e-009      9.79e-011       -8.254e-009    
  -1.05           1.3204e-009     -8.333e-010     -7.932e-009    
  -1.1            2.8613e-009     -4.2365e-009    -9.349e-009    
  -1.15           -2.3347e-009    -1.6049e-008    -2.5601e-008   
  -1.2            -1.6651e-009    -4.5783e-008    3.633e-009     
  -1.25           -1.4003e-009    -1.06755e-007   6.934e-009     
  -1.3            1.9091e-009     -2.0437e-007    -2.6621e-008   
  -1.35           7.98e-010       -3.4034e-007    1.2532e-008    
  -1.4            -1.5212e-009    -5.0395e-007    1.6082e-008    
  -1.45           -1.3996e-009    -6.8776e-007    8.243e-009     
  -1.5            -2.6871e-009    -8.7798e-007    1.2389e-008    
  -1.55           1.7672e-009     -1.0751e-006    -1.8811e-008   
  -1.6            1.5735e-009     -1.2641e-006    8.152e-009     
  -1.65           2.0034e-009     -1.4486e-006    1.1045e-008    
  -1.7            8.814e-010      -1.6256e-006    1.2025e-008    
  -1.75           -1.4626e-009    -1.7962e-006    1.3364e-008    
  -1.8            -1.4025e-009    -1.9681e-006    8.683e-009     
  -1.85           -2.6447e-009    -2.1372e-006    1.3134e-008    
  -1.9            -2.1401e-009    -2.3015e-006    1.246e-009     
  -1.95           -1.5246e-009    -2.4594e-006    4.892e-009     
  -2              -1.4022e-009    -2.6117e-006    7.887e-009     
  -2.05           -2.6905e-009    -2.7624e-006    1.2263e-008    
  -2.1            1.7928e-009     -2.914e-006     -1.9477e-008   
  -2.15           1.3316e-009     -3.054e-006     -8.943e-009    
  -2.2            2.8711e-009     -3.1957e-006    -8.448e-009    
  -2.25           -1.3833e-009    -3.329e-006     2.7483e-008    
  -2.3            -2.4354e-009    -3.4643e-006    1.5662e-008    
  -2.35           -1.7541e-009    -3.599e-006     2.9e-009       
  -2.4            -1.4076e-009    -3.728e-006     6.042e-009     
  -2.45           -1.3966e-009    -3.8569e-006    9.71e-009      
  -2.5            -2.5485e-009    -3.9818e-006    1.3799e-008    
  -2.55           -1.9384e-009    -4.1066e-006    1.796e-009     
  -2.6            -1.4481e-009    -4.228e-006     5.173e-009     
  -2.65           -1.3982e-009    -4.346e-006     8.935e-009     
  -2.7            -2.6355e-009    -4.4629e-006    1.3201e-008    
  -2.75           -2.1121e-009    -4.5802e-006    1.57e-009      
  -2.8            -1.5169e-009    -4.6942e-006    4.706e-009     
  -2.85           -1.3964e-009    -4.8062e-006    8.481e-009     
  -2.9            -2.6843e-009    -4.9154e-006    1.246e-008     
  -2.95           -2.2892e-009    -5.0265e-006    1.305e-009     
  -3              -1.635e-009     -5.1334e-006    3.81e-009      
  -3.05           -1.3973e-009    -5.2394e-006    7.182e-009     
  -3.1            -2.7133e-009    -5.3436e-006    1.1114e-008    
  -3.15           1.9868e-009     -5.4497e-006    -2.2661e-008   
  -3.2            1.3724e-009     -5.5493e-006    -8.677e-009    
  -3.25           2.8713e-009     -5.6476e-006    -8.157e-009    
  -3.3            -1.3946e-009    -5.7462e-006    2.8642e-008    
  -3.35           -2.5386e-009    -5.845e-006     1.4251e-008    
  -3.4            -1.9082e-009    -5.9436e-006    1.686e-009     
  -3.45           -1.4375e-009    -6.0378e-006    5.397e-009     
  -3.5            -1.3984e-009    -6.1317e-006    8.836e-009     
  -3.55           -2.6243e-009    -6.2236e-006    1.3035e-008    
  -3.6            -2.0841e-009    -6.3181e-006    1.253e-009     
  -3.65           -1.505e-009     -6.4088e-006    4.995e-009     
  -3.7            -1.3966e-009    -6.4982e-006    8.266e-009     
  -3.75           -2.676e-009     -6.5852e-006    1.2341e-008    
  -3.8            -2.2562e-009    -6.6754e-006    1.233e-009     
  -3.85           -1.6076e-009    -6.7615e-006    4.135e-009     
  -3.9            -1.397e-009     -6.8472e-006    7.412e-009     
  -3.95           -1.3756e-009    -6.9324e-006    1.1307e-008    
  -4              -2.4258e-009    -7.0117e-006    1.5465e-008    
  -4.05           -1.753e-009     -7.0933e-006    2.915e-009     
  -4.1            -1.4084e-009    -7.1812e-006    6.211e-009     
  -4.15           -1.3953e-009    -7.2589e-006    9.954e-009     
