! VERSION = 6.00
BEGIN_HEADER
 ICCAP_INPUTS
  VG         V  B GROUND SMU4 0.001 LIN        1    0          -5         101  -0.05     
  VS         V  E GROUND SMU2 0.1 CON        0
  VB         V  C GROUND SMU3 0.1 LIN        3    0          5          3    2.5       
  VD         V  S GROUND SMU1 0.1 LIN        2    -0.1       -5         2    -4.9      
 ICCAP_OUTPUTS
  IG         I  B GROUND SMU4 B
  ID         I  S GROUND SMU1 B
  IB         I  C GROUND SMU3 B
END_HEADER

BEGIN_DB
 ICCAP_VAR VS         0              
 ICCAP_VAR VB         0              
 ICCAP_VAR VD         -0.1           

 #VG              IG              ID              IB             
  0               -2.1845e-009    -2.1971e-009    1.3671e-008    
  -0.05           -4.468e-010     -2.2764e-009    -1.1062e-008   
  -0.1            -6.566e-010     -2.3125e-009    -1.1426e-008   
  -0.15           1.2565e-009     -1.5673e-009    -1.985e-008    
  -0.2            2.8766e-009     -1.625e-010     -1.2893e-008   
  -0.25           1.078e-010      2.1358e-009     1.0309e-008    
  -0.3            2.868e-010      2.2476e-009     1.0436e-008    
  -0.35           4.73e-010       2.3323e-009     1.0697e-008    
  -0.4            -1.3537e-009    1.427e-009      2.5145e-008    
  -0.45           -1.3274e-009    2.32e-011       1.1468e-008    
  -0.5            -2.6776e-009    4.13e-011       1.2924e-008    
  -0.55           -1.982e-009     -1.9282e-009    7.57e-010      
  -0.6            -7.229e-010     -4.4848e-009    -1.1449e-008   
  -0.65           1.2492e-009     -9.4566e-009    -1.8345e-008   
  -0.7            -1.4139e-009    -2.6271e-008    -1.1611e-008   
  -0.75           -1.3333e-009    -7.8015e-008    1.1148e-008    
  -0.8            2.1447e-009     -2.0848e-007    -2.2378e-008   
  -0.85           -1.261e-010     -5.0732e-007    1.2285e-008    
  -0.9            2.877e-010      -1.07302e-006   1.0372e-008    
  -0.95           -1.3672e-009    -2.0222e-006    -1.1131e-008   
  -1              -2.6949e-009    -3.3815e-006    1.1342e-008    
  -1.05           -2.251e-009     -5.1215e-006    7.94e-010      
  -1.1            -1.6651e-009    -7.1269e-006    3.15e-009      
  -1.15           -1.4048e-009    -9.2941e-006    7.605e-009     
  -1.2            1.6636e-009     -1.1609e-005    8.566e-009     
  -1.25           1.3169e-009     -1.3886e-005    -8.935e-009    
  -1.3            2.8932e-009     -1.6169e-005    -8.489e-009    
  -1.35           1.2639e-009     -1.8403e-005    1.0552e-008    
  -1.4            1.031e-010      -2.0518e-005    1.101e-008     
  -1.45           5.48e-010       -2.2675e-005    1.0344e-008    
  -1.5            -1.818e-009     -2.4747e-005    2.3557e-008    
  -1.55           -1.4441e-009    -2.6769e-005    6.23e-009      
  -1.6            -1.3449e-009    -2.8741e-005    1.0814e-008    
  -1.65           -2.5842e-009    -3.0654e-005    1.1476e-008    
  -1.7            -2.0362e-009    -3.2543e-005    1.167e-009     
  -1.75           -1.5316e-009    -3.4362e-005    4.439e-009     
  -1.8            -1.3707e-009    -3.6155e-005    9.343e-009     
  -1.85           -2.6997e-009    -3.7868e-005    1.1442e-008    
  -1.9            -2.2612e-009    -3.9567e-005    7.3e-010       
  -1.95           -1.6708e-009    -4.1204e-005    3.049e-009     
  -2              -1.4071e-009    -4.2802e-005    7.557e-009     
  -2.05           -1.3299e-009    -4.436e-005     1.1335e-008    
  -2.1            -2.4711e-009    -4.5866e-005    1.2431e-008    
  -2.15           -1.8686e-009    -4.7379e-005    2.124e-009     
  -2.2            -1.4624e-009    -4.8833e-005    5.501e-009     
  -2.25           -1.3529e-009    -5.0255e-005    1.0204e-008    
  -2.3            -2.6232e-009    -5.1638e-005    1.1292e-008    
  -2.35           -2.0862e-009    -5.3023e-005    9.11e-010      
  -2.4            -1.5677e-009    -5.4356e-005    4.222e-009     
  -2.45           -1.3793e-009    -5.5664e-005    8.956e-009     
  -2.5            -2.7204e-009    -5.6941e-005    1.1419e-008    
  -2.55           -2.3157e-009    -5.8212e-005    7e-010         
  -2.6            -1.7167e-009    -5.9448e-005    2.779e-009     
  -2.65           -1.417e-009     -6.066e-005     6.944e-009     
  -2.7            -1.334e-009     -6.1844e-005    1.1083e-008    
  -2.75           -2.517e-009     -6.2997e-005    1.202e-008     
  -2.8            -1.9197e-009    -6.4161e-005    1.714e-009     
  -2.85           -1.4826e-009    -6.5287e-005    4.95e-009      
  -2.9            -1.3604e-009    -6.6389e-005    1.0199e-008    
  -2.95           -2.6541e-009    -6.7461e-005    1.1369e-008    
  -3              -2.1485e-009    -6.8548e-005    8.33e-010      
  -3.05           -1.5957e-009    -6.9595e-005    3.46e-009      
  -3.1            -1.3863e-009    -7.062e-005     8.547e-009     
  -3.15           -1.3154e-009    -7.1639e-005    1.1494e-008    
  -3.2            -2.3816e-009    -7.2625e-005    1.3618e-008    
  -3.25           -8.641e-010     -7.3636e-005    -1.1343e-008   
  -3.3            -1.2455e-009    -7.4587e-005    -1.1084e-008   
  -3.35           -2.9e-012       -7.5579e-005    -1.1707e-008   
  -3.4            -4.945e-010     -7.6492e-005    -1.0895e-008   
  -3.45           -9.425e-010     -7.7407e-005    -1.1463e-008   
  -3.5            -1.3392e-009    -7.8302e-005    -1.1089e-008   
  -3.55           -9e-011         -7.9222e-005    -1.1471e-008   
  -3.6            -6.006e-010     -8.0101e-005    -1.0928e-008   
  -3.65           1.9514e-009     -8.0977e-005    -2.0888e-008   
  -3.7            1.4088e-009     -8.1835e-005    -9.038e-009    
  -3.75           1.2644e-009     -8.2675e-005    -8.63e-009     
  -3.8            2.7593e-009     -8.3499e-005    -1.1883e-008   
  -3.85           5.57e-010       -8.4307e-005    1.0439e-008    
  -3.9            -1.8049e-009    -8.5121e-005    2.32e-008      
  -3.95           -1.4364e-009    -8.5896e-005    6.303e-009     
  -4              -1.3443e-009    -8.6672e-005    1.0736e-008    
  -4.05           -2.5738e-009    -8.7424e-005    1.1482e-008    
  -4.1            -2.0076e-009    -8.8203e-005    1.467e-009     
  -4.15           -1.5206e-009    -8.8951e-005    4.489e-009     
  -4.2            -1.3708e-009    -8.9682e-005    9.601e-009     
  -4.25           -2.6959e-009    -9.0393e-005    1.1371e-008    
  -4.3            -2.2354e-009    -9.1122e-005    8.35e-010      
  -4.35           -1.6534e-009    -9.183e-005     3.057e-009     
  -4.4            -1.4018e-009    -9.2527e-005    7.795e-009     
  -4.45           -1.3298e-009    -9.3215e-005    1.1429e-008    
  -4.5            -2.4579e-009    -9.3872e-005    1.265e-008     
  -4.55           -1.845e-009     -9.4561e-005    2.091e-009     
  -4.6            -1.4578e-009    -9.5216e-005    5.628e-009     
  -4.65           -1.353e-009     -9.5859e-005    1.023e-008     
  -4.7            -2.6142e-009    -9.6484e-005    1.1262e-008    
  -4.75           -2.0615e-009    -9.7139e-005    1.028e-009     
  -4.8            -1.5437e-009    -9.776e-005     4.087e-009     
  -4.85           -1.3817e-009    -9.8377e-005    9.036e-009     
  -4.9            -2.7237e-009    -9.8978e-005    1.1426e-008    
  -4.95           -2.3006e-009    -9.959e-005     7.79e-010      
  -5              -1.6988e-009    -0.000100172    2.781e-009     
END_DB

BEGIN_DB
 ICCAP_VAR VS         0              
 ICCAP_VAR VB         0              
 ICCAP_VAR VD         -5             

 #VG              IG              ID              IB             
  0               -1.3294e-009    -1.2078e-009    -8.426e-009    
  -0.05           -6.161e-010     -2.3056e-009    -1.139e-008    
  -0.1            1.2674e-009     -1.5473e-009    -2.033e-008    
  -0.15           2.8955e-009     -1.245e-010     -1.2409e-008   
  -0.2            1.0638e-009     2.3303e-009     1.0625e-008    
  -0.25           -1.5117e-009    1.8905e-009     1.2159e-008    
  -0.3            -1.9316e-009    -1.4063e-009    9.815e-009     
  -0.35           -6e-010         -2.3847e-009    -1.1287e-008   
  -0.4            1.2695e-009     -1.8426e-009    -2.0655e-008   
  -0.45           2.9005e-009     -1.1801e-009    -1.2124e-008   
  -0.5            1.0612e-009     -1.2025e-009    1.0733e-008    
  -0.55           -2.694e-009     -1.2713e-008    -1.0803e-008   
  -0.6            -2.1997e-009    -3.9257e-008    1.645e-009     
  -0.65           -1.642e-009     -1.1752e-007    1.4054e-008    
  -0.7            -1.4043e-009    -3.2849e-007    1.4026e-008    
  -0.75           -1.3245e-009    -8.3064e-007    2.6701e-008    
  -0.8            -1.8614e-009    -1.8588e-006    2.4442e-008    
  -0.85           -2.1172e-009    -3.771e-006     5.1438e-008    
  -0.9            5.513e-010      -6.8407e-006    1.2361e-007    
  -0.95           1.996e-010      -1.12427e-005   1.4993e-007    
  -1              1.6275e-009     -1.6927e-005    2.4211e-007    
  -1.05           1.3524e-009     -2.3954e-005    3.0611e-007    
  -1.1            2.9318e-009     -3.2346e-005    3.9324e-007    
  -1.15           2.5225e-009     -4.1768e-005    4.9356e-007    
  -1.2            1.8332e-009     -5.2464e-005    5.8398e-007    
  -1.25           1.4147e-009     -6.4219e-005    6.7287e-007    
  -1.3            1.3113e-009     -7.6885e-005    7.6668e-007    
  -1.35           2.733e-009      -9.0476e-005    8.5025e-007    
  -1.4            2.0764e-009     -0.00010473     9.4697e-007    
  -1.45           2.9716e-009     -0.00011968     1.04183e-006   
  -1.5            2.7398e-009     -0.00013549     1.1052e-006    
  -1.55           5.94e-011       -0.00015182     1.1996e-006    
  -1.6            -4.275e-010     -0.00016894     1.2236e-006    
  -1.65           -8.946e-010     -0.00018635     1.2769e-006    
  -1.7            -1.287e-009     -0.0002042      1.3249e-006    
  -1.75           -1.7134e-009    -0.0002227      1.3632e-006    
  -1.8            -1.9978e-009    -0.00024223     1.3998e-006    
  -1.85           -2.3311e-009    -0.00026174     1.4289e-006    
  -1.9            -2.7025e-009    -0.00028153     1.4511e-006    
  -1.95           -2.7987e-009    -0.00030164     1.4665e-006    
  -2              -2.608e-009     -0.00032208     1.4785e-006    
  -2.05           -2.0696e-009    -0.00034282     1.4815e-006    
  -2.1            -1.5483e-009    -0.00036392     1.479e-006     
  -2.15           -1.3781e-009    -0.00038521     1.4774e-006    
  -2.2            -2.7283e-009    -0.00040682     1.4661e-006    
  -2.25           -2.2916e-009    -0.00042884     1.439e-006     
  -2.3            -1.693e-009     -0.0004509      1.4176e-006    
  -2.35           -1.4151e-009    -0.0004732      1.3956e-006    
  -2.4            -1.333e-009     -0.00049569     1.3713e-006    
  -2.45           -2.4988e-009    -0.0005184      1.3407e-006    
  -2.5            -1.895e-009     -0.00054152     1.2954e-006    
  -2.55           -1.4747e-009    -0.00056464     1.2611e-006    
  -2.6            -1.3587e-009    -0.00058786     1.2274e-006    
  -2.65           -2.6433e-009    -0.00061119     1.1928e-006    
  -2.7            -2.0987e-009    -0.00063492     1.1405e-006    
  -2.75           -1.5679e-009    -0.00065868     1.099e-006     
  -2.8            -1.387e-009     -0.0006825      1.0615e-006    
  -2.85           -2.7374e-009    -0.00070647     1.0241e-006    
  -2.9            2.3764e-009     -0.00073108     9.7774e-007    
  -2.95           2.6893e-009     -0.0007553      9.3263e-007    
  -3              2.9189e-009     -0.0007797      8.8815e-007    
  -3.05           2.8164e-009     -0.00080423     8.4064e-007    
  -3.1            2.306e-009      -0.00082893     7.9768e-007    
  -3.15           1.6253e-009     -0.00085368     7.5315e-007    
  -3.2            1.3167e-009     -0.00087855     7.1006e-007    
  -3.25           2.892e-009      -0.00090358     6.7165e-007    
  -3.3            2.5299e-009     -0.00092818     6.4226e-007    
  -3.35           1.8361e-009     -0.00095337     6.0228e-007    
  -3.4            1.3774e-009     -0.00097852     5.6162e-007    
  -3.45           1.2592e-009     -0.00100374     5.2885e-007    
  -3.5            2.7159e-009     -0.00102909     4.92e-007      
  -3.55           2.078e-009      -0.00105424     4.7129e-007    
  -3.6            1.4832e-009     -0.00107963     4.3561e-007    
  -3.65           1.2808e-009     -0.00110516     4.0638e-007    
  -3.7            2.8262e-009     -0.00113108     3.7726e-007    
  -3.75           -1.5264e-009    -0.0011552      3.5852e-007    
  -3.8            -1.3728e-009    -0.0011807      3.4784e-007    
  -3.85           -2.6971e-009    -0.0012063      3.2625e-007    
  -3.9            -2.2178e-009    -0.0012322      2.9372e-007    
  -3.95           -1.6377e-009    -0.0012579      2.7543e-007    
  -4              -1.4036e-009    -0.0012834      2.6039e-007    
  -4.05           -1.3265e-009    -0.0013092      2.4602e-007    
  -4.1            -2.4273e-009    -0.0013349      2.2993e-007    
  -4.15           -1.8122e-009    -0.001361       2.0334e-007    
  -4.2            -1.4477e-009    -0.0013868      1.9172e-007    
  -4.25           -1.3478e-009    -0.0014126      1.8229e-007    
  -4.3            -2.5878e-009    -0.0014385      1.7004e-007    
  -4.35           -2.0038e-009    -0.0014647      1.4761e-007    
  -4.4            -1.5213e-009    -0.0014904      1.3929e-007    
  -4.45           -1.3739e-009    -0.0015162      1.3368e-007    
  -4.5            -2.6945e-009    -0.0015421      1.2586e-007    
  -4.55           -2.2172e-009    -0.0015684      1.0581e-007    
  -4.6            -1.6383e-009    -0.0015942      1e-007         
  -4.65           -1.4047e-009    -0.0016202      9.647e-008     
  -4.7            -1.3252e-009    -0.001646       9.29e-008      
  -4.75           -2.4226e-009    -0.0016721      8.782e-008     
  -4.8            1.6998e-009     -0.0016987      4.7161e-008    
  -4.85           1.3324e-009     -0.0017246      5.3349e-008    
  -4.9            2.9123e-009     -0.0017506      4.8472e-008    
  -4.95           2.578e-009      -0.0017765      5.1733e-008    
  -5              1.8969e-009     -0.0018024      4.4485e-008    
END_DB

BEGIN_DB
 ICCAP_VAR VS         0              
 ICCAP_VAR VB         2.5            
 ICCAP_VAR VD         -0.1           

 #VG              IG              ID              IB             
  0               1.5362e-009     1.8343e-009     -1.1161e-008   
  -0.05           9.229e-010      2.3828e-009     1.0653e-008    
  -0.1            1.0852e-009     2.3193e-009     1.073e-008     
  -0.15           -1.494e-009     1.914e-009      1.1891e-008    
  -0.2            -1.9527e-009    -1.3505e-009    9.892e-009     
  -0.25           -6.486e-010     -2.3074e-009    -1.1344e-008   
  -0.3            1.26e-009       -1.5726e-009    -1.9338e-008   
  -0.35           2.8767e-009     -1.649e-010     -1.3125e-008   
  -0.4            1.324e-010      2.1462e-009     1.0431e-008    
  -0.45           3.232e-010      2.2626e-009     1.0524e-008    
  -0.5            5.133e-010      2.3481e-009     1.0683e-008    
  -0.55           -1.3495e-009    1.4728e-009     2.384e-008     
  -0.6            -1.3217e-009    1.174e-010      1.1585e-008    
  -0.65           -2.6387e-009    2.744e-010      1.3767e-008    
  -0.7            -2.0305e-009    -1.2728e-009    8.94e-010      
  -0.75           1.5639e-009     -1.7801e-009    -1.2256e-008   
  -0.8            1.8783e-009     1.4689e-009     -8.859e-009    
  -0.85           4.716e-010      2.3315e-009     1.0698e-008    
  -0.9            -1.3588e-009    1.4411e-009     2.4708e-008    
  -0.95           -1.3284e-009    4.76e-011       1.1531e-008    
  -1              -2.664e-009     7.09e-011       1.2935e-008    
  -1.05           -2.0077e-009    -2.0455e-009    9.71e-010      
  -1.1            -7.787e-010     -5.5624e-009    -1.1357e-008   
  -1.15           2.9222e-009     -1.2011e-008    2.3637e-008    
  -1.2            2.6992e-009     -4.7815e-008    -1.75e-010     
  -1.25           -8.319e-010     -1.5575e-007    1.3161e-008    
  -1.3            1.6225e-009     -4.2439e-007    -1.5826e-008   
  -1.35           1.3073e-009     -9.6895e-007    -8.928e-009    
  -1.4            2.752e-009      -1.8971e-006    2.2576e-008    
  -1.45           7.209e-010      -3.2636e-006    1.0729e-008    
  -1.5            -1.6148e-009    -4.9812e-006    1.8638e-008    
  -1.55           -1.39e-009      -6.9481e-006    8.616e-009     
  -1.6            -2.7451e-009    -9.0555e-006    1.16e-008      
  -1.65           -2.3467e-009    -1.12182e-005   6.44e-010      
  -1.7            1.3124e-009     -1.3391e-005    2.244e-009     
  -1.75           2.8829e-009     -1.5496e-005    -8.862e-009    
  -1.8            3.582e-010      -1.7501e-005    1.0366e-008    
  -1.85           8.043e-010      -1.95e-005      1.0871e-008    
  -1.9            -1.5416e-009    -2.1397e-005    1.6443e-008    
  -1.95           -1.3708e-009    -2.3246e-005    9.453e-009     
  -2              -2.6922e-009    -2.5037e-005    1.1487e-008    
  -2.05           -2.2236e-009    -2.6805e-005    7.38e-010      
  -2.1            -1.6428e-009    -2.8501e-005    3.41e-009      
  -2.15           -1.3984e-009    -3.0149e-005    7.895e-009     
  -2.2            -1.3233e-009    -3.1764e-005    1.1519e-008    
  -2.25           -2.4118e-009    -3.3324e-005    1.3404e-008    
  -2.3            -8.483e-010     -3.4891e-005    -1.1245e-008   
  -2.35           -1.2392e-009    -3.6364e-005    -1.1163e-008   
  -2.4            -4.8e-012       -3.7876e-005    -1.1753e-008   
  -2.45           -5.01e-010      -3.9284e-005    -1.0944e-008   
  -2.5            -9.57e-010      -4.0671e-005    -1.1495e-008   
  -2.55           2.825e-010      -4.2081e-005    -1.352e-008    
  -2.6            -1.217e-010     -4.3403e-005    -1.1442e-008   
  -2.65           -6.391e-010     -4.4693e-005    -1.1047e-008   
  -2.7            1.8756e-009     -4.5996e-005    -1.9835e-008   
  -2.75           1.3769e-009     -4.7249e-005    -9.242e-009    
  -2.8            1.2576e-009     -4.8492e-005    -8.587e-009    
  -2.85           2.7133e-009     -4.9694e-005    -1.2832e-008   
  -2.9            6.389e-010      -5.0874e-005    1.0561e-008    
  -2.95           -1.694e-009     -5.2038e-005    2.0935e-008    
  -3              -1.4086e-009    -5.3174e-005    7.398e-009     
  -3.05           -1.3328e-009    -5.4295e-005    1.1312e-008    
  -3.1            -2.463e-009     -5.5386e-005    1.2664e-008    
  -3.15           -8.115e-010     -5.6501e-005    -1.1254e-008   
  -3.2            1.6454e-009     -5.7613e-005    -1.6298e-008   
  -3.25           1.3132e-009     -5.8644e-005    -9.162e-009    
  -3.3            2.8881e-009     -5.9678e-005    -8.911e-009    
  -3.35           3.438e-010      -6.0665e-005    1.0446e-008    
  -3.4            7.927e-010      -6.1669e-005    1.0782e-008    
  -3.45           -1.5476e-009    -6.2664e-005    1.6786e-008    
  -3.5            -1.3778e-009    -6.3606e-005    9.392e-009     
  -3.55           -2.7089e-009    -6.4548e-005    1.1633e-008    
  -3.6            -2.2467e-009    -6.5501e-005    7.85e-010      
  -3.65           -1.6572e-009    -6.6419e-005    3.228e-009     
  -3.7            -1.4032e-009    -6.7335e-005    7.762e-009     
  -3.75           -1.3271e-009    -6.8227e-005    1.164e-008     
  -3.8            -2.4324e-009    -6.9096e-005    1.3244e-008    
  -3.85           -1.8038e-009    -6.9984e-005    2.496e-009     
  -3.9            -1.44e-009      -7.0836e-005    6.046e-009     
  -3.95           -1.3467e-009    -7.1675e-005    1.0728e-008    
  -4              -2.5721e-009    -7.2489e-005    1.1826e-008    
  -4.05           -1.974e-009     -7.3329e-005    1.671e-009     
  -4.1            -1.5023e-009    -7.4128e-005    4.519e-009     
  -4.15           -1.3665e-009    -7.4916e-005    9.955e-009     
