! VERSION = 6.00
BEGIN_HEADER
 ICCAP_INPUTS
  VG         V  B GROUND SMU4 0.001 LIN        2    0          -5         6    -1        
  VS         V  E GROUND SMU2 0.1 CON        0
  VD         V  S GROUND SMU1 0.1 LIN        1    0          -5         101  -0.05     
  VB         V  C GROUND SMU3 0.1 LIN        3    0          2.5        2    2.5       
 ICCAP_OUTPUTS
  ID         I  S GROUND SMU1 B
  IB         I  C GROUND SMU3 B
  IG         I  B GROUND SMU4 B
END_HEADER

BEGIN_DB
 ICCAP_VAR VG         0              
 ICCAP_VAR VS         0              
 ICCAP_VAR VB         0              

 #VD              ID              IB              IG             
  0               1.183e-009      -1.1339e-008    1.2528e-009    
  -0.05           2.2454e-009     1.0398e-008     3.635e-010     
  -0.1            2.3189e-009     1.065e-008      5.279e-010     
  -0.15           1.4478e-009     2.3969e-008     -1.3302e-009   
  -0.2            9.47e-011       1.113e-008      -1.3008e-009   
  -0.25           2.267e-010      1.2318e-008     -2.6295e-009   
  -0.3            -1.3095e-009    8.02e-010       -1.9696e-009   
  -0.35           -2.2746e-009    -1.13e-008      -6.851e-010    
  -0.4            -2.2672e-009    -1.1327e-008    -8.585e-010    
  -0.45           -2.2291e-009    -1.0995e-008    -9.982e-010    
  -0.5            -1.7015e-009    -1.3613e-008    1.7321e-009    
  -0.55           1.6464e-009     -9.523e-009     1.7082e-009    
  -0.6            2.053e-009      9.984e-009      6.03e-011      
  -0.65           2.1594e-009     1.0325e-008     2.055e-010     
  -0.7            2.2556e-009     1.0413e-008     3.774e-010     
  -0.75           2.328e-009      1.0684e-008     5.439e-010     
  -0.8            1.459e-009      2.3713e-008     -1.3299e-009   
  -0.85           1.082e-010      1.1024e-008     -1.2997e-009   
  -0.9            2.388e-010      1.2825e-008     -2.6265e-009   
  -0.95           -1.3031e-009    7.04e-010       -1.9746e-009   
  -1              -2.2758e-009    -1.135e-008     -6.995e-010    
  -1.05           -1.5735e-009    -1.8935e-008    1.2416e-009    
  -1.1            -1.684e-010     -1.2749e-008    2.8437e-009    
  -1.15           2.0907e-009     1.0281e-008     1.09e-010      
  -1.2            2.1962e-009     1.0373e-008     2.689e-010     
  -1.25           2.2865e-009     1.0474e-008     4.293e-010     
  -1.3            2.3439e-009     1.0778e-008     5.925e-010     
  -1.35           1.5042e-009     2.2342e-008     -1.3216e-009   
  -1.4            1.423e-010      1.1579e-008     -2.7019e-009   
  -1.45           -1.3706e-009    5.7e-010        -1.9172e-009   
  -1.5            -2.261e-009     -1.1021e-008    -5.754e-010    
  -1.55           -2.2803e-009    -1.1272e-008    -7.504e-010    
  -1.6            -1.5944e-009    -1.7931e-008    1.2363e-009    
  -1.65           -2.2e-010       -1.3808e-008    2.8278e-009    
  -1.7            2.1189e-009     1.0358e-008     1.503e-010     
  -1.75           2.2252e-009     1.0347e-008     3.209e-010     
  -1.8            2.3018e-009     1.0651e-008     4.815e-010     
  -1.85           1.4081e-009     2.5069e-008     -1.3436e-009   
  -1.9            5.87e-011       1.1356e-008     -1.3134e-009   
  -1.95           1.831e-010      1.1976e-008     -2.6825e-009   
  -2              -1.3328e-009    6.25e-010       -1.9406e-009   
  -2.05           -2.2689e-009    -1.1256e-008    -6.31e-010     
  -2.1            -2.2749e-009    -1.1243e-008    -8.046e-010    
  -2.15           -1.618e-009     -1.6787e-008    2.0671e-009    
  -2.2            1.9285e-009     -8.143e-009     1.4879e-009    
  -2.25           2.0803e-009     1.0351e-008     8.24e-011      
  -2.3            2.182e-009      1.0421e-008     2.416e-010     
  -2.35           2.2717e-009     1.0427e-008     4.069e-010     
  -2.4            2.3313e-009     1.0794e-008     5.725e-010     
  -2.45           1.4875e-009     2.3453e-008     -1.3258e-009   
  -2.5            1.216e-010      1.156e-008      -2.713e-009    
  -2.55           -1.3928e-009    5.53e-010       -1.9037e-009   
  -2.6            -2.257e-009     -1.1083e-008    -5.435e-010    
  -2.65           -1.4829e-009    -2.2401e-008    1.2627e-009    
  -2.7            -5.5e-011       -1.0775e-008    2.8866e-009    
  -2.75           1.5445e-009     -1.93e-010      1.7976e-009    
  -2.8            2.2604e-009     1.043e-008      3.803e-010     
  -2.85           2.3274e-009     1.0671e-008     5.521e-010     
  -2.9            1.4646e-009     2.4013e-008     -1.3282e-009   
  -2.95           1.103e-010      1.1341e-008     -1.3037e-009   
  -3              2.428e-010      1.2945e-008     -2.637e-009    
  -3.05           -1.2922e-009    7.64e-010       -1.9781e-009   
  -3.1            -2.275e-009     -1.123e-008     -7.043e-010    
  -3.15           -1.5744e-009    -1.9275e-008    1.2417e-009    
  -3.2            -1.782e-010     -1.3173e-008    2.8445e-009    
  -3.25           2.1007e-009     1.031e-008      1.111e-010     
  -3.3            2.2049e-009     1.0373e-008     2.778e-010     
  -3.35           2.2877e-009     1.0528e-008     4.385e-010     
  -3.4            1.3817e-009     2.6147e-008     -1.3473e-009   
  -3.45           2.32e-011       1.1134e-008     -1.3173e-009   
  -3.5            1.547e-010      1.1807e-008     -2.698e-009    
  -3.55           -1.3618e-009    6.8e-010        -1.9211e-009   
  -3.6            -2.2642e-009    -1.1187e-008    -5.799e-010    
  -3.65           -2.2754e-009    -1.1208e-008    -7.63e-010     
  -3.7            -1.6052e-009    -1.7932e-008    2.1426e-009    
  -3.75           1.982e-009      -7.529e-009     1.4525e-009    
  -3.8            2.0608e-009     1.0436e-008     4.79e-011      
  -3.85           2.1585e-009     1.0394e-008     2.001e-010     
  -3.9            2.2506e-009     1.0424e-008     3.651e-010     
  -3.95           2.3211e-009     1.0698e-008     5.312e-010     
  -4              1.4568e-009     2.435e-008      -1.3324e-009   
  -4.05           9.52e-011       1.144e-008      -1.3055e-009   
  -4.1            2.274e-010      1.2773e-008     -2.6507e-009   
  -4.15           -1.3005e-009    7.61e-010       -1.9679e-009   
  -4.2            -2.2761e-009    -1.1303e-008    -6.789e-010    
  -4.25           -2.27e-009      -1.1179e-008    -8.519e-010    
  -4.3            -2.2381e-009    -1.1055e-008    -9.932e-010    
  -4.35           -1.6996e-009    -1.3443e-008    1.7385e-009    
  -4.4            1.6534e-009     -9.439e-009     1.7088e-009    
  -4.45           2.0472e-009     1.0023e-008     4.81e-011      
  -4.5            2.1553e-009     1.0367e-008     2.046e-010     
  -4.55           2.2532e-009     1.0337e-008     3.706e-010     
  -4.6            2.3202e-009     1.0719e-008     5.313e-010     
  -4.65           1.4532e-009     2.4318e-008     -1.3292e-009   
  -4.7            9.55e-011       1.127e-008      -1.305e-009    
  -4.75           2.265e-010      1.2604e-008     -2.6475e-009   
  -4.8            -1.2996e-009    7.45e-010       -1.97e-009     
  -4.85           -2.2765e-009    -1.1363e-008    -6.896e-010    
  -4.9            -1.5654e-009    -1.9578e-008    1.2425e-009    
  -4.95           -1.61e-010      -1.2749e-008    2.8543e-009    
  -5              2.0868e-009     1.0305e-008     9.71e-011      
END_DB

BEGIN_DB
 ICCAP_VAR VG         -1             
 ICCAP_VAR VS         0              
 ICCAP_VAR VB         0              

 #VD              ID              IB              IG             
  0               -1.287e-008     -1.1437e-008    1.2092e-009    
  -0.05           -7.5184e-007    1.0332e-008     -2.6084e-009   
  -0.1            -1.2961e-006    -1.6052e-008    -2.36e-009     
  -0.15           -1.6797e-006    1.1592e-008     -4.29e-011     
  -0.2            -1.9681e-006    -9.645e-009     2.8378e-009    
  -0.25           -2.1437e-006    -1.1035e-008    -1.2858e-009   
  -0.3            -2.2879e-006    2.6036e-008     -1.4015e-009   
  -0.35           -2.4162e-006    1.0787e-008     8.774e-010     
  -0.4            -2.5282e-006    -2.1109e-008    1.6503e-009    
  -0.45           -2.603e-006     -1.09e-008      -6.14e-010     
  -0.5            -2.6676e-006    1.7063e-008     -2.0436e-009   
  -0.55           -2.7387e-006    1.0713e-008     1.832e-010     
  -0.6            -2.8333e-006    -1.3142e-008    2.677e-009     
  -0.65           -2.8979e-006    -1.2321e-008    1.395e-010     
  -0.7            -2.9296e-006    1.1283e-008     -1.3049e-009   
  -0.75           -2.9866e-006    1.0552e-008     2.41e-010      
  -0.8            -3.0738e-006    -1.3875e-008    2.617e-009     
  -0.85           -3.1318e-006    -1.2107e-008    8.91e-011      
  -0.9            -3.155e-006     1.1395e-008     -2.7017e-009   
  -0.95           -3.2138e-006    1.8066e-008     -1.5813e-009   
  -1              -3.2797e-006    9.835e-009      2.1266e-009    
  -1.05           -3.3456e-006    -1.3498e-008    2.621e-010     
  -1.1            -3.366e-006     1.0776e-008     -1.3243e-009   
  -1.15           -3.4195e-006    1.0994e-008     1.029e-010     
  -1.2            -3.5029e-006    -1.1821e-008    2.7451e-009    
  -1.25           -3.5554e-006    -1.3001e-008    2.133e-010     
  -1.3            -3.572e-006     1.1002e-008     -1.317e-009    
  -1.35           -3.6226e-006    1.0837e-008     1.506e-010     
  -1.4            -3.7071e-006    -1.2667e-008    2.7011e-009    
  -1.45           -3.7588e-006    -1.2552e-008    1.642e-010     
  -1.5            -3.7753e-006    1.1355e-008     -1.3098e-009   
  -1.55           -3.8581e-006    1.0711e-008     1.2823e-009    
  -1.6            -3.9067e-006    -2.5637e-008    1.3033e-009    
  -1.65           -3.9301e-006    -1.1192e-008    -1.0535e-009   
  -1.7            -3.9754e-006    2.2824e-008     -1.5189e-009   
  -1.75           -4.0342e-006    1.0416e-008     6.461e-010     
  -1.8            -4.108e-006     -1.9434e-008    2.0325e-009    
  -1.85           -4.1489e-006    -1.0923e-008    -3.38e-010     
  -1.9            -4.1736e-006    1.3515e-008     -2.3828e-009   
  -1.95           -4.2287e-006    1.1713e-008     -4.45e-011     
  -2              -4.3111e-006    -9.43e-009      2.8401e-009    
  -2.05           -4.3229e-006    -1.0918e-008    -1.269e-009    
  -2.1            -4.3735e-006    2.5692e-008     -1.4035e-009   
  -2.15           -4.4447e-006    1.0844e-008     8.659e-010     
  -2.2            -4.5099e-006    -2.1195e-008    1.6632e-009    
  -2.25           -4.5448e-006    -1.0806e-008    -6.021e-010    
  -2.3            -4.5761e-006    1.6782e-008     -2.065e-009    
  -2.35           -4.6276e-006    1.0715e-008     1.802e-010     
  -2.4            -4.7144e-006    -1.2935e-008    2.6775e-009    
  -2.45           -4.769e-006     -1.2317e-008    1.413e-010     
  -2.5            -4.7774e-006    1.1456e-008     -1.306e-009    
  -2.55           -4.8657e-006    1.0694e-008     1.3072e-009    
  -2.6            -4.9153e-006    -2.5749e-008    1.2934e-009    
  -2.65           -4.937e-006     -1.1191e-008    -1.0776e-009   
  -2.7            -4.9829e-006    2.3119e-008     -1.4995e-009   
  -2.75           -5.045e-006     1.0512e-008     6.703e-010     
  -2.8            -5.121e-006     -1.9639e-008    1.9881e-009    
  -2.85           -5.1624e-006    -1.0781e-008    -3.607e-010    
  -2.9            -5.1863e-006    1.4062e-008     -2.3435e-009   
  -2.95           -5.2432e-006    1.1614e-008     -1.92e-011     
  -3              -5.3308e-006    -9.571e-009     2.8258e-009    
  -3.05           -5.3379e-006    -1.0783e-008    -1.3039e-009   
  -3.1            -5.3933e-006    2.6484e-008     -1.3951e-009   
  -3.15           -5.4664e-006    1.1122e-008     8.979e-010     
  -3.2            -5.5363e-006    -2.1136e-008    1.6203e-009    
  -3.25           -5.5703e-006    -1.0505e-008    -6.401e-010    
  -3.3            -5.6005e-006    1.7771e-008     -2.0207e-009   
  -3.35           -5.6545e-006    1.1196e-008     2.038e-010     
  -3.4            -5.7489e-006    -1.2781e-008    2.6492e-009    
  -3.45           -5.8029e-006    -1.1446e-008    1.108e-010     
  -3.5            -5.812e-006     1.2341e-008     -1.3004e-009   
  -3.55           -5.9075e-006    1.2042e-008     1.3348e-009    
  -3.6            -5.9587e-006    -2.4518e-008    1.2843e-009    
  -3.65           -6.0141e-006    -1.4595e-008    2.393e-009     
  -3.7            -6.0667e-006    -1.4571e-008    2.367e-009     
  -3.75           -6.1194e-006    -1.4477e-008    2.3309e-009    
  -3.8            -6.1713e-006    -1.4375e-008    2.3074e-009    
  -3.85           -6.2265e-006    -1.3845e-008    2.2876e-009    
  -3.9            -6.2803e-006    -1.3441e-008    2.2604e-009    
  -3.95           -6.3346e-006    -1.3004e-008    2.2237e-009    
  -4              -6.3899e-006    -1.2374e-008    2.1928e-009    
  -4.05           -6.443e-006     -1.1689e-008    2.1635e-009    
  -4.1            -6.5018e-006    -1.0838e-008    2.1332e-009    
  -4.15           -6.5571e-006    -9.676e-009     2.1021e-009    
  -4.2            -6.6137e-006    -8.579e-009     2.0661e-009    
  -4.25           -6.6515e-006    1.9712e-008     2.8094e-009    
  -4.3            -6.7347e-006    -2.553e-009     2.4088e-009    
  -4.35           -6.7924e-006    -6.16e-010      2.3825e-009    
  -4.4            -6.8232e-006    2.6574e-008     2.6813e-009    
  -4.45           -6.8818e-006    2.9098e-008     2.5973e-009    
  -4.5            -6.951e-006     1.3379e-008     -4.24e-010     
  -4.55           -6.9812e-006    4.2117e-008     -2.2866e-009   
  -4.6            -7.101e-006     4.3233e-008     1.5998e-009    
  -4.65           -7.1443e-006    1.1772e-008     1.2404e-009    
  -4.7            -7.1838e-006    3.2799e-008     -2.6404e-009   
  -4.75           -7.2373e-006    5.6487e-008     4.345e-010     
  -4.8            -7.3398e-006    3.5509e-008     2.3743e-009    
  -4.85           -7.3481e-006    4.6575e-008     -1.7395e-009   
  -4.9            -7.424e-006     9.2399e-008     -1.3016e-009   
  -4.95           -7.5196e-006    8.293e-008      2.7102e-009    
  -5              -7.5886e-006    7.2211e-008     -5.596e-010    
END_DB

BEGIN_DB
 ICCAP_VAR VG         -2             
 ICCAP_VAR VS         0              
 ICCAP_VAR VB         0              

 #VD              ID              IB              IG             
  0               -4.7991e-008    1.0709e-008     5.871e-010     
  -0.05           -3.6337e-006    -4.693e-009     -1.0378e-009   
  -0.1            -7.0479e-006    2.2574e-008     -1.528e-009    
  -0.15           -1.03003e-005   1.0423e-008     6.261e-010     
  -0.2            -1.3372e-005    -4.192e-009     -1.3567e-009   
  -0.25           -1.6275e-005    1.0446e-008     4.471e-010     
  -0.3            -1.9013e-005    -2.1773e-008    1.5711e-009    
  -0.35           -2.1552e-005    -1.1831e-008    7e-012         
  -0.4            -2.3875e-005    1.5932e-008     -2.1457e-009   
  -0.45           -2.6059e-005    1.0467e-008     6.311e-010     
  -0.5            -2.8076e-005    -2.4067e-008    1.4018e-009    
  -0.55           -2.9895e-005    -1.1346e-008    -1.766e-010    
  -0.6            -3.1515e-005    1.8621e-008     -1.8779e-009   
  -0.65           -3.3069e-005    1.0733e-008     8.057e-010     
  -0.7            -3.4451e-005    -2.5797e-008    1.3151e-009    
  -0.75           -3.5656e-005    -1.0943e-008    -3.84e-010     
  -0.8            -3.6715e-005    2.0922e-008     -1.6522e-009   
  -0.85           -3.7673e-005    1.2346e-008     -1.24e-010     
  -0.9            -3.8618e-005    -1.5942e-008    2.4663e-009    
  -0.95           -3.9376e-005    -1.0953e-008    -5.886e-010    
  -1              -4.0062e-005    2.3346e-008     -1.5007e-009   
  -1.05           -4.0784e-005    1.0502e-008     1.1241e-009    
  -1.1            -4.138e-005     -2.3572e-008    1.2402e-009    
  -1.15           -4.1915e-005    -1.1003e-008    -7.89e-010     
  -1.2            -4.2393e-005    2.5768e-008     -1.4149e-009   
  -1.25           -4.296e-005     1.0521e-008     1.2888e-009    
  -1.3            -4.3383e-005    -1.9677e-008    1.8845e-009    
  -1.35           -4.3766e-005    -1.1227e-008    -9.514e-010    
  -1.4            -4.4192e-005    2.7807e-008     -1.3668e-009   
  -1.45           -4.4586e-005    1.0362e-008     4.025e-010     
  -1.5            -4.5036e-005    -2.1288e-008    1.6239e-009    
  -1.55           -4.5387e-005    -1.201e-008     5.32e-011      
  -1.6            -4.5631e-005    1.5198e-008     -2.2063e-009   
  -1.65           -4.6027e-005    9.771e-009      2.1367e-009    
  -1.7            -4.6349e-005    -1.1156e-008    -2.492e-010    
  -1.75           -4.6588e-005    1.9362e-008     -1.795e-009    
  -1.8            -4.6927e-005    1.0804e-008     8.588e-010     
  -1.85           -4.7255e-005    -2.6057e-008    1.2965e-009    
  -1.9            -4.7414e-005    -1.2075e-008    -1.562e-009    
  -1.95           -4.7743e-005    1.8079e-008     -1.5922e-009   
  -2              -4.7931e-005    2.791e-008      -1.3615e-009   
  -2.05           -4.8219e-005    1.0489e-008     4.394e-010     
  -2.1            -4.8548e-005    -2.1856e-008    1.5732e-009    
  -2.15           -4.8809e-005    -1.184e-008     1.69e-011      
  -2.2            -4.8974e-005    1.5793e-008     -2.1427e-009   
  -2.25           -4.925e-005     1.0459e-008     6.233e-010     
  -2.3            -4.9565e-005    -2.4088e-008    1.4069e-009    
  -2.35           -4.9705e-005    -1.1073e-008    -1.3149e-009   
  -2.4            -5.0001e-005    1.1626e-008     -2.5417e-009   
  -2.45           -5.0245e-005    1.0515e-008     3.032e-010     
  -2.5            -5.0558e-005    -2.0423e-008    1.7584e-009    
  -2.55           -5.0715e-005    -1.124e-008     -1.0204e-009   
  -2.6            -5.0917e-005    2.8108e-008     -1.3533e-009   
  -2.65           -5.1262e-005    1.1671e-008     1.5516e-009    
  -2.7            -5.1464e-005    -1.4277e-008    1.5337e-009    
  -2.75           -5.1673e-005    -1.1775e-008    -2.4e-011      
  -2.8            -5.1808e-005    1.6402e-008     -2.0816e-009   
  -2.85           -5.2051e-005    1.0541e-008     6.628e-010     
  -2.9            -5.2334e-005    -2.4399e-008    1.3828e-009    
  -2.95           -5.2521e-005    -1.1245e-008    -2.149e-010    
  -3              -5.2644e-005    1.9217e-008     -1.8277e-009   
  -3.05           -5.2913e-005    1.0887e-008     8.363e-010     
  -3.1            -5.3167e-005    -2.5766e-008    1.3042e-009    
  -3.15           -5.3248e-005    -1.1609e-008    -1.5323e-009   
  -3.2            -5.351e-005     1.9015e-008     -1.6172e-009   
  -3.25           -5.3704e-005    1.2469e-008     -9.32e-011     
  -3.3            -5.3988e-005    -1.5679e-008    2.4147e-009    
  -3.35           -5.4135e-005    -1.0342e-008    -6.235e-010    
  -3.4            -5.4269e-005    2.4443e-008     -1.4814e-009   
  -3.45           -5.4573e-005    1.1512e-008     1.1491e-009    
  -3.5            -5.4777e-005    -9.712e-009     2.7697e-009    
  -3.55           -5.4955e-005    -1.683e-008     2.1073e-009    
  -3.6            -5.5098e-005    -9.086e-009     -8.4e-010      
  -3.65           -5.5258e-005    2.8933e-008     -1.3969e-009   
  -3.7            -5.5566e-005    1.3901e-008     1.3386e-009    
  -3.75           -5.5733e-005    -1.0555e-008    2.5835e-009    
  -3.8            -5.5925e-005    -1.5631e-008    1.7822e-009    
  -3.85           -5.6117e-005    -9.253e-009     2.539e-009     
  -3.9            -5.6297e-005    -1.69e-009      2.8856e-009    
  -3.95           -5.6487e-005    -6.983e-009     2.4915e-009    
  -4              -5.6687e-005    1.69e-009       2.8753e-009    
  -4.05           -5.6868e-005    -3.369e-009     2.4428e-009    
  -4.1            -5.7006e-005    2.4519e-008     2.2917e-009    
  -4.15           -5.7174e-005    2.6381e-008     2.557e-009     
