! VERSION = 6.00
BEGIN_HEADER
 ICCAP_INPUTS
  VG         V  B GROUND SMU4 0.001 LIN        2    0          -5         6    -1        
  VS         V  E GROUND SMU3 0.1 CON        0
  VD         V  S GROUND SMU2 0.1 LIN        1    0          -5         101  -0.05     
  VB         V  C GROUND SMU1 0.1 LIN        3    0          2.5        2    2.5       
 ICCAP_OUTPUTS
  ID         I  S GROUND SMU2 B
  IB         I  C GROUND SMU1 B
  IG         I  B GROUND SMU4 B
END_HEADER

BEGIN_DB
 ICCAP_VAR VG         0              
 ICCAP_VAR VS         0              
 ICCAP_VAR VB         0              

 #VD              ID              IB              IG             
  0               -2.2007e-009    -5.936e-009     1.307e-010     
  -0.05           -2.449e-009     2.2281e-009     1.4444e-009    
  -0.1            2.3732e-009     2.3091e-009     5.883e-010     
  -0.15           -2.2918e-009    3.8448e-009     -7.02e-010     
  -0.2            2.1363e-009     -6.6294e-009    8.691e-010     
  -0.25           -1.9962e-009    3.6004e-009     -1.0436e-009   
  -0.3            2.237e-009      -6.0252e-009    7.704e-010     
  -0.35           -2.1008e-009    4.5586e-009     -8.994e-010    
  -0.4            2.3101e-009     -5.5554e-009    6.788e-010     
  -0.45           -2.2146e-009    4.1477e-009     -7.886e-010    
  -0.5            2.0357e-009     -7.3546e-009    9.919e-010     
  -0.55           -2.2939e-009    3.8378e-009     -6.994e-010    
  -0.6            2.141e-009      -6.5989e-009    8.64e-010      
  -0.65           -1.9999e-009    3.5961e-009     -1.0369e-009   
  -0.7            2.2378e-009     -5.998e-009     7.675e-010     
  -0.75           -2.1054e-009    4.5422e-009     -8.93e-010     
  -0.8            2.3116e-009     -5.5353e-009    6.762e-010     
  -0.85           -2.2146e-009    4.1324e-009     -7.852e-010    
  -0.9            2.0372e-009     -7.3253e-009    9.864e-010     
  -0.95           -2.2955e-009    3.8322e-009     -6.961e-010    
  -1              2.1471e-009     -6.5737e-009    8.606e-010     
  -1.05           -2.004e-009     3.5842e-009     -1.0296e-009   
  -1.1            2.2413e-009     -5.9675e-009    7.64e-010      
  -1.15           -2.1073e-009    4.5149e-009     -8.901e-010    
  -1.2            2.3115e-009     -5.5164e-009    6.723e-010     
  -1.25           -2.217e-009     4.1193e-009     -7.84e-010     
  -1.3            2.0412e-009     -7.284e-009     9.816e-010     
  -1.35           -2.3008e-009    3.8202e-009     -6.903e-010    
  -1.4            2.1491e-009     -6.551e-009     8.573e-010     
  -1.45           -2.0045e-009    3.5775e-009     -1.0258e-009   
  -1.5            2.2433e-009     -5.9692e-009    7.612e-010     
  -1.55           -2.112e-009     4.5077e-009     -8.886e-010    
  -1.6            2.3141e-009     -5.5081e-009    6.691e-010     
  -1.65           -2.2198e-009    4.111e-009      -7.82e-010     
  -1.7            2.042e-009      -7.2989e-009    9.811e-010     
  -1.75           -2.3015e-009    3.8195e-009     -6.914e-010    
  -1.8            2.1463e-009     -6.5513e-009    8.569e-010     
  -1.85           -2.0087e-009    3.5724e-009     -1.0266e-009   
  -1.9            2.2429e-009     -5.9581e-009    7.589e-010     
  -1.95           -2.1137e-009    4.506e-009      -8.861e-010    
  -2              2.3165e-009     -5.4987e-009    6.707e-010     
  -2.05           -2.2222e-009    4.1106e-009     -7.79e-010     
  -2.1            2.0419e-009     -7.2703e-009    9.804e-010     
  -2.15           -2.3014e-009    3.8151e-009     -6.9e-010      
  -2.2            2.1465e-009     -6.5468e-009    8.569e-010     
  -2.25           -2.0072e-009    3.572e-009      -1.0237e-009   
  -2.3            2.2465e-009     -5.9506e-009    7.58e-010      
  -2.35           -2.1148e-009    4.4975e-009     -8.843e-010    
  -2.4            2.3176e-009     -5.4987e-009    6.676e-010     
  -2.45           -2.22e-009      4.114e-009      -7.798e-010    
  -2.5            2.0441e-009     -7.2574e-009    9.759e-010     
  -2.55           -2.303e-009     3.808e-009      -6.919e-010    
  -2.6            2.1564e-009     -6.5451e-009    8.547e-010     
  -2.65           -2.0088e-009    3.5725e-009     -1.0213e-009   
  -2.7            2.2505e-009     -5.9524e-009    7.573e-010     
  -2.75           -2.1166e-009    4.4968e-009     -8.824e-010    
  -2.8            1.9408e-009     -5.4922e-009    1.1365e-009    
  -2.85           -2.223e-009     4.1027e-009     -7.799e-010    
  -2.9            2.0472e-009     -7.2471e-009    9.757e-010     
  -2.95           -2.3045e-009    3.8086e-009     -6.888e-010    
  -3              2.1499e-009     -6.5282e-009    8.533e-010     
  -3.05           -2.0098e-009    3.5673e-009     -1.0175e-009   
  -3.1            2.251e-009      -5.9341e-009    7.584e-010     
  -3.15           -2.1212e-009    4.4745e-009     -8.793e-010    
  -3.2            1.9437e-009     -5.4989e-009    1.1296e-009    
  -3.25           -2.2258e-009    4.0922e-009     -7.748e-010    
  -3.3            2.0475e-009     -7.2211e-009    9.705e-010     
  -3.35           -2.304e-009     3.8035e-009     -6.854e-010    
  -3.4            2.1566e-009     -6.5024e-009    8.489e-010     
  -3.45           -2.0121e-009    3.5583e-009     -1.015e-009    
  -3.5            2.254e-009      -5.9223e-009    7.499e-010     
  -3.55           -2.1233e-009    4.4676e-009     -8.764e-010    
  -3.6            1.9458e-009     -5.4865e-009    1.1249e-009    
  -3.65           -2.23e-009      4.0806e-009     -7.727e-010    
  -3.7            2.0535e-009     -7.2106e-009    9.687e-010     
  -3.75           -2.3089e-009    3.794e-009      -6.864e-010    
  -3.8            2.1635e-009     -6.4822e-009    8.453e-010     
  -3.85           -2.0181e-009    3.5541e-009     -1.0115e-009   
  -3.9            2.2571e-009     -5.9151e-009    7.521e-010     
  -3.95           -2.1249e-009    4.4533e-009     -8.735e-010    
  -4              1.9499e-009     -5.4559e-009    1.1233e-009    
  -4.05           -2.2325e-009    4.0718e-009     -7.719e-010    
  -4.1            2.0561e-009     -7.2174e-009    9.648e-010     
  -4.15           -2.3079e-009    3.7965e-009     -6.841e-010    
  -4.2            2.1653e-009     -6.4733e-009    8.451e-010     
  -4.25           -2.0201e-009    3.5465e-009     -1.0083e-009   
  -4.3            2.2554e-009     -5.9092e-009    7.494e-010     
  -4.35           -2.1247e-009    4.4568e-009     -8.735e-010    
  -4.4            1.9474e-009     -5.4782e-009    1.1217e-009    
  -4.45           -2.2326e-009    4.0664e-009     -7.706e-010    
  -4.5            2.0515e-009     -7.1768e-009    9.63e-010      
  -4.55           -2.3095e-009    3.7905e-009     -6.856e-010    
  -4.6            2.163e-009      -6.4691e-009    8.426e-010     
  -4.65           -2.0164e-009    3.5508e-009     -1.0102e-009   
  -4.7            2.2568e-009     -5.901e-009     7.498e-010     
  -4.75           -2.129e-009     4.4598e-009     -8.714e-010    
  -4.8            1.9494e-009     -5.461e-009     1.1155e-009    
  -4.85           -2.2334e-009    4.0732e-009     -7.681e-010    
  -4.9            2.0562e-009     -7.1865e-009    9.609e-010     
  -4.95           -2.3088e-009    3.7882e-009     -6.841e-010    
  -5              2.1659e-009     -6.478e-009     8.455e-010     
END_DB

BEGIN_DB
 ICCAP_VAR VG         -1             
 ICCAP_VAR VS         0              
 ICCAP_VAR VB         0              

 #VD              ID              IB              IG             
  0               3.219e-008      -3.451e-009     1.629e-010     
  -0.05           -1.4885e-006    -3.51e-009      -7.234e-010    
  -0.1            -2.6282e-006    -1.3085e-009    -5.465e-010    
  -0.15           -3.4715e-006    3.089e-009      -1.4546e-009   
  -0.2            -4.1e-006       5.6291e-009     -1.4702e-009   
  -0.25           -4.5069e-006    5.6749e-009     -1.4841e-009   
  -0.3            -4.795e-006     5.72e-009       -1.4919e-009   
  -0.35           -5.0089e-006    5.7544e-009     -1.4907e-009   
  -0.4            -5.1678e-006    5.7498e-009     -1.3746e-009   
  -0.45           -5.3082e-006    5.4136e-009     -1.395e-009    
  -0.5            -5.423e-006     5.4633e-009     -1.4091e-009   
  -0.55           -5.5257e-006    5.4997e-009     -1.4231e-009   
  -0.6            -5.6066e-006    5.5338e-009     -1.4368e-009   
  -0.65           -5.6951e-006    5.5716e-009     -1.4497e-009   
  -0.7            -5.7705e-006    5.6123e-009     -1.4622e-009   
  -0.75           -5.8424e-006    5.6447e-009     -1.4743e-009   
  -0.8            -5.9123e-006    5.694e-009      -1.4887e-009   
  -0.85           -5.9772e-006    5.7321e-009     -1.4915e-009   
  -0.9            -6.0409e-006    5.7524e-009     -1.4899e-009   
  -0.95           -6.102e-006     5.7463e-009     -1.3815e-009   
  -1              -6.1763e-006    5.4308e-009     -1.3992e-009   
  -1.05           -6.2345e-006    5.478e-009      -1.4136e-009   
  -1.1            -6.2994e-006    5.5131e-009     -1.4291e-009   
  -1.15           -6.354e-006     5.5496e-009     -1.4415e-009   
  -1.2            -6.4125e-006    5.5789e-009     -1.4532e-009   
  -1.25           -6.4677e-006    5.6287e-009     -1.4681e-009   
  -1.3            -6.519e-006     5.6632e-009     -1.4806e-009   
  -1.35           -6.5774e-006    5.7099e-009     -1.4915e-009   
  -1.4            -6.6322e-006    5.7477e-009     -1.4923e-009   
  -1.45           -6.6832e-006    5.7547e-009     -1.3683e-009   
  -1.5            -6.7432e-006    5.3993e-009     -1.3884e-009   
  -1.55           -6.8033e-006    5.4484e-009     -1.4054e-009   
  -1.6            -6.8562e-006    5.4917e-009     -1.4174e-009   
  -1.65           -6.9101e-006    5.5244e-009     -1.4331e-009   
  -1.7            -6.9623e-006    5.5649e-009     -1.4458e-009   
  -1.75           -7.0106e-006    5.5997e-009     -1.457e-009    
  -1.8            -7.0555e-006    5.6411e-009     -1.472e-009    
  -1.85           -7.102e-006     5.6768e-009     -1.4824e-009   
  -1.9            -7.1542e-006    5.723e-009      -1.4928e-009   
  -1.95           -7.2002e-006    5.7514e-009     -1.4903e-009   
  -2              -7.2495e-006    5.7493e-009     -1.3749e-009   
  -2.05           -7.3101e-006    5.4157e-009     -1.3939e-009   
  -2.1            -7.3663e-006    5.4654e-009     -1.409e-009    
  -2.15           -7.4095e-006    5.5072e-009     -1.4233e-009   
  -2.2            -7.4572e-006    5.5379e-009     -1.4358e-009   
  -2.25           -7.5034e-006    5.5766e-009     -1.4485e-009   
  -2.3            -7.5556e-006    5.6158e-009     -1.4624e-009   
  -2.35           -7.5975e-006    5.6571e-009     -1.4756e-009   
  -2.4            -7.6446e-006    5.7002e-009     -1.4864e-009   
  -2.45           -7.6881e-006    5.7416e-009     -1.4927e-009   
  -2.5            -7.7336e-006    5.7618e-009     -1.4888e-009   
  -2.55           -7.7801e-006    5.7535e-009     -1.3804e-009   
  -2.6            -7.838e-006     5.4474e-009     -1.3999e-009   
  -2.65           -7.8858e-006    5.4976e-009     -1.4136e-009   
  -2.7            -7.9348e-006    5.546e-009      -1.4281e-009   
  -2.75           -7.9796e-006    5.5835e-009     -1.4402e-009   
  -2.8            -8.0297e-006    5.6369e-009     -1.4543e-009   
  -2.85           -8.0726e-006    5.6897e-009     -1.4656e-009   
  -2.9            -8.1151e-006    5.7376e-009     -1.4809e-009   
  -2.95           -8.1558e-006    5.8158e-009     -1.4914e-009   
  -3              -8.203e-006     5.8768e-009     -1.4925e-009   
  -3.05           -8.2456e-006    5.9145e-009     -1.3696e-009   
  -3.1            -8.3009e-006    5.5969e-009     -1.3883e-009   
  -3.15           -8.3507e-006    5.708e-009      -1.4055e-009   
  -3.2            -8.3954e-006    5.8094e-009     -1.4181e-009   
  -3.25           -8.4431e-006    5.9182e-009     -1.4323e-009   
  -3.3            -8.487e-006     6.056e-009      -1.4455e-009   
  -3.35           -8.532e-006     6.1992e-009     -1.4596e-009   
  -3.4            -8.5735e-006    6.3807e-009     -1.471e-009    
  -3.45           -8.6169e-006    6.575e-009      -1.4844e-009   
  -3.5            -8.6554e-006    6.8231e-009     -1.4927e-009   
  -3.55           -8.7031e-006    7.0797e-009     -1.4903e-009   
  -3.6            -8.7489e-006    7.3546e-009     -1.3746e-009   
  -3.65           -8.8028e-006    7.3473e-009     -1.3931e-009   
  -3.7            -8.8544e-006    7.7778e-009     -1.4098e-009   
  -3.75           -8.8971e-006    8.2706e-009     -1.4229e-009   
  -3.8            -8.9468e-006    8.8342e-009     -1.4376e-009   
  -3.85           -8.9897e-006    9.489e-009      -1.4485e-009   
  -3.9            -9.0396e-006    1.02492e-008    -1.4639e-009   
  -3.95           -9.0797e-006    1.11314e-008    -1.4762e-009   
  -4              -9.1364e-006    1.244e-008      -1.4553e-009   
  -4.05           -9.192e-006     1.3596e-008     -1.4371e-009   
  -4.1            -9.2394e-006    1.4906e-008     -1.4196e-009   
  -4.15           -9.2804e-006    1.6513e-008     -1.3992e-009   
  -4.2            -9.331e-006     1.8326e-008     -1.4916e-009   
  -4.25           -9.3671e-006    2.0244e-008     -1.4872e-009   
  -4.3            -9.4202e-006    2.2339e-008     -1.4703e-009   
  -4.35           -9.4683e-006    2.4813e-008     -1.4529e-009   
  -4.4            -9.5186e-006    2.7584e-008     -1.4344e-009   
  -4.45           -9.5707e-006    3.0843e-008     -1.418e-009    
  -4.5            -9.6209e-006    3.4662e-008     -1.3967e-009   
  -4.55           -9.6677e-006    3.8892e-008     -1.4901e-009   
  -4.6            -9.717e-006     4.3416e-008     -1.4847e-009   
  -4.65           -9.77e-006      4.8492e-008     -1.4666e-009   
  -4.7            -9.8252e-006    5.4246e-008     -1.4473e-009   
  -4.75           -9.8861e-006    6.0648e-008     -1.4302e-009   
  -4.8            -9.9304e-006    6.7983e-008     -1.4105e-009   
  -4.85           -9.9948e-006    7.5937e-008     -1.3886e-009   
  -4.9            -1.00541e-005   8.4893e-008     -1.4835e-009   
  -4.95           -1.01065e-005   9.4725e-008     -1.4734e-009   
  -5              -1.01736e-005   1.05406e-007    -1.4534e-009   
END_DB

BEGIN_DB
 ICCAP_VAR VG         -2             
 ICCAP_VAR VS         0              
 ICCAP_VAR VB         0              

 #VD              ID              IB              IG             
  0               1.156e-007      3.8188e-009     -3.711e-010    
  -0.05           -6.6913e-006    -3.3704e-009    -1.4169e-009   
  -0.1            -1.3229e-005    -6.2746e-009    5.506e-010     
  -0.15           -1.9455e-005    -5.1627e-009    1.3834e-009    
  -0.2            -2.538e-005     -3.4757e-009    1.4702e-009    
  -0.25           -3.096e-005     -4.3875e-009    1.4128e-009    
  -0.3            -3.6243e-005    -3.8042e-009    1.4989e-009    
  -0.35           -4.1181e-005    -4.7836e-009    1.4413e-009    
  -0.4            -4.5801e-005    -4.1141e-009    1.3899e-009    
  -0.45           -5.0097e-005    -3.5143e-009    1.4739e-009    
  -0.5            -5.4028e-005    -4.4219e-009    1.4172e-009    
  -0.55           -5.7665e-005    -3.8386e-009    1.4994e-009    
  -0.6            -6.0976e-005    -4.837e-009     1.4452e-009    
  -0.65           -6.3983e-005    -4.1584e-009    1.3925e-009    
  -0.7            -6.6726e-005    -3.5451e-009    1.4763e-009    
  -0.75           -6.9124e-005    -4.4676e-009    1.4216e-009    
  -0.8            -7.1313e-005    -3.8891e-009    1.5033e-009    
  -0.85           -7.3239e-005    -4.901e-009     1.4477e-009    
  -0.9            -7.496e-005     -4.1974e-009    1.3957e-009    
  -0.95           -7.6524e-005    -3.5861e-009    1.4814e-009    
  -1              -7.7875e-005    -4.5015e-009    1.4236e-009    
  -1.05           -7.9095e-005    -3.9136e-009    1.5029e-009    
  -1.1            -8.0171e-005    -4.9941e-009    1.4525e-009    
  -1.15           -8.118e-005     -4.2279e-009    1.398e-009     
  -1.2            -8.2067e-005    -3.6171e-009    1.4848e-009    
  -1.25           -8.2841e-005    -4.5419e-009    1.4247e-009    
  -1.3            -8.3601e-005    -3.9496e-009    1.5056e-009    
  -1.35           -8.4268e-005    -5.0625e-009    1.456e-009     
  -1.4            -8.49e-005      -4.2611e-009    1.4018e-009    
  -1.45           -8.5534e-005    -3.6621e-009    1.4886e-009    
  -1.5            -8.6055e-005    -4.5816e-009    1.4299e-009    
  -1.55           -8.6584e-005    -3.9864e-009    1.5036e-009    
  -1.6            -8.7075e-005    -5.1258e-009    1.4588e-009    
  -1.65           -8.7562e-005    -4.2915e-009    1.4062e-009    
  -1.7            -8.8062e-005    -3.6877e-009    1.4933e-009    
  -1.75           -8.8464e-005    -4.6321e-009    1.4342e-009    
  -1.8            -8.8915e-005    -4.0336e-009    1.3779e-009    
  -1.85           -8.9365e-005    -3.4152e-009    1.4624e-009    
  -1.9            -8.973e-005     -4.3309e-009    1.4083e-009    
  -1.95           -9.0137e-005    -3.736e-009     1.4975e-009    
  -2              -9.0496e-005    -4.7016e-009    1.439e-009     
  -2.05           -9.0902e-005    -4.0619e-009    1.3808e-009    
  -2.1            -9.1289e-005    -3.4467e-009    1.4681e-009    
  -2.15           -9.1614e-005    -4.3584e-009    1.411e-009     
  -2.2            -9.1995e-005    -3.777e-009     1.4996e-009    
  -2.25           -9.2305e-005    -4.7413e-009    1.4418e-009    
  -2.3            -9.2653e-005    -4.0971e-009    1.3858e-009    
  -2.35           -9.3026e-005    -3.4765e-009    1.4712e-009    
  -2.4            -9.3312e-005    -4.3984e-009    1.4168e-009    
  -2.45           -9.366e-005     -3.8129e-009    1.5013e-009    
  -2.5            -9.3936e-005    -4.807e-009     1.4437e-009    
  -2.55           -9.4276e-005    -4.1366e-009    1.3904e-009    
  -2.6            -9.4614e-005    -3.518e-009     1.475e-009     
  -2.65           -9.4886e-005    -4.4346e-009    1.4207e-009    
  -2.7            -9.5212e-005    -3.8451e-009    1.5002e-009    
  -2.75           -9.5488e-005    -4.85e-009      1.4475e-009    
  -2.8            -9.5777e-005    -4.1524e-009    1.3949e-009    
  -2.85           -9.6092e-005    -3.5307e-009    1.48e-009      
  -2.9            -9.6357e-005    -4.4423e-009    1.423e-009     
  -2.95           -9.6643e-005    -3.8365e-009    1.5037e-009    
  -3              -9.6918e-005    -4.8817e-009    1.4521e-009    
  -3.05           -9.719e-005     -4.1025e-009    1.3985e-009    
  -3.1            -9.7498e-005    -3.4573e-009    1.4833e-009    
  -3.15           -9.7746e-005    -4.3309e-009    1.4248e-009    
  -3.2            -9.8028e-005    -3.6776e-009    1.504e-009     
  -3.25           -9.8273e-005    -4.6818e-009    1.4546e-009    
  -3.3            -9.8555e-005    -3.8083e-009    1.4015e-009    
  -3.35           -9.8884e-005    -3.0632e-009    1.4877e-009    
  -3.4            -9.9123e-005    -3.8269e-009    1.4297e-009    
  -3.45           -9.941e-005     -3.0156e-009    1.5053e-009    
  -3.5            -9.9633e-005    -3.8743e-009    1.4573e-009    
  -3.55           -9.9964e-005    -5.5106e-009    1.5039e-009    
  -3.6            -0.000100291    -4.2408e-009    1.465e-009     
  -3.65           -0.000100564    -3.0936e-009    1.3117e-009    
  -3.7            -0.00010078     -1.925e-009     1.3949e-009    
  -3.75           -0.000100968    3.393e-010      1.4811e-009    
  -3.8            -0.00010118     3.677e-010      1.4251e-009    
  -3.85           -0.000101458    2.1152e-009     1.4e-009       
  -3.9            -0.00010176     1.3877e-008     6.15e-010      
  -3.95           -0.00010202     1.5468e-008     6.204e-010     
  -4              -0.00010225     1.5367e-008     9.914e-010     
  -4.05           -0.00010248     1.3001e-008     1.4889e-009    
  -4.1            -0.00010257     9.477e-009      1.4381e-009    
  -4.15           -0.00010282     1.4753e-008     1.4701e-009    
