! VERSION = 6.00
BEGIN_HEADER
 ICCAP_INPUTS
  VG         V  B GROUND SMU4 0.001 LIN        1    0          -5         101  -0.05     
  VS         V  E GROUND SMU2 0.1 CON        0
  VB         V  C GROUND SMU3 0.1 LIN        3    0          5          3    2.5       
  VD         V  S GROUND SMU1 0.1 LIN        2    -0.1       -5         2    -4.9      
 ICCAP_OUTPUTS
  IG         I  B GROUND SMU4 B
  ID         I  S GROUND SMU1 B
  IB         I  C GROUND SMU3 B
END_HEADER

BEGIN_DB
 ICCAP_VAR VS         0              
 ICCAP_VAR VB         0              
 ICCAP_VAR VD         -0.1           

 #VG              IG              ID              IB             
  0               9.397e-010      8.785e-010      2.0078e-008    
  -0.05           1.4529e-009     2.0758e-009     -7.008e-009    
  -0.1            -1.4082e-009    1.3683e-009     2.8182e-008    
  -0.15           -1.4138e-009    -3.69e-011      1.057e-008     
  -0.2            -1.3887e-009    1.248e-010      1.1163e-008    
  -0.25           -2.6063e-009    3.056e-010      1.3675e-008    
  -0.3            -1.1226e-009    -2.2147e-009    1.289e-009     
  -0.35           1.5072e-009     -1.8147e-009    -1.0297e-008   
  -0.4            9.522e-010      2.3331e-009     -8.37e-009     
  -0.45           -1.6152e-009    1.7445e-009     1.1545e-008    
  -0.5            -2.6929e-009    -1.4254e-009    7.336e-009     
  -0.55           -4.476e-010     -3.2197e-009    -1.3106e-008   
  -0.6            -6.796e-010     -5.5869e-009    -1.277e-008    
  -0.65           -2.1036e-009    -1.215e-008     -2.4359e-008   
  -0.7            -1.5276e-009    -3.2379e-008    4.653e-009     
  -0.75           -1.4102e-009    -7.5967e-008    7.936e-009     
  -0.8            1.4205e-009     -1.4964e-007    -2.0222e-008   
  -0.85           1.8641e-009     -2.5556e-007    1.2489e-008    
  -0.9            7.3e-010        -3.8642e-007    1.279e-008     
  -0.95           1.1204e-009     -5.3929e-007    9.882e-009     
  -1              1.5495e-009     -7.0641e-007    9.675e-009     
  -1.05           -1.3992e-009    -8.7692e-007    2.6512e-008    
  -1.1            -2.4009e-009    -1.0571e-006    1.2997e-008    
  -1.15           -2.5427e-009    -1.243e-006     -1.9142e-008   
  -1.2            -5.029e-010     -1.4288e-006    -1.2584e-008   
  -1.25           2.1311e-009     -1.6115e-006    -2.6301e-008   
  -1.3            1.4293e-009     -1.7886e-006    -7.976e-009    
  -1.35           2.8694e-009     -1.9651e-006    -8.242e-009    
  -1.4            2.8133e-009     -2.1365e-006    6.5e-011       
  -1.45           1.4729e-009     -2.3073e-006    9.378e-009     
  -1.5            3.02e-010       -2.47e-006      1.1578e-008    
  -1.55           7.753e-010      -2.6312e-006    1.2708e-008    
  -1.6            -1.5569e-009    -2.789e-006     1.6648e-008    
  -1.65           -1.4093e-009    -2.9471e-006    7.837e-009     
  -1.7            -1.3882e-009    -3.0967e-006    1.0355e-008    
  -1.75           -2.3384e-009    -3.2459e-006    1.377e-008     
  -1.8            1.635e-010      -3.3984e-006    -1.0709e-008   
  -1.85           1.3796e-009     -3.5407e-006    -2.2211e-008   
  -1.9            2.8805e-009     -3.6791e-006    -8.835e-009    
  -1.95           2.765e-009      -3.8147e-006    -2.19e-010     
  -2              1.5633e-009     -3.9504e-006    9.812e-009     
  -2.05           2.0007e-009     -4.0821e-006    1.2768e-008    
  -2.1            8.539e-010      -4.2101e-006    1.2429e-008    
  -2.15           -1.4904e-009    -4.3394e-006    1.426e-008     
  -2.2            -1.4132e-009    -4.4655e-006    8.379e-009     
  -2.25           -2.6539e-009    -4.5879e-006    1.0499e-008    
  -2.3            -2.2024e-009    -4.7101e-006    1.202e-009     
  -2.35           -9.977e-010     -4.8311e-006    -1.2223e-008   
  -2.4            2.459e-010      -4.9521e-006    -1.2719e-008   
  -2.45           1.4607e-009     -5.0655e-006    -2.0475e-008   
  -2.5            2.8692e-009     -5.1792e-006    -8.325e-009    
  -2.55           2.8207e-009     -5.2903e-006    1.5e-010       
  -2.6            1.4515e-009     -5.3985e-006    9.195e-009     
  -2.65           2.827e-010      -5.5088e-006    1.145e-008     
  -2.7            7.633e-010      -5.6162e-006    1.2715e-008    
  -2.75           1.1501e-009     -5.7231e-006    9.707e-009     
  -2.8            1.588e-009      -5.8279e-006    1.0124e-008    
  -2.85           2.0269e-009     -5.9303e-006    1.2652e-008    
  -2.9            8.746e-010      -6.0323e-006    1.2335e-008    
  -2.95           -1.4733e-009    -6.1347e-006    1.3439e-008    
  -3              -1.415e-009     -6.2332e-006    8.302e-009     
  -3.05           -2.6354e-009    -6.331e-006     1.0628e-008    
  -3.1            -2.1618e-009    -6.4278e-006    1.254e-009     
  -3.15           -1.0262e-009    -6.5259e-006    -1.1987e-008   
  -3.2            2.236e-010      -6.621e-006     -1.2095e-008   
  -3.25           1.4283e-009     -6.7105e-006    -2.0967e-008   
  -3.3            2.8726e-009     -6.8044e-006    -8.39e-009     
  -3.35           2.1869e-009     -6.8909e-006    1.1366e-008    
  -3.4            1.0199e-009     -6.9825e-006    1.0683e-008    
  -3.45           -2.215e-010     -7.0701e-006    1.0178e-008    
  -3.5            -1.4354e-009    -7.1546e-006    2.3678e-008    
  -3.55           -1.4126e-009    -7.2439e-006    8.637e-009     
  -3.6            -2.5732e-009    -7.3304e-006    1.0807e-008    
  -3.65           -2.0047e-009    -7.4169e-006    1.507e-009     
  -3.7            -1.4807e-009    -7.5001e-006    5.033e-009     
  -3.75           -1.4126e-009    -7.5809e-006    8.359e-009     
  -3.8            -2.6443e-009    -7.6619e-006    1.0415e-008    
  -3.85           -2.1881e-009    -7.7434e-006    1.253e-009     
  -3.9            8.15e-011       -7.8283e-006    -1.0091e-008   
  -3.95           1.3305e-009     -7.9029e-006    -2.3728e-008   
  -4              2.8736e-009     -7.9796e-006    -9.474e-009    
  -4.05           -1.4003e-009    -8.0529e-006    2.6907e-008    
  -4.1            -2.417e-009     -8.1298e-006    1.2758e-008    
  -4.15           -8.783e-010     -8.2076e-006    -1.2774e-008   
  -4.2            1.5555e-009     -8.2869e-006    -1.6297e-008   
  -4.25           2.8587e-009     -8.3526e-006    -8.52e-009     
  -4.3            2.0711e-009     -8.4286e-006    1.2e-008       
  -4.35           9.148e-010      -8.4998e-006    1.1678e-008    
  -4.4            1.307e-009      -8.5675e-006    9.154e-009     
  -4.45           1.7576e-009     -8.6413e-006    1.2111e-008    
  -4.5            6.115e-010      -8.7058e-006    1.2569e-008    
  -4.55           1.0228e-009     -8.7796e-006    1.0429e-008    
  -4.6            -2.165e-010     -8.8536e-006    1.0061e-008    
  -4.65           -1.4296e-009    -8.9115e-006    2.3658e-008    
  -4.7            -1.4128e-009    -8.9844e-006    8.697e-009     
  -4.75           -2.567e-009     -9.0469e-006    1.1014e-008    
  -4.8            -1.9952e-009    -9.1159e-006    1.49e-009      
  -4.85           -1.4771e-009    -9.1782e-006    5.133e-009     
  -4.9            -1.4146e-009    -9.2404e-006    8.34e-009      
  -4.95           -2.6442e-009    -9.3044e-006    1.0654e-008    
  -5              -2.1763e-009    -9.3693e-006    1.177e-009     
END_DB

BEGIN_DB
 ICCAP_VAR VS         0              
 ICCAP_VAR VB         0              
 ICCAP_VAR VD         -5             

 #VG              IG              ID              IB             
  0               -1.5636e-009    -1.8479e-009    -4.354e-009    
  -0.05           1.3252e-009     -1.2958e-009    -2.7103e-008   
  -0.1            1.1858e-009     2.2889e-009     -9.632e-009    
  -0.15           1.3698e-009     2.1474e-009     1.1388e-008    
  -0.2            1.5687e-009     1.926e-009      1.2389e-008    
  -0.25           1.763e-009      1.6354e-009     1.2532e-008    
  -0.3            3.397e-010      2.2507e-009     1.2512e-008    
  -0.35           5.503e-010      2.1984e-009     1.2331e-008    
  -0.4            -1.4072e-009    8.188e-010      1.0944e-008    
  -0.45           -2.7362e-009    -2.6038e-009    1.0236e-008    
  -0.5            2.6923e-009     -6.9616e-009    -2.7294e-008   
  -0.55           -2.3778e-009    -1.8189e-008    -2.7058e-008   
  -0.6            2.04e-010       -4.9683e-008    -1.08e-008     
  -0.65           1.7118e-009     -1.1737e-007    6.008e-009     
  -0.7            1.3137e-009     -2.3927e-007    -5.363e-009    
  -0.75           2.8681e-009     -4.4155e-007    -3.836e-009    
  -0.8            2.3982e-009     -7.239e-007     2.0204e-008    
  -0.85           2.7115e-009     -1.10613e-006   2.371e-008     
  -0.9            -1.44e-011      -1.5787e-006    1.5912e-008    
  -0.95           4.885e-010      -2.1534e-006    3.6609e-008    
  -1              9.293e-010      -2.8237e-006    4.1885e-008    
  -1.05           1.327e-009      -3.5959e-006    4.5342e-008    
  -1.1            1.7792e-009     -4.4485e-006    5.3845e-008    
  -1.15           2.2204e-009     -5.3519e-006    6.0029e-008    
  -1.2            2.5856e-009     -6.3516e-006    6.5396e-008    
  -1.25           2.8228e-009     -7.4287e-006    7.1234e-008    
  -1.3            2.8768e-009     -8.5733e-006    7.0378e-008    
  -1.35           2.7006e-009     -9.781e-006     7.2094e-008    
  -1.4            2.0292e-009     -1.10547e-005   7.5163e-008    
  -1.45           -9.203e-010     -1.2359e-005    1.01427e-007   
  -1.5            8.962e-010      -1.3737e-005    1.08611e-007   
  -1.55           2.0209e-009     -1.5187e-005    1.036e-007     
  -1.6            -1.7977e-009    -1.6629e-005    9.6955e-008    
  -1.65           -2.1408e-009    -1.8162e-005    1.03227e-007   
  -1.7            2.5983e-009     -1.9728e-005    1.05217e-007   
  -1.75           -2.7389e-009    -2.132e-005     1.1223e-007    
  -1.8            -2.6154e-009    -2.2962e-005    1.036e-007     
  -1.85           -2.1173e-009    -2.4651e-005    1.0675e-007    
  -1.9            -1.5313e-009    -2.6352e-005    1.1127e-007    
  -1.95           -1.4078e-009    -2.8087e-005    1.1485e-007    
  -2              -1.3838e-009    -2.985e-005     1.1696e-007    
  -2.05           -2.306e-009     -3.1657e-005    1.2058e-007    
  -2.1            -1.6517e-009    -3.3489e-005    1.0936e-007    
  -2.15           -1.4096e-009    -3.5339e-005    1.1188e-007    
  -2.2            -1.4018e-009    -3.7202e-005    1.1301e-007    
  -2.25           -2.4478e-009    -3.9099e-005    1.143e-007     
  -2.3            -1.8017e-009    -4.1026e-005    1.0263e-007    
  -2.35           -1.4268e-009    -4.2968e-005    1.0374e-007    
  -2.4            -1.4126e-009    -4.4922e-005    1.0444e-007    
  -2.45           -2.5634e-009    -4.6896e-005    1.0431e-007    
  -2.5            -1.9872e-009    -4.891e-005     9.229e-008     
  -2.55           -1.4752e-009    -5.0928e-005    9.327e-008     
  -2.6            -1.4146e-009    -5.2959e-005    9.349e-008     
  -2.65           -2.6443e-009    -5.4996e-005    9.289e-008     
  -2.7            2.1314e-009     -5.7129e-005    5.9981e-008    
  -2.75           1.4239e-009     -5.9207e-005    6.8262e-008    
  -2.8            2.8681e-009     -6.1313e-005    6.5018e-008    
  -2.85           2.8108e-009     -6.3398e-005    7.0156e-008    
  -2.9            2.3095e-009     -6.5528e-005    6.5507e-008    
  -2.95           1.5558e-009     -6.7677e-005    5.7512e-008    
  -3              2.8531e-009     -6.9834e-005    5.2641e-008    
  -3.05           2.849e-009      -7.197e-005     5.8778e-008    
  -3.1            2.4969e-009     -7.4149e-005    5.4184e-008    
  -3.15           1.721e-009      -7.6348e-005    4.745e-008     
  -3.2            1.3132e-009     -7.8537e-005    4.0956e-008    
  -3.25           2.8667e-009     -8.0764e-005    3.7495e-008    
  -3.3            2.6398e-009     -8.2948e-005    4.3742e-008    
  -3.35           1.9388e-009     -8.5189e-005    3.8436e-008    
  -3.4            1.3652e-009     -8.7417e-005    3.0886e-008    
  -3.45           2.8683e-009     -8.966e-005     2.8585e-008    
  -3.5            2.7518e-009     -9.1853e-005    3.4565e-008    
  -3.55           2.1582e-009     -9.4161e-005    3.0616e-008    
  -3.6            1.4493e-009     -9.6433e-005    2.3071e-008    
  -3.65           2.8636e-009     -9.8717e-005    2.0687e-008    
  -3.7            2.8188e-009     -0.00010097     2.6967e-008    
  -3.75           2.3667e-009     -0.000103289    2.3535e-008    
  -3.8            2.7961e-009     -0.000105581    3.4399e-008    
  -3.85           2.8732e-009     -0.000107877    2.6389e-008    
  -3.9            2.7447e-009     -0.000110167    1.9832e-008    
  -3.95           2.6329e-009     -0.000112409    2.9506e-008    
  -4              -2.1475e-009    -0.00011473     2.6637e-008    
  -4.05           -2.564e-009     -0.00011695     8.904e-009     
  -4.1            -2.7541e-009    -0.0001193      9.042e-009     
  -4.15           -2.6979e-009    -0.00012168     1.1876e-008    
  -4.2            -2.3992e-009    -0.00012398     1.3751e-008    
  -4.25           -1.754e-009     -0.00012631     1.4792e-008    
  -4.3            -1.4179e-009    -0.00012865     1.7262e-008    
  -4.35           -1.4117e-009    -0.00013099     1.9231e-008    
  -4.4            -2.5424e-009    -0.00013328     2.0547e-008    
  -4.45           -1.9332e-009    -0.00013572     1.0297e-008    
  -4.5            -1.4572e-009    -0.00013806     1.3117e-008    
  -4.55           -1.4138e-009    -0.00014034     1.5718e-008    
  -4.6            -2.626e-009     -0.00014272     1.7285e-008    
  -4.65           -2.118e-009     -0.0001451      7.423e-009     
  -4.7            -1.5286e-009    -0.00014747     1.0329e-008    
  -4.75           -1.4114e-009    -0.00014981     1.3212e-008    
  -4.8            -1.3842e-009    -0.00015219     1.5225e-008    
  -4.85           -2.3108e-009    -0.00015452     1.8481e-008    
  -4.9            -1.6517e-009    -0.00015686     7.528e-009     
  -4.95           -1.4097e-009    -0.00015927     1.0607e-008    
  -5              -1.4042e-009    -0.0001616      1.309e-008     
END_DB

BEGIN_DB
 ICCAP_VAR VS         0              
 ICCAP_VAR VB         2.5            
 ICCAP_VAR VD         -0.1           

 #VG              IG              ID              IB             
  0               -1.0371e-009    -9.089e-010     -1.9778e-008   
  -0.05           -1.6119e-009    -1.8451e-009    5.363e-009     
  -0.1            2.5235e-009     -1.4942e-009    -2.602e-008    
  -0.15           1.3028e-009     2.2146e-009     -4.954e-009    
  -0.2            1.4923e-009     2.0141e-009     1.1274e-008    
  -0.25           3.14e-011       2.1761e-009     1.1677e-008    
  -0.3            -1.4355e-009    1.1337e-009     2.7512e-008    
  -0.35           -1.1599e-009    -2.205e-009     8.582e-009     
  -0.4            2.94e-010       -1.8383e-009    -1.018e-008    
  -0.45           1.9374e-009     -8.885e-010     -1.9488e-008   
  -0.5            1.6599e-009     1.8276e-009     -8.848e-009    
  -0.55           1.8481e-009     1.5207e-009     1.2005e-008    
  -0.6            4.27e-010       2.3129e-009     1.2592e-008    
  -0.65           6.353e-010      2.345e-009      1.1774e-008    
  -0.7            8.209e-010      2.3546e-009     1.0123e-008    
  -0.75           -1.3763e-009    1.7101e-009     1.5344e-008    
  -0.8            -2.5555e-009    3.629e-010      1.4542e-008    
  -0.85           -1.1838e-009    -2.1971e-009    1.401e-009     
  -0.9            2.742e-010      -1.8653e-009    -1.0136e-008   
  -0.95           1.8917e-009     -9.567e-010     -1.9907e-008   
  -1              7.309e-010      2.1211e-009     -9.029e-009    
  -1.05           -1.4133e-009    3.857e-010      9.688e-009     
  -1.1            -1.4025e-009    -4.1611e-009    1.0583e-008    
  -1.15           -1.4786e-009    -1.6621e-008    -1.0701e-008   
  -1.2            -1.4124e-009    -4.7879e-008    8.347e-009     
  -1.25           2.0222e-009     -1.0906e-007    -2.7365e-008   
  -1.3            8.678e-010      -2.0756e-007    1.1918e-008    
  -1.35           1.2627e-009     -3.3784e-007    9.24e-009      
  -1.4            4.99e-011       -4.853e-007     1.0266e-008    
  -1.45           5.586e-010      -6.4793e-007    1.2504e-008    
  -1.5            9.787e-010      -8.2064e-007    1.0938e-008    
  -1.55           1.3791e-009     -9.9649e-007    9.54e-009      
  -1.6            -2.53e-009      -1.1705e-006    -2.1966e-008   
  -1.65           -1.9455e-009    -1.3444e-006    1.682e-009     
  -1.7            -1.4601e-009    -1.5151e-006    5.139e-009     
  -1.75           -1.4151e-009    -1.6802e-006    8.378e-009     
  -1.8            -2.6269e-009    -1.8408e-006    1.0546e-008    
  -1.85           -2.1338e-009    -2.0034e-006    1.103e-009     
  -1.9            -1.5393e-009    -2.1572e-006    4.73e-009      
  -1.95           -1.4077e-009    -2.3061e-006    7.859e-009     
  -2              -1.3875e-009    -2.4518e-006    1.0244e-008    
  -2.05           -2.3302e-009    -2.594e-006     1.3776e-008    
  -2.1            1.581e-010      -2.7404e-006    -1.0803e-008   
  -2.15           1.3714e-009     -2.8731e-006    -2.2282e-008   
  -2.2            2.8778e-009     -3.0074e-006    -8.739e-009    
  -2.25           -1.4079e-009    -3.1347e-006    2.8094e-008    
  -2.3            -2.5131e-009    -3.265e-006     1.1307e-008    
  -2.35           -7.884e-010     -3.3956e-006    -1.3036e-008   
  -2.4            1.6892e-009     -3.5209e-006    -1.8936e-008   
  -2.45           2.8404e-009     -3.6399e-006    -8.866e-009    
  -2.5            8.907e-010      -3.7578e-006    1.1858e-008    
  -2.55           -1.4703e-009    -3.8758e-006    1.3132e-008    
  -2.6            -1.4152e-009    -3.9925e-006    8.385e-009     
  -2.65           -2.6296e-009    -4.1066e-006    1.0297e-008    
  -2.7            -2.1443e-009    -4.2205e-006    1.311e-009     
  -2.75           -1.5472e-009    -4.3312e-006    4.486e-009     
  -2.8            -1.4109e-009    -4.4399e-006    7.793e-009     
  -2.85           -1.3861e-009    -4.5465e-006    1.0199e-008    
  -2.9            -2.3438e-009    -4.651e-006     1.3534e-008    
  -2.95           1.639e-010      -4.7624e-006    -1.0879e-008   
  -3              1.3732e-009     -4.861e-006     -2.2011e-008   
  -3.05           2.875e-009      -4.9624e-006    -8.726e-009    
  -3.1            2.7631e-009     -5.0616e-006    -1.15e-010     
  -3.15           1.5583e-009     -5.1593e-006    1.0853e-008    
  -3.2            -1.3964e-009    -5.2563e-006    2.6083e-008    
  -3.25           -2.3854e-009    -5.3542e-006    1.3067e-008    
  -3.3            -8.966e-010     -5.4522e-006    -1.2715e-008   
  -3.35           1.5255e-009     -5.5476e-006    -1.5723e-008   
  -3.4            2.8641e-009     -5.6366e-006    -8.439e-009    
  -3.45           2.104e-009      -5.7264e-006    1.2067e-008    
  -3.5            9.355e-010      -5.8136e-006    1.1506e-008    
  -3.55           1.3317e-009     -5.9018e-006    9.308e-009     
  -3.6            1.7794e-009     -5.9906e-006    1.2202e-008    
  -3.65           6.392e-010      -6.0775e-006    1.2653e-008    
  -3.7            1.0446e-009     -6.1637e-006    1.0131e-008    
  -3.75           1.4572e-009     -6.2502e-006    1.0159e-008    
  -3.8            2.814e-010      -6.331e-006     1.1355e-008    
  -3.85           7.62e-010       -6.4133e-006    1.2461e-008    
  -3.9            1.1531e-009     -6.4936e-006    9.495e-009     
  -3.95           1.5904e-009     -6.5756e-006    1.1199e-008    
  -4              2.0364e-009     -6.6595e-006    1.2466e-008    
  -4.05           8.811e-010      -6.7319e-006    1.1972e-008    
  -4.1            1.2716e-009     -6.8116e-006    9.272e-009     
  -4.15           6.87e-011       -6.8931e-006    1.0429e-008    
