! VERSION = 6.00
BEGIN_HEADER
 ICCAP_INPUTS
  VG         V  B GROUND SMU4 0.001 LIN        1    0          -5         101  -0.05     
  VS         V  E GROUND SMU2 0.1 CON        0
  VB         V  C GROUND SMU3 0.1 LIN        3    0          5          3    2.5       
  VD         V  S GROUND SMU1 0.1 LIN        2    -0.1       -5         2    -4.9      
 ICCAP_OUTPUTS
  IG         I  B GROUND SMU4 B
  ID         I  S GROUND SMU1 B
  IB         I  C GROUND SMU3 B
END_HEADER

BEGIN_DB
 ICCAP_VAR VS         0              
 ICCAP_VAR VB         0              
 ICCAP_VAR VD         -0.1           

 #VG              IG              ID              IB             
  0               7.144e-010      7.695e-010      -1.19e-008     
  -0.05           1.0247e-009     2.3285e-009     -8.671e-009    
  -0.1            -1.5412e-009    1.8529e-009     1.2491e-008    
  -0.15           -1.903e-009     -1.4025e-009    9.313e-009     
  -0.2            -5.558e-010     -2.2747e-009    -1.1253e-008   
  -0.25           -7.669e-010     -2.2929e-009    -1.1396e-008   
  -0.3            2.0926e-009     -1.623e-009     -1.7008e-008   
  -0.35           1.5129e-009     1.911e-009      -8.444e-009    
  -0.4            1.156e-010      2.084e-009      1.0398e-008    
  -0.45           3.019e-010      2.1169e-009     1.0503e-008    
  -0.5            4.902e-010      1.9037e-009     1.0735e-008    
  -0.55           -2.2105e-009    -2.2075e-009    2.4569e-008    
  -0.6            -1.9385e-009    -5.5814e-009    3.538e-009     
  -0.65           -1.3612e-009    -1.6603e-008    -1.1123e-008   
  -0.7            -2.6637e-009    -4.5287e-008    1.1433e-008    
  -0.75           -2.1901e-009    -1.08727e-007   9.23e-010      
  -0.8            9.826e-010      -2.2499e-007    -1.8138e-008   
  -0.85           -1.758e-010     -4.0535e-007    1.3112e-008    
  -0.9            2.409e-010      -6.4536e-007    1.0487e-008    
  -0.95           6.89e-010       -9.4085e-007    1.0585e-008    
  -1              -2.5009e-009    -1.2689e-006    -1.1063e-008   
  -1.05           -1.9071e-009    -1.6328e-006    2.048e-009     
  -1.1            -1.4715e-009    -2.0101e-006    5.169e-009     
  -1.15           -1.3477e-009    -2.396e-006     1.026e-008     
  -1.2            -2.6172e-009    -2.7824e-006    1.1397e-008    
  -1.25           -2.0918e-009    -3.1704e-006    1.009e-009     
  -1.3            -1.5591e-009    -3.5489e-006    4.034e-009     
  -1.35           -1.3719e-009    -3.9218e-006    9.069e-009     
  -1.4            -2.6986e-009    -4.2886e-006    1.1482e-008    
  -1.45           -2.2853e-009    -4.6525e-006    6.79e-010      
  -1.5            -1.6917e-009    -5.005e-006     2.906e-009     
  -1.55           -1.4069e-009    -5.35e-006      7.36e-009      
  -1.6            -1.3231e-009    -5.6864e-006    1.1327e-008    
  -1.65           -2.4584e-009    -6.015e-006     1.2657e-008    
  -1.7            -1.8573e-009    -6.3418e-006    2.252e-009     
  -1.75           -1.4569e-009    -6.6573e-006    5.698e-009     
  -1.8            -1.3426e-009    -6.9693e-006    1.0403e-008    
  -1.85           -2.5895e-009    -7.2688e-006    1.1539e-008    
  -1.9            -2.0482e-009    -7.5675e-006    1.155e-009     
  -1.95           -1.5343e-009    -7.8578e-006    4.473e-009     
  -2              -1.3665e-009    -8.1411e-006    9.218e-009     
  -2.05           -2.6838e-009    -8.4167e-006    1.1233e-008    
  -2.1            -2.2341e-009    -8.6939e-006    8.16e-010      
  -2.15           -1.6562e-009    -8.9568e-006    3.153e-009     
  -2.2            -1.3948e-009    -9.2186e-006    7.733e-009     
  -2.25           -1.3164e-009    -9.4776e-006    1.1221e-008    
  -2.3            -2.4192e-009    -9.729e-006     1.2956e-008    
  -2.35           -1.8162e-009    -9.9811e-006    2.351e-009     
  -2.4            -1.438e-009     -1.02241e-005   6.127e-009     
  -2.45           -1.3366e-009    -1.04635e-005   1.0607e-008    
  -2.5            -2.5516e-009    -1.07003e-005   1.1554e-008    
  -2.55           -1.9816e-009    -1.09361e-005   1.523e-009     
  -2.6            -1.5092e-009    -1.11641e-005   4.673e-009     
  -2.65           -1.3582e-009    -1.13883e-005   9.625e-009     
  -2.7            2.514e-010      -1.1614e-005    1.0406e-008    
  -2.75           -1.662e-010     -1.1824e-005    -1.1347e-008   
  -2.8            -6.814e-010     -1.2039e-005    -1.1054e-008   
  -2.85           1.8176e-009     -1.225e-005     -1.9154e-008   
  -2.9            1.3558e-009     -1.2456e-005    -9.395e-009    
  -2.95           2.8987e-009     -1.2661e-005    -8.479e-009    
  -3              2.6518e-009     -1.2858e-005    -2.41e-010     
  -3.05           2.5583e-009     -1.3058e-005    8.744e-009     
  -3.1            4.753e-010      -1.3249e-005    1.0444e-008    
  -3.15           -1.312e-009     -1.3441e-005    2.5102e-008    
  -3.2            -2.3308e-009    -1.3629e-005    1.4143e-008    
  -3.25           -1.7157e-009    -1.3818e-005    2.729e-009     
  -3.3            -1.4155e-009    -1.4001e-005    6.887e-009     
  -3.35           -1.3294e-009    -1.4185e-005    1.1119e-008    
  -3.4            -2.4931e-009    -1.4357e-005    1.2465e-008    
  -3.45           -1.8892e-009    -1.4537e-005    2.095e-009     
  -3.5            -1.4683e-009    -1.4713e-005    5.45e-009      
  -3.55           -1.348e-009     -1.4884e-005    1.0232e-008    
  -3.6            -2.6121e-009    -1.505e-005     1.137e-008     
  -3.65           -2.0708e-009    -1.5217e-005    1.194e-009     
  -3.7            -1.5506e-009    -1.5383e-005    4.229e-009     
  -3.75           -1.3741e-009    -1.5546e-005    9.038e-009     
  -3.8            -2.697e-009     -1.5702e-005    1.1562e-008    
  -3.85           -2.273e-009     -1.5864e-005    7.43e-010      
  -3.9            -1.6742e-009    -1.6018e-005    3.14e-009      
  -3.95           -1.4037e-009    -1.6168e-005    7.395e-009     
  -4              -1.3223e-009    -1.632e-005     1.1148e-008    
  -4.05           -2.4483e-009    -1.6464e-005    1.2745e-008    
  -4.1            -1.8258e-009    -1.6614e-005    2.399e-009     
  -4.15           -1.4457e-009    -1.6758e-005    5.87e-009      
  -4.2            -1.3423e-009    -1.6903e-005    1.0334e-008    
  -4.25           -2.5759e-009    -1.704e-005     1.1457e-008    
  -4.3            -2.0143e-009    -1.7182e-005    1.36e-009      
  -4.35           -1.5148e-009    -1.7317e-005    4.316e-009     
  -4.4            -1.3637e-009    -1.7453e-005    9.374e-009     
  -4.45           -2.6688e-009    -1.7589e-005    1.126e-008     
  -4.5            -2.1924e-009    -1.7725e-005    8.43e-010      
  -4.55           -1.6152e-009    -1.7852e-005    3.392e-009     
  -4.6            -1.3886e-009    -1.7984e-005    8.032e-009     
  -4.65           -1.3165e-009    -1.8113e-005    1.1534e-008    
  -4.7            -2.3874e-009    -1.8232e-005    1.377e-008     
  -4.75           -1.7639e-009    -1.8356e-005    2.586e-009     
  -4.8            -1.4327e-009    -1.8483e-005    6.451e-009     
  -4.85           -1.3329e-009    -1.8603e-005    1.0846e-008    
  -4.9            -2.5329e-009    -1.8716e-005    1.188e-008     
  -4.95           -1.93e-009      -1.8842e-005    1.79e-009      
  -5              -1.4796e-009    -1.8958e-005    4.901e-009     
END_DB

BEGIN_DB
 ICCAP_VAR VS         0              
 ICCAP_VAR VB         0              
 ICCAP_VAR VD         -5             

 #VG              IG              ID              IB             
  0               -2.3442e-009    -2.2353e-009    1.7048e-008    
  -0.05           -3.261e-010     -2.21e-009      -1.0988e-008   
  -0.1            -5.421e-010     -2.2735e-009    -1.121e-008    
  -0.15           1.2682e-009     -1.5072e-009    -2.1826e-008   
  -0.2            2.8869e-009     -9.12e-011      -1.1566e-008   
  -0.25           1.0251e-009     2.2818e-009     1.062e-008     
  -0.3            -1.5394e-009    1.7276e-009     1.2532e-008    
  -0.35           -2.7328e-009    -1.5056e-009    9.358e-009     
  -0.4            -5.673e-010     -3.6851e-009    -1.1167e-008   
  -0.45           1.2662e-009     -6.2795e-009    -2.1243e-008   
  -0.5            -2.6725e-009    -1.5364e-008    -1.0829e-008   
  -0.55           -2.1949e-009    -4.2764e-008    1.564e-009     
  -0.6            9.823e-010      -1.0713e-007    -1.5993e-008   
  -0.65           1.3777e-009     -2.5253e-007    1.4949e-008    
  -0.7            1.8226e-009     -5.1439e-007    1.8988e-008    
  -0.75           2.2192e-009     -9.3683e-007    2.3287e-008    
  -0.8            1.928e-010      -1.5436e-006    2.0064e-008    
  -0.85           6.486e-010      -2.3854e-006    4.205e-008     
  -0.9            1.051e-009      -3.4635e-006    5.4193e-008    
  -0.95           1.4657e-009     -4.7778e-006    6.8213e-008    
  -1              1.9087e-009     -6.2761e-006    8.2559e-008    
  -1.05           -4.586e-010     -7.9544e-006    6.6239e-008    
  -1.1            -1.5183e-009    -9.8643e-006    1.174e-007     
  -1.15           1.6892e-009     -1.1972e-005    1.1782e-007    
  -1.2            1.3278e-009     -1.4219e-005    1.2467e-007    
  -1.25           2.8867e-009     -1.6636e-005    1.4062e-007    
  -1.3            2.5497e-009     -1.9163e-005    1.6306e-007    
  -1.35           1.8709e-009     -2.1864e-005    1.7424e-007    
  -1.4            1.3828e-009     -2.4689e-005    1.8197e-007    
  -1.45           1.2597e-009     -2.7646e-005    1.9485e-007    
  -1.5            2.7033e-009     -3.0716e-005    2.0159e-007    
  -1.55           2.0807e-009     -3.3843e-005    2.2254e-007    
  -1.6            1.4796e-009     -3.7121e-005    2.2594e-007    
  -1.65           1.2793e-009     -4.0504e-005    2.3333e-007    
  -1.7            2.8039e-009     -4.3968e-005    2.3821e-007    
  -1.75           2.2948e-009     -4.7479e-005    2.5311e-007    
  -1.8            1.6137e-009     -5.1143e-005    2.5289e-007    
  -1.85           1.3063e-009     -5.4854e-005    2.5356e-007    
  -1.9            2.869e-009      -5.8646e-005    2.5581e-007    
  -1.95           2.4877e-009     -6.2394e-005    2.6536e-007    
  -2              1.7887e-009     -6.6301e-005    2.6186e-007    
  -2.05           1.3541e-009     -7.0275e-005    2.5669e-007    
  -2.1            2.8964e-009     -7.4292e-005    2.5607e-007    
  -2.15           2.6463e-009     -7.8337e-005    2.6189e-007    
  -2.2            2.0047e-009     -8.2456e-005    2.5663e-007    
  -2.25           1.4324e-009     -8.6636e-005    2.4689e-007    
  -2.3            1.2649e-009     -9.0863e-005    2.4304e-007    
  -2.35           2.7731e-009     -9.5146e-005    2.3539e-007    
  -2.4            2.2254e-009     -9.9412e-005    2.3947e-007    
  -2.45           1.5597e-009     -0.000103781    2.2845e-007    
  -2.5            1.2917e-009     -0.00010818     2.2036e-007    
  -2.55           2.8484e-009     -0.00011263     2.1308e-007    
  -2.6            2.8854e-009     -0.00011692     2.2643e-007    
  -2.65           2.5984e-009     -0.00012147     2.0817e-007    
  -2.7            1.9321e-009     -0.00012598     1.9811e-007    
  -2.75           1.4042e-009     -0.00013055     1.849e-007     
  -2.8            1.2584e-009     -0.00013521     1.7787e-007    
  -2.85           2.7383e-009     -0.00013981     1.6711e-007    
  -2.9            2.1608e-009     -0.00014437     1.6958e-007    
  -2.95           1.5193e-009     -0.00014903     1.5663e-007    
  -3              1.2825e-009     -0.00015376     1.4792e-007    
  -3.05           2.8258e-009     -0.00015847     1.3933e-007    
  -3.1            2.3734e-009     -0.00016321     1.4083e-007    
  -3.15           1.6778e-009     -0.00016798     1.2946e-007    
  -3.2            1.3202e-009     -0.00017284     1.1881e-007    
  -3.25           -1.6051e-009    -0.0001775      1.4266e-007    
  -3.3            -1.3847e-009    -0.00018233     1.2314e-007    
  -3.35           -2.7214e-009    -0.00018716     1.1986e-007    
  -3.4            -2.3458e-009    -0.00019209     1.0269e-007    
  -3.45           -1.7332e-009    -0.00019694     9.899e-008     
  -3.5            -1.4171e-009    -0.00020186     9.741e-008     
  -3.55           -1.3305e-009    -0.00020672     9.612e-008     
  -3.6            -2.5062e-009    -0.00021163     9.197e-008     
  -3.65           1.8239e-009     -0.00021672     5.4225e-008    
  -3.7            1.3552e-009     -0.00022173     6.0594e-008    
  -3.75           2.8985e-009     -0.00022678     5.687e-008     
  -3.8            2.6488e-009     -0.00023173     6.0644e-008    
  -3.85           1.9994e-009     -0.00023675     5.4198e-008    
  -3.9            1.4361e-009     -0.0002418      4.4386e-008    
  -3.95           1.2715e-009     -0.00024681     4.0709e-008    
  -4              2.7745e-009     -0.00025185     3.4529e-008    
  -4.05           2.2197e-009     -0.00025686     4.0954e-008    
  -4.1            1.5581e-009     -0.00026191     3.2771e-008    
  -4.15           1.2958e-009     -0.00026697     2.7821e-008    
  -4.2            2.8534e-009     -0.00027212     2.4676e-008    
  -4.25           2.4186e-009     -0.00027711     3.0698e-008    
  -4.3            1.7236e-009     -0.00028218     2.4392e-008    
  -4.35           2.8997e-009     -0.00028725     3.2432e-008    
  -4.4            2.7748e-009     -0.00029241     2.5158e-008    
  -4.45           2.2356e-009     -0.00029751     2.1527e-008    
  -4.5            2.7737e-009     -0.00030257     2.9968e-008    
  -4.55           2.9054e-009     -0.00030767     2.4243e-008    
  -4.6            2.2386e-009     -0.00031281     2.7704e-008    
  -4.65           2.5331e-009     -0.00031794     2.5644e-008    
  -4.7            2.8418e-009     -0.00032301     2.2784e-008    
  -4.75           1.967e-009      -0.00032818     2.4816e-008    
  -4.8            2.3213e-009     -0.00033333     2.2743e-008    
  -4.85           2.6248e-009     -0.00033843     1.9749e-008    
  -4.9            1.6415e-009     -0.00034373     2.247e-008     
  -4.95           2.0764e-009     -0.00034874     2.0126e-008    
  -5              9.265e-010      -0.00035383     2.0189e-008    
END_DB

BEGIN_DB
 ICCAP_VAR VS         0              
 ICCAP_VAR VB         2.5            
 ICCAP_VAR VD         -0.1           

 #VG              IG              ID              IB             
  0               -1.9995e-009    -2.1011e-009    1.3006e-008    
  -0.05           -5.993e-010     -2.2816e-009    -1.1235e-008   
  -0.1            1.2604e-009     -1.53e-009      -2.0603e-008   
  -0.15           2.8687e-009     -1.18e-010      -1.2227e-008   
  -0.2            1.0526e-009     2.2915e-009     1.0696e-008    
  -0.25           -1.523e-009     1.8746e-009     1.241e-008     
  -0.3            -1.93e-009      -1.3806e-009    9.728e-009     
  -0.35           -6.007e-010     -2.2836e-009    -1.1255e-008   
  -0.4            -8.118e-010     -2.2859e-009    -1.1362e-008   
  -0.45           2.0293e-009     -1.6339e-009    -1.6469e-008   
  -0.5            1.5344e-009     1.863e-009      -8.793e-009    
  -0.55           1.449e-010      2.1288e-009     1.0399e-008    
  -0.6            3.292e-010      2.2487e-009     1.0343e-008    
  -0.65           5.166e-010      2.3343e-009     1.0831e-008    
  -0.7            -1.3428e-009    1.4586e-009     2.3697e-008    
  -0.75           -1.3114e-009    1.138e-010      1.1427e-008    
  -0.8            -2.6132e-009    2.672e-010      1.3544e-008    
  -0.85           -2.015e-009     -1.2829e-009    9.01e-010      
  -0.9            1.5912e-009     -1.7823e-009    -1.2771e-008   
  -0.95           8.926e-010      2.2468e-009     -8.951e-009    
  -1              -1.3224e-009    1.0274e-009     1.0564e-008    
  -1.05           -2.6593e-009    -2.0291e-009    1.2659e-008    
  -1.1            -2.4912e-009    -9.6623e-009    8.32e-010      
  -1.15           2.2327e-009     -2.9386e-008    2.4201e-008    
  -1.2            1.5802e-009     -8.5582e-008    -6.508e-009    
  -1.25           -1.5413e-009    -1.9636e-007    2.3686e-008    
  -1.3            -3.366e-010     -3.7711e-007    -1.1141e-008   
  -1.35           -8.335e-010     -6.1632e-007    -1.1252e-008   
  -1.4            -1.2167e-009    -9.0682e-007    -1.1085e-008   
  -1.45           1.5812e-009     -1.2422e-006    1.1003e-008    
  -1.5            1.3034e-009     -1.5962e-006    -8.989e-009    
  -1.55           2.8617e-009     -1.9616e-006    -9.35e-009     
  -1.6            3.775e-010      -2.3185e-006    1.0567e-008    
  -1.65           8.154e-010      -2.6839e-006    1.0886e-008    
  -1.7            -1.5317e-009    -3.0388e-006    1.6205e-008    
  -1.75           -1.3687e-009    -3.3879e-006    9.474e-009     
  -1.8            -2.6777e-009    -3.7367e-006    1.1541e-008    
  -1.85           -2.2109e-009    -4.0726e-006    9.33e-010      
  -1.9            -1.6409e-009    -4.3992e-006    3.417e-009     
  -1.95           -1.401e-009     -4.7173e-006    7.667e-009     
  -2              -1.3202e-009    -5.0262e-006    1.1475e-008    
  -2.05           -2.4067e-009    -5.3282e-006    1.3057e-008    
  -2.1            -1.7946e-009    -5.6273e-006    2.374e-009     
  -2.15           -1.4426e-009    -5.9189e-006    6.034e-009     
  -2.2            -1.3406e-009    -6.2016e-006    1.0592e-008    
  -2.25           -2.5577e-009    -6.4791e-006    1.1655e-008    
  -2.3            -1.991e-009     -6.7541e-006    1.453e-009     
  -2.35           -1.5164e-009    -7.0211e-006    4.522e-009     
  -2.4            -1.3652e-009    -7.2818e-006    9.685e-009     
  -2.45           -2.6619e-009    -7.5371e-006    1.15e-008      
  -2.5            -2.1778e-009    -7.7911e-006    8.63e-010      
  -2.55           -1.6272e-009    -8.0402e-006    3.244e-009     
  -2.6            -1.3974e-009    -8.2811e-006    7.983e-009     
  -2.65           -1.3153e-009    -8.5195e-006    1.1551e-008    
  -2.7            -2.3761e-009    -8.7458e-006    1.3124e-008    
  -2.75           -1.7743e-009    -8.9806e-006    2.586e-009     
  -2.8            -1.4387e-009    -9.2059e-006    6.229e-009     
  -2.85           -1.3329e-009    -9.4266e-006    1.0858e-008    
  -2.9            -2.5164e-009    -9.6457e-006    1.1548e-008    
  -2.95           -1.9322e-009    -9.8631e-006    1.803e-009     
  -3              -1.5003e-009    -1.00755e-005   4.683e-009     
  -3.05           -1.3614e-009    -1.02829e-005   9.998e-009     
  -3.1            -2.6331e-009    -1.04862e-005   1.1157e-008    
  -3.15           -2.1188e-009    -1.06921e-005   8.81e-010      
  -3.2            -1.5969e-009    -1.0891e-005    3.554e-009     
  -3.25           -1.3897e-009    -1.1085e-005    8.418e-009     
  -3.3            -2.7172e-009    -1.1278e-005    1.1699e-008    
  -3.35           2.2836e-009     -1.1464e-005    7.07e-010      
  -3.4            1.6164e-009     -1.1653e-005    -5.707e-009    
  -3.45           1.3135e-009     -1.1837e-005    -9.02e-009     
  -3.5            2.8642e-009     -1.202e-005     -9.064e-009    
  -3.55           1.296e-009      -1.2195e-005    1.0715e-008    
  -3.6            1.532e-010      -1.2367e-005    1.1182e-008    
  -3.65           5.958e-010      -1.2542e-005    1.0307e-008    
  -3.7            -1.7299e-009    -1.2718e-005    2.1546e-008    
  -3.75           -1.4278e-009    -1.2884e-005    6.723e-009     
  -3.8            -1.3276e-009    -1.3053e-005    1.109e-008     
  -3.85           -2.4721e-009    -1.3214e-005    1.1846e-008    
  -3.9            -1.8951e-009    -1.3385e-005    1.878e-009     
  -3.95           -1.4872e-009    -1.3538e-005    5.169e-009     
  -4              -1.3531e-009    -1.3697e-005    1.0269e-008    
  -4.05           -2.6098e-009    -1.3845e-005    1.1171e-008    
  -4.1            -2.0772e-009    -1.4005e-005    8.41e-010      
  -4.15           -1.5734e-009    -1.4158e-005    3.72e-009      
