! VERSION = 6.00
BEGIN_HEADER
 ICCAP_INPUTS
  VG         V  B GROUND SMU4 0.001 LIN        1    0          -5         101  -0.05     
  VS         V  E GROUND SMU2 0.1 CON        0
  VB         V  C GROUND SMU3 0.1 LIN        3    0          5          3    2.5       
  VD         V  S GROUND SMU1 0.1 LIN        2    -0.1       -5         2    -4.9      
 ICCAP_OUTPUTS
  IG         I  B GROUND SMU4 B
  ID         I  S GROUND SMU1 B
  IB         I  C GROUND SMU3 B
END_HEADER

BEGIN_DB
 ICCAP_VAR VS         0              
 ICCAP_VAR VB         0              
 ICCAP_VAR VD         -0.1           

 #VG              IG              ID              IB             
  0               -1.4246e-009    -1.4686e-009    1.0503e-008    
  -0.05           -1.52e-011      -2.0411e-009    -1.1096e-008   
  -0.1            -1.897e-010     -2.1587e-009    -1.0896e-008   
  -0.15           -4.041e-010     -2.2375e-009    -1.0978e-008   
  -0.2            -6.063e-010     -2.2838e-009    -1.1201e-008   
  -0.25           -7.975e-010     -2.2942e-009    -1.1171e-008   
  -0.3            2.0698e-009     -1.6374e-009    -1.665e-008    
  -0.35           1.5117e-009     1.9187e-009     -8.49e-009     
  -0.4            1.101e-010      2.0953e-009     1.0477e-008    
  -0.45           2.874e-010      2.1484e-009     1.0439e-008    
  -0.5            4.69e-010       2.0461e-009     1.0572e-008    
  -0.55           -1.3501e-009    3.913e-010      2.5267e-008    
  -0.6            -1.3203e-009    -3.581e-009     1.1278e-008    
  -0.65           -2.3318e-009    -1.2704e-008    -2.3984e-008   
  -0.7            -1.738e-009     -3.8537e-008    2.791e-009     
  -0.75           -1.5905e-009    -1.1917e-007    -7.345e-009    
  -0.8            -1.3793e-009    -3.0898e-007    8.364e-009     
  -0.85           -1.3075e-009    -7.4051e-007    1.1442e-008    
  -0.9            -2.419e-009     -1.5088e-006    -1.6644e-008   
  -0.95           -1.8248e-009    -2.7541e-006    2.386e-009     
  -1              -1.4479e-009    -4.4689e-006    5.761e-009     
  -1.05           -1.3425e-009    -6.5511e-006    1.0445e-008    
  -1.1            -2.6022e-009    -8.8883e-006    1.1383e-008    
  -1.15           -1.2666e-009    -1.1363e-005    2.5268e-008    
  -1.2            -2.17e-011      -1.3996e-005    -1.171e-008    
  -1.25           -5.102e-010     -1.6527e-005    -1.0948e-008   
  -1.3            -9.477e-010     -1.9035e-005    -1.1212e-008   
  -1.35           2.921e-010      -2.1571e-005    -1.3747e-008   
  -1.4            -1.016e-010     -2.3996e-005    -1.1522e-008   
  -1.45           -5.977e-010     -2.6344e-005    -1.0969e-008   
  -1.5            -1.019e-009     -2.8626e-005    -1.1214e-008   
  -1.55           2.207e-010      -3.0925e-005    -1.2852e-008   
  -1.6            -1.92e-010      -3.3082e-005    -1.1273e-008   
  -1.65           -6.812e-010     -3.518e-005     -1.0943e-008   
  -1.7            1.8248e-009     -3.7266e-005    -1.8956e-008   
  -1.75           1.3655e-009     -3.9267e-005    -9.424e-009    
  -1.8            1.2523e-009     -4.1243e-005    -8.805e-009    
  -1.85           2.7033e-009     -4.3137e-005    -1.3065e-008   
  -1.9            6.167e-010      -4.4951e-005    1.044e-008     
  -1.95           -1.7266e-009    -4.6746e-005    2.1553e-008    
  -2              -1.4158e-009    -4.8494e-005    6.847e-009     
  -2.05           -1.3286e-009    -5.0205e-005    1.0881e-008    
  -2.1            -2.5241e-009    -5.1861e-005    1.1835e-008    
  -2.15           -1.936e-009     -5.3518e-005    1.617e-009     
  -2.2            -1.4861e-009    -5.5111e-005    4.967e-009     
  -2.25           -1.3563e-009    -5.6673e-005    9.715e-009     
  -2.3            -2.6629e-009    -5.8191e-005    1.1181e-008    
  -2.35           -2.1978e-009    -5.9705e-005    9.31e-010      
  -2.4            -1.6339e-009    -6.1163e-005    3.427e-009     
  -2.45           -1.3914e-009    -6.2595e-005    7.779e-009     
  -2.5            -1.3158e-009    -6.3996e-005    1.1269e-008    
  -2.55           -2.4376e-009    -6.5364e-005    1.2802e-008    
  -2.6            -1.8293e-009    -6.6741e-005    2.156e-009     
  -2.65           -1.4483e-009    -6.8054e-005    5.791e-009     
  -2.7            -1.3409e-009    -6.9349e-005    1.0527e-008    
  -2.75           -2.6014e-009    -7.0618e-005    1.1439e-008    
  -2.8            -2.08e-009      -7.1886e-005    8.96e-010      
  -2.85           -1.5551e-009    -7.3115e-005    3.964e-009     
  -2.9            -1.372e-009     -7.4316e-005    8.963e-009     
  -2.95           -2.7115e-009    -7.5501e-005    1.132e-008     
  -3              -2.3156e-009    -7.6682e-005    6.42e-010      
  -3.05           -1.7243e-009    -7.782e-005     2.713e-009     
  -3.1            -1.4155e-009    -7.8949e-005    6.748e-009     
  -3.15           -1.3302e-009    -8.0056e-005    1.1002e-008    
  -3.2            -2.5369e-009    -8.113e-005     1.1698e-008    
  -3.25           -1.9576e-009    -8.2219e-005    1.648e-009     
  -3.3            -1.501e-009     -8.3271e-005    4.764e-009     
  -3.35           -1.3542e-009    -8.4306e-005    9.653e-009     
  -3.4            -2.6673e-009    -8.532e-005     1.1271e-008    
  -3.45           -2.2137e-009    -8.6343e-005    7.46e-010      
  -3.5            -1.6466e-009    -8.7321e-005    3.244e-009     
  -3.55           -1.3914e-009    -8.8298e-005    7.704e-009     
  -3.6            -1.3179e-009    -8.9251e-005    1.1363e-008    
  -3.65           -2.4497e-009    -9.0177e-005    1.2565e-008    
  -3.7            -1.849e-009     -9.1136e-005    2.261e-009     
  -3.75           -1.454e-009     -9.205e-005     5.882e-009     
  -3.8            -1.3393e-009    -9.2941e-005    1.0411e-008    
  -3.85           -2.6069e-009    -9.382e-005     1.1096e-008    
  -3.9            -2.0936e-009    -9.4712e-005    8.42e-010      
  -3.95           -1.5656e-009    -9.5575e-005    3.906e-009     
  -4              -1.3724e-009    -9.6417e-005    8.967e-009     
  -4.05           -2.7115e-009    -9.7251e-005    1.1353e-008    
  -4.1            -2.3282e-009    -9.8085e-005    6.16e-010      
  -4.15           -1.7418e-009    -9.8888e-005    2.733e-009     
  -4.2            -1.4201e-009    -9.9693e-005    6.743e-009     
  -4.25           -1.3274e-009    -0.000100475    1.1029e-008    
  -4.3            -2.5311e-009    -0.000101239    1.1711e-008    
  -4.35           -1.9705e-009    -0.00010202     1.439e-009     
  -4.4            -1.5021e-009    -0.000102771    4.645e-009     
  -4.45           -1.3539e-009    -0.000103519    9.6e-009       
  -4.5            -2.666e-009     -0.000104243    1.1125e-008    
  -4.55           -2.2153e-009    -0.000104988    6.08e-010      
  -4.6            -1.6483e-009    -0.000105691    3.242e-009     
  -4.65           -1.3961e-009    -0.000106393    7.766e-009     
  -4.7            -1.3155e-009    -0.000107083    1.1349e-008    
  -4.75           -2.4489e-009    -0.000107742    1.2694e-008    
  -4.8            -7.964e-010     -0.000108441    -1.0897e-008   
  -4.85           1.6988e-009     -0.000109161    -1.6999e-008   
  -4.9            1.3201e-009     -0.000109773    -9.402e-009    
  -4.95           2.8865e-009     -0.000110422    -8.722e-009    
  -5              2.5862e-009     -0.00011105     -4.66e-010     
END_DB

BEGIN_DB
 ICCAP_VAR VS         0              
 ICCAP_VAR VB         0              
 ICCAP_VAR VD         -5             

 #VG              IG              ID              IB             
  0               7.909e-010      8.157e-010      2.7524e-008    
  -0.05           1.8745e-009     1.4702e-009     -8.889e-009    
  -0.1            4.66e-010       2.3145e-009     1.0518e-008    
  -0.15           6.453e-010      2.3627e-009     1.0818e-008    
  -0.2            -1.3218e-009    1.5321e-009     2.0886e-008    
  -0.25           -2.6811e-009    8.39e-011       1.2444e-008    
  -0.3            -1.9683e-009    -1.7025e-009    8.58e-010      
  -0.35           -6.894e-010     -3.5819e-009    -1.1244e-008   
  -0.4            1.2453e-009     -5.9659e-009    -1.8866e-008   
  -0.45           -2.5259e-009    -1.4564e-008    -1.0896e-008   
  -0.5            -1.9355e-009    -4.2678e-008    2.546e-009     
  -0.55           -2.5567e-009    -1.2184e-007    1.3399e-008    
  -0.6            -2.0134e-009    -3.2647e-007    8.336e-009     
  -0.65           -1.5182e-009    -8.0611e-007    2.0594e-008    
  -0.7            -5.691e-010     -1.8061e-006    3.3843e-008    
  -0.75           -9.887e-010     -3.5586e-006    5.2499e-008    
  -0.8            -6.68e-010      -6.451e-006     1.3153e-007    
  -0.85           -1.0548e-009    -1.0541e-005    1.6192e-007    
  -0.9            1.2618e-009     -1.6291e-005    2.2701e-007    
  -0.95           1.698e-009      -2.3498e-005    3.6017e-007    
  -1              2.1314e-009     -3.1992e-005    4.6488e-007    
  -1.05           2.4573e-009     -4.1869e-005    5.7835e-007    
  -1.1            2.7722e-009     -5.3127e-005    6.9694e-007    
  -1.15           2.9888e-009     -6.5604e-005    8.1432e-007    
  -1.2            2.8858e-009     -7.9206e-005    9.311e-007     
  -1.25           2.3912e-009     -9.3859e-005    1.04901e-006   
  -1.3            -1.646e-010     -0.00010915     1.1929e-006    
  -1.35           2.344e-010      -0.00012536     1.2866e-006    
  -1.4            6.623e-010      -0.00014268     1.3916e-006    
  -1.45           1.0562e-009     -0.00016079     1.4902e-006    
  -1.5            1.4404e-009     -0.00017968     1.5803e-006    
  -1.55           1.8755e-009     -0.00019884     1.6653e-006    
  -1.6            2.2524e-009     -0.00021825     1.739e-006     
  -1.65           2.5354e-009     -0.00023843     1.8035e-006    
  -1.7            2.8459e-009     -0.00025917     1.8627e-006    
  -1.75           2.9403e-009     -0.00028045     1.91e-006      
  -1.8            2.6872e-009     -0.00030248     1.9455e-006    
  -1.85           2.0618e-009     -0.00032464     1.9754e-006    
  -1.9            1.4827e-009     -0.00034701     1.9925e-006    
  -1.95           1.2942e-009     -0.00036988     2.0082e-006    
  -2              2.8302e-009     -0.00039299     2.0188e-006    
  -2.05           2.343e-009      -0.00041608     2.0291e-006    
  -2.1            1.667e-009      -0.00043973     2.02e-006      
  -2.15           1.3271e-009     -0.00046364     2.0049e-006    
  -2.2            2.9e-009        -0.00048788     1.9897e-006    
  -2.25           2.5856e-009     -0.00051199     1.9759e-006    
  -2.3            1.9322e-009     -0.00053658     1.9472e-006    
  -2.35           1.4106e-009     -0.00056146     1.9084e-006    
  -2.4            1.264e-009      -0.00058637     1.87e-006      
  -2.45           2.7709e-009     -0.00061162     1.8328e-006    
  -2.5            2.2228e-009     -0.00063671     1.7972e-006    
  -2.55           1.5698e-009     -0.00066224     1.7459e-006    
  -2.6            1.3e-009        -0.00068791     1.697e-006     
  -2.65           2.8714e-009     -0.00071381     1.647e-006     
  -2.7            2.4913e-009     -0.00073946     1.603e-006     
  -2.75           1.8105e-009     -0.00076556     1.5454e-006    
  -2.8            1.3668e-009     -0.00079179     1.4874e-006    
  -2.85           1.2504e-009     -0.00081807     1.4314e-006    
  -2.9            2.7108e-009     -0.00084453     1.3773e-006    
  -2.95           2.1068e-009     -0.00087084     1.3295e-006    
  -3              1.4961e-009     -0.00089745     1.2699e-006    
  -3.05           1.2804e-009     -0.0009242      1.2129e-006    
  -3.1            2.8344e-009     -0.00095104     1.1612e-006    
  -3.15           2.3989e-009     -0.00097763     1.1153e-006    
  -3.2            1.7161e-009     -0.00100459     1.0591e-006    
  -3.25           -2.7927e-009    -0.00103113     1.0078e-006    
  -3.3            -2.6091e-009    -0.00105816     9.6156e-007    
  -3.35           -2.1109e-009    -0.00108519     9.1449e-007    
  -3.4            -1.5734e-009    -0.00111241     8.7e-007       
  -3.45           -1.377e-009     -0.00113952     8.2841e-007    
  -3.5            1.9628e-009     -0.0011671      8.0112e-007    
  -3.55           1.4133e-009     -0.0011945      7.2205e-007    
  -3.6            1.2626e-009     -0.001222       6.8154e-007    
  -3.65           2.7785e-009     -0.0012494      6.3872e-007    
  -3.7            2.2355e-009     -0.0012773      6.1011e-007    
  -3.75           1.5826e-009     -0.0013046      5.6848e-007    
  -3.8            1.2987e-009     -0.0013325      5.3161e-007    
  -3.85           2.8744e-009     -0.0013601      4.9858e-007    
  -3.9            2.4968e-009     -0.0013877      4.7502e-007    
  -3.95           1.8133e-009     -0.0014153      4.4163e-007    
  -4              1.3681e-009     -0.001443       4.0833e-007    
  -4.05           1.2507e-009     -0.0014707      3.8128e-007    
  -4.1            2.7114e-009     -0.0014987      3.5202e-007    
  -4.15           2.1063e-009     -0.001526       3.3821e-007    
  -4.2            1.4962e-009     -0.0015536      3.0995e-007    
  -4.25           1.2808e-009     -0.0015815      2.8779e-007    
  -4.3            2.8363e-009     -0.0016095      2.6628e-007    
  -4.35           2.373e-009      -0.0016372      2.5619e-007    
  -4.4            1.6942e-009     -0.001665       2.3419e-007    
  -4.45           1.3322e-009     -0.0016928      2.1339e-007    
  -4.5            2.8958e-009     -0.0017208      1.9826e-007    
  -4.55           2.6121e-009     -0.0017481      1.919e-007     
  -4.6            1.9711e-009     -0.001776       1.7566e-007    
  -4.65           1.4275e-009     -0.001804       1.5682e-007    
  -4.7            1.2651e-009     -0.0018318      1.45e-007      
  -4.75           2.7865e-009     -0.0018594      1.3163e-007    
  -4.8            2.2477e-009     -0.001887       1.3069e-007    
  -4.85           1.5915e-009     -0.0019148      1.1589e-007    
  -4.9            1.0981e-009     -0.0019424      1.239e-007     
  -4.95           1.5156e-009     -0.0019705      1.168e-007     
  -5              1.9494e-009     -0.0019981      1.0824e-007    
END_DB

BEGIN_DB
 ICCAP_VAR VS         0              
 ICCAP_VAR VB         2.5            
 ICCAP_VAR VD         -0.1           

 #VG              IG              ID              IB             
  0               4.974e-010      6.13e-010       2.4459e-008    
  -0.05           1.2557e-009     8.7e-012        -9.32e-009     
  -0.1            2.8795e-009     -1.215e-010     -1.2194e-008   
  -0.15           7.48e-011       2.1012e-009     1.0259e-008    
  -0.2            2.468e-010      2.2095e-009     1.0324e-008    
  -0.25           4.315e-010      2.3061e-009     1.0463e-008    
  -0.3            6.119e-010      2.3723e-009     1.0855e-008    
  -0.35           -1.3234e-009    1.5456e-009     2.2086e-008    
  -0.4            -2.6985e-009    1.825e-010      1.2053e-008    
  -0.45           -1.9527e-009    -1.3405e-009    7.47e-010      
  -0.5            -6.587e-010     -2.3039e-009    -1.1294e-008   
  -0.55           -8.488e-010     -2.2981e-009    -1.1306e-008   
  -0.6            -1.003e-009     -2.2589e-009    -1.1036e-008   
  -0.65           1.7207e-009     -1.72e-009      -1.3257e-008   
  -0.7            1.7489e-009     1.6365e-009     -9.144e-009    
  -0.75           3.407e-010      2.2605e-009     1.0361e-008    
  -0.8            5.203e-010      2.3405e-009     1.0636e-008    
  -0.85           -1.3388e-009    1.4633e-009     2.4408e-008    
  -0.9            -1.3123e-009    6.49e-011       1.1256e-008    
  -0.95           -2.6439e-009    6.13e-011       1.327e-008     
  -1              -2.0001e-009    -2.1189e-009    7.85e-010      
  -1.05           -7.595e-010     -5.8416e-009    -1.1336e-008   
  -1.1            2.683e-009      -1.2955e-008    2.7955e-008    
  -1.15           6.35e-010       -4.8843e-008    1.0398e-008    
  -1.2            2.7168e-009     -1.6204e-007    -1.1296e-008   
  -1.25           5.935e-010      -4.4935e-007    1.0381e-008    
  -1.3            -1.7635e-009    -1.05706e-006   2.2496e-008    
  -1.35           -2.65e-009      -2.089e-006     -2.09e-008     
  -1.4            -6.681e-010     -3.6374e-006    -1.0848e-008   
  -1.45           -1.0765e-009    -5.5598e-006    -1.1229e-008   
  -1.5            1.66e-010       -7.8482e-006    -1.2515e-008   
  -1.55           -2.785e-010     -1.01998e-005   -1.1e-008      
  -1.6            2.8592e-009     -1.2589e-005    -1.0956e-008   
  -1.65           -8.33e-011      -1.4964e-005    1.2079e-008    
  -1.7            3.283e-010      -1.7312e-005    1.0357e-008    
  -1.75           7.67e-010       -1.9626e-005    1.062e-008     
  -1.8            -1.5726e-009    -2.1865e-005    1.7698e-008    
  -1.85           -1.3769e-009    -2.3996e-005    8.606e-009     
  -1.9            -2.7222e-009    -2.6071e-005    1.1493e-008    
  -1.95           -2.3292e-009    -2.8112e-005    6.38e-010      
  -2              -1.7338e-009    -3.0065e-005    2.584e-009     
  -2.05           -1.4206e-009    -3.1968e-005    6.607e-009     
  -2.1            -1.3307e-009    -3.3815e-005    1.1107e-008    
  -2.15           -2.5397e-009    -3.5617e-005    1.1776e-008    
  -2.2            -1.9616e-009    -3.7379e-005    1.63e-009      
  -2.25           -1.5017e-009    -3.9089e-005    4.672e-009     
  -2.3            -1.36e-009      -4.0755e-005    9.641e-009     
  -2.35           -2.6728e-009    -4.237e-005     1.1372e-008    
  -2.4            -2.197e-009     -4.3983e-005    7.94e-010      
  -2.45           -1.6339e-009    -4.5537e-005    3.372e-009     
  -2.5            -1.3994e-009    -4.705e-005     7.73e-009      
  -2.55           -1.3174e-009    -4.8544e-005    1.1633e-008    
  -2.6            -2.4349e-009    -4.9992e-005    1.2582e-008    
  -2.65           -1.8351e-009    -5.1436e-005    2.405e-009     
  -2.7            -1.4562e-009    -5.2827e-005    5.688e-009     
  -2.75           -1.3425e-009    -5.4196e-005    1.0494e-008    
  -2.8            -2.5974e-009    -5.553e-005     1.1235e-008    
  -2.85           -2.0613e-009    -5.6866e-005    1.086e-009     
  -2.9            -1.5578e-009    -5.8158e-005    3.82e-009      
  -2.95           -1.3771e-009    -5.9422e-005    9.001e-009     
  -3              -2.7159e-009    -6.0668e-005    1.1704e-008    
  -3.05           -2.3017e-009    -6.1904e-005    7.05e-010      
  -3.1            -1.7162e-009    -6.3103e-005    2.807e-009     
  -3.15           -1.4248e-009    -6.4282e-005    6.708e-009     
  -3.2            -1.3288e-009    -6.5437e-005    1.1008e-008    
  -3.25           -2.5192e-009    -6.6564e-005    1.1701e-008    
  -3.3            -1.9312e-009    -6.7701e-005    1.653e-009     
  -3.35           -1.4951e-009    -6.8803e-005    4.836e-009     
  -3.4            -1.3589e-009    -6.988e-005     9.67e-009      
  -3.45           -2.6622e-009    -7.0946e-005    1.1498e-008    
  -3.5            -2.176e-009     -7.2009e-005    8.36e-010      
  -3.55           -1.6292e-009    -7.3035e-005    3.322e-009     
  -3.6            -1.3969e-009    -7.4043e-005    7.908e-009     
  -3.65           -1.3146e-009    -7.5049e-005    1.1551e-008    
  -3.7            -2.4144e-009    -7.6027e-005    1.2744e-008    
  -3.75           -1.8102e-009    -7.702e-005     2.27e-009      
  -3.8            -1.4507e-009    -7.7954e-005    5.901e-009     
  -3.85           -1.3423e-009    -7.8899e-005    1.0697e-008    
  -3.9            -2.5898e-009    -7.9809e-005    1.1537e-008    
  -3.95           -2.043e-009     -8.0742e-005    1.088e-009     
  -4              -1.5479e-009    -8.164e-005     3.902e-009     
  -4.05           -1.3747e-009    -8.2517e-005    9.143e-009     
  -4.1            -2.7075e-009    -8.3372e-005    1.1589e-008    
  -4.15           -2.2789e-009    -8.4257e-005    6.8e-010       
