! VERSION = 6.00
BEGIN_HEADER
 ICCAP_INPUTS
  VG         V  B GROUND SMU4 0.001 LIN        2    0          -5         6    -1        
  VS         V  E GROUND SMU2 0.1 CON        0
  VD         V  S GROUND SMU1 0.1 LIN        1    0          -5         101  -0.05     
  VB         V  C GROUND SMU3 0.1 LIN        3    0          2.5        2    2.5       
 ICCAP_OUTPUTS
  ID         I  S GROUND SMU1 B
  IB         I  C GROUND SMU3 B
  IG         I  B GROUND SMU4 B
END_HEADER

BEGIN_DB
 ICCAP_VAR VG         0              
 ICCAP_VAR VS         0              
 ICCAP_VAR VB         0              

 #VD              ID              IB              IG             
  0               -8.012e-010     -2.78e-008      -8.765e-010    
  -0.05           -1.3888e-009    7.845e-009      -1.8715e-009   
  -0.1            -2.253e-009     -1.3016e-008    -5.041e-010    
  -0.15           -1.4551e-009    -2.6387e-008    2.5349e-009    
  -0.2            2.2313e-009     -4.202e-009     1.2797e-009    
  -0.25           2.0532e-009     1.0811e-008     1.4395e-009    
  -0.3            1.8447e-009     1.2056e-008     1.6095e-009    
  -0.35           2.2014e-009     1.2375e-008     1.204e-010     
  -0.4            2.2636e-009     1.2603e-008     3.054e-010     
  -0.45           2.3023e-009     1.2453e-008     4.876e-010     
  -0.5            2.325e-009      1.1683e-008     6.667e-010     
  -0.55           2.3388e-009     1.0252e-008     8.382e-010     
  -0.6            1.6906e-009     1.5042e-008     -1.3735e-009   
  -0.65           3.269e-010      1.3807e-008     -2.5868e-009   
  -0.7            -2.213e-009     1.624e-009      -1.1026e-009   
  -0.75           -1.7914e-009    -1.0584e-008    1.5198e-009    
  -0.8            2.3404e-009     -8.372e-009     9.185e-010     
  -0.85           2.3248e-009     9.397e-009      1.0621e-009    
  -0.9            2.2591e-009     1.0306e-008     1.2136e-009    
  -0.95           2.1245e-009     1.1476e-008     1.3645e-009    
  -1              1.9362e-009     1.193e-008      1.532e-009     
  -1.05           2.1698e-009     1.1966e-008     3.85e-011      
  -1.1            2.2374e-009     1.2553e-008     2.265e-010     
  -1.15           2.2877e-009     1.2592e-008     4.136e-010     
  -1.2            2.3141e-009     1.1863e-008     5.939e-010     
  -1.25           2.3322e-009     1.0642e-008     7.662e-010     
  -1.3            2.3358e-009     9.67e-009       9.242e-010     
  -1.35           2.3226e-009     9.404e-009      1.0677e-009    
  -1.4            2.2603e-009     1.0183e-008     1.2182e-009    
  -1.45           2.1233e-009     1.1424e-008     1.3696e-009    
  -1.5            1.9294e-009     1.2095e-008     1.5391e-009    
  -1.55           2.1679e-009     1.2048e-008     4.38e-011      
  -1.6            2.2378e-009     1.2604e-008     2.334e-010     
  -1.65           2.2886e-009     1.2457e-008     4.233e-010     
  -1.7            2.313e-009      1.1655e-008     6.068e-010     
  -1.75           2.3335e-009     1.0578e-008     7.702e-010     
  -1.8            2.3366e-009     9.622e-009      9.266e-010     
  -1.85           2.3183e-009     9.518e-009      1.0777e-009    
  -1.9            2.2513e-009     1.0405e-008     1.2283e-009    
  -1.95           2.1135e-009     1.1515e-008     1.3788e-009    
  -2              1.9132e-009     1.2093e-008     1.5461e-009    
  -2.05           2.1746e-009     1.217e-008      5.72e-011      
  -2.1            2.2378e-009     1.2608e-008     2.398e-010     
  -2.15           2.288e-009      1.2524e-008     4.328e-010     
  -2.2            2.3138e-009     1.1636e-008     6.089e-010     
  -2.25           2.331e-009      1.0411e-008     7.777e-010     
  -2.3            2.3364e-009     9.695e-009      9.332e-010     
  -2.35           2.3199e-009     9.441e-009      1.0816e-009    
  -2.4            2.2531e-009     1.0363e-008     1.2315e-009    
  -2.45           2.1072e-009     1.1543e-008     1.3842e-009    
  -2.5            1.9152e-009     1.1992e-008     1.5521e-009    
  -2.55           2.1763e-009     1.2133e-008     6.41e-011      
  -2.6            2.2435e-009     1.2632e-008     2.518e-010     
  -2.65           2.2898e-009     1.249e-008      4.298e-010     
  -2.7            2.3151e-009     1.1668e-008     6.098e-010     
  -2.75           2.3343e-009     1.0484e-008     7.781e-010     
  -2.8            2.3353e-009     9.618e-009      9.339e-010     
  -2.85           2.3207e-009     9.428e-009      1.0831e-009    
  -2.9            2.2499e-009     1.0408e-008     1.2331e-009    
  -2.95           2.1115e-009     1.1525e-008     1.3867e-009    
  -3              1.915e-009      1.2066e-008     1.5476e-009    
  -3.05           2.1746e-009     1.2269e-008     5.62e-011      
  -3.1            2.2419e-009     1.2586e-008     2.439e-010     
  -3.15           2.2868e-009     1.2453e-008     4.305e-010     
  -3.2            2.3117e-009     1.1678e-008     6.129e-010     
  -3.25           2.3332e-009     1.044e-008      7.792e-010     
  -3.3            2.3385e-009     9.699e-009      9.358e-010     
  -3.35           2.3182e-009     9.531e-009      1.084e-009     
  -3.4            2.2452e-009     1.0435e-008     1.2345e-009    
  -3.45           2.1069e-009     1.1527e-008     1.3802e-009    
  -3.5            1.9092e-009     1.1943e-008     1.5472e-009    
  -3.55           2.172e-009      1.2176e-008     6.05e-011      
  -3.6            1.1311e-009     2.8073e-008     -1.4368e-009   
  -3.65           -2.2111e-009    8.442e-009      -1.1057e-009   
  -3.7            -1.7954e-009    -1.0655e-008    1.5196e-009    
  -3.75           2.3427e-009     -8.382e-009     9.191e-010     
  -3.8            2.3197e-009     9.458e-009      1.0677e-009    
  -3.85           2.2622e-009     1.0183e-008     1.2171e-009    
  -3.9            2.133e-009      1.1502e-008     1.3626e-009    
  -3.95           1.9571e-009     1.21e-008       1.5342e-009    
  -4              2.1699e-009     1.2e-008        2.61e-011      
  -4.05           2.239e-009      1.273e-008      2.132e-010     
  -4.1            2.2919e-009     1.2768e-008     4.014e-010     
  -4.15           2.3156e-009     1.2195e-008     5.861e-010     
  -4.2            2.3259e-009     1.088e-008      7.553e-010     
  -4.25           2.3242e-009     9.752e-009      9.048e-010     
  -4.3            2.3078e-009     9.305e-009      1.0496e-009    
  -4.35           2.2567e-009     9.88e-009       1.1992e-009    
  -4.4            2.1444e-009     1.1064e-008     1.3579e-009    
  -4.45           1.9735e-009     1.1967e-008     1.5254e-009    
  -4.5            2.1606e-009     1.1649e-008     1.28e-011      
  -4.55           1.1077e-009     2.701e-008      -1.4425e-009   
  -4.6            -1.3078e-009    8.31e-009       -1.9435e-009   
  -4.65           -2.2605e-009    -1.2619e-008    -6.382e-010    
  -4.7            -1.5381e-009    -2.3658e-008    2.368e-009     
  -4.75           2.1249e-009     -5.808e-009     1.3861e-009    
  -4.8            1.933e-009      1.2172e-008     1.5575e-009    
  -4.85           2.1761e-009     1.1937e-008     5.26e-011      
  -4.9            2.2522e-009     1.2568e-008     2.441e-010     
  -4.95           2.3015e-009     1.2649e-008     4.378e-010     
  -5              2.3209e-009     1.2073e-008     6.203e-010     
END_DB

BEGIN_DB
 ICCAP_VAR VG         -1             
 ICCAP_VAR VS         0              
 ICCAP_VAR VB         0              

 #VD              ID              IB              IG             
  0               -4.8937e-008    1.1799e-008     -3.921e-010    
  -0.05           -2.8669e-006    -1.3829e-008    -1.9586e-009   
  -0.1            -4.5968e-006    1.5353e-008     -1.5343e-009   
  -0.15           -5.6447e-006    1.2376e-008     6.194e-010     
  -0.2            -6.3128e-006    -1.8763e-008    2.1205e-009    
  -0.25           -6.7138e-006    -2.7205e-008    2.297e-009     
  -0.3            -7.0024e-006    -2.7553e-008    2.4618e-009    
  -0.35           -7.2335e-006    -2.7212e-008    2.6062e-009    
  -0.4            -7.436e-006     -1.0195e-008    7.91e-011      
  -0.45           -7.488e-006     1.0307e-008     -1.3726e-009   
  -0.5            -7.7895e-006    1.0118e-008     1.4445e-009    
  -0.55           -7.912e-006     -2.7528e-008    2.5288e-009    
  -0.6            -8.0509e-006    -2.6818e-008    2.6602e-009    
  -0.65           -8.2042e-006    -1.0329e-008    1.151e-010     
  -0.7            -8.2005e-006    1.0159e-008     -1.3851e-009   
  -0.75           -8.4749e-006    9.803e-009      1.3973e-009    
  -0.8            -8.5735e-006    -2.7398e-008    2.5955e-009    
  -0.85           -8.7015e-006    -2.6575e-008    2.714e-009     
  -0.9            -8.8289e-006    -1.0674e-008    1.596e-010     
  -0.95           -8.805e-006     9.704e-009      -1.3912e-009   
  -1              -9.0728e-006    9.406e-009      1.3554e-009    
  -1.05           -9.1707e-006    -2.695e-008     2.6549e-009    
  -1.1            -9.2966e-006    -1.0321e-008    1.1e-010       
  -1.15           -9.2585e-006    1.0237e-008     -1.3817e-009   
  -1.2            -9.5402e-006    9.349e-009      1.4134e-009    
  -1.25           -9.6136e-006    -2.7513e-008    2.5848e-009    
  -1.3            -9.7446e-006    -1.039e-008     5.47e-011      
  -1.35           -9.6997e-006    1.0375e-008     -2.6789e-009   
  -1.4            -9.8446e-006    1.4715e-008     -1.5129e-009   
  -1.45           -9.9873e-006    1.2397e-008     6.549e-010     
  -1.5            -1.01704e-005   -1.8661e-008    2.05e-009      
  -1.55           -1.02761e-005   -2.703e-008     2.246e-009     
  -1.6            -1.0387e-005    -2.7538e-008    2.4168e-009    
  -1.65           -1.05021e-005   -2.7474e-008    2.5684e-009    
  -1.7            -1.06107e-005   -2.6623e-008    2.6924e-009    
  -1.75           -1.07319e-005   -1.0416e-008    1.369e-010     
  -1.8            -1.06816e-005   9.957e-009      -1.3904e-009   
  -1.85           -1.09626e-005   9.708e-009      1.3754e-009    
  -1.9            -1.10463e-005   -2.7201e-008    2.6267e-009    
  -1.95           -1.11653e-005   -1.0158e-008    8.9e-011       
  -2              -1.1069e-005    2.6915e-008     -1.7209e-009   
  -2.05           -1.1235e-005    1.1437e-008     -3.139e-010    
  -2.1            -1.1473e-005    -1.807e-008     2.6582e-009    
  -2.15           -1.1559e-005    -2.5135e-008    2.045e-009     
  -2.2            -1.1602e-005    -1.2276e-008    -8.74e-010     
  -2.25           -1.1633e-005    2.7273e-008     -1.4107e-009   
  -2.3            -1.1934e-005    9.93e-009       1.4252e-009    
  -2.35           -1.1998e-005    -1.9234e-008    1.7162e-009    
  -2.4            -1.2125e-005    -1.0484e-008    1.524e-010     
  -2.45           -1.2043e-005    1.311e-008      -2.3284e-009   
  -2.5            -1.2279e-005    1.1725e-008     2.1278e-009    
  -2.55           -1.2436e-005    -2.0563e-008    1.4789e-009    
  -2.6            -1.2527e-005    -2.7621e-008    2.4556e-009    
  -2.65           -1.2555e-005    -1.2834e-008    -6.1e-010      
  -2.7            -1.2594e-005    7.211e-009      -1.4103e-009   
  -2.75           -1.2905e-005    9.443e-009      1.433e-009     
  -2.8            -1.2958e-005    -1.8956e-008    1.6986e-009    
  -2.85           -1.2954e-005    -1.1193e-008    -1.0394e-009   
  -2.9            -1.3012e-005    2.8625e-008     -1.4154e-009   
  -2.95           -1.335e-005     1.0452e-008     1.63e-009      
  -3              -1.3411e-005    -1.3876e-008    1.4712e-009    
  -3.05           -1.3499e-005    -2.7095e-008    2.4391e-009    
  -3.1            -1.3601e-005    -1.962e-008     1.7497e-009    
  -3.15           -1.3739e-005    -1.0008e-008    1.681e-010     
  -3.2            -1.3653e-005    1.3774e-008     -2.356e-009    
  -3.25           -1.3902e-005    1.3396e-008     2.1129e-009    
  -3.3            -1.4054e-005    -1.8951e-008    1.4985e-009    
  -3.35           -1.4148e-005    -2.5914e-008    2.4804e-009    
  -3.4            -1.4247e-005    -1.9051e-008    1.7942e-009    
  -3.45           -1.4393e-005    -1.5938e-008    2.5999e-009    
  -3.5            -1.4478e-005    -1.5922e-008    1.7292e-009    
  -3.55           -1.4617e-005    -1.5063e-008    2.5413e-009    
  -3.6            -1.4705e-005    -1.4768e-008    1.6741e-009    
  -3.65           -1.4837e-005    -1.3845e-008    2.4976e-009    
  -3.7            -1.495e-005     -5.092e-009     2.8647e-009    
  -3.75           -1.5059e-005    -1.17e-008      2.4376e-009    
  -3.8            -1.5173e-005    -3.214e-009     2.8567e-009    
  -3.85           -1.527e-005     -8.969e-009     2.376e-009     
  -3.9            -1.5397e-005    -6.13e-010      2.8448e-009    
  -3.95           -1.5487e-005    -5.193e-009     2.3108e-009    
  -4              -1.5499e-005    2.8179e-008     2.489e-009     
  -4.05           -1.5734e-005    7.82e-010       2.6219e-009    
  -4.1            -1.5684e-005    1.2738e-008     -1.9509e-009   
  -4.15           -1.5812e-005    3.6387e-008     1.75e-011      
  -4.2            -1.6015e-005    2.515e-008      1.712e-009     
  -4.25           -1.6068e-005    2.6473e-008     -2.3962e-009   
  -4.3            -1.6179e-005    5.1791e-008     6.19e-010      
  -4.35           -1.6422e-005    2.1923e-008     1.3938e-009    
  -4.4            -1.6406e-005    4.3969e-008     -2.6387e-009   
  -4.45           -1.6565e-005    7.0964e-008     9.117e-010     
  -4.5            -1.6778e-005    3.9589e-008     2.6344e-009    
  -4.55           -1.6742e-005    6.6682e-008     -1.9448e-009   
  -4.6            -1.6883e-005    9.7406e-008     8.7e-012       
  -4.65           -1.7147e-005    7.9354e-008     -2.2104e-009   
  -4.7            -1.717e-005     1.2332e-007     -2.4158e-009   
  -4.75           -1.7295e-005    1.378e-007      6.631e-010     
  -4.8            -1.7558e-005    1.1636e-007     1.3867e-009    
  -4.85           -1.7551e-005    1.5011e-007     -2.6443e-009   
  -4.9            -1.7729e-005    1.8879e-007     9.612e-010     
  -4.95           -1.7962e-005    1.6899e-007     2.6257e-009    
  -5              -1.795e-005     2.1058e-007     -1.9301e-009   
END_DB

BEGIN_DB
 ICCAP_VAR VG         -2             
 ICCAP_VAR VS         0              
 ICCAP_VAR VB         0              

 #VD              ID              IB              IG             
  0               -2.8128e-007    -2.2902e-008    1.2847e-009    
  -0.05           -2.2896e-005    1.0609e-008     -2.3658e-009   
  -0.1            -4.4371e-005    1.2328e-008     2.1104e-009    
  -0.15           -6.4672e-005    -2.0196e-008    1.5046e-009    
  -0.2            -8.3781e-005    -2.7392e-008    2.4969e-009    
  -0.25           -0.000101566    -1.3024e-008    -5.979e-010    
  -0.3            -0.00011801     8.449e-009      -1.377e-009    
  -0.35           -0.0001334      4.48e-010       2.8256e-009    
  -0.4            -0.00014746     -2.7767e-008    2.3427e-009    
  -0.45           -0.0001601      -1.3136e-008    -8.551e-010    
  -0.5            -0.00017143     2.7571e-008     -1.4053e-009   
  -0.55           -0.00018215     1.0418e-008     1.6788e-009    
  -0.6            -0.00019121     -1.1134e-008    1.827e-010     
  -0.65           -0.00019897     1.479e-008      -2.2299e-009   
  -0.7            -0.00020622     1.2735e-008     7.527e-010     
  -0.75           -0.00021268     -2.6064e-008    2.6763e-009    
  -0.8            -0.00021809     -2.2895e-008    1.8775e-009    
  -0.85           -0.00022265     -1.1265e-008    -1.0727e-009   
  -0.9            -0.00022667     2.8017e-008     -1.4025e-009   
  -0.95           -0.00023103     1.2553e-008     1.9373e-009    
  -1              -0.00023422     -1.9719e-008    1.565e-009     
  -1.05           -0.00023715     -2.7571e-008    2.3846e-009    
  -1.1            -0.00023966     -1.3125e-008    -8.31e-010     
  -1.15           -0.00024189     2.7273e-008     -1.4025e-009   
  -1.2            -0.0002449      1.017e-008      1.6467e-009    
  -1.25           -0.00024685     -1.1433e-008    2.078e-010     
  -1.3            -0.00024817     1.4404e-008     -2.2721e-009   
  -1.35           -0.00025035     1.2697e-008     7.221e-010     
  -1.4            -0.00025234     -2.554e-008     2.7077e-009    
  -1.45           -0.00025388     -2.3997e-008    1.9394e-009    
  -1.5            -0.00025524     -1.1494e-008    -1.0489e-009   
  -1.55           -0.00025661     2.8485e-008     -1.4056e-009   
  -1.6            -0.00025878     1.2621e-008     1.9093e-009    
  -1.65           -0.00026001     -1.9564e-008    1.604e-009     
  -1.7            -0.00026138     -2.7688e-008    2.4362e-009    
  -1.75           -0.00026243     -1.3133e-008    -8.021e-010    
  -1.8            -0.00026346     2.6946e-008     -1.4003e-009   
  -1.85           -0.00026556     9.894e-009      1.6206e-009    
  -1.9            -0.00026664     -1.2136e-008    2.268e-010     
  -1.95           -0.00026716     1.4025e-008     -2.3131e-009   
  -2              -0.0002687      1.2704e-008     6.936e-010     
  -2.05           -0.00027016     -2.5297e-008    2.7301e-009    
  -2.1            -0.00027111     -2.4925e-008    1.9901e-009    
  -2.15           -0.00027202     -1.182e-008     -1.0237e-009   
  -2.2            -0.00027296     2.8407e-008     -1.4082e-009   
  -2.25           -0.00027481     1.2185e-008     1.8794e-009    
  -2.3            -0.00027568     -1.9317e-008    1.6432e-009    
  -2.35           -0.00027675     -2.757e-008     2.4736e-009    
  -2.4            -0.00027781     -1.7362e-008    1.5793e-009    
  -2.45           -0.00027878     -2.7677e-008    2.4109e-009    
  -2.5            -0.00027952     -1.3133e-008    -8.218e-010    
  -2.55           -0.00028026     2.7156e-008     -1.4005e-009   
  -2.6            -0.00028214     1.0041e-008     1.6353e-009    
  -2.65           -0.00028293     -1.1673e-008    2.178e-010     
  -2.7            -0.00028315     1.4245e-008     -2.2923e-009   
  -2.75           -0.00028448     1.2881e-008     7.11e-010      
  -2.8            -0.00028576     -2.5369e-008    2.7189e-009    
  -2.85           -0.00028656     -2.4024e-008    1.9487e-009    
  -2.9            -0.00028721     -1.141e-008     -1.0363e-009   
  -2.95           -0.00028794     2.8768e-008     -1.4064e-009   
  -3              -0.00028965     1.2968e-008     1.8949e-009    
  -3.05           -0.00029038     -1.8784e-008    1.6186e-009    
  -3.1            -0.00029118     -2.6552e-008    2.4493e-009    
  -3.15           -0.0002918      -1.1719e-008    -7.921e-010    
  -3.2            -0.00029242     2.8511e-008     -1.4007e-009   
  -3.25           -0.00029418     1.2979e-008     1.6027e-009    
  -3.3            -0.00029471     -1.6948e-008    2.1273e-009    
  -3.35           -0.00029571     -1.4519e-008    2.6473e-009    
  -3.4            -0.00029661     -6.372e-009     2.8362e-009    
  -3.45           -0.00029729     -1.4057e-008    2.2399e-009    
  -3.5            -0.00029829     -1.0079e-008    2.7017e-009    
  -3.55           -0.00029903     -1.0243e-008    1.693e-009     
  -3.6            -0.00029954     4.416e-009      -2.5551e-009   
  -3.65           -0.00030045     2.5834e-008     9.104e-010     
  -3.7            -0.00030139     2.3728e-008     2.8572e-009    
  -3.75           -0.00030161     1.1298e-008     -1.5645e-009   
  -3.8            -0.00030265     3.9248e-008     -1.468e-009    
  -3.85           -0.00030379     4.3792e-008     2.7612e-009    
  -3.9            -0.00030433     2.8964e-008     -1.1317e-009   
  -3.95           -0.00030496     7.4578e-008     -1.3982e-009   
  -4              -0.00030619     5.8857e-008     2.8388e-009    
  -4.05           -0.00030648     5.8762e-008     -1.7542e-009   
  -4.1            -0.00030752     9.2643e-008     -1.698e-010    
  -4.15           -0.00030874     7.9609e-008     -9.484e-010    
