! VERSION = 6.00
BEGIN_HEADER
 ICCAP_INPUTS
  VG         V  B GROUND SMU4 0.001 LIN        2    0          -5         6    -1        
  VS         V  E GROUND SMU2 0.1 CON        0
  VD         V  S GROUND SMU1 0.1 LIN        1    0          -5         101  -0.05     
  VB         V  C GROUND SMU3 0.1 LIN        3    0          2.5        2    2.5       
 ICCAP_OUTPUTS
  ID         I  S GROUND SMU1 B
  IB         I  C GROUND SMU3 B
  IG         I  B GROUND SMU4 B
END_HEADER

BEGIN_DB
 ICCAP_VAR VG         0              
 ICCAP_VAR VS         0              
 ICCAP_VAR VB         0              

 #VD              ID              IB              IG             
  0               2.634e-010      1.1747e-008     -8.26e-010     
  -0.05           -1.4372e-009    8.797e-009      -1.8739e-009   
  -0.1            -2.2583e-009    -1.0993e-008    -4.841e-010    
  -0.15           -2.2974e-009    -1.1332e-008    -6.712e-010    
  -0.2            -2.2936e-009    -1.1282e-008    -8.47e-010     
  -0.25           -1.6428e-009    -1.5793e-008    1.9963e-009    
  -0.3            1.8743e-009     -8.65e-009      1.5411e-009    
  -0.35           2.1212e-009     1.0323e-008     1.262e-010     
  -0.4            2.2255e-009     1.0398e-008     2.924e-010     
  -0.45           2.3146e-009     1.049e-008      4.606e-010     
  -0.5            1.4084e-009     2.5045e-008     -1.3538e-009   
  -0.55           5e-011          1.139e-008      -1.3238e-009   
  -0.6            1.736e-010      1.196e-008      -2.7006e-009   
  -0.65           -1.3421e-009    7.11e-010       -1.9435e-009   
  -0.7            -2.2885e-009    -1.1139e-008    -6.218e-010    
  -0.75           -2.2959e-009    -1.1322e-008    -8.078e-010    
  -0.8            -1.6276e-009    -1.6471e-008    2.0593e-009    
  -0.85           1.9249e-009     -7.967e-009     1.4948e-009    
  -0.9            2.1013e-009     1.0367e-008     8.98e-011      
  -0.95           2.2024e-009     1.0454e-008     2.502e-010     
  -1              2.2946e-009     1.0381e-008     4.168e-010     
  -1.05           2.3593e-009     1.0701e-008     5.826e-010     
  -1.1            1.5103e-009     2.2518e-008     -1.3331e-009   
  -1.15           1.428e-010      1.1609e-008     -2.7229e-009   
  -1.2            -2.1023e-009    -1.0892e-008    -1.01e-010     
  -1.25           -2.1967e-009    -1.0969e-008    -2.893e-010    
  -1.3            -2.263e-009     -1.093e-008     -4.822e-010    
  -1.35           -2.2943e-009    -1.1297e-008    -6.669e-010    
  -1.4            -2.2945e-009    -1.1272e-008    -8.412e-010    
  -1.45           -1.641e-009     -1.5859e-008    2.0096e-009    
  -1.5            1.8833e-009     -8.661e-009     1.5375e-009    
  -1.55           2.12e-009       1.0376e-008     1.25e-010      
  -1.6            2.2218e-009     1.0302e-008     2.816e-010     
  -1.65           2.3126e-009     1.0554e-008     4.532e-010     
  -1.7            1.4039e-009     2.5223e-008     -1.3566e-009   
  -1.75           4.29e-011       1.1287e-008     -1.3247e-009   
  -1.8            1.663e-010      1.1938e-008     -2.7048e-009   
  -1.85           -1.3518e-009    6.15e-010       -1.9378e-009   
  -1.9            -2.2894e-009    -1.1198e-008    -6.146e-010    
  -1.95           -1.5324e-009    -2.0505e-008    1.2611e-009    
  -2              -1.042e-010     -1.1652e-008    2.8948e-009    
  -2.05           2.3344e-009     1.0706e-008     1.0125e-009    
  -2.1            1.8471e-009     1.2812e-008     -1.559e-009    
  -2.15           -1.449e-009     8.836e-009      -1.8677e-009   
  -2.2            -2.2604e-009    -1.1002e-008    -4.81e-010     
  -2.25           -2.2938e-009    -1.1322e-008    -6.595e-010    
  -2.3            -2.2957e-009    -1.1255e-008    -8.412e-010    
  -2.35           -1.6408e-009    -1.5906e-008    2.0062e-009    
  -2.4            1.8834e-009     -8.552e-009     1.5329e-009    
  -2.45           2.1175e-009     1.0392e-008     1.185e-010     
  -2.5            2.223e-009      1.0364e-008     2.824e-010     
  -2.55           2.3096e-009     1.0565e-008     4.493e-010     
  -2.6            1.4033e-009     2.5277e-008     -1.3554e-009   
  -2.65           3.94e-011       1.1415e-008     -1.3247e-009   
  -2.7            1.722e-010      1.1953e-008     -2.7069e-009   
  -2.75           -1.3489e-009    6.24e-010       -1.9397e-009   
  -2.8            -2.2875e-009    -1.1213e-008    -6.162e-010    
  -2.85           -2.2979e-009    -1.1205e-008    -8.007e-010    
  -2.9            -1.6258e-009    -1.6658e-008    2.071e-009     
  -2.95           1.9367e-009     -8.179e-009     1.4928e-009    
  -3              2.0957e-009     1.0382e-008     8.24e-011      
  -3.05           2.197e-009      1.0366e-008     2.389e-010     
  -3.1            2.2903e-009     1.0397e-008     4.121e-010     
  -3.15           2.3576e-009     1.0733e-008     5.782e-010     
  -3.2            1.5028e-009     2.2652e-008     -1.3331e-009   
  -3.25           1.357e-010      1.1528e-008     -2.7258e-009   
  -3.3            -1.3798e-009    6.31e-010       -1.9182e-009   
  -3.35           -2.2802e-009    -1.0951e-008    -5.716e-010    
  -3.4            -2.3006e-009    -1.1278e-008    -7.584e-010    
  -3.45           -1.6069e-009    -1.7628e-008    1.2425e-009    
  -3.5            -2.313e-010     -1.3908e-008    2.8459e-009    
  -3.55           2.1426e-009     1.0371e-008     1.58e-010      
  -3.6            2.2465e-009     1.0342e-008     3.219e-010     
  -3.65           2.3249e-009     1.0632e-008     4.898e-010     
  -3.7            1.434e-009      2.4791e-008     -1.3466e-009   
  -3.75           7.17e-011       1.1306e-008     -1.3202e-009   
  -3.8            1.999e-010      1.2472e-008     -2.6846e-009   
  -3.85           -1.3251e-009    7.27e-010       -1.955e-009    
  -3.9            -2.293e-009     -1.132e-008     -6.587e-010    
  -3.95           -2.2912e-009    -1.1294e-008    -8.326e-010    
  -4              -1.6389e-009    -1.6186e-008    2.0303e-009    
  -4.05           1.9059e-009     -8.684e-009     1.5227e-009    
  -4.1            2.1194e-009     1.0327e-008     1.095e-010     
  -4.15           2.2186e-009     1.0359e-008     2.748e-010     
  -4.2            2.3073e-009     1.0502e-008     4.432e-010     
  -4.25           2.362e-009      1.0785e-008     6.137e-010     
  -4.3            1.5328e-009     2.2237e-008     -1.3269e-009   
  -4.35           1.622e-010      1.1939e-008     -2.7105e-009   
  -4.4            -1.3646e-009    6.86e-010       -1.932e-009    
  -4.45           -2.2873e-009    -1.1279e-008    -6.011e-010    
  -4.5            -2.296e-009     -1.1254e-008    -7.892e-010    
  -4.55           -1.6183e-009    -1.7349e-008    2.1229e-009    
  -4.6            1.9731e-009     -7.81e-009      1.4765e-009    
  -4.65           2.0894e-009     1.0333e-008     6.6e-011       
  -4.7            2.1904e-009     1.0339e-008     2.217e-010     
  -4.75           2.2833e-009     1.0489e-008     3.943e-010     
  -4.8            2.3517e-009     1.0785e-008     5.634e-010     
  -4.85           1.4909e-009     2.3492e-008     -1.3316e-009   
  -4.9            1.21e-010       1.1563e-008     -1.3107e-009   
  -4.95           2.591e-010      1.3203e-008     -2.6336e-009   
  -5              -1.2835e-009    8.64e-010       -1.9942e-009   
END_DB

BEGIN_DB
 ICCAP_VAR VG         -1             
 ICCAP_VAR VS         0              
 ICCAP_VAR VB         0              

 #VD              ID              IB              IG             
  0               -3.5064e-008    -1.5635e-008    -1.2612e-009   
  -0.05           -1.7664e-006    -1.0814e-008    -1.4604e-009   
  -0.1            -2.865e-006     1.0516e-008     7.449e-010     
  -0.15           -3.5761e-006    -2.0291e-008    1.8782e-009    
  -0.2            -4.0159e-006    -1.0738e-008    -4.485e-010    
  -0.25           -4.3102e-006    1.4706e-008     -2.2644e-009   
  -0.3            -4.5917e-006    1.1097e-008     4.61e-011      
  -0.35           -4.892e-006     -1.0628e-008    2.7905e-009    
  -0.4            -5.1032e-006    -1.3563e-008    2.592e-010     
  -0.45           -5.2275e-006    1.0788e-008     -1.3315e-009   
  -0.5            -5.4174e-006    1.096e-008      1.069e-010     
  -0.55           -5.6757e-006    -1.1876e-008    2.747e-009     
  -0.6            -5.8567e-006    -1.2938e-008    2.026e-010     
  -0.65           -5.9414e-006    1.1177e-008     -1.3226e-009   
  -0.7            -6.1846e-006    1.0602e-008     1.2446e-009    
  -0.75           -6.362e-006     -2.5372e-008    1.3213e-009    
  -0.8            -6.4492e-006    -1.1386e-008    -1.0211e-009   
  -0.85           -6.6056e-006    2.2546e-008     -1.5471e-009   
  -0.9            -6.7819e-006    1.0362e-008     6.185e-010     
  -0.95           -7.0048e-006    -1.8844e-008    2.073e-009     
  -1              -7.1406e-006    -1.0911e-008    -3.128e-010    
  -1.05           -7.234e-006     1.29e-008       -2.4209e-009   
  -1.1            -7.4116e-006    1.1753e-008     -6.72e-011     
  -1.15           -7.6499e-006    -9.25e-009      2.8654e-009    
  -1.2            -7.6941e-006    -1.1055e-008    -1.2577e-009   
  -1.25           -7.8687e-006    2.5848e-008     -1.4133e-009   
  -1.3            -8.0681e-006    1.0797e-008     8.624e-010     
  -1.35           -8.2705e-006    -2.1045e-008    1.6794e-009    
  -1.4            -8.3797e-006    -1.0847e-008    -5.961e-010    
  -1.45           -8.4876e-006    1.678e-008      -2.0782e-009   
  -1.5            -8.6463e-006    1.0752e-008     1.717e-010     
  -1.55           -8.9131e-006    -1.2954e-008    2.695e-009     
  -1.6            -9.0679e-006    -1.2323e-008    1.471e-010     
  -1.65           -9.1129e-006    1.1485e-008     -1.3153e-009   
  -1.7            -9.2742e-006    1.0564e-008     2.326e-010     
  -1.75           -9.5468e-006    -1.404e-008     2.6337e-009    
  -1.8            -9.7022e-006    -1.2034e-008    8.75e-011      
  -1.85           -9.7417e-006    1.1298e-008     -2.7223e-009   
  -1.9            -9.9274e-006    1.795e-008      -1.5835e-009   
  -1.95           -1.00894e-005   1.0401e-008     5.76e-010      
  -2              -1.03298e-005   -1.832e-008     2.1521e-009    
  -2.05           -1.04675e-005   -1.1027e-008    -2.598e-010    
  -2.1            -1.05326e-005   1.2506e-008     -2.4746e-009   
  -2.15           -1.07216e-005   1.2092e-008     -1.056e-010    
  -2.2            -1.09862e-005   -8.642e-009     2.8806e-009    
  -2.25           -1.11343e-005   -1.6057e-008    1.6204e-009    
  -2.3            -1.1219e-005    1.0334e-008     -2.7459e-009   
  -2.35           -1.1439e-005    1.0696e-008     1.0802e-009    
  -2.4            -1.161e-005     -2.4663e-008    1.2534e-009    
  -2.45           -1.1715e-005    -1.0942e-008    -7.322e-010    
  -2.5            -1.1828e-005    2.5087e-008     -1.437e-009    
  -2.55           -1.2004e-005    1.0753e-008     1.719e-010     
  -2.6            -1.2276e-005    -1.9695e-008    1.9734e-009    
  -2.65           -1.2355e-005    -1.1257e-008    -9.189e-010    
  -2.7            -1.2494e-005    2.7172e-008     -1.3802e-009   
  -2.75           -1.267e-005     1.0419e-008     3.615e-010     
  -2.8            -1.2952e-005    -2.0958e-008    1.6782e-009    
  -2.85           -1.3001e-005    -1.0932e-008    -1.0783e-009   
  -2.9            -1.3156e-005    2.8266e-008     -1.3466e-009   
  -2.95           -1.3356e-005    1.0793e-008     5.519e-010     
  -3              -1.3632e-005    -2.2651e-008    1.473e-009     
  -3.05           -1.379e-005     -1.0908e-008    -8.3e-011      
  -3.1            -1.3838e-005    1.8339e-008     -1.9956e-009   
  -3.15           -1.4064e-005    1.1582e-008     7.387e-010     
  -3.2            -1.4316e-005    -2.3756e-008    1.3461e-009    
  -3.25           -1.4482e-005    -1.8651e-008    1.8396e-009    
  -3.3            -1.4663e-005    -2.3336e-008    1.3278e-009    
  -3.35           -1.4831e-005    -1.8301e-008    1.7766e-009    
  -3.4            -1.502e-005     -1.2297e-008    2.5358e-009    
  -3.45           -1.5184e-005    -1.7471e-008    1.7129e-009    
  -3.5            -1.5379e-005    -1.1463e-008    2.4793e-009    
  -3.55           -1.5552e-005    -4.036e-009     2.8836e-009    
  -3.6            -1.5726e-005    -1.0084e-008    2.4202e-009    
  -3.65           -1.5909e-005    -2.306e-009     2.8708e-009    
  -3.7            -1.608e-005     -8.318e-009     2.362e-009     
  -3.75           -1.6271e-005    1.22e-010       2.8504e-009    
  -3.8            -1.6433e-005    -5.652e-009     2.2958e-009    
  -3.85           -1.6634e-005    3.343e-009      2.8284e-009    
  -3.9            -1.672e-005     2.4687e-008     2.7499e-009    
  -3.95           -1.6914e-005    2.3723e-008     2.9097e-009    
  -4              -1.6974e-005    1.0221e-008     -1.5058e-009   
  -4.05           -1.7222e-005    4.5566e-008     -1.67e-009     
  -4.1            -1.7463e-005    3.8864e-008     2.425e-009     
  -4.15           -1.7645e-005    2.3475e-008     -7.096e-010    
  -4.2            -1.7767e-005    6.4526e-008     -1.4492e-009   
  -4.25           -1.8036e-005    5.3882e-008     2.6421e-009    
  -4.3            -1.8194e-005    4.1523e-008     -9.849e-010    
  -4.35           -1.835e-005     8.9093e-008     -1.3644e-009   
  -4.4            -1.8635e-005    7.7461e-008     2.8425e-009    
  -4.45           -1.8739e-005    6.8564e-008     -1.2484e-009   
  -4.5            -1.9019e-005    1.14104e-007    -2.6091e-009   
  -4.55           -1.9203e-005    1.023e-007      -2.6314e-009   
  -4.6            -1.9563e-005    1.2929e-007     1.7783e-009    
  -4.65           -1.9751e-005    1.2104e-007     1.628e-010     
  -4.7            -1.9781e-005    1.6456e-007     -2.3441e-009   
  -4.75           -2.0142e-005    1.8103e-007     2.0688e-009    
  -4.8            -2.0374e-005    1.8055e-007     -1.059e-010    
  -4.85           -2.0448e-005    2.3408e-007     -1.9243e-009   
  -4.9            -2.0773e-005    2.5225e-007     2.315e-009     
  -4.95           -2.1018e-005    2.5959e-007     -4.293e-010    
  -5              -2.1155e-005    3.2499e-007     -1.5388e-009   
END_DB

BEGIN_DB
 ICCAP_VAR VG         -2             
 ICCAP_VAR VS         0              
 ICCAP_VAR VB         0              

 #VD              ID              IB              IG             
  0               -1.8304e-007    1.3308e-008     -1.2757e-009   
  -0.05           -1.4052e-005    -1.1408e-008    2.4371e-009    
  -0.1            -2.7285e-005    -1.0924e-008    -7.265e-010    
  -0.15           -3.9826e-005    2.4725e-008     -1.443e-009    
  -0.2            -5.1726e-005    1.0717e-008     1.622e-010     
  -0.25           -6.2951e-005    -1.9562e-008    1.991e-009     
  -0.3            -7.3335e-005    -1.1327e-008    -9.138e-010    
  -0.35           -8.2972e-005    2.6885e-008     -1.3812e-009   
  -0.4            -9.1923e-005    1.0221e-008     3.506e-010     
  -0.45           -0.000100214    -2.115e-008     1.6917e-009    
  -0.5            -0.00010755     -1.1304e-008    -1.0766e-009   
  -0.55           -0.00011436     2.7895e-008     2.0019e-009    
  -0.6            -0.00012031     -1.1317e-008    -1.0064e-009   
  -0.65           -0.00012568     2.7712e-008     -1.339e-009    
  -0.7            -0.00013064     1.0513e-008     7.21e-010      
  -0.75           -0.00013507     -2.5692e-008    1.3049e-009    
  -0.8            -0.00013886     -1.0906e-008    -5.745e-010    
  -0.85           -0.00014214     2.4607e-008     -1.4462e-009   
  -0.9            -0.00014559     1.0806e-008     1.3569e-009    
  -0.95           -0.00014831     -1.577e-008     1.6279e-009    
  -1              -0.00015055     -1.0969e-008    -1.2395e-009   
  -1.05           -0.00015287     1.1971e-008     -2.511e-009    
  -1.1            -0.00015528     1.0247e-008     2.0467e-009    
  -1.15           -0.00015726     -1.1009e-008    -2.687e-010    
  -1.2            -0.00015882     2.1312e-008     -1.6364e-009   
  -1.25           -0.0001608      1.0598e-008     1.1071e-009    
  -1.3            -0.00016254     -1.2214e-008    2.7249e-009    
  -1.35           -0.00016397     -1.0833e-008    -4.87e-010     
  -1.4            -0.00016521     2.3824e-008     -1.4868e-009   
  -1.45           -0.00016702     1.0571e-008     1.2762e-009    
  -1.5            -0.00016835     -1.7244e-008    1.7244e-009    
  -1.55           -0.00016968     -1.1733e-008    -1.3e-012      
  -1.6            -0.00017064     1.7983e-008     -1.9433e-009   
  -1.65           -0.00017211     1.0907e-008     8.845e-010     
  -1.7            -0.00017339     -2.5711e-008    1.267e-009     
  -1.75           -0.00017448     -1.1052e-008    -7.718e-010    
  -1.8            -0.00017544     2.6888e-008     -1.388e-009    
  -1.85           -0.00017669     1.0356e-008     4.586e-010     
  -1.9            -0.00017809     -2.3566e-008    1.4427e-009    
  -1.95           -0.00017913     -1.1004e-008    -2.74e-010     
  -2              -0.00017993     2.149e-008      -1.6265e-009   
  -2.05           -0.0001813      1.054e-008      1.1113e-009    
  -2.1            -0.0001823      -2.156e-008     2.0204e-009    
  -2.15           -0.00018341     -1.2525e-008    1.736e-010     
  -2.2            -0.00018407     1.5323e-008     -2.215e-009    
  -2.25           -0.00018527     1.0556e-008     7.157e-010     
  -2.3            -0.00018647     -2.5778e-008    1.308e-009     
  -2.35           -0.00018725     -1.0895e-008    -5.682e-010    
  -2.4            -0.00018802     2.47e-008       -1.4483e-009   
  -2.45           -0.00018943     1.081e-008      1.3506e-009    
  -2.5            -0.00019025     -1.578e-008     1.6294e-009    
  -2.55           -0.00019123     -1.1514e-008    -6.52e-011     
  -2.6            -0.00019182     1.9168e-008     -1.8427e-009   
  -2.65           -0.00019282     1.264e-008      -1.478e-010    
  -2.7            -0.00019404     -1.7177e-008    2.3167e-009    
  -2.75           -0.0001947      -1.0978e-008    -8.47e-010     
  -2.8            -0.00019544     2.7615e-008     -1.3727e-009   
  -2.85           -0.00019684     1.1728e-008     1.6039e-009    
  -2.9            -0.00019761     -1.2189e-008    1.877e-010     
  -2.95           -0.00019812     1.5618e-008     -2.2372e-009   
  -3              -0.0001992      1.1019e-008     6.984e-010     
  -3.05           -0.00020023     -2.4956e-008    1.313e-009     
  -3.1            -0.00020093     -9.951e-009     -5.483e-010    
  -3.15           -0.00020159     2.5586e-008     -1.4561e-009   
  -3.2            -0.00020291     1.2415e-008     1.3358e-009    
  -3.25           -0.00020371     -1.3939e-008    2.4409e-009    
  -3.3            -0.00020431     -8.341e-009     -7.687e-010    
  -3.35           -0.00020496     3.0177e-008     -1.3903e-009   
  -3.4            -0.00020634     1.5879e-008     1.5282e-009    
  -3.45           -0.00020699     -1.2875e-008    2.1363e-009    
  -3.5            -0.00020789     -6.831e-009     2.6466e-009    
  -3.55           -0.0002087      -2.12e-010      2.8835e-009    
  -3.6            -0.00020948     -6.942e-009     2.2412e-009    
  -3.65           -0.00021005     3.782e-009      -2.209e-009    
  -3.7            -0.00021088     2.6585e-008     5.569e-010     
  -3.75           -0.00021183     1.9314e-008     2.533e-009     
  -3.8            -0.00021244     1.4636e-008     -2.058e-009    
  -3.85           -0.00021322     4.0164e-008     3.466e-010     
  -3.9            -0.00021432     1.3788e-008     1.5374e-009    
  -3.95           -0.00021489     3.5685e-008     -2.6307e-009   
  -4              -0.0002158      6.3583e-008     9.957e-010     
  -4.05           -0.00021662     3.9542e-008     1.2469e-009    
  -4.1            -0.00021722     7.2632e-008     -2.7644e-009   
  -4.15           -0.00021869     1.02205e-007    -1.3131e-009   
