! VERSION = 6.00
BEGIN_HEADER
 ICCAP_INPUTS
  VG         V  B GROUND SMU4 0.001 LIN        1    0          -5         101  -0.05     
  VS         V  E GROUND SMU2 0.1 CON        0
  VB         V  C GROUND SMU3 0.1 LIN        3    0          5          3    2.5       
  VD         V  S GROUND SMU1 0.1 LIN        2    -0.1       -5         2    -4.9      
 ICCAP_OUTPUTS
  IG         I  B GROUND SMU4 B
  ID         I  S GROUND SMU1 B
  IB         I  C GROUND SMU3 B
END_HEADER

BEGIN_DB
 ICCAP_VAR VS         0              
 ICCAP_VAR VB         0              
 ICCAP_VAR VD         -0.1           

 #VG              IG              ID              IB             
  0               1.0645e-009     9.707e-010      2.0173e-008    
  -0.05           1.1815e-009     2.2172e-009     -3.426e-009    
  -0.1            -2.075e-010     1.9355e-009     1.1545e-008    
  -0.15           -5.15e-011      2.0111e-009     1.0826e-008    
  -0.2            1.147e-010      2.1014e-009     1.0325e-008    
  -0.25           2.831e-010      2.206e-009      1.0371e-008    
  -0.3            4.588e-010      2.2938e-009     1.0597e-008    
  -0.35           -1.3497e-009    1.3963e-009     2.525e-008     
  -0.4            -1.319e-009     4.04e-011       1.1498e-008    
  -0.45           -2.6844e-009    1.57e-010       1.2269e-008    
  -0.5            -1.9488e-009    -1.4056e-009    7.61e-010      
  -0.55           -6.454e-010     -2.5578e-009    -1.127e-008    
  -0.6            1.2489e-009     -2.5966e-009    -1.9586e-008   
  -0.65           2.8609e-009     -3.7425e-009    -1.2617e-008   
  -0.7            -2.3679e-009    -1.1389e-008    4.4e-009       
  -0.75           -1.7718e-009    -3.0509e-008    2.587e-009     
  -0.8            -1.4361e-009    -6.9195e-008    6.189e-009     
  -0.85           4.114e-010      -1.3375e-007    -9.805e-009    
  -0.9            8.314e-010      -2.331e-007     1.0845e-008    
  -0.95           1.2077e-009     -3.6356e-007    1.0609e-008    
  -1              5.03e-011       -5.1356e-007    1.143e-008     
  -1.05           4.654e-010      -6.8156e-007    1.0445e-008    
  -1.1            -1.3046e-009    -8.581e-007     2.4889e-008    
  -1.15           -2.3629e-009    -1.03711e-006   1.345e-008     
  -1.2            -1.9025e-009    -1.2189e-006    -8.997e-009    
  -1.25           -8.265e-010     -1.3995e-006    -1.1098e-008   
  -1.3            1.6276e-009     -1.5779e-006    -1.5954e-008   
  -1.35           1.3107e-009     -1.7486e-006    -8.975e-009    
  -1.4            2.8736e-009     -1.9205e-006    -8.707e-009    
  -1.45           1.2529e-009     -2.0835e-006    1.0593e-008    
  -1.5            9.77e-011       -2.2435e-006    1.1259e-008    
  -1.55           5.217e-010      -2.4022e-006    1.033e-008     
  -1.6            -1.836e-009     -2.5571e-006    2.3761e-008    
  -1.65           -1.4519e-009    -2.7119e-006    5.781e-009     
  -1.7            -1.3409e-009    -2.8594e-006    1.0405e-008    
  -1.75           -2.6051e-009    -3.0048e-006    1.1268e-008    
  -1.8            -2.0862e-009    -3.1507e-006    9.39e-010      
  -1.85           -1.5719e-009    -3.2901e-006    3.728e-009     
  -1.9            -1.3804e-009    -3.4265e-006    8.682e-009     
  -1.95           -2.7235e-009    -3.5609e-006    1.1753e-008    
  -2              -3.631e-010     -3.6957e-006    -1.0958e-008   
  -2.05           -8.318e-010     -3.8249e-006    -1.1215e-008   
  -2.1            1.6211e-009     -3.9538e-006    -1.579e-008    
  -2.15           1.3095e-009     -4.0748e-006    -9.044e-009    
  -2.2            2.8744e-009     -4.1988e-006    -8.872e-009    
  -2.25           1.2562e-009     -4.3172e-006    1.0708e-008    
  -2.3            1.036e-010      -4.4346e-006    1.1273e-008    
  -2.35           5.265e-010      -4.5514e-006    1.0361e-008    
  -2.4            -1.8284e-009    -4.6669e-006    2.3585e-008    
  -2.45           -1.4529e-009    -4.781e-006     5.925e-009     
  -2.5            -1.3409e-009    -4.8925e-006    1.0376e-008    
  -2.55           -2.5979e-009    -5.0015e-006    1.1418e-008    
  -2.6            -2.0758e-009    -5.1115e-006    9.51e-010      
  -2.65           -1.5681e-009    -5.2174e-006    4.034e-009     
  -2.7            -1.3792e-009    -5.3219e-006    8.779e-009     
  -2.75           -2.7158e-009    -5.424e-006     1.1745e-008    
  -2.8            -2.3449e-009    -5.5289e-006    5.31e-010      
  -2.85           -1.7679e-009    -5.6294e-006    2.637e-009     
  -2.9            -1.4382e-009    -5.7282e-006    6.216e-009     
  -2.95           -1.3338e-009    -5.8254e-006    1.0711e-008    
  -3              -2.5584e-009    -5.9214e-006    1.1456e-008    
  -3.05           -2.0199e-009    -6.018e-006     1.122e-009     
  -3.1            -1.538e-009     -6.1119e-006    4.13e-009      
  -3.15           -1.3729e-009    -6.2022e-006    9.116e-009     
  -3.2            -2.6982e-009    -6.2928e-006    1.1614e-008    
  -3.25           -2.2853e-009    -6.3851e-006    6.41e-010      
  -3.3            -1.7148e-009    -6.4744e-006    2.735e-009     
  -3.35           -1.4229e-009    -6.5613e-006    6.719e-009     
  -3.4            -1.3258e-009    -6.6483e-006    1.1049e-008    
  -3.45           -2.5199e-009    -6.733e-006     1.1569e-008    
  -3.5            -1.9567e-009    -6.8209e-006    1.528e-009     
  -3.55           -1.5107e-009    -6.9044e-006    4.775e-009     
  -3.6            -1.3622e-009    -6.9868e-006    9.556e-009     
  -3.65           -2.6723e-009    -7.0664e-006    1.1529e-008    
  -3.7            -2.2277e-009    -7.1523e-006    7.87e-010      
  -3.75           -1.6673e-009    -7.2319e-006    3.116e-009     
  -3.8            -1.4078e-009    -7.3091e-006    7.289e-009     
  -3.85           -1.3208e-009    -7.3863e-006    1.1376e-008    
  -3.9            -2.4789e-009    -7.4614e-006    1.2148e-008    
  -3.95           -1.9037e-009    -7.5402e-006    1.878e-009     
  -4              -1.4872e-009    -7.6149e-006    4.932e-009     
  -4.05           -1.3537e-009    -7.6877e-006    9.921e-009     
  -4.1            -2.65e-009      -7.7629e-006    1.1402e-008    
  -4.15           -2.1732e-009    -7.836e-006     8.06e-010      
  -4.2            -1.6294e-009    -7.9083e-006    3.293e-009     
  -4.25           -1.3977e-009    -7.9797e-006    7.704e-009     
  -4.3            -1.3124e-009    -8.0489e-006    1.1341e-008    
  -4.35           -2.4333e-009    -8.1164e-006    1.2484e-008    
  -4.4            -1.8511e-009    -8.1884e-006    1.951e-009     
  -4.45           -1.4686e-009    -8.2561e-006    5.481e-009     
  -4.5            -1.346e-009     -8.3241e-006    9.996e-009     
  -4.55           -2.6178e-009    -8.3889e-006    1.1283e-008    
  -4.6            -2.1239e-009    -8.4556e-006    8.17e-010      
  -4.65           -1.598e-009     -8.5201e-006    3.818e-009     
  -4.7            -1.3893e-009    -8.5853e-006    8.357e-009     
  -4.75           -1.307e-009     -8.647e-006     1.166e-008     
  -4.8            -2.3916e-009    -8.7033e-006    1.3024e-008    
  -4.85           -8.191e-010     -8.7701e-006    -1.1124e-008   
  -4.9            1.6423e-009     -8.8329e-006    -1.6307e-008   
  -4.95           1.3137e-009     -8.8891e-006    -9.232e-009    
  -5              2.8774e-009     -8.9512e-006    -8.865e-009    
END_DB

BEGIN_DB
 ICCAP_VAR VS         0              
 ICCAP_VAR VB         0              
 ICCAP_VAR VD         -5             

 #VG              IG              ID              IB             
  0               1.5466e-009     1.7778e-009     -1.0794e-008   
  -0.05           9.022e-010      2.3325e-009     1.0649e-008    
  -0.1            1.0472e-009     2.2686e-009     1.0582e-008    
  -0.15           -1.5295e-009    1.8518e-009     1.2575e-008    
  -0.2            -1.8997e-009    -1.4049e-009    9.674e-009     
  -0.25           -5.473e-010     -2.2755e-009    -1.1217e-008   
  -0.3            -7.384e-010     -2.332e-009     -1.1422e-008   
  -0.35           2.1505e-009     -1.7844e-009    -1.8168e-008   
  -0.4            1.8503e-009     -8.03e-011      -7.388e-009    
  -0.45           1.6152e-009     -1.6865e-009    -9.399e-009    
  -0.5            1.4435e-009     -6.4905e-009    -9.081e-009    
  -0.55           -1.346e-009     -2.0071e-008    -1.0551e-008   
  -0.6            -2.612e-009     -4.9923e-008    1.2143e-008    
  -0.65           1.6219e-009     -1.1106e-007    -2.2523e-008   
  -0.7            2.0418e-009     -2.2267e-007    1.4228e-008    
  -0.75           8.843e-010      -3.9946e-007    1.751e-008     
  -0.8            1.2515e-009     -6.5549e-007    2.0817e-008    
  -0.85           1.6842e-009     -9.9412e-007    2.5906e-008    
  -0.9            -1.3485e-009    -1.4123e-006    1.0025e-008    
  -0.95           -2.6274e-009    -1.9307e-006    3.6407e-008    
  -1              -2.1775e-009    -2.5452e-006    3.2192e-008    
  -1.05           -1.643e-009     -3.2406e-006    4.1116e-008    
  -1.1            -1.3907e-009    -4.0304e-006    5.2683e-008    
  -1.15           -1.3035e-009    -4.8999e-006    6.3126e-008    
  -1.2            -2.4305e-009    -5.851e-006     7.0794e-008    
  -1.25           -1.8691e-009    -6.8731e-006    6.7164e-008    
  -1.3            -1.469e-009     -7.9726e-006    7.7126e-008    
  -1.35           -1.3413e-009    -9.1234e-006    8.7886e-008    
  -1.4            4.973e-010      -1.0362e-005    9.4266e-008    
  -1.45           -2.1299e-009    -1.1642e-005    9.4515e-008    
  -1.5            -1.9667e-009    -1.2992e-005    9.7671e-008    
  -1.55           -1.3671e-009    -1.4375e-005    1.02096e-007   
  -1.6            -2.6827e-009    -1.5799e-005    1.1464e-007    
  -1.65           -2.3033e-009    -1.7293e-005    1.0693e-007    
  -1.7            -1.7501e-009    -1.8826e-005    1.1203e-007    
  -1.75           -1.4251e-009    -2.0399e-005    1.1854e-007    
  -1.8            -1.3226e-009    -2.2036e-005    1.2457e-007    
  -1.85           -2.5247e-009    -2.3675e-005    1.2714e-007    
  -1.9            -2.0015e-009    -2.5366e-005    1.1774e-007    
  -1.95           -1.5289e-009    -2.7079e-005    1.2198e-007    
  -2              -1.361e-009     -2.8819e-005    1.2748e-007    
  -2.05           -2.6659e-009    -3.0602e-005    1.2924e-007    
  -2.1            -2.2518e-009    -3.2416e-005    1.1786e-007    
  -2.15           -1.7043e-009    -3.4244e-005    1.1935e-007    
  -2.2            -1.4137e-009    -3.6105e-005    1.2238e-007    
  -2.25           -1.3167e-009    -3.7991e-005    1.2497e-007    
  -2.3            -2.484e-009     -3.9883e-005    1.2366e-007    
  -2.35           -1.9409e-009    -4.1824e-005    1.1136e-007    
  -2.4            -1.5039e-009    -4.377e-005     1.122e-007     
  -2.45           -1.3524e-009    -4.5747e-005    1.1445e-007    
  -2.5            -2.6392e-009    -4.7733e-005    1.1344e-007    
  -2.55           -2.1969e-009    -4.976e-005     1.0002e-007    
  -2.6            -1.6618e-009    -5.1776e-005    9.946e-008     
  -2.65           -1.399e-009     -5.382e-005     1.0081e-007    
  -2.7            -1.3115e-009    -5.5892e-005    1.0125e-007    
  -2.75           -2.4414e-009    -5.7958e-005    9.913e-008     
  -2.8            1.8132e-009     -6.0119e-005    6.2524e-008    
  -2.85           1.3595e-009     -6.2225e-005    7.0692e-008    
  -2.9            2.8913e-009     -6.4347e-005    6.7943e-008    
  -2.95           2.653e-009      -6.6475e-005    7.3259e-008    
  -3              2.0811e-009     -6.863e-005     6.8075e-008    
  -3.05           1.5034e-009     -7.0799e-005    5.8895e-008    
  -3.1            1.2769e-009     -7.2971e-005    5.4595e-008    
  -3.15           2.8054e-009     -7.5159e-005    5.1091e-008    
  -3.2            2.3773e-009     -7.7336e-005    5.6952e-008    
  -3.25           1.7295e-009     -7.9552e-005    4.9921e-008    
  -3.3            1.34e-009       -8.1774e-005    4.2555e-008    
  -3.35           2.8835e-009     -8.4004e-005    4.0288e-008    
  -3.4            2.6133e-009     -8.6188e-005    4.5928e-008    
  -3.45           2.0236e-009     -8.8474e-005    4.1159e-008    
  -3.5            1.47e-009       -9.0729e-005    3.265e-008     
  -3.55           1.2678e-009     -9.2998e-005    2.9837e-008    
  -3.6            2.7855e-009     -9.5247e-005    2.6057e-008    
  -3.65           2.327e-009      -9.7533e-005    3.305e-008     
  -3.7            1.682e-009      -9.9826e-005    2.6325e-008    
  -3.75           2.8959e-009     -0.000102109    3.53e-008      
  -3.8            2.736e-009      -0.000104389    2.8075e-008    
  -3.85           2.2421e-009     -0.000106707    2.4832e-008    
  -3.9            1.6099e-009     -0.000109018    1.7877e-008    
  -3.95           2.8935e-009     -0.000111324    2.774e-008     
  -4              2.1885e-009     -0.000113659    3.0966e-008    
  -4.05           2.7114e-009     -0.00011589     3.0309e-008    
  -4.1            2.8997e-009     -0.00011823     2.3726e-008    
  -4.15           2.1374e-009     -0.00012057     2.6895e-008    
  -4.2            2.4296e-009     -0.0001229      2.4609e-008    
  -4.25           2.7531e-009     -0.00012526     2.3289e-008    
  -4.3            1.7929e-009     -0.00012762     2.4644e-008    
  -4.35           2.1827e-009     -0.00012992     2.2385e-008    
  -4.4            2.4677e-009     -0.00013231     2.0521e-008    
  -4.45           1.4261e-009     -0.00013472     2.1882e-008    
  -4.5            1.858e-009      -0.00013707     2.0981e-008    
  -4.55           2.2288e-009     -0.00013942     1.8775e-008    
  -4.6            1.0852e-009     -0.00014168     1.9143e-008    
  -4.65           1.4828e-009     -0.00014412     1.9364e-008    
  -4.7            1.9141e-009     -0.00014648     1.8174e-008    
  -4.75           7.678e-010      -0.00014876     1.7308e-008    
  -4.8            1.1359e-009     -0.00015112     1.6719e-008    
  -4.85           1.5454e-009     -0.00015353     1.7225e-008    
  -4.9            1.9758e-009     -0.00015589     1.5906e-008    
  -4.95           8.215e-010      -0.00015824     1.5627e-008    
  -5              1.1887e-009     -0.00016068     1.4938e-008    
END_DB

BEGIN_DB
 ICCAP_VAR VS         0              
 ICCAP_VAR VB         2.5            
 ICCAP_VAR VD         -0.1           

 #VG              IG              ID              IB             
  0               1.2356e-009     1.1266e-009     1.107e-008     
  -0.05           5.128e-010      2.3116e-009     1.0748e-008    
  -0.1            -1.3389e-009    1.4402e-009     2.4025e-008    
  -0.15           -1.3112e-009    9.27e-011       1.1358e-008    
  -0.2            -2.6415e-009    2.324e-010      1.3075e-008    
  -0.25           -1.9834e-009    -1.2833e-009    7.29e-010      
  -0.3            -7.251e-010     -2.2775e-009    -1.1322e-008   
  -0.35           1.2374e-009     -1.5842e-009    -1.8188e-008   
  -0.4            2.829e-009      -2.094e-010     -1.3828e-008   
  -0.45           1.541e-010      2.1311e-009     1.0425e-008    
  -0.5            3.334e-010      2.231e-009      1.0425e-008    
  -0.55           5.078e-010      2.3096e-009     1.0785e-008    
  -0.6            -1.3407e-009    1.4365e-009     2.411e-008     
  -0.65           -1.3101e-009    9.25e-011       1.1539e-008    
  -0.7            -2.6469e-009    2.32e-010       1.3125e-008    
  -0.75           -1.9801e-009    -1.2857e-009    7.72e-010      
  -0.8            -7.151e-010     -2.2776e-009    -1.1412e-008   
  -0.85           1.2389e-009     -1.5824e-009    -1.8386e-008   
  -0.9            2.8295e-009     -2.115e-010     -1.3755e-008   
  -0.95           1.516e-010      2.101e-009      1.0406e-008    
  -1              3.263e-010      2.1287e-009     1.0372e-008    
  -1.05           5.018e-010      1.8689e-009     1.0742e-008    
  -1.1            -2.2044e-009    -2.5692e-009    2.428e-008     
  -1.15           -1.9436e-009    -7.5143e-009    3.249e-009     
  -1.2            2.8649e-009     -2.1351e-008    2.0918e-008    
  -1.25           -6.77e-011      -5.7333e-008    1.1925e-008    
  -1.3            2.8813e-009     -1.2539e-007    -1.0848e-008   
  -1.35           2.0613e-009     -2.2779e-007    1.0178e-008    
  -1.4            -1.97e-010      -3.6005e-007    1.3234e-008    
  -1.45           1.956e-010      -5.1598e-007    1.0783e-008    
  -1.5            6.319e-010      -6.8635e-007    1.0551e-008    
  -1.55           -1.6918e-009    -8.608e-007     2.0978e-008    
  -1.6            -1.407e-009     -1.03596e-006   6.943e-009     
  -1.65           -2.6821e-009    -1.2124e-006    -2.1799e-008   
  -1.7            -7.404e-010     -1.3814e-006    -1.1023e-008   
  -1.75           1.7357e-009     -1.5467e-006    -1.7975e-008   
  -1.8            1.3364e-009     -1.7071e-006    -9.229e-009    
  -1.85           2.8923e-009     -1.8631e-006    -8.499e-009    
  -1.9            2.6435e-009     -2.0124e-006    -1.8e-010      
  -1.95           6.46e-010       -2.1586e-006    1.0542e-008    
  -2              -1.6886e-009    -2.3074e-006    2.1062e-008    
  -2.05           -1.4002e-009    -2.4439e-006    7.197e-009     
  -2.1            -1.3223e-009    -2.5804e-006    1.1126e-008    
  -2.15           -2.5019e-009    -2.7136e-006    1.2232e-008    
  -2.2            -1.9215e-009    -2.8475e-006    1.69e-009      
  -2.25           -1.4797e-009    -2.9754e-006    4.89e-009      
  -2.3            -1.353e-009     -3.1022e-006    9.855e-009     
  -2.35           -2.6533e-009    -3.2253e-006    1.1517e-008    
  -2.4            -2.1938e-009    -3.3474e-006    7e-010         
  -2.45           -1.6286e-009    -3.4669e-006    3.302e-009     
  -2.5            -1.3895e-009    -3.5838e-006    7.832e-009     
  -2.55           -1.3152e-009    -3.6991e-006    1.1419e-008    
  -2.6            -2.4603e-009    -3.8108e-006    1.2669e-008    
  -2.65           -1.8608e-009    -3.9253e-006    1.953e-009     
  -2.7            -1.4573e-009    -4.034e-006     5.596e-009     
  -2.75           -1.345e-009     -4.1419e-006    1.0004e-008    
  -2.8            -2.6261e-009    -4.2475e-006    1.1267e-008    
  -2.85           -2.1272e-009    -4.354e-006     8.22e-010      
  -2.9            -1.5903e-009    -4.4574e-006    3.657e-009     
  -2.95           -1.3809e-009    -4.5586e-006    8.438e-009     
  -3              -1.3112e-009    -4.6588e-006    1.1542e-008    
  -3.05           -2.4005e-009    -4.7555e-006    1.3305e-008    
  -3.1            -1.7978e-009    -4.855e-006     2.39e-009      
  -3.15           -1.4366e-009    -4.9519e-006    6.073e-009     
  -3.2            -1.3382e-009    -5.0452e-006    1.038e-008     
  -3.25           -2.5913e-009    -5.1352e-006    1.1605e-008    
  -3.3            -2.0661e-009    -5.2265e-006    9.14e-010      
  -3.35           -1.5467e-009    -5.3194e-006    4.14e-009      
  -3.4            -1.3695e-009    -5.408e-006     9.057e-009     
  -3.45           -2.7081e-009    -5.4962e-006    1.1575e-008    
  -3.5            -2.3255e-009    -5.5854e-006    6e-010         
  -3.55           -8.657e-010     -5.6726e-006    -1.1363e-008   
  -3.6            -1.242e-009     -5.7578e-006    -1.1131e-008   
  -3.65           -1.5e-012       -5.8405e-006    -1.1832e-008   
  -3.7            -4.812e-010     -5.9241e-006    -1.0907e-008   
  -3.75           -9.193e-010     -6.0053e-006    -1.1477e-008   
  -3.8            1.5039e-009     -6.0871e-006    -1.4258e-008   
  -3.85           1.2747e-009     -6.1632e-006    -8.547e-009    
  -3.9            2.8237e-009     -6.2442e-006    -9.696e-009    
  -3.95           4.095e-010      -6.3188e-006    1.0368e-008    
  -4              8.314e-010      -6.396e-006     1.1014e-008    
  -4.05           -1.5124e-009    -6.4721e-006    1.5912e-008    
  -4.1            -1.3585e-009    -6.549e-006     9.419e-009     
  -4.15           -2.6837e-009    -6.6228e-006    1.1286e-008    
