! VERSION = 6.00
BEGIN_HEADER
 ICCAP_INPUTS
  VG         V  B GROUND SMU4 0.001 LIN        2    0          -5         6    -1        
  VS         V  E GROUND SMU2 0.1 CON        0
  VD         V  S GROUND SMU1 0.1 LIN        1    0          -5         101  -0.05     
  VB         V  C GROUND SMU3 0.1 LIN        3    0          2.5        2    2.5       
 ICCAP_OUTPUTS
  ID         I  S GROUND SMU1 B
  IB         I  C GROUND SMU3 B
  IG         I  B GROUND SMU4 B
END_HEADER

BEGIN_DB
 ICCAP_VAR VG         0              
 ICCAP_VAR VS         0              
 ICCAP_VAR VB         0              

 #VD              ID              IB              IG             
  0               -1.0579e-009    -1.8495e-008    -1.1313e-009   
  -0.05           -2.1067e-009    2.553e-009      -1.2847e-009   
  -0.1            -1.8828e-009    -1.1631e-008    1.775e-010     
  -0.15           -2.0107e-009    -1.0989e-008    9.8e-012       
  -0.2            -2.1409e-009    -1.0774e-008    -1.74e-010     
  -0.25           -2.2302e-009    -1.0918e-008    -3.844e-010    
  -0.3            -2.2814e-009    -1.1161e-008    -5.893e-010    
  -0.35           -1.5284e-009    -2.1082e-008    1.2589e-009    
  -0.4            -1.123e-010     -1.1776e-008    2.8787e-009    
  -0.45           2.0834e-009     1.0362e-008     6.91e-011      
  -0.5            2.1918e-009     1.0309e-008     2.443e-010     
  -0.55           2.2945e-009     1.0438e-008     4.307e-010     
  -0.6            2.3592e-009     1.0854e-008     6.083e-010     
  -0.65           1.5394e-009     2.1936e-008     -1.3199e-009   
  -0.7            1.825e-010      1.2132e-008     -2.6848e-009   
  -0.75           -1.3257e-009    6.85e-010       -1.9572e-009   
  -0.8            -2.2893e-009    -1.1315e-008    -6.711e-010    
  -0.85           -1.5729e-009    -1.9346e-008    1.2454e-009    
  -0.9            -1.853e-010     -1.3366e-008    2.8488e-009    
  -0.95           2.1308e-009     1.0205e-008     1.429e-010     
  -1              2.2419e-009     1.0309e-008     3.221e-010     
  -1.05           2.3279e-009     1.0565e-008     5.053e-010     
  -1.1            1.4561e-009     2.4491e-008     -1.337e-009    
  -1.15           1.043e-010      1.1114e-008     -1.3098e-009   
  -1.2            2.526e-010      1.3285e-008     -2.6367e-009   
  -1.25           -1.2802e-009    6.78e-010       -1.9973e-009   
  -1.3            -2.2894e-009    -1.1351e-008    -7.612e-010    
  -1.35           -1.6153e-009    -1.7576e-008    2.1216e-009    
  -1.4            1.9443e-009     -8.248e-009     1.4932e-009    
  -1.45           2.0996e-009     1.0244e-008     9.55e-011      
  -1.5            2.2135e-009     1.0274e-008     2.75e-010      
  -1.55           2.3096e-009     1.0462e-008     4.61e-010      
  -1.6            2.3663e-009     1.0789e-008     6.436e-010     
  -1.65           1.5681e-009     2.1072e-008     -1.3165e-009   
  -1.7            2.154e-010      1.2604e-008     -2.664e-009    
  -1.75           -1.3039e-009    6.46e-010       -1.9741e-009   
  -1.8            -2.2905e-009    -1.1312e-008    -7.122e-010    
  -1.85           -1.5943e-009    -1.8521e-008    1.2407e-009    
  -1.9            -2.233e-010     -1.39e-008      2.8319e-009    
  -1.95           2.1514e-009     1.0269e-008     1.731e-010     
  -2              2.2624e-009     1.0373e-008     3.609e-010     
  -2.05           2.3383e-009     1.0708e-008     5.494e-010     
  -2.1            1.4887e-009     2.3483e-008     -1.3307e-009   
  -2.15           1.377e-010      1.1609e-008     -2.7104e-009   
  -2.2            -1.3687e-009    5.88e-010       -1.9274e-009   
  -2.25           -2.2782e-009    -1.1156e-008    -6.051e-010    
  -2.3            -2.2844e-009    -1.1342e-008    -8.092e-010    
  -2.35           -1.6331e-009    -1.6679e-008    2.0431e-009    
  -2.4            1.8947e-009     -8.707e-009     1.5359e-009    
  -2.45           2.1224e-009     1.028e-008      1.405e-010     
  -2.5            2.2362e-009     1.0382e-008     3.266e-010     
  -2.55           2.3257e-009     1.0702e-008     5.067e-010     
  -2.6            1.4522e-009     2.4486e-008     -1.3365e-009   
  -2.65           1.077e-010      1.1415e-008     -1.3104e-009   
  -2.7            2.562e-010      1.3314e-008     -2.6334e-009   
  -2.75           -1.2756e-009    7.3e-010        -1.9992e-009   
  -2.8            -2.288e-009     -1.1353e-008    -7.687e-010    
  -2.85           -1.6163e-009    -1.733e-008     2.1062e-009    
  -2.9            1.9351e-009     -8.191e-009     1.4962e-009    
  -2.95           2.0997e-009     1.025e-008      1.005e-010     
  -3              2.2141e-009     1.0356e-008     2.775e-010     
  -3.05           2.3089e-009     1.0493e-008     4.661e-010     
  -3.1            1.4203e-009     2.5318e-008     -1.3427e-009   
  -3.15           7.55e-011       1.1149e-008     -1.3158e-009   
  -3.2            2.172e-010      1.2589e-008     -2.6575e-009   
  -3.25           -1.2977e-009    6.33e-010       -1.975e-009    
  -3.3            -2.2884e-009    -1.1386e-008    -7.217e-010    
  -3.35           -1.5953e-009    -1.843e-008     1.2396e-009    
  -3.4            -2.26e-010      -1.3897e-008    2.8294e-009    
  -3.45           2.156e-009      1.0357e-008     1.776e-010     
  -3.5            2.2612e-009     1.0337e-008     3.695e-010     
  -3.55           2.3381e-009     1.0763e-008     5.572e-010     
  -3.6            1.4899e-009     2.348e-008      -1.3309e-009   
  -3.65           1.386e-010      1.1513e-008     -2.7136e-009   
  -3.7            -1.368e-009     5.88e-010       -1.9292e-009   
  -3.75           -2.2807e-009    -1.1278e-008    -6.141e-010    
  -3.8            -2.2866e-009    -1.1218e-008    -8.144e-010    
  -3.85           -1.6318e-009    -1.6529e-008    2.0438e-009    
  -3.9            1.8902e-009     -8.616e-009     1.5351e-009    
  -3.95           2.1272e-009     1.0316e-008     1.415e-010     
  -4              2.2385e-009     1.0339e-008     3.247e-010     
  -4.05           2.3258e-009     1.072e-008      5.087e-010     
  -4.1            1.4559e-009     2.436e-008      -1.3374e-009   
  -4.15           1.076e-010      1.1372e-008     -1.3114e-009   
  -4.2            2.562e-010      1.3215e-008     -2.6341e-009   
  -4.25           -1.2779e-009    6.28e-010       -1.9977e-009   
  -4.3            -2.2858e-009    -1.1302e-008    -7.655e-010    
  -4.35           -1.6166e-009    -1.7453e-008    2.112e-009     
  -4.4            1.943e-009      -8.273e-009     1.4931e-009    
  -4.45           2.0991e-009     1.0314e-008     1.011e-010     
  -4.5            2.2127e-009     1.0322e-008     2.816e-010     
  -4.55           2.3112e-009     1.0562e-008     4.667e-010     
  -4.6            2.3612e-009     1.08e-008       6.443e-010     
  -4.65           2.3685e-009     1.0631e-008     8.242e-010     
  -4.7            1.7099e-009     1.6253e-008     -1.7639e-009   
  -4.75           -1.6386e-009    6.629e-009      -1.7405e-009   
  -4.8            -2.1951e-009    -1.0858e-008    -2.941e-010    
  -4.85           -2.2637e-009    -1.1048e-008    -5.075e-010    
  -4.9            -2.289e-009     -1.127e-008     -7.05e-010     
  -4.95           -1.5913e-009    -1.8698e-008    1.2407e-009    
  -5              -2.164e-010     -1.357e-008     2.834e-009     
END_DB

BEGIN_DB
 ICCAP_VAR VG         -1             
 ICCAP_VAR VS         0              
 ICCAP_VAR VB         0              

 #VD              ID              IB              IG             
  0               -2.058e-008     1.0638e-008     7.21e-011      
  -0.05           -1.3389e-006    -8.503e-009     -1.8789e-009   
  -0.1            -2.2687e-006    1.292e-008      -2.4014e-009   
  -0.15           -2.914e-006     1.1915e-008     -5.55e-011     
  -0.2            -3.385e-006     -9.35e-009      2.848e-009     
  -0.25           -3.6652e-006    -1.1124e-008    -1.2775e-009   
  -0.3            -3.9153e-006    2.6046e-008     -1.4085e-009   
  -0.35           -4.1311e-006    1.3607e-008     -2.046e-010    
  -0.4            -4.3315e-006    -8.555e-009     2.8967e-009    
  -0.45           -4.4923e-006    -1.804e-008     1.766e-009     
  -0.5            -4.6195e-006    -1.0958e-008    -5.446e-010    
  -0.55           -4.7228e-006    1.5984e-008     -2.1432e-009   
  -0.6            -4.8497e-006    1.0984e-008     1.318e-010     
  -0.65           -5.0236e-006    -1.246e-008     2.7185e-009    
  -0.7            -5.1398e-006    -1.2532e-008    1.739e-010     
  -0.75           -5.202e-006     1.1425e-008     -1.3186e-009   
  -0.8            -5.3668e-006    1.0678e-008     1.2866e-009    
  -0.85           -5.4701e-006    -2.5769e-008    1.3055e-009    
  -0.9            -5.578e-006     -1.2176e-008    9.03e-011      
  -0.95           -5.6241e-006    1.1688e-008     -2.7194e-009   
  -1              -5.7711e-006    1.0515e-008     1.1324e-009    
  -1.05           -5.8841e-006    -2.4666e-008    1.3756e-009    
  -1.1            -5.9422e-006    -1.1261e-008    -9.312e-010    
  -1.15           -6.0296e-006    2.1272e-008     -1.6395e-009   
  -1.2            -6.165e-006     1.0069e-008     2.084e-009     
  -1.25           -6.2813e-006    -1.3885e-008    3.038e-010     
  -1.3            -6.3252e-006    1.0482e-008     -1.3401e-009   
  -1.35           -6.469e-006     1.0574e-008     1.1471e-009    
  -1.4            -6.5745e-006    -2.4681e-008    1.367e-009     
  -1.45           -6.63e-006      -1.1276e-008    -9.416e-010    
  -1.5            -6.7106e-006    2.165e-008      -1.6249e-009   
  -1.55           -6.8422e-006    9.946e-009      2.1013e-009    
  -1.6            -6.958e-006     -1.3748e-008    2.889e-010     
  -1.65           -6.9873e-006    1.0707e-008     -1.3378e-009   
  -1.7            -7.0857e-006    1.1182e-008     8.86e-011      
  -1.75           -7.246e-006     -1.1418e-008    2.7577e-009    
  -1.8            -7.3453e-006    -1.2958e-008    2.155e-010     
  -1.85           -7.3604e-006    1.1255e-008     -1.3242e-009   
  -1.9            -7.4598e-006    1.0885e-008     1.734e-010     
  -1.95           -7.6253e-006    -1.3038e-008    2.681e-009     
  -2              -7.7157e-006    -1.2395e-008    1.377e-010     
  -2.05           -7.7385e-006    1.1415e-008     -1.313e-009    
  -2.1            -7.9045e-006    1.0877e-008     1.3314e-009    
  -2.15           -7.9909e-006    -2.6014e-008    1.2948e-009    
  -2.2            -8.0903e-006    -1.2037e-008    5.73e-011      
  -2.25           -8.1058e-006    1.1437e-008     -2.6999e-009   
  -2.3            -8.2184e-006    1.709e-008      -1.5455e-009   
  -2.35           -8.3161e-006    1.035e-008      6.237e-010     
  -2.4            -8.4604e-006    -1.9094e-008    2.0565e-009    
  -2.45           -8.5401e-006    -1.0977e-008    -3.359e-010    
  -2.5            -8.5755e-006    1.3211e-008     -2.3774e-009   
  -2.55           -8.7608e-006    1.1535e-008     1.5245e-009    
  -2.6            -8.8276e-006    -2.468e-008     1.2553e-009    
  -2.65           -8.8522e-006    -1.1059e-008    -1.2962e-009   
  -2.7            -8.9458e-006    2.6349e-008     -1.4035e-009   
  -2.75           -9.0596e-006    1.3472e-008     -1.873e-010    
  -2.8            -9.2086e-006    -8.527e-009     2.8957e-009    
  -2.85           -9.298e-006     -1.7565e-008    1.7406e-009    
  -2.9            -9.3669e-006    -1.0741e-008    -5.636e-010    
  -2.95           -9.4181e-006    1.6406e-008     -2.1123e-009   
  -3              -9.5174e-006    1.1157e-008     1.512e-010     
  -3.05           -9.6906e-006    -1.2464e-008    2.7007e-009    
  -3.1            -9.7846e-006    -1.2121e-008    1.533e-010     
  -3.15           -9.7963e-006    1.2011e-008     -1.3154e-009   
  -3.2            -9.9766e-006    1.1386e-008     1.303e-009     
  -3.25           -1.00641e-005   -2.513e-008     1.3008e-009    
  -3.3            -1.01598e-005   -2.5031e-008    1.2929e-009    
  -3.35           -1.02638e-005   -1.0898e-008    4.4e-011       
  -3.4            -1.02704e-005   1.2896e-008     -2.6944e-009   
  -3.45           -1.04451e-005   1.2223e-008     1.1753e-009    
  -3.5            -1.05422e-005   -6.674e-009     1.2721e-009    
  -3.55           -1.0638e-005    -1.5143e-008    2.2471e-009    
  -3.6            -1.07346e-005   -1.4956e-008    2.1982e-009    
  -3.65           -1.08385e-005   -1.4604e-008    2.1494e-009    
  -3.7            -1.09295e-005   -1.45e-008      2.1038e-009    
  -3.75           -1.10344e-005   -1.3966e-008    2.0572e-009    
  -3.8            -1.11298e-005   -1.3565e-008    2.0078e-009    
  -3.85           -1.1176e-005    1.7212e-008     -2.6154e-009   
  -3.9            -1.1294e-005    1.8839e-008     8.759e-010     
  -3.95           -1.1428e-005    8.77e-010       1.2453e-009    
  -4              -1.1475e-005    6.386e-009      -2.7877e-009   
  -4.05           -1.1647e-005    2.4158e-008     1.3877e-009    
  -4.1            -1.1748e-005    3.89e-010       2.5147e-009    
  -4.15           -1.1764e-005    7.085e-009      -1.9921e-009   
  -4.2            -1.186e-005     3.1464e-008     1.209e-010     
  -4.25           -1.2021e-005    1.8126e-008     1.6498e-009    
  -4.3            -1.2092e-005    1.7998e-008     -2.4278e-009   
  -4.35           -1.2197e-005    4.1836e-008     6.766e-010     
  -4.4            -1.2362e-005    1.1358e-008     1.3783e-009    
  -4.45           -1.2414e-005    3.3813e-008     -2.6763e-009   
  -4.5            -1.2555e-005    5.802e-008      9.643e-010     
  -4.55           -1.2677e-005    2.7948e-008     1.2754e-009    
  -4.6            -1.2739e-005    5.5291e-008     -2.7884e-009   
  -4.65           -1.2914e-005    8.0029e-008     1.2382e-009    
  -4.7            -1.3005e-005    5.775e-008      1.9851e-009    
  -4.75           -1.3083e-005    7.9229e-008     -2.2318e-009   
  -4.8            -1.3209e-005    1.03311e-007    -1.3391e-009   
  -4.85           -1.3336e-005    1.1936e-007     2.8869e-009    
  -4.9            -1.3396e-005    1.1519e-007     -1.3416e-009   
  -4.95           -1.354e-005     1.6586e-007     -1.8142e-009   
  -5              -1.3722e-005    1.6928e-007     2.3531e-009    
END_DB

BEGIN_DB
 ICCAP_VAR VG         -2             
 ICCAP_VAR VS         0              
 ICCAP_VAR VB         0              

 #VD              ID              IB              IG             
  0               -9.4845e-008    -1.0698e-008    1.5968e-009    
  -0.05           -7.1714e-006    1.1522e-008     1.7791e-009    
  -0.1            -1.3911e-005    -1.0831e-008    2.73e-009      
  -0.15           -2.0334e-005    -1.8993e-008    1.8171e-009    
  -0.2            -2.6387e-005    -1.1401e-008    -1.0062e-009   
  -0.25           -3.2073e-005    2.6981e-008     -1.3539e-009   
  -0.3            -3.7419e-005    1.0324e-008     4.829e-010     
  -0.35           -4.2423e-005    -2.2492e-008    1.5435e-009    
  -0.4            -4.7032e-005    -1.1821e-008    -3.45e-011     
  -0.45           -5.1192e-005    1.704e-008      -2.0552e-009   
  -0.5            -5.5099e-005    1.0431e-008     6.99e-010      
  -0.55           -5.8659e-005    -2.4095e-008    1.3759e-009    
  -0.6            -6.1845e-005    -1.1029e-008    -2.654e-010    
  -0.65           -6.4648e-005    2.0473e-008     -1.779e-009    
  -0.7            -6.7249e-005    1.395e-008      -1.999e-010    
  -0.75           -6.9665e-005    -1.4465e-008    2.5521e-009    
  -0.8            -7.1704e-005    -1.0773e-008    -5.091e-010    
  -0.85           -7.3505e-005    2.2655e-008     -1.5658e-009   
  -0.9            -7.5296e-005    1.0536e-008     1.0652e-009    
  -0.95           -7.6793e-005    -2.3888e-008    1.2454e-009    
  -1              -7.8129e-005    -1.0923e-008    -7.401e-010    
  -1.05           -7.9313e-005    2.4648e-008     -1.4397e-009   
  -1.1            -8.0631e-005    1.0601e-008     1.2536e-009    
  -1.15           -8.1698e-005    -1.2786e-008    2.6394e-009    
  -1.2            -8.2627e-005    -1.0693e-008    -4.1e-010      
  -1.25           -8.3453e-005    2.1862e-008     -1.6435e-009   
  -1.3            -8.434e-005     1.2389e-008     -8.83e-011     
  -1.35           -8.5292e-005    -1.6247e-008    2.3951e-009    
  -1.4            -8.5982e-005    -1.0811e-008    -6.518e-010    
  -1.45           -8.6638e-005    2.3911e-008     -1.4823e-009   
  -1.5            -8.7339e-005    2.6747e-008     -1.3257e-009   
  -1.55           -8.8099e-005    1.0334e-008     6.399e-010     
  -1.6            -8.8853e-005    -2.3734e-008    1.4083e-009    
  -1.65           -8.9465e-005    -1.1204e-008    -1.975e-010    
  -1.7            -8.9944e-005    1.9657e-008     -1.8509e-009   
  -1.75           -9.0644e-005    1.0795e-008     8.348e-010     
  -1.8            -9.1291e-005    -2.4956e-008    1.305e-009     
  -1.85           -9.1812e-005    -1.0681e-008    -4.355e-010    
  -1.9            -9.226e-005     2.2205e-008     -1.6226e-009   
  -1.95           -9.2794e-005    2.6729e-008     -1.3615e-009   
  -2              -9.3381e-005    1.0273e-008     4.544e-010     
  -2.05           -9.4046e-005    -2.2258e-008    1.584e-009     
  -2.1            -9.4572e-005    -1.1929e-008    -8.9e-012      
  -2.15           -9.4903e-005    1.6674e-008     -2.106e-009    
  -2.2            -9.5497e-005    1.0373e-008     6.642e-010     
  -2.25           -9.6079e-005    -2.3782e-008    1.3935e-009    
  -2.3            -9.654e-005     -1.1093e-008    -2.258e-010    
  -2.35           -9.6884e-005    2.0102e-008     -1.8251e-009   
  -2.4            -9.7473e-005    1.0806e-008     8.566e-010     
  -2.45           -9.8003e-005    -2.5071e-008    1.298e-009     
  -2.5            -9.8415e-005    -1.0726e-008    -4.688e-010    
  -2.55           -9.8765e-005    2.2421e-008     -1.5992e-009   
  -2.6            -9.9373e-005    1.0602e-008     1.0331e-009    
  -2.65           -9.9831e-005    -2.428e-008     1.253e-009     
  -2.7            -0.000100203    -1.0899e-008    -6.989e-010    
  -2.75           -0.000100564    2.4449e-008     -1.4557e-009   
  -2.8            -0.000101204    1.0548e-008     1.2171e-009    
  -2.85           -0.00010165     -1.1976e-008    2.6723e-009    
  -2.9            -0.000102021    -1.0672e-008    -3.634e-010    
  -2.95           -0.000102322    2.1602e-008     -1.6789e-009   
  -3              -0.000102784    1.293e-008      -1.212e-010    
  -3.05           -0.000103373    -1.5546e-008    2.4471e-009    
  -3.1            -0.00010369     -1.0456e-008    -6.101e-010    
  -3.15           -0.000104011    2.4026e-008     -1.5044e-009   
  -3.2            -0.000104606    1.1162e-008     1.1412e-009    
  -3.25           -0.000105045    -1.0033e-008    2.7349e-009    
  -3.3            -0.000105426    -1.7954e-008    2.0977e-009    
  -3.35           -0.000105716    -9.855e-009     -8.542e-010    
  -3.4            -0.000106055    2.7442e-008     -1.3973e-009   
  -3.45           -0.000106693    1.2974e-008     1.3686e-009    
  -3.5            -0.000107072    -1.2067e-008    2.5154e-009    
  -3.55           -0.000107455    -1.7981e-008    1.7329e-009    
  -3.6            -0.000107867    -1.1289e-008    2.446e-009     
  -3.65           -0.000108274    -3.601e-009     2.8466e-009    
  -3.7            -0.000108645    -9.735e-009     2.3723e-009    
  -3.75           -0.000109055    -1.114e-009     2.8216e-009    
  -3.8            -0.000109413    -7.536e-009     2.2911e-009    
  -3.85           -0.000109832    2.269e-009      2.7887e-009    
  -3.9            -0.000110117    2.3225e-008     2.7527e-009    
  -3.95           -0.000110516    2.2794e-008     2.8964e-009    
  -4              -0.000110742    9.865e-009      -1.5188e-009   
  -4.05           -0.000111199    4.5657e-008     -1.6523e-009   
  -4.1            -0.000111661    3.9952e-008     2.4281e-009    
  -4.15           -0.000112018    2.6271e-008     -7.421e-010    
