! VERSION = 6.00
BEGIN_HEADER
 ICCAP_INPUTS
  VG         V  B GROUND SMU4 0.001 LIN        2    0          -5         6    -1        
  VS         V  E GROUND SMU2 0.1 CON        0
  VD         V  S GROUND SMU1 0.1 LIN        1    0          -5         101  -0.05     
  VB         V  C GROUND SMU3 0.1 LIN        3    0          2.5        2    2.5       
 ICCAP_OUTPUTS
  ID         I  S GROUND SMU1 B
  IB         I  C GROUND SMU3 B
  IG         I  B GROUND SMU4 B
END_HEADER

BEGIN_DB
 ICCAP_VAR VG         0              
 ICCAP_VAR VS         0              
 ICCAP_VAR VB         0              

 #VD              ID              IB              IG             
  0               -1.1596e-009    -1.7985e-008    -1.2035e-009   
  -0.05           -1.5443e-009    -2.2686e-008    2.3213e-009    
  -0.1            2.105e-009      -6.498e-009     1.403e-009     
  -0.15           1.877e-009      1.294e-008      1.5873e-009    
  -0.2            1.6125e-009     1.2857e-008     1.7669e-009    
  -0.25           2.2643e-009     1.258e-008      3.264e-010     
  -0.3            2.3083e-009     1.2305e-008     5.348e-010     
  -0.35           2.3316e-009     1.112e-008      7.08e-010      
  -0.4            2.3347e-009     9.762e-009      8.71e-010      
  -0.45           2.3181e-009     9.14e-009       1.0255e-009    
  -0.5            2.2695e-009     9.239e-009      1.1794e-009    
  -0.55           2.1482e-009     1.05e-008       1.3462e-009    
  -0.6            1.9571e-009     1.2013e-008     1.5299e-009    
  -0.65           2.1616e-009     1.1805e-008     5.96e-011      
  -0.7            2.2422e-009     1.2442e-008     2.663e-010     
  -0.75           2.2978e-009     1.2698e-008     4.703e-010     
  -0.8            2.3275e-009     1.195e-008      6.552e-010     
  -0.85           2.3318e-009     1.0041e-008     8.301e-010     
  -0.9            1.6911e-009     1.5192e-008     -1.371e-009    
  -0.95           3.471e-010      1.3235e-008     -2.5482e-009   
  -1              -2.1798e-009    1.304e-009      -1.1332e-009   
  -1.05           -1.7915e-009    -1.0033e-008    1.465e-009     
  -1.1            2.3281e-009     -8.176e-009     9.543e-010     
  -1.15           2.2997e-009     9.426e-009      1.1067e-009    
  -1.2            2.2098e-009     1.0801e-008     1.2677e-009    
  -1.25           2.0455e-009     1.145e-008      1.4433e-009    
  -1.3            1.8251e-009     1.3098e-008     1.6297e-009    
  -1.35           1.5496e-009     1.2983e-008     1.8103e-009    
  -1.4            2.277e-009      1.2716e-008     3.791e-010     
  -1.45           2.316e-009      1.2455e-008     5.733e-010     
  -1.5            2.3321e-009     1.1025e-008     7.539e-010     
  -1.55           2.3306e-009     9.564e-009      9.078e-010     
  -1.6            2.3126e-009     9.16e-009       1.0623e-009    
  -1.65           2.2442e-009     1.0335e-008     1.2165e-009    
  -1.7            2.1095e-009     1.209e-008      1.3881e-009    
  -1.75           1.9e-009        1.2967e-008     1.5751e-009    
  -1.8            1.6391e-009     1.3005e-008     1.7521e-009    
  -1.85           2.2585e-009     1.251e-008      3.185e-010     
  -1.9            2.3066e-009     1.2392e-008     5.176e-010     
  -1.95           2.3274e-009     1.1216e-008     6.945e-010     
  -2              2.3334e-009     1.0006e-008     8.619e-010     
  -2.05           2.3241e-009     9.099e-009      1.0111e-009    
  -2.1            2.2773e-009     9.212e-009      1.1642e-009    
  -2.15           2.1651e-009     1.0411e-008     1.3294e-009    
  -2.2            1.978e-009      1.2112e-008     1.5106e-009    
  -2.25           2.1541e-009     1.172e-008      4.52e-011      
  -2.3            2.2349e-009     1.2478e-008     2.493e-010     
  -2.35           2.2982e-009     1.2617e-008     4.448e-010     
  -2.4            2.3248e-009     1.2055e-008     6.359e-010     
  -2.45           2.3339e-009     1.0451e-008     8.089e-010     
  -2.5            1.6795e-009     1.5664e-008     -1.3753e-009   
  -2.55           3.294e-010      1.3003e-008     -2.561e-009    
  -2.6            -2.1828e-009    9.83e-010       -1.1183e-009   
  -2.65           -1.775e-009     -1.0205e-008    1.4879e-009    
  -2.7            2.3287e-009     -8.462e-009     9.37e-010      
  -2.75           2.3079e-009     9.067e-009      1.0911e-009    
  -2.8            2.223e-009      9.68e-009       1.2499e-009    
  -2.85           2.0194e-009     1.0273e-008     -2.19e-010     
  -2.9            9.342e-010      2.3355e-008     -1.5837e-009   
  -2.95           -1.5043e-009    7.367e-009      -1.7918e-009   
  -3              -1.6065e-009    -1.8802e-008    2.1056e-009    
  -3.05           1.9712e-009     -7.967e-009     1.5333e-009    
  -3.1            2.1592e-009     1.1762e-008     6.42e-011      
  -3.15           2.2437e-009     1.2512e-008     2.758e-010     
  -3.2            2.2992e-009     1.2536e-008     4.711e-010     
  -3.25           2.3281e-009     1.1586e-008     6.59e-010      
  -3.3            2.332e-009      1.0042e-008     8.311e-010     
  -3.35           2.3208e-009     9.232e-009      9.833e-010     
  -3.4            1.8239e-009     1.0717e-008     -1.5668e-009   
  -3.45           -1.4725e-009    7.709e-009      -1.8103e-009   
  -3.5            -2.2406e-009    -1.3033e-008    -4.554e-010    
  -3.55           -1.4257e-009    -2.7564e-008    2.59e-009      
  -3.6            2.2462e-009     -4.145e-009     1.2315e-009    
  -3.65           2.0057e-009     1.0102e-008     -2.393e-010    
  -3.7            9.192e-010      2.2997e-008     -1.6091e-009   
  -3.75           -1.5249e-009    7.204e-009      -1.7811e-009   
  -3.8            -1.5964e-009    -1.946e-008     2.158e-009     
  -3.85           1.9913e-009     -7.685e-009     1.5106e-009    
  -3.9            2.1529e-009     1.1723e-008     4.71e-011      
  -3.95           2.2342e-009     1.247e-008      2.45e-010      
  -4              2.2932e-009     1.2639e-008     4.494e-010     
  -4.05           2.3249e-009     1.1991e-008     6.404e-010     
  -4.1            2.3345e-009     1.0388e-008     8.143e-010     
  -4.15           1.6834e-009     1.5459e-008     -1.3741e-009   
  -4.2            3.375e-010      1.3127e-008     -2.5577e-009   
  -4.25           -2.1799e-009    1.194e-009      -1.1222e-009   
  -4.3            -1.7846e-009    -9.981e-009     1.4712e-009    
  -4.35           2.3271e-009     -8.331e-009     9.465e-010     
  -4.4            2.3013e-009     9.01e-009       1.106e-009     
  -4.45           2.2167e-009     1.0848e-008     1.2618e-009    
  -4.5            2.0592e-009     1.2287e-008     1.4375e-009    
  -4.55           1.8302e-009     1.3255e-008     1.6242e-009    
  -4.6            1.5542e-009     1.2688e-008     1.8009e-009    
  -4.65           2.2767e-009     1.2691e-008     3.767e-010     
  -4.7            2.3129e-009     1.2197e-008     5.722e-010     
  -4.75           2.328e-009      1.0807e-008     7.556e-010     
  -4.8            2.3285e-009     9.531e-009      9.116e-010     
  -4.85           2.3107e-009     9.199e-009      1.0619e-009    
  -4.9            2.2469e-009     9.426e-009      1.2218e-009    
  -4.95           2.003e-009      1.0028e-008     -2.42e-010     
  -5              9.134e-010      2.2682e-008     -1.6172e-009   
END_DB

BEGIN_DB
 ICCAP_VAR VG         -1             
 ICCAP_VAR VS         0              
 ICCAP_VAR VB         0              

 #VD              ID              IB              IG             
  0               -3.8326e-009    1.4322e-008     2.6849e-009    
  -0.05           -3.4721e-007    -1.5936e-008    2.4669e-009    
  -0.1            -6.0136e-007    -2.2837e-008    1.3404e-009    
  -0.15           -7.7501e-007    -2.7063e-008    2.5915e-009    
  -0.2            -8.911e-007     -2.7922e-008    2.3765e-009    
  -0.25           -9.6921e-007    -2.6708e-008    2.1135e-009    
  -0.3            -1.01778e-006   -1.2861e-008    -6.09e-010     
  -0.35           -1.05067e-006   1.8432e-008     -1.7029e-009   
  -0.4            -1.08341e-006   1.2626e-008     7.191e-010     
  -0.45           -1.11776e-006   -1.9666e-008    1.5398e-009    
  -0.5            -1.14327e-006   -1.2608e-008    2.284e-010     
  -0.55           -1.1553e-006    -1.9365e-008    -2.2257e-009   
  -0.6            -1.1685e-006    1.9072e-008     -1.6254e-009   
  -0.65           -1.1929e-006    1.2252e-008     2.1136e-009    
  -0.7            -1.2156e-006    -1.4302e-008    1.4598e-009    
  -0.75           -1.2268e-006    -1.2838e-008    -7.719e-010    
  -0.8            -1.2333e-006    1.7242e-008     -1.851e-009    
  -0.85           -1.2489e-006    1.1633e-008     3.339e-010     
  -0.9            -1.274e-006     -1.8999e-008    2.548e-009     
  -0.95           -1.2858e-006    -2.6292e-008    2.6633e-009    
  -1              -1.3014e-006    -1.0052e-008    8.69e-011      
  -1.05           -1.3001e-006    9.526e-009      -1.3782e-009   
  -1.1            -1.313e-006     2.4758e-008     -1.3781e-009   
  -1.15           -1.326e-006     2.3927e-008     -1.3703e-009   
  -1.2            -1.354e-006     1.0328e-008     1.4682e-009    
  -1.25           -1.3646e-006    -2.7733e-008    2.5014e-009    
  -1.3            -1.3765e-006    -2.6795e-008    2.6216e-009    
  -1.35           -1.3913e-006    -1.0042e-008    5.58e-011      
  -1.4            -1.3873e-006    9.581e-009      -1.3708e-009   
  -1.45           -1.399e-006     2.3601e-008     -1.3696e-009   
  -1.5            -1.4263e-006    1.0483e-008     1.4824e-009    
  -1.55           -1.4355e-006    -2.7775e-008    2.4756e-009    
  -1.6            -1.449e-006     -2.6817e-008    2.6095e-009    
  -1.65           -1.4614e-006    -2.562e-008     2.7054e-009    
  -1.7            -1.4742e-006    -1.0338e-008    1.302e-010     
  -1.75           -1.469e-006     9.364e-009      -1.3858e-009   
  -1.8            -1.4937e-006    9.531e-009      1.3574e-009    
  -1.85           -1.5052e-006    -2.6772e-008    2.6251e-009    
  -1.9            -1.5193e-006    -1.0017e-008    5.61e-011      
  -1.95           -1.5128e-006    9.608e-009      -1.3731e-009   
  -2              -1.524e-006     2.3697e-008     -1.3693e-009   
  -2.05           -1.5518e-006    1.0379e-008     1.4721e-009    
  -2.1            -1.5614e-006    -2.7752e-008    2.4962e-009    
  -2.15           -1.5719e-006    -2.6841e-008    2.618e-009     
  -2.2            -1.5859e-006    -1.0085e-008    4.93e-011      
  -2.25           -1.5789e-006    9.672e-009      -1.3709e-009   
  -2.3            -1.607e-006     1.0248e-008     1.456e-009     
  -2.35           -1.6154e-006    -2.766e-008     2.5147e-009    
  -2.4            -1.6272e-006    -2.6576e-008    2.6315e-009    
  -2.45           -1.6385e-006    -2.532e-008     2.7227e-009    
  -2.5            -1.6519e-006    -1.0613e-008    1.453e-010     
  -2.55           -1.6442e-006    9.226e-009      -1.389e-009    
  -2.6            -1.6698e-006    9.478e-009      1.3415e-009    
  -2.65           -1.6816e-006    -2.6463e-008    2.6503e-009    
  -2.7            -1.6948e-006    -1.0065e-008    7.98e-011      
  -2.75           -1.6854e-006    9.61e-009       -1.3773e-009   
  -2.8            -1.6979e-006    2.4189e-008     -1.3725e-009   
  -2.85           -1.7084e-006    2.3406e-008     -1.3683e-009   
  -2.9            -1.7368e-006    1.046e-008      1.4792e-009    
  -2.95           -1.7471e-006    -2.7662e-008    2.4818e-009    
  -3              -1.7548e-006    -2.6958e-008    2.6065e-009    
  -3.05           -1.7673e-006    -2.5535e-008    2.7047e-009    
  -3.1            -1.7803e-006    -1.0212e-008    1.329e-010     
  -3.15           -1.7722e-006    9.411e-009      -1.3868e-009   
  -3.2            -1.7986e-006    9.567e-009      1.3601e-009    
  -3.25           -1.8094e-006    -2.6817e-008    2.6302e-009    
  -3.3            -1.8204e-006    -2.5329e-008    2.7212e-009    
  -3.35           -1.8341e-006    -1.0412e-008    1.415e-010     
  -3.4            -1.8246e-006    9.454e-009      -1.3882e-009   
  -3.45           -1.8521e-006    9.626e-009      1.3449e-009    
  -3.5            -1.8623e-006    -2.6373e-008    2.645e-009     
  -3.55           -1.8741e-006    -2.4871e-008    2.7364e-009    
  -3.6            -1.9032e-006    -1.0276e-008    1.52e-010      
  -3.65           -1.8954e-006    9.674e-009      -1.3909e-009   
  -3.7            -1.9225e-006    9.896e-009      1.3322e-009    
  -3.75           -1.9333e-006    -2.5824e-008    2.6585e-009    
  -3.8            -1.9479e-006    -2.4088e-008    2.7508e-009    
  -3.85           -1.9602e-006    -1.0021e-008    1.715e-010     
  -3.9            -1.9501e-006    1.0153e-008     -1.3913e-009   
  -3.95           -1.9767e-006    1.0329e-008     1.3126e-009    
  -4              -1.9866e-006    -7.682e-009     2.8605e-009    
  -4.05           -1.9987e-006    -2.0646e-008    1.8326e-009    
  -4.1            -2.0106e-006    -2.3572e-008    2.0213e-009    
  -4.15           -2.0216e-006    -1.6852e-008    1.9686e-009    
  -4.2            -2.035e-006     -1.654e-008     1.9224e-009    
  -4.25           -2.0467e-006    -1.6059e-008    1.8723e-009    
  -4.3            -2.0571e-006    -1.5374e-008    1.8168e-009    
  -4.35           -2.0673e-006    -1.48e-008      1.7691e-009    
  -4.4            -2.0819e-006    -1.402e-008     1.7179e-009    
  -4.45           -2.093e-006     -1.3223e-008    1.6747e-009    
  -4.5            -2.1077e-006    -4.024e-009     2.8476e-009    
  -4.55           -2.1188e-006    -3.476e-009     2.8455e-009    
  -4.6            -2.1293e-006    -2.921e-009     2.8411e-009    
  -4.65           -2.1448e-006    -2.199e-009     2.8351e-009    
  -4.7            -2.1568e-006    -1.382e-009     2.8262e-009    
  -4.75           -2.1698e-006    -6.3e-010       2.8183e-009    
  -4.8            -2.1824e-006    3.67e-010       2.8048e-009    
  -4.85           -2.1737e-006    6.509e-009      -1.3577e-009   
  -4.9            -2.189e-006     4.5022e-008     -1.3907e-009   
  -4.95           -2.2111e-006    3.0567e-008     2.5405e-009    
  -5              -2.2334e-006    1.1177e-008     -1.32e-010     
END_DB

BEGIN_DB
 ICCAP_VAR VG         -2             
 ICCAP_VAR VS         0              
 ICCAP_VAR VB         0              

 #VD              ID              IB              IG             
  0               -2.3584e-008    -1.0778e-008    -2.946e-010    
  -0.05           -1.787e-006     7.323e-009      1.4604e-009    
  -0.1            -3.4725e-006    -2.7736e-008    2.5121e-009    
  -0.15           -5.0726e-006    -2.6636e-008    2.6271e-009    
  -0.2            -6.5899e-006    -1.002e-008     6.16e-011      
  -0.25           -8.0014e-006    9.542e-009      -1.3735e-009   
  -0.3            -9.3456e-006    1.0086e-008     1.4443e-009    
  -0.35           -1.05852e-005   -2.7623e-008    2.5219e-009    
  -0.4            -1.173e-005     -2.0844e-008    1.9503e-009    
  -0.45           -1.279e-005     -1.9042e-008    1.668e-009     
  -0.5            -1.3758e-005    -2.6404e-008    2.6474e-009    
  -0.55           -1.4638e-005    -2.5581e-008    2.0259e-009    
  -0.6            -1.5426e-005    -1.2384e-008    -9.08e-010     
  -0.65           -1.6126e-005    2.6957e-008     -1.3924e-009   
  -0.7            -1.6798e-005    1.0128e-008     1.4593e-009    
  -0.75           -1.7359e-005    -1.8312e-008    1.6316e-009    
  -0.8            -1.7858e-005    -2.657e-008     2.6243e-009    
  -0.85           -1.83e-005      -2.4861e-008    1.9832e-009    
  -0.9            -1.8676e-005    -1.2324e-008    -9.216e-010    
  -0.95           -1.9006e-005    2.7326e-008     -1.3934e-009   
  -1              -1.9364e-005    1.0272e-008     1.4786e-009    
  -1.05           -1.9627e-005    -1.7665e-008    1.6082e-009    
  -1.1            -1.9852e-005    -1.0671e-008    -1.101e-009    
  -1.15           -2.0064e-005    2.8495e-008     -1.4015e-009   
  -1.2            -2.0283e-005    1.2497e-008     6.189e-010     
  -1.25           -2.0491e-005    -8.678e-009     2.836e-009     
  -1.3            -2.0674e-005    -1.4944e-008    1.4631e-009    
  -1.35           -2.0831e-005    -2.7808e-008    2.4527e-009    
  -1.4            -2.0986e-005    -2.0483e-008    1.7321e-009    
  -1.45           -2.1104e-005    -1.1441e-008    -1.0332e-009   
  -1.5            -2.1224e-005    2.8539e-008     -1.4025e-009   
  -1.55           -2.1412e-005    1.056e-008      1.6246e-009    
  -1.6            -2.1523e-005    -1.4006e-008    2.788e-010     
  -1.65           -2.1591e-005    9.984e-009      -2.5244e-009   
  -1.7            -2.1723e-005    1.1632e-008     3.299e-010     
  -1.75           -2.186e-005     -1.912e-008     1.7051e-009    
  -1.8            -2.1943e-005    -1.1133e-008    -1.0556e-009   
  -1.85           -2.2031e-005    2.8503e-008     -1.4008e-009   
  -1.9            -2.2191e-005    1.1761e-008     1.6435e-009    
  -1.95           -2.2272e-005    -1.3523e-008    2.661e-010     
  -2              -2.2318e-005    9.964e-009      -2.5062e-009   
  -2.05           -2.243e-005     1.1732e-008     3.459e-010     
  -2.1            -2.2552e-005    -1.9199e-008    1.6646e-009    
  -2.15           -2.2647e-005    -1.028e-008     1.01e-010      
  -2.2            -2.2684e-005    1.3163e-008     -2.2623e-009   
  -2.25           -2.2792e-005    1.245e-008      5.825e-010     
  -2.3            -2.2896e-005    -8.942e-009     2.8241e-009    
  -2.35           -2.2989e-005    -1.5819e-008    1.5078e-009    
  -2.4            -2.3065e-005    -2.7586e-008    2.4981e-009    
  -2.45           -2.3127e-005    -1.2799e-008    -6.233e-010    
  -2.5            -2.3187e-005    7.312e-009      -1.3964e-009   
  -2.55           -2.3263e-005    2.4291e-008     -1.3733e-009   
  -2.6            -2.3366e-005    1.1795e-008     8.735e-010     
  -2.65           -2.3463e-005    -2.6182e-008    2.6556e-009    
  -2.7            -2.3535e-005    -2.5753e-008    2.0477e-009    
  -2.75           -2.3591e-005    -1.245e-008     -8.975e-010    
  -2.8            -2.3643e-005    2.6771e-008     -1.3969e-009   
  -2.85           -2.3774e-005    1.0058e-008     1.4399e-009    
  -2.9            -2.3835e-005    -1.8719e-008    1.6598e-009    
  -2.95           -2.3908e-005    -2.6412e-008    2.6392e-009    
  -3              -2.3971e-005    -2.5293e-008    2.0022e-009    
  -3.05           -2.4025e-005    -1.2646e-008    -9.118e-010    
  -3.1            -2.4071e-005    2.6994e-008     -1.3973e-009   
  -3.15           -2.4204e-005    9.453e-009      1.4643e-009    
  -3.2            -2.4256e-005    -1.8116e-008    1.6347e-009    
  -3.25           -2.4296e-005    -1.0678e-008    -1.0849e-009   
  -3.3            -2.4345e-005    2.8565e-008     -1.4034e-009   
  -3.35           -2.4482e-005    1.1268e-008     1.6905e-009    
  -3.4            -2.4533e-005    -1.2394e-008    2.392e-010     
  -3.45           -2.4544e-005    1.0811e-008     -2.4683e-009   
  -3.5            -2.466e-005     1.3625e-008     1.9963e-009    
  -3.55           -2.4726e-005    -1.8795e-008    1.614e-009     
  -3.6            -2.4791e-005    -2.6188e-008    2.594e-009     
  -3.65           -2.4846e-005    -2.3134e-008    1.9313e-009    
  -3.7            -2.4924e-005    -1.6733e-008    2.6699e-009    
  -3.75           -2.4972e-005    -2.4607e-008    2.064e-009     
  -3.8            -2.5051e-005    -1.2414e-008    2.75e-010      
  -3.85           -2.5055e-005    1.1803e-008     -2.5093e-009   
  -3.9            -2.5177e-005    1.5669e-008     1.9509e-009    
  -3.95           -2.5231e-005    -1.6391e-008    1.6791e-009    
  -4              -2.5296e-005    -1.5662e-008    2.502e-009     
  -4.05           -2.5353e-005    -1.707e-008     1.7854e-009    
  -4.1            -2.5427e-005    -1.3606e-008    2.5805e-009    
  -4.15           -2.5479e-005    -1.2943e-008    1.6917e-009    
