! VERSION = 6.00
BEGIN_HEADER
 ICCAP_INPUTS
  VG         V  B GROUND SMU4 0.001 LIN        2    0          -5         6    -1        
  VS         V  E GROUND SMU2 0.1 CON        0
  VD         V  S GROUND SMU1 0.1 LIN        1    0          -5         101  -0.05     
  VB         V  C GROUND SMU3 0.1 LIN        3    0          2.5        2    2.5       
 ICCAP_OUTPUTS
  ID         I  S GROUND SMU1 B
  IB         I  C GROUND SMU3 B
  IG         I  B GROUND SMU4 B
END_HEADER

BEGIN_DB
 ICCAP_VAR VG         0              
 ICCAP_VAR VS         0              
 ICCAP_VAR VB         0              

 #VD              ID              IB              IG             
  0               9.669e-010      1.6609e-008     9.422e-010     
  -0.05           2.2423e-009     -3.99e-009      1.2349e-009    
  -0.1            2.0842e-009     1.2102e-008     1.4048e-009    
  -0.15           1.8668e-009     1.3002e-008     1.5844e-009    
  -0.2            1.6092e-009     1.2842e-008     1.7669e-009    
  -0.25           2.2531e-009     1.2644e-008     3.372e-010     
  -0.3            2.2924e-009     1.2375e-008     5.268e-010     
  -0.35           2.3135e-009     1.1222e-008     7.025e-010     
  -0.4            2.3199e-009     9.682e-009      8.715e-010     
  -0.45           2.3181e-009     9.189e-009      1.0155e-009    
  -0.5            2.2729e-009     9.934e-009      1.1728e-009    
  -0.55           2.1581e-009     1.0504e-008     1.329e-009     
  -0.6            1.962e-009      1.2014e-008     1.5123e-009    
  -0.65           2.1542e-009     1.1902e-008     6.04e-011      
  -0.7            1.1129e-009     2.8143e-008     -1.4157e-009   
  -0.75           -2.1806e-009    8.221e-009      -1.1127e-009   
  -0.8            -1.7754e-009    -1.0264e-008    1.47e-009      
  -0.85           2.323e-009      -8.499e-009     9.364e-010     
  -0.9            2.3046e-009     9.269e-009      1.0893e-009    
  -0.95           2.2281e-009     1.0658e-008     1.2435e-009    
  -1              2.0669e-009     1.218e-008      1.4112e-009    
  -1.05           1.8498e-009     1.2875e-008     1.5899e-009    
  -1.1            1.585e-009      1.2749e-008     1.7658e-009    
  -1.15           2.2505e-009     1.2662e-008     3.458e-010     
  -1.2            2.2893e-009     1.2187e-008     5.362e-010     
  -1.25           2.3149e-009     1.119e-008      7.08e-010      
  -1.3            2.3268e-009     9.819e-009      8.728e-010     
  -1.35           2.3193e-009     9.297e-009      1.0235e-009    
  -1.4            2.2732e-009     9.472e-009      1.1722e-009    
  -1.45           2.1462e-009     1.0484e-008     1.3374e-009    
  -1.5            1.9451e-009     1.2533e-008     1.51e-009      
  -1.55           2.1489e-009     1.1988e-008     6e-011         
  -1.6            2.222e-009      1.2579e-008     2.577e-010     
  -1.65           2.2748e-009     1.2446e-008     4.49e-010      
  -1.7            2.3074e-009     1.1449e-008     6.37e-010      
  -1.75           2.3247e-009     1.0215e-008     8.055e-010     
  -1.8            1.6683e-009     1.545e-008      -1.3628e-009   
  -1.85           3.342e-010      1.3065e-008     -2.566e-009    
  -1.9            -2.184e-009     1.432e-009      -1.1044e-009   
  -1.95           -1.7719e-009    -1.0433e-008    1.4854e-009    
  -2              2.3303e-009     -8.391e-009     9.316e-010     
  -2.05           2.3095e-009     9.201e-009      1.0841e-009    
  -2.1            2.2151e-009     9.764e-009      1.2392e-009    
  -2.15           2.0512e-009     1.094e-008      1.4043e-009    
  -2.2            1.8358e-009     1.2649e-008     1.5768e-009    
  -2.25           1.5777e-009     1.2645e-008     1.7636e-009    
  -2.3            2.2411e-009     1.2248e-008     3.411e-010     
  -2.35           2.2907e-009     1.1929e-008     5.256e-010     
  -2.4            2.3264e-009     1.1082e-008     7.128e-010     
  -2.45           2.3334e-009     9.93e-009       8.739e-010     
  -2.5            2.3213e-009     9.395e-009      1.0274e-009    
  -2.55           2.2506e-009     1.0187e-008     1.1766e-009    
  -2.6            2.1088e-009     1.1524e-008     1.3361e-009    
  -2.65           1.9163e-009     1.2267e-008     1.5091e-009    
  -2.7            2.1392e-009     1.1764e-008     6.88e-011      
  -2.75           2.2147e-009     1.2135e-008     2.641e-010     
  -2.8            2.2749e-009     1.2121e-008     4.568e-010     
  -2.85           2.3143e-009     1.1512e-008     6.373e-010     
  -2.9            2.3322e-009     1.0363e-008     8.07e-010      
  -2.95           2.3272e-009     9.512e-009      9.63e-010      
  -3              2.2856e-009     9.584e-009      1.1157e-009    
  -3.05           2.1736e-009     1.0801e-008     1.2633e-009    
  -3.1            2.0288e-009     1.0937e-008     -1.877e-010    
  -3.15           9.437e-010      2.4755e-008     -1.5647e-009   
  -3.2            -1.4638e-009    7.397e-009      -1.8021e-009   
  -3.25           -2.2111e-009    -1.2562e-008    -4.327e-010    
  -3.3            -2.2269e-009    -1.2218e-008    -6.325e-010    
  -3.35           -1.5209e-009    -2.312e-008     2.3235e-009    
  -3.4            2.09e-009       -5.877e-009     1.3638e-009    
  -3.45           1.8778e-009     1.2365e-008     1.543e-009     
  -3.5            2.1506e-009     1.1969e-008     9.31e-011      
  -3.55           2.2248e-009     1.2137e-008     2.948e-010     
  -3.6            2.2827e-009     1.2157e-008     4.823e-010     
  -3.65           2.3205e-009     1.1335e-008     6.632e-010     
  -3.7            2.3343e-009     1.0102e-008     8.316e-010     
  -3.75           2.3301e-009     9.508e-009      9.855e-010     
  -3.8            2.2744e-009     9.744e-009      1.1367e-009    
  -3.85           2.1557e-009     1.1023e-008     1.2906e-009    
  -3.9            2.0405e-009     1.1037e-008     -1.662e-010    
  -3.95           9.604e-010      2.5268e-008     -1.5445e-009   
  -4              -1.4374e-009    7.613e-009      -1.8198e-009   
  -4.05           -2.2152e-009    -1.2525e-008    -4.663e-010    
  -4.1            -1.4198e-009    -2.6344e-008    2.5493e-009    
  -4.15           2.2199e-009     -3.855e-009     1.2262e-009    
  -4.2            2.0526e-009     1.1868e-008     1.391e-009     
  -4.25           1.8504e-009     1.2502e-008     1.5693e-009    
  -4.3            1.5989e-009     1.2737e-008     1.7463e-009    
  -4.35           2.2396e-009     1.2155e-008     3.257e-010     
  -4.4            2.2883e-009     1.2093e-008     5.134e-010     
  -4.45           2.3234e-009     1.1196e-008     6.896e-010     
  -4.5            2.3344e-009     1.0021e-008     8.574e-010     
  -4.55           2.3245e-009     9.477e-009      1.0103e-009    
  -4.6            2.2607e-009     9.902e-009      1.1615e-009    
  -4.65           2.1296e-009     1.1294e-008     1.3173e-009    
  -4.7            1.9481e-009     1.2251e-008     1.4864e-009    
  -4.75           2.1284e-009     1.1799e-008     3.83e-011      
  -4.8            2.2093e-009     1.2226e-008     2.331e-010     
  -4.85           2.2679e-009     1.2172e-008     4.256e-010     
  -4.9            2.3112e-009     1.1974e-008     6.157e-010     
  -4.95           2.3336e-009     1.0676e-008     7.843e-010     
  -5              2.3348e-009     9.747e-009      9.416e-010     
END_DB

BEGIN_DB
 ICCAP_VAR VG         -1             
 ICCAP_VAR VS         0              
 ICCAP_VAR VB         0              

 #VD              ID              IB              IG             
  0               -3.52e-009      -5.128e-009     -1.5504e-009   
  -0.05           -1.9728e-007    9.545e-009      -2.4034e-009   
  -0.1            -3.2677e-007    1.2794e-008     1.7919e-009    
  -0.15           -4.1297e-007    -1.6068e-008    1.5217e-009    
  -0.2            -4.5676e-007    -1.2203e-008    -9.238e-010    
  -0.25           -4.7901e-007    7.604e-009      -1.3914e-009   
  -0.3            -4.9223e-007    2.8996e-008     -1.3977e-009   
  -0.35           -5.0691e-007    1.0453e-008     1.4959e-009    
  -0.4            -5.1589e-007    -2.5599e-008    2.0113e-009    
  -0.45           -5.2001e-007    -1.311e-008     -6.531e-010    
  -0.5            -5.2092e-007    1.8976e-008     -1.6468e-009   
  -0.55           -5.2551e-007    1.2726e-008     7.541e-010     
  -0.6            -5.3538e-007    -1.9776e-008    1.4789e-009    
  -0.65           -5.4012e-007    -1.1749e-008    2.128e-010     
  -0.7            -5.3612e-007    9.629e-009      -2.6298e-009   
  -0.75           -5.4428e-007    9.767e-009      1.5156e-009    
  -0.8            -5.4843e-007    -2.5037e-008    1.9949e-009    
  -0.85           -5.5213e-007    -2.0327e-008    1.713e-009     
  -0.9            -5.5203e-007    -1.3062e-008    -8.244e-010    
  -0.95           -5.5122e-007    6.671e-009      -1.3908e-009   
  -1              -5.5565e-007    9.79e-009       1.1177e-009    
  -1.05           -5.6165e-007    -2.6979e-008    2.6376e-009    
  -1.1            -5.6396e-007    -2.8196e-008    2.4557e-009    
  -1.15           -5.6629e-007    -2.7898e-008    2.2032e-009    
  -1.2            -5.6997e-007    -2.4384e-008    1.9253e-009    
  -1.25           -5.6886e-007    -1.3055e-008    -7.071e-010    
  -1.3            -5.6662e-007    1.9537e-008     -1.5912e-009   
  -1.35           -5.6946e-007    1.236e-008      8.039e-010     
  -1.4            -5.7564e-007    -9.19e-009      2.816e-009     
  -1.45           -5.7977e-007    -2.533e-008     1.9767e-009    
  -1.5            -5.7949e-007    -1.3043e-008    -6.724e-010    
  -1.55           -5.7705e-007    1.906e-008      -1.6205e-009   
  -1.6            -5.8021e-007    1.2408e-008     7.755e-010     
  -1.65           -5.8539e-007    -9.336e-009     2.8058e-009    
  -1.7            -5.896e-007     -2.6229e-008    2.0361e-009    
  -1.75           -5.8916e-007    -1.2946e-008    -6.375e-010    
  -1.8            -5.8642e-007    1.8755e-008     -1.6567e-009   
  -1.85           -5.8895e-007    1.2561e-008     7.392e-010     
  -1.9            -5.9718e-007    -1.9583e-008    1.4934e-009    
  -1.95           -6.0016e-007    -1.1955e-008    2.207e-010     
  -2              -5.9369e-007    9.76e-009       -2.6354e-009   
  -2.05           -6.0137e-007    1.0721e-008     1.4993e-009    
  -2.1            -6.0396e-007    -2.5405e-008    1.9974e-009    
  -2.15           -6.0343e-007    -1.3142e-008    -6.564e-010    
  -2.2            -6.005e-007     1.8738e-008     -1.6436e-009   
  -2.25           -6.0317e-007    1.248e-008      7.557e-010     
  -2.3            -6.1081e-007    -1.9728e-008    1.4784e-009    
  -2.35           -6.1371e-007    -1.1706e-008    2.114e-010     
  -2.4            -6.0699e-007    9.89e-009       -2.6316e-009   
  -2.45           -6.1498e-007    1.0044e-008     1.5131e-009    
  -2.5            -6.1735e-007    -2.4961e-008    1.9761e-009    
  -2.55           -6.1964e-007    -1.9998e-008    1.6955e-009    
  -2.6            -6.1757e-007    -1.2959e-008    -8.264e-010    
  -2.65           -6.1523e-007    2.1153e-008     -1.4803e-009   
  -2.7            -6.1787e-007    1.1832e-008     8.998e-010     
  -2.75           -6.2327e-007    -8.614e-009     2.8323e-009    
  -2.8            -6.2731e-007    -2.0966e-008    1.7454e-009    
  -2.85           -6.2539e-007    -1.2975e-008    -7.965e-010    
  -2.9            -6.2243e-007    2.0644e-008     -1.5065e-009   
  -2.95           -6.2561e-007    1.2015e-008     8.747e-010     
  -3              -6.3067e-007    -8.814e-009     2.8231e-009    
  -3.05           -6.2967e-007    -1.0776e-008    -1.0677e-009   
  -3.1            -6.2834e-007    8.147e-009      -1.4037e-009   
  -3.15           -6.3583e-007    9.297e-009      1.3933e-009    
  -3.2            -6.3795e-007    -2.7491e-008    2.1833e-009    
  -3.25           -6.4006e-007    -2.3802e-008    1.8957e-009    
  -3.3            -6.3876e-007    -1.2948e-008    -7.055e-010    
  -3.35           -6.3594e-007    1.9452e-008     -1.5836e-009   
  -3.4            -6.3773e-007    1.2263e-008     7.989e-010     
  -3.45           -6.4313e-007    -9.037e-009     2.8038e-009    
  -3.5            -6.4678e-007    -2.4822e-008    1.9651e-009    
  -3.55           -6.4673e-007    -1.2842e-008    -6.689e-010    
  -3.6            -6.4215e-007    1.9267e-008     -1.6165e-009   
  -3.65           -6.4394e-007    1.2454e-008     7.675e-010     
  -3.7            -6.506e-007     -8.992e-009     2.7979e-009    
  -3.75           -6.5385e-007    -2.5564e-008    2.0209e-009    
  -3.8            -6.5578e-007    -2.0335e-008    1.7415e-009    
  -3.85           -6.5372e-007    -1.239e-008     -7.968e-010    
  -3.9            -6.5022e-007    2.1262e-008     -1.5107e-009   
  -3.95           -6.5366e-007    1.2032e-008     8.734e-010     
  -4              -6.5889e-007    -8.278e-009     2.8244e-009    
  -4.05           -6.6257e-007    -2.1188e-008    1.7975e-009    
  -4.1            -6.604e-007     -1.2081e-008    -7.659e-010    
  -4.15           -6.5767e-007    2.1227e-008     -1.5319e-009   
  -4.2            -6.6055e-007    1.2654e-008     8.454e-010     
  -4.25           -6.6608e-007    -7.839e-009     2.8164e-009    
  -4.3            -6.7002e-007    -2.1533e-008    1.8642e-009    
  -4.35           -6.7275e-007    -1.6399e-008    1.6131e-009    
  -4.4            -6.7216e-007    -1.4922e-008    2.7478e-009    
  -4.45           -6.7316e-007    -1.7242e-008    2.4108e-009    
  -4.5            -6.7502e-007    -2.4941e-008    2.1522e-009    
  -4.55           -6.7712e-007    -2.0221e-008    1.8745e-009    
  -4.6            -6.7976e-007    -1.5356e-008    1.6239e-009    
  -4.65           -6.7987e-007    -1.3201e-008    2.7536e-009    
  -4.7            -6.8104e-007    -1.5483e-008    2.416e-009     
  -4.75           -6.8318e-007    -1.4799e-008    1.9408e-009    
  -4.8            -6.8487e-007    -8.25e-009      2.8484e-009    
  -4.85           -6.8675e-007    -1.2866e-008    2.6583e-009    
  -4.9            -6.8887e-007    -1.3152e-008    2.2636e-009    
  -4.95           -6.9065e-007    -1.2519e-008    1.7691e-009    
  -5              -6.9258e-007    -7.33e-009      2.8052e-009    
END_DB

BEGIN_DB
 ICCAP_VAR VG         -2             
 ICCAP_VAR VS         0              
 ICCAP_VAR VB         0              

 #VD              ID              IB              IG             
  0               -1.6547e-008    -2.6768e-008    -9.735e-010    
  -0.05           -1.2035e-006    -1.0518e-008    -1.8816e-009   
  -0.1            -2.3274e-006    1.1421e-008     3.073e-010     
  -0.15           -3.3962e-006    -1.9097e-008    2.5846e-009    
  -0.2            -4.404e-006     -1.0354e-008    3.22e-011      
  -0.25           -5.3359e-006    9.731e-009      -1.3603e-009   
  -0.3            -6.2205e-006    9.439e-009      1.4651e-009    
  -0.35           -7.0355e-006    -2.7768e-008    2.4934e-009    
  -0.4            -7.7857e-006    -2.6785e-008    2.6183e-009    
  -0.45           -8.4801e-006    -1.0314e-008    6.6e-011       
  -0.5            -9.0895e-006    9.653e-009      -1.3692e-009   
  -0.55           -9.6701e-006    9.176e-009      1.4301e-009    
  -0.6            -1.01733e-005   -2.7531e-008    2.5416e-009    
  -0.65           -1.06213e-005   -1.05e-008      5.4e-012       
  -0.7            -1.09902e-005   9.568e-009      -2.63e-009     
  -0.75           -1.1324e-005    4e-011          -1.8177e-009   
  -0.8            -1.1627e-005    1.2235e-008     8.76e-010      
  -0.85           -1.1892e-005    -2.6203e-008    2.6655e-009    
  -0.9            -1.2097e-005    -2.631e-008     2.0727e-009    
  -0.95           -1.2271e-005    -1.2889e-008    -8.78e-010     
  -1              -1.2414e-005    2.6579e-008     -1.3937e-009   
  -1.05           -1.2582e-005    9.167e-009      1.4124e-009    
  -1.1            -1.2695e-005    -1.9775e-008    1.7143e-009    
  -1.15           -1.2779e-005    -1.1511e-008    -1.0335e-009   
  -1.2            -1.2859e-005    2.8614e-008     -1.3973e-009   
  -1.25           -1.2979e-005    1.0323e-008     1.6238e-009    
  -1.3            -1.3045e-005    -1.4444e-008    1.4506e-009    
  -1.35           -1.3109e-005    -2.8023e-008    2.4352e-009    
  -1.4            -1.3169e-005    -2.0578e-008    1.7278e-009    
  -1.45           -1.3211e-005    -1.1495e-008    -1.0287e-009   
  -1.5            -1.3253e-005    2.8686e-008     -1.3969e-009   
  -1.55           -1.3347e-005    1.0347e-008     1.6115e-009    
  -1.6            -1.3383e-005    -1.4626e-008    1.4559e-009    
  -1.65           -1.3426e-005    -2.7974e-008    2.4467e-009    
  -1.7            -1.3472e-005    -2.0796e-008    1.7392e-009    
  -1.75           -1.3497e-005    -1.1743e-008    -1.0224e-009   
  -1.8            -1.3524e-005    2.8447e-008     -1.3964e-009   
  -1.85           -1.3606e-005    1.017e-008      1.5998e-009    
  -1.9            -1.3635e-005    -1.4743e-008    1.4652e-009    
  -1.95           -1.3668e-005    -2.777e-008     2.459e-009     
  -2              -1.3702e-005    -2.1148e-008    1.7599e-009    
  -2.05           -1.3723e-005    -1.1718e-008    -1.0123e-009   
  -2.1            -1.3744e-005    2.8428e-008     -1.3961e-009   
  -2.15           -1.382e-005     1.0139e-008     1.5958e-009    
  -2.2            -1.3844e-005    -1.5051e-008    1.4799e-009    
  -2.25           -1.3873e-005    -2.7731e-008    2.4739e-009    
  -2.3            -1.3903e-005    -2.1319e-008    1.7777e-009    
  -2.35           -1.392e-005     -1.1755e-008    -1.005e-009    
  -2.4            -1.3936e-005    2.8382e-008     -1.3968e-009   
  -2.45           -1.4007e-005    1.0142e-008     1.5824e-009    
  -2.5            -1.403e-005     -1.5489e-008    1.4885e-009    
  -2.55           -1.4052e-005    -2.771e-008     2.4814e-009    
  -2.6            -1.4066e-005    -1.2827e-008    -6.235e-010    
  -2.65           -1.4082e-005    7.31e-009       -1.3946e-009   
  -2.7            -1.4145e-005    9.794e-009      1.4132e-009    
  -2.75           -1.4164e-005    -1.9863e-008    1.7081e-009    
  -2.8            -1.4193e-005    -2.5982e-008    2.673e-009     
  -2.85           -1.4213e-005    -2.6394e-008    2.089e-009     
  -2.9            -1.4228e-005    -1.2599e-008    -8.654e-010    
  -2.95           -1.4236e-005    2.6518e-008     -1.3944e-009   
  -3              -1.4303e-005    9.809e-009      1.4048e-009    
  -3.05           -1.432e-005     -2.0067e-008    1.7201e-009    
  -3.1            -1.4352e-005    -1.0608e-008    1.366e-010     
  -3.15           -1.4341e-005    1.2877e-008     -2.3268e-009   
  -3.2            -1.4387e-005    1.2549e-008     2.128e-009     
  -3.25           -1.4422e-005    -2.0357e-008    1.4566e-009    
  -3.3            -1.444e-005     -2.7907e-008    2.4439e-009    
  -3.35           -1.445e-005     -1.2809e-008    -6.518e-010    
  -3.4            -1.4458e-005    7.677e-009      -1.3934e-009   
  -3.45           -1.452e-005     1.0109e-008     1.4408e-009    
  -3.5            -1.4535e-005    -1.8959e-008    1.6639e-009    
  -3.55           -1.456e-005     -2.6135e-008    2.6426e-009    
  -3.6            -1.4576e-005    -2.5502e-008    2.0272e-009    
  -3.65           -1.4603e-005    -1.3525e-008    2.628e-010     
  -3.7            -1.4589e-005    1.0733e-008     -2.5074e-009   
  -3.75           -1.4622e-005    1.2113e-008     3.472e-010     
  -3.8            -1.4672e-005    -1.8695e-008    1.6865e-009    
  -3.85           -1.4694e-005    -9.657e-009     1.081e-010     
  -3.9            -1.4676e-005    1.4351e-008     -2.2914e-009   
  -3.95           -1.4724e-005    1.417e-008      2.1567e-009    
  -4              -1.4758e-005    -1.9506e-008    1.4316e-009    
  -4.05           -1.4768e-005    -1.783e-008     2.1973e-009    
  -4.1            -1.4799e-005    -1.4048e-008    1.5131e-009    
  -4.15           -1.4814e-005    -1.7057e-008    2.3284e-009    
