! VERSION = 6.00
BEGIN_HEADER
 ICCAP_INPUTS
  VG         V  B GROUND SMU4 0.001 LIN        2    0          -5         6    -1        
  VS         V  E GROUND SMU2 0.1 CON        0
  VD         V  S GROUND SMU1 0.1 LIN        1    0          -5         101  -0.05     
  VB         V  C GROUND SMU3 0.1 LIN        3    0          2.5        2    2.5       
 ICCAP_OUTPUTS
  ID         I  S GROUND SMU1 B
  IB         I  C GROUND SMU3 B
  IG         I  B GROUND SMU4 B
END_HEADER

BEGIN_DB
 ICCAP_VAR VG         0              
 ICCAP_VAR VS         0              
 ICCAP_VAR VB         0              

 #VD              ID              IB              IG             
  0               -1.7001e-009    -5.324e-009     -1.5328e-009   
  -0.05           -1.9364e-009    -1.17e-008      1.589e-010     
  -0.1            -2.0802e-009    -1.1057e-008    -1.91e-011     
  -0.15           -2.2049e-009    -1.0917e-008    -2.151e-010    
  -0.2            -2.2826e-009    -1.1024e-008    -4.409e-010    
  -0.25           -2.3245e-009    -1.1522e-008    -6.532e-010    
  -0.3            -2.32e-009      -1.1684e-008    -8.624e-010    
  -0.35           -1.6709e-009    -1.5067e-008    1.9376e-009    
  -0.4            1.8106e-009     -9.139e-009     1.6144e-009    
  -0.45           2.2108e-009     1.0378e-008     2.04e-010      
  -0.5            2.3192e-009     1.0479e-008     3.946e-010     
  -0.55           2.3903e-009     1.1002e-008     5.909e-010     
  -0.6            1.5536e-009     2.1686e-008     -1.3416e-009   
  -0.65           1.805e-010      1.2334e-008     -2.7137e-009   
  -0.7            -1.3344e-009    8.32e-010       -1.9767e-009   
  -0.75           -2.326e-009     -1.1587e-008    -6.826e-010    
  -0.8            -1.5998e-009    -1.8416e-008    1.2558e-009    
  -0.85           -2.016e-010     -1.3656e-008    2.8589e-009    
  -0.9            2.191e-009      1.0405e-008     1.716e-010     
  -0.95           2.3031e-009     1.048e-008      3.641e-010     
  -1              2.3818e-009     1.0844e-008     5.603e-010     
  -1.05           1.521e-009      2.2598e-008     -1.3473e-009   
  -1.1            1.545e-010      1.1877e-008     -2.7359e-009   
  -1.15           -1.3528e-009    8.08e-010       -1.9589e-009   
  -1.2            -2.3208e-009    -1.1421e-008    -6.525e-010    
  -1.25           -2.3174e-009    -1.1449e-008    -8.557e-010    
  -1.3            -1.6679e-009    -1.5292e-008    1.9492e-009    
  -1.35           1.8263e-009     -9.081e-009     1.6082e-009    
  -1.4            1.5554e-009     1.0218e-008     1.8066e-009    
  -1.45           2.3124e-009     1.0547e-008     3.87e-010      
  -1.5            5.026e-010      1.755e-008      -2.3638e-009   
  -1.55           -2.0964e-009    2.852e-009      -1.334e-009    
  -1.6            -1.9058e-009    -1.1898e-008    -1.5245e-009   
  -1.65           -2.0935e-009    -1.1073e-008    -3.19e-011     
  -1.7            -2.2138e-009    -1.1038e-008    -2.377e-010    
  -1.75           -2.2896e-009    -1.1121e-008    -4.676e-010    
  -1.8            -2.3276e-009    -1.1648e-008    -6.817e-010    
  -1.85           -1.5961e-009    -1.8886e-008    1.2567e-009    
  -1.9            -1.895e-010     -1.3621e-008    2.8617e-009    
  -1.95           2.1875e-009     1.0277e-008     1.592e-010     
  -2              2.2982e-009     1.042e-008      3.586e-010     
  -2.05           2.3785e-009     1.0897e-008     5.587e-010     
  -2.1            2.4069e-009     1.1247e-008     7.469e-010     
  -2.15           2.3894e-009     1.0851e-008     9.276e-010     
  -2.2            2.3229e-009     1.0793e-008     1.0919e-009    
  -2.25           1.9254e-009     1.1861e-008     -1.5011e-009   
  -2.3            -1.3618e-009    9.725e-009      -1.955e-009    
  -2.35           -2.3245e-009    -1.1541e-008    -6.449e-010    
  -2.4            -2.3158e-009    -1.1702e-008    -8.515e-010    
  -2.45           -2.272e-009     -1.138e-008     -1.0169e-009   
  -2.5            -1.7442e-009    -1.3055e-008    1.6754e-009    
  -2.55           1.5746e-009     -9.082e-009     1.8063e-009    
  -2.6            2.3239e-009     1.0402e-008     3.919e-010     
  -2.65           2.3904e-009     1.1114e-008     5.931e-010     
  -2.7            1.5469e-009     2.2342e-008     -1.3382e-009   
  -2.75           1.738e-010      1.2423e-008     -2.7108e-009   
  -2.8            -1.3367e-009    8.94e-010       -1.9779e-009   
  -2.85           -2.3237e-009    -1.154e-008     -6.86e-010     
  -2.9            -2.3036e-009    -1.1547e-008    -8.876e-010    
  -2.95           -2.2576e-009    -1.128e-008     -1.052e-009    
  -3              -1.7647e-009    -1.2756e-008    1.6221e-009    
  -3.05           1.5264e-009     -8.902e-009     1.8442e-009    
  -3.1            2.343e-009      1.0521e-008     4.397e-010     
  -3.15           2.4012e-009     1.1056e-008     6.359e-010     
  -3.2            1.5817e-009     2.0973e-008     -1.3325e-009   
  -3.25           2.102e-010      1.2756e-008     -2.6856e-009   
  -3.3            -1.3071e-009    9.59e-010       -2.0016e-009   
  -3.35           -2.3249e-009    -1.1613e-008    -7.339e-010    
  -3.4            -1.6287e-009    -1.7643e-008    2.1377e-009    
  -3.45           1.9564e-009     -7.849e-009     1.5036e-009    
  -3.5            2.1433e-009     1.0417e-008     9.4e-011       
  -3.55           2.2663e-009     1.0417e-008     2.846e-010     
  -3.6            2.3579e-009     1.0773e-008     4.835e-010     
  -3.65           2.4064e-009     1.1219e-008     6.81e-010      
  -3.7            1.6225e-009     1.964e-008      -1.3272e-009   
  -3.75           2.54e-010       1.3503e-008     -2.65e-009     
  -3.8            -1.2833e-009    9.91e-010       -2.0263e-009   
  -3.85           -2.3211e-009    -1.1647e-008    -7.941e-010    
  -3.9            -1.6461e-009    -1.6629e-008    2.0531e-009    
  -3.95           1.9067e-009     -8.503e-009     1.551e-009     
  -4              2.1726e-009     1.0352e-008     1.396e-010     
  -4.05           2.2888e-009     1.0525e-008     3.324e-010     
  -4.1            2.3736e-009     1.0827e-008     5.302e-010     
  -4.15           2.4077e-009     1.113e-008      7.237e-010     
  -4.2            1.6554e-009     1.8424e-008     -1.3244e-009   
  -4.25           2.922e-010      1.4147e-008     -2.6234e-009   
  -4.3            -1.2671e-009    1.136e-009      -2.0572e-009   
  -4.35           -2.3166e-009    -1.1589e-008    -8.384e-010    
  -4.4            -1.6646e-009    -1.5669e-008    1.9826e-009    
  -4.45           1.8458e-009     -8.969e-009     1.5956e-009    
  -4.5            2.1991e-009     1.047e-008      1.835e-010     
  -4.55           2.3111e-009     1.0598e-008     3.786e-010     
  -4.6            1.3792e-009     2.646e-008      -1.376e-009    
  -4.65           1.59e-011       1.1558e-008     -1.3409e-009   
  -4.7            1.617e-010      1.2232e-008     -2.7217e-009   
  -4.75           -1.3409e-009    8.6e-010        -1.9732e-009   
  -4.8            -2.3207e-009    -1.1632e-008    -6.808e-010    
  -4.85           -2.3104e-009    -1.1548e-008    -8.761e-010    
  -4.9            -2.2672e-009    -1.1186e-008    -1.0393e-009   
  -4.95           -1.7651e-009    -1.2639e-008    1.633e-009     
  -5              1.5291e-009     -9.031e-009     1.8338e-009    
END_DB

BEGIN_DB
 ICCAP_VAR VG         -1             
 ICCAP_VAR VS         0              
 ICCAP_VAR VB         0              

 #VD              ID              IB              IG             
  0               -5.5915e-008    1.3225e-008     1.144e-010     
  -0.05           -2.922e-006     -9.177e-009     -1.4312e-009   
  -0.1            -4.5409e-006    2.7805e-008     -1.3893e-009   
  -0.15           -5.4938e-006    1.0923e-008     1.0411e-009    
  -0.2            -6.0954e-006    -2.3713e-008    1.4694e-009    
  -0.25           -6.4111e-006    -1.1148e-008    -8.266e-010    
  -0.3            -6.7048e-006    1.9858e-008     -1.7759e-009   
  -0.35           -6.9677e-006    1.0467e-008     3.898e-010     
  -0.4            -7.3377e-006    -1.6225e-008    2.405e-009     
  -0.45           -7.5367e-006    -1.1829e-008    -6.77e-011     
  -0.5            -7.6339e-006    1.1545e-008     -2.6262e-009   
  -0.55           -7.9646e-006    1.0813e-008     1.3276e-009    
  -0.6            -8.1647e-006    -2.616e-008     1.3124e-009    
  -0.65           -8.2124e-006    -1.1488e-008    -1.1024e-009   
  -0.7            -8.4088e-006    2.4313e-008     -1.501e-009    
  -0.75           -8.6253e-006    1.0549e-008     7.224e-010     
  -0.8            -8.8962e-006    -2.0107e-008    1.8808e-009    
  -0.85           -9.0167e-006    -1.109e-008     -4.299e-010    
  -0.9            -9.1093e-006    1.4722e-008     -2.2653e-009   
  -0.95           -9.2904e-006    1.1317e-008     5.4e-011       
  -1              -9.606e-006     -1.1262e-008    2.7999e-009    
  -1.05           -9.7708e-006    -1.3157e-008    2.47e-010      
  -1.1            -9.7677e-006    1.0789e-008     -1.3427e-009   
  -1.15           -9.9499e-006    1.1091e-008     1.44e-010      
  -1.2            -1.02756e-005   -1.2728e-008    2.713e-009     
  -1.25           -1.02161e-005   -1.1412e-008    -1.4951e-009   
  -1.3            -1.04389e-005   2.7996e-008     -1.3742e-009   
  -1.35           -1.07192e-005   1.0631e-008     1.1012e-009    
  -1.4            -1.09322e-005   -2.4516e-008    1.4181e-009    
  -1.45           -1.09563e-005   -1.1326e-008    -8.873e-010    
  -1.5            -1.1086e-005    -8.312e-009     -1.3262e-009   
  -1.55           -1.1277e-005    1.3443e-008     -2.051e-010    
  -1.6            -1.1584e-005    -1.4828e-008    2.5668e-009    
  -1.65           -1.1653e-005    -1.1061e-008    -5.113e-010    
  -1.7            -1.1745e-005    2.3189e-008     -1.5532e-009   
  -1.75           -1.2011e-005    1.0661e-008     1.1013e-009    
  -1.8            -1.219e-005     -2.4002e-008    1.2613e-009    
  -1.85           -1.2252e-005    -1.0953e-008    -7.682e-010    
  -1.9            -1.2366e-005    2.594e-008      -1.4434e-009   
  -1.95           -1.2698e-005    1.0709e-008     1.2996e-009    
  -2              -1.2835e-005    -1.9331e-008    1.8768e-009    
  -2.05           -1.2868e-005    -1.1413e-008    -9.674e-010    
  -2.1            -1.3003e-005    2.7882e-008     -1.3859e-009   
  -2.15           -1.3179e-005    1.0444e-008     4.345e-010     
  -2.2            -1.3511e-005    -2.223e-008     1.5829e-009    
  -2.25           -1.3465e-005    -1.1346e-008    -1.1627e-009   
  -2.3            -1.3638e-005    2.6893e-008     -1.3465e-009   
  -2.35           -1.3859e-005    1.0481e-008     6.655e-010     
  -2.4            -1.4164e-005    -2.4732e-008    1.3986e-009    
  -2.45           -1.427e-005     -1.1331e-008    -2.201e-010    
  -2.5            -1.4295e-005    1.9861e-008     -1.8128e-009   
  -2.55           -1.4542e-005    1.0879e-008     8.791e-010     
  -2.6            -1.4809e-005    -2.6072e-008    1.3101e-009    
  -2.65           -1.4881e-005    -1.0928e-008    -4.774e-010    
  -2.7            -1.4947e-005    2.2893e-008     -1.5786e-009   
  -2.75           -1.5246e-005    1.0806e-008     1.075e-009     
  -2.8            -1.5439e-005    -2.422e-008     1.2659e-009    
  -2.85           -1.5489e-005    -1.0698e-008    -7.324e-010    
  -2.9            -1.5583e-005    2.6069e-008     -1.4521e-009   
  -2.95           -1.595e-005     1.1253e-008     1.2727e-009    
  -3              -1.6133e-005    -1.2548e-008    2.6696e-009    
  -3.05           -1.6208e-005    -1.0221e-008    -4.024e-010    
  -3.1            -1.6252e-005    2.2897e-008     -1.6327e-009   
  -3.15           -1.6551e-005    1.2064e-008     1.024e-009     
  -3.2            -1.6807e-005    -7.621e-009     2.8894e-009    
  -3.25           -1.6964e-005    -1.4684e-008    2.3379e-009    
  -3.3            -1.6983e-005    -8.613e-009     -7.015e-010    
  -3.35           -1.7067e-005    2.8195e-008     -1.4654e-009   
  -3.4            -1.7454e-005    1.4117e-008     1.2469e-009    
  -3.45           -1.765e-005     -8.536e-009     2.7042e-009    
  -3.5            -1.7793e-005    -1.4728e-008    1.924e-009     
  -3.55           -1.7984e-005    -7.637e-009     2.6381e-009    
  -3.6            -1.8118e-005    -1.435e-009     1.2585e-009    
  -3.65           -1.8134e-005    3.632e-009      -2.816e-009    
  -3.7            -1.8524e-005    2.1319e-008     1.3962e-009    
  -3.75           -1.8686e-005    -2.941e-009     2.5147e-009    
  -3.8            -1.8712e-005    2.0118e-008     2.9283e-009    
  -3.85           -1.9042e-005    4.627e-009      2.7324e-009    
  -3.9            -1.8938e-005    8.256e-009      -1.9154e-009   
  -3.95           -1.9177e-005    3.5023e-008     -5.85e-011     
  -4              -1.947e-005     2.3964e-008     1.9023e-009    
  -4.05           -1.9549e-005    2.1755e-008     -2.2975e-009   
  -4.1            -1.9714e-005    4.6779e-008     5.051e-010     
  -4.15           -2.011e-005     1.8617e-008     1.5139e-009    
  -4.2            -2.011e-005     3.9964e-008     -2.5887e-009   
  -4.25           -2.034e-005     6.6703e-008     8.301e-010     
  -4.3            -2.0663e-005    3.7781e-008     1.3278e-009    
  -4.35           -2.0681e-005    6.609e-008      -2.7752e-009   
  -4.4            -2.099e-005     9.4932e-008     1.1123e-009    
  -4.45           -2.1194e-005    7.1495e-008     1.2624e-009    
  -4.5            -2.1311e-005    1.3572e-007     3.784e-010     
  -4.55           -2.1358e-005    1.3489e-007     -2.6023e-009   
  -4.6            -2.1836e-005    1.5146e-007     1.8573e-009    
  -4.65           -2.2053e-005    1.4623e-007     1.035e-010     
  -4.7            -2.1969e-005    1.9351e-007     -2.2228e-009   
  -4.75           -2.2356e-005    2.1218e-007     2.1749e-009    
  -4.8            -2.2604e-005    2.1495e-007     -1.999e-010    
  -4.85           -2.2632e-005    2.7428e-007     -1.7638e-009   
  -4.9            -2.2959e-005    2.9526e-007     2.4272e-009    
  -4.95           -2.3199e-005    3.0603e-007     -5.491e-010    
  -5              -2.3314e-005    3.7982e-007     -1.4448e-009   
END_DB

BEGIN_DB
 ICCAP_VAR VG         -2             
 ICCAP_VAR VS         0              
 ICCAP_VAR VB         0              

 #VD              ID              IB              IG             
  0               -3.5515e-007    -1.1946e-008    2.8864e-009    
  -0.05           -3.0976e-005    1.2179e-008     -2.2374e-009   
  -0.1            -5.999e-005     1.0391e-008     4.306e-010     
  -0.15           -8.746e-005     -2.2173e-008    1.5736e-009    
  -0.2            -0.000113298    -1.1936e-008    1.12e-011      
  -0.25           -0.00013718     3.749e-009      -1.4062e-009   
  -0.3            -0.00015954     1.0421e-008     4.701e-010     
  -0.35           -0.00018033     -2.4073e-008    1.435e-009     
  -0.4            -0.00019915     -1.1091e-008    -2.97e-010     
  -0.45           -0.00021596     2.2196e-008     -1.6012e-009   
  -0.5            -0.00023169     1.0688e-008     1.1628e-009    
  -0.55           -0.00024537     -2.0246e-008    1.92e-009      
  -0.6            -0.00025775     -1.2232e-008    1.277e-010     
  -0.65           -0.0002679      1.6385e-008     -2.1234e-009   
  -0.7            -0.00027769     1.078e-008      7.985e-010     
  -0.75           -0.00028616     -2.6455e-008    1.2994e-009    
  -0.8            -0.00029324     -1.1083e-008    -6.699e-010    
  -0.85           -0.00029934     2.6216e-008     -1.4291e-009   
  -0.9            -0.00030515     1.0448e-008     3.781e-010     
  -0.95           -0.00031063     -2.2919e-008    1.5065e-009    
  -1              -0.00031446     -1.1107e-008    -1.3518e-009   
  -1.05           -0.00031869     2.0181e-008     -1.6891e-009   
  -1.1            -0.00032297     1.0608e-008     1.081e-009     
  -1.15           -0.00032644     -2.2226e-008    2.0751e-009    
  -1.2            -0.00032917     -1.1399e-008    -9.797e-010    
  -1.25           -0.00033194     2.7894e-008     -1.3595e-009   
  -1.3            -0.0003351      1.0555e-008     7.031e-010     
  -1.35           -0.00033818     -2.6038e-008    1.3236e-009    
  -1.4            -0.00034048     -1.1056e-008    -5.65e-010     
  -1.45           -0.00034248     2.509e-008      -1.4626e-009   
  -1.5            -0.00034577     1.0999e-008     1.3746e-009    
  -1.55           -0.00034788     -1.511e-008     1.6044e-009    
  -1.6            -0.00034927     -1.1162e-008    -1.2671e-009   
  -1.65           -0.00035134     1.2367e-008     -2.4879e-009   
  -1.7            -0.00035414     9.87e-009       2.1014e-009    
  -1.75           -0.00035614     -1.1131e-008    -3.147e-010    
  -1.8            -0.00035756     2.2363e-008     -1.5935e-009   
  -1.85           -0.00036023     1.0803e-008     1.1706e-009    
  -1.9            -0.00036195     -1.9974e-008    1.9106e-009    
  -1.95           -0.00036338     -1.1616e-008    -1.0644e-009   
  -2              -0.00036498     2.68e-008       -1.3449e-009   
  -2.05           -0.00036726     1.0751e-008     8.024e-010     
  -2.1            -0.00036942     -2.632e-008     1.2979e-009    
  -2.15           -0.00037072     -1.0944e-008    -6.769e-010    
  -2.2            -0.00037201     2.6304e-008     -1.4277e-009   
  -2.25           -0.00037386     1.0464e-008     3.88e-010      
  -2.3            -0.00037622     -2.322e-008     1.4963e-009    
  -2.35           -0.00037691     -1.1261e-008    -1.3644e-009   
  -2.4            -0.00037877     1.9912e-008     -1.6753e-009   
  -2.45           -0.00038104     1.068e-008      1.0909e-009    
  -2.5            -0.00038253     -2.1808e-008    2.0623e-009    
  -2.55           -0.00038432     -1.2564e-008    1.984e-010     
  -2.6            -0.00038495     1.5334e-008     -2.2284e-009   
  -2.65           -0.00038696     1.0597e-008     7.151e-010     
  -2.7            -0.0003889      -2.5929e-008    1.322e-009     
  -2.75           -0.00039006     -1.0787e-008    -5.739e-010    
  -2.8            -0.00039108     2.5653e-008     -1.4586e-009   
  -2.85           -0.00039362     1.1383e-008     1.3856e-009    
  -2.9            -0.00039478     -1.432e-008     1.586e-009     
  -2.95           -0.0003962      -1.0863e-008    -9.61e-011     
  -3              -0.00039686     2.1219e-008     -1.7815e-009   
  -3.05           -0.00039896     1.2253e-008     1.0136e-009    
  -3.1            -0.00040074     -8.508e-009     2.8237e-009    
  -3.15           -0.000402       -1.7356e-008    1.9422e-009    
  -3.2            -0.00040357     -1.2123e-008    2.502e-009     
  -3.25           -0.00040496     -5.884e-009     2.8445e-009    
  -3.3            -0.00040617     -1.3982e-008    1.994e-009     
  -3.35           -0.00040765     -8.266e-009     2.5388e-009    
  -3.4            -0.00040898     -9.03e-010      2.8648e-009    
  -3.45           -0.00041031     -7.876e-009     2.0463e-009    
  -3.5            -0.00041113     4.549e-009      -2.343e-009    
  -3.55           -0.00041263     2.7871e-008     6.868e-010     
  -3.6            -0.0004142      2.048e-008      2.3361e-009    
  -3.65           -0.00041518     1.7055e-008     -2.1794e-009   
  -3.7            -0.00041637     4.3472e-008     4.926e-010     
  -3.75           -0.0004184      1.6031e-008     1.4204e-009    
  -3.8            -0.00041916     4.2195e-008     -2.7522e-009   
  -3.85           -0.00042092     7.0908e-008     1.1534e-009    
  -3.9            -0.00042207     5.2711e-008     1.9435e-009    
  -3.95           -0.00042304     7.8772e-008     -2.4045e-009   
  -4              -0.00042457     9.746e-008      7.76e-011      
  -4.05           -0.00042613     1.0746e-007     1.8857e-009    
  -4.1            -0.00042695     1.4331e-007     -2.4363e-009   
  -4.15           -0.00042839     1.9279e-007     7.862e-010     
