! VERSION = 6.00
BEGIN_HEADER
 ICCAP_INPUTS
  VG         V  B GROUND SMU4 0.001 LIN        2    0          -5         6    -1        
  VS         V  E GROUND SMU2 0.1 CON        0
  VD         V  S GROUND SMU1 0.1 LIN        1    0          -5         101  -0.05     
  VB         V  C GROUND SMU3 0.1 LIN        3    0          2.5        2    2.5       
 ICCAP_OUTPUTS
  ID         I  S GROUND SMU1 B
  IB         I  C GROUND SMU3 B
  IG         I  B GROUND SMU4 B
END_HEADER

BEGIN_DB
 ICCAP_VAR VG         0              
 ICCAP_VAR VS         0              
 ICCAP_VAR VB         0              

 #VD              ID              IB              IG             
  0               -7.52e-010      -2.7036e-008    -7.044e-010    
  -0.05           -1.2604e-009    9.616e-009      -1.9574e-009   
  -0.1            -1.7202e-009    -1.3185e-008    1.584e-009     
  -0.15           2.3554e-009     -9.282e-009     8.738e-010     
  -0.2            2.3011e-009     1.1305e-008     1.0104e-009    
  -0.25           2.1998e-009     1.2218e-008     1.1773e-009    
  -0.3            1.9704e-009     1.1383e-008     -1.967e-010    
  -0.35           2.0512e-009     1.077e-008      -2.49e-011     
  -0.4            2.1487e-009     1.0531e-008     1.646e-010     
  -0.45           2.2506e-009     1.073e-008      3.614e-010     
  -0.5            2.3235e-009     1.0919e-008     5.63e-010      
  -0.55           2.3595e-009     1.131e-008      7.436e-010     
  -0.6            2.3501e-009     1.1104e-008     8.851e-010     
  -0.65           2.2941e-009     1.1342e-008     1.0275e-009    
  -0.7            2.1853e-009     1.2209e-008     1.1927e-009    
  -0.75           1.9792e-009     1.1324e-008     -1.857e-010    
  -0.8            2.0613e-009     1.0646e-008     -4.7e-012      
  -0.85           2.1581e-009     1.0534e-008     1.846e-010     
  -0.9            2.2589e-009     1.0756e-008     3.87e-010      
  -0.95           2.3295e-009     1.0985e-008     5.797e-010     
  -1              2.3622e-009     1.1246e-008     7.558e-010     
  -1.05           2.3484e-009     1.1109e-008     8.904e-010     
  -1.1            2.2891e-009     1.139e-008      1.0375e-009    
  -1.15           2.1689e-009     1.2439e-008     1.2128e-009    
  -1.2            1.9871e-009     1.1366e-008     -1.633e-010    
  -1.25           2.0673e-009     1.0666e-008     8.5e-012       
  -1.3            2.1695e-009     1.0629e-008     1.999e-010     
  -1.35           2.2659e-009     1.0714e-008     4.044e-010     
  -1.4            2.3325e-009     1.0987e-008     5.968e-010     
  -1.45           2.3623e-009     1.1199e-008     7.676e-010     
  -1.5            2.3429e-009     1.1135e-008     9.035e-010     
  -1.55           2.2793e-009     1.1397e-008     1.0507e-009    
  -1.6            2.1557e-009     1.2456e-008     1.2292e-009    
  -1.65           1.9672e-009     1.275e-008      1.4365e-009    
  -1.7            2.0755e-009     1.0646e-008     2.63e-011      
  -1.75           2.178e-009      1.0614e-008     2.207e-010     
  -1.8            2.2772e-009     1.0686e-008     4.194e-010     
  -1.85           2.3389e-009     1.1103e-008     6.164e-010     
  -1.9            2.3613e-009     1.1189e-008     7.848e-010     
  -1.95           2.3379e-009     1.1099e-008     9.165e-010     
  -2              2.2687e-009     1.1496e-008     1.0719e-009    
  -2.05           2.1349e-009     1.2545e-008     1.2497e-009    
  -2.1            1.9413e-009     1.2691e-008     1.4599e-009    
  -2.15           2.0893e-009     1.0565e-008     4.59e-011      
  -2.2            2.1884e-009     1.0586e-008     2.399e-010     
  -2.25           2.2847e-009     1.0692e-008     4.464e-010     
  -2.3            2.3441e-009     1.1085e-008     6.382e-010     
  -2.35           2.3617e-009     1.1106e-008     8.119e-010     
  -2.4            2.3343e-009     1.1179e-008     9.307e-010     
  -2.45           2.2564e-009     1.1597e-008     1.0889e-009    
  -2.5            2.1164e-009     1.2578e-008     1.2653e-009    
  -2.55           1.9253e-009     1.2636e-008     1.4701e-009    
  -2.6            2.0938e-009     1.0629e-008     6.03e-011      
  -2.65           2.2019e-009     1.0652e-008     2.588e-010     
  -2.7            2.291e-009      1.0722e-008     4.616e-010     
  -2.75           2.3471e-009     1.1146e-008     6.592e-010     
  -2.8            2.3596e-009     1.1177e-008     8.254e-010     
  -2.85           2.3275e-009     1.1095e-008     9.524e-010     
  -2.9            2.2437e-009     1.1774e-008     1.1056e-009    
  -2.95           2.0992e-009     1.2595e-008     1.284e-009     
  -3              1.8943e-009     1.2762e-008     1.4938e-009    
  -3.05           1.6595e-009     1.2725e-008     1.7035e-009    
  -3.1            2.2095e-009     1.0635e-008     2.782e-010     
  -3.15           2.2976e-009     1.0713e-008     4.84e-010      
  -3.2            2.3506e-009     1.1162e-008     6.812e-010     
  -3.25           2.3588e-009     1.1158e-008     8.463e-010     
  -3.3            2.3208e-009     1.1186e-008     9.716e-010     
  -3.35           2.2279e-009     1.1866e-008     1.1241e-009    
  -3.4            1.9414e-009     1.1526e-008     -1.4567e-009   
  -3.45           -1.288e-009     9.348e-009      -1.9304e-009   
  -3.5            -1.6939e-009    -1.3961e-008    1.6535e-009    
  -3.55           1.5402e-009     -9.377e-009     1.8159e-009    
  -3.6            2.266e-009      1.0663e-008     3.981e-010     
  -3.65           2.3335e-009     1.1111e-008     6.035e-010     
  -3.7            2.3605e-009     1.1139e-008     7.875e-010     
  -3.75           2.3456e-009     1.1099e-008     9.229e-010     
  -3.8            2.2743e-009     1.1431e-008     1.0584e-009    
  -3.85           2.146e-009      1.2432e-008     1.223e-009     
  -3.9            1.9637e-009     1.2639e-008     1.4219e-009    
  -3.95           2.0759e-009     1.0675e-008     2.54e-011      
  -4              2.1766e-009     1.0653e-008     2.155e-010     
  -4.05           2.2738e-009     1.067e-008      4.223e-010     
  -4.1            2.3396e-009     1.1105e-008     6.255e-010     
  -4.15           2.3622e-009     1.1143e-008     8.026e-010     
  -4.2            2.3366e-009     1.1114e-008     9.35e-010      
  -4.25           2.2584e-009     1.1476e-008     1.0776e-009    
  -4.3            2.1266e-009     1.2576e-008     1.2511e-009    
  -4.35           1.9286e-009     1.2643e-008     1.4513e-009    
  -4.4            2.0888e-009     1.0649e-008     4.91e-011      
  -4.45           2.1907e-009     1.0604e-008     2.459e-010     
  -4.5            2.2854e-009     1.0676e-008     4.518e-010     
  -4.55           2.3435e-009     1.1221e-008     6.526e-010     
  -4.6            2.3617e-009     1.1144e-008     8.254e-010     
  -4.65           2.3286e-009     1.1122e-008     9.523e-010     
  -4.7            2.2489e-009     1.1644e-008     1.1007e-009    
  -4.75           2.0996e-009     1.2605e-008     1.2721e-009    
  -4.8            1.9035e-009     1.2625e-008     1.4799e-009    
  -4.85           1.6677e-009     1.2543e-008     1.6914e-009    
  -4.9            2.206e-009      1.0626e-008     2.704e-010     
  -4.95           2.2965e-009     1.0791e-008     4.797e-010     
  -5              2.3475e-009     1.1107e-008     6.793e-010     
END_DB

BEGIN_DB
 ICCAP_VAR VG         -1             
 ICCAP_VAR VS         0              
 ICCAP_VAR VB         0              

 #VD              ID              IB              IG             
  0               -9.098e-010     -2.6699e-008    -8.944e-010    
  -0.05           -4.3812e-009    8.188e-009      -1.4613e-009   
  -0.1            -6.473e-009     9.34e-009       -1.4093e-009   
  -0.15           -7.3255e-009    9.586e-009      -1.3778e-009   
  -0.2            -7.4988e-009    8.97e-009       -1.3498e-009   
  -0.25           -7.4287e-009    9.111e-009      -1.3295e-009   
  -0.3            -7.2911e-009    1.2274e-008     -2.548e-009    
  -0.35           -8.4249e-009    1.17e-010       -2.3241e-009   
  -0.4            -9.3711e-009    -1.3768e-008    1.6454e-009    
  -0.45           -7.3598e-009    -9.369e-009     1.4396e-009    
  -0.5            -7.4795e-009    -9.458e-009     1.3264e-009    
  -0.55           -7.6104e-009    -1.0074e-008    1.2703e-009    
  -0.6            -7.7315e-009    -1.1959e-008    2.908e-009     
  -0.65           -6.8287e-009    2.84e-010       2.8615e-009    
  -0.7            -5.4413e-009    1.1424e-008     1.0603e-009    
  -0.75           -5.5657e-009    1.2519e-008     1.2229e-009    
  -0.8            -5.746e-009     1.2635e-008     1.4196e-009    
  -0.85           -5.6094e-009    1.0567e-008     2.41e-011      
  -0.9            -5.5147e-009    1.0652e-008     2.141e-010     
  -0.95           -5.4267e-009    1.0755e-008     4.125e-010     
  -1              -5.3819e-009    1.1057e-008     6.163e-010     
  -1.05           -5.3628e-009    1.1165e-008     8.057e-010     
  -1.1            -5.3902e-009    1.1077e-008     9.507e-010     
  -1.15           -5.4623e-009    1.1542e-008     1.0754e-009    
  -1.2            -5.5865e-009    1.2577e-008     1.2383e-009    
  -1.25           -5.7636e-009    1.2633e-008     1.4278e-009    
  -1.3            -5.6138e-009    1.0494e-008     3.73e-011      
  -1.35           -5.5182e-009    1.0593e-008     2.24e-010      
  -1.4            -5.4377e-009    1.0747e-008     4.304e-010     
  -1.45           -5.3894e-009    1.1107e-008     6.371e-010     
  -1.5            -5.3741e-009    1.1163e-008     8.191e-010     
  -1.55           -5.4051e-009    1.1076e-008     9.535e-010     
  -1.6            -5.4796e-009    1.1652e-008     1.086e-009     
  -1.65           -5.6051e-009    1.2571e-008     1.253e-009     
  -1.7            -5.795e-009     1.2696e-008     1.4546e-009    
  -1.75           -5.6135e-009    1.0577e-008     5.61e-011      
  -1.8            -5.515e-009     1.0622e-008     2.493e-010     
  -1.85           -5.4357e-009    1.078e-008      4.487e-010     
  -1.9            -5.3903e-009    1.1125e-008     6.557e-010     
  -1.95           -5.3799e-009    1.1171e-008     8.323e-010     
  -2              -5.415e-009     1.1116e-008     9.658e-010     
  -2.05           -5.4948e-009    1.1638e-008     1.0958e-009    
  -2.1            -5.6191e-009    1.2716e-008     1.2732e-009    
  -2.15           -5.8162e-009    1.2769e-008     1.474e-009     
  -2.2            -5.6158e-009    1.0453e-008     6.19e-011      
  -2.25           -5.5115e-009    1.0616e-008     2.617e-010     
  -2.3            -5.4307e-009    1.0742e-008     4.703e-010     
  -2.35           -5.3897e-009    1.1208e-008     6.656e-010     
  -2.4            -5.3899e-009    1.1159e-008     8.345e-010     
  -2.45           -5.4252e-009    1.1119e-008     9.616e-010     
  -2.5            -5.5028e-009    1.1774e-008     1.109e-009     
  -2.55           -5.7785e-009    1.1423e-008     -1.4585e-009   
  -2.6            -7.8928e-009    9.397e-009      -1.405e-009    
  -2.65           -7.7549e-009    9.503e-009      -1.373e-009    
  -2.7            -7.6327e-009    8.874e-009      -1.3469e-009   
  -2.75           -7.487e-009     9.164e-009      -1.3286e-009   
  -2.8            -7.3267e-009    1.2414e-008     -2.5301e-009   
  -2.85           -8.4663e-009    -2.4e-011       -2.3086e-009   
  -2.9            -9.4162e-009    -1.3542e-008    1.6352e-009    
  -2.95           -7.414e-009     -9.343e-009     1.4252e-009    
  -3              -7.5327e-009    -9.386e-009     1.3185e-009    
  -3.05           -7.6602e-009    -1.0182e-008    1.2647e-009    
  -3.1            -7.7832e-009    -1.2002e-008    2.9068e-009    
  -3.15           -6.8645e-009    3.76e-010       2.8527e-009    
  -3.2            -5.482e-009     1.1406e-008     1.0681e-009    
  -3.25           -5.6067e-009    1.2538e-008     1.2406e-009    
  -3.3            -5.7899e-009    1.2653e-008     1.438e-009     
  -3.35           -5.6375e-009    1.0543e-008     3.69e-011      
  -3.4            -5.5424e-009    1.0563e-008     2.308e-010     
  -3.45           -5.4543e-009    1.0743e-008     4.375e-010     
  -3.5            -5.4053e-009    1.1175e-008     6.308e-010     
  -3.55           -5.4003e-009    1.1138e-008     8.112e-010     
  -3.6            -5.4297e-009    1.1062e-008     9.355e-010     
  -3.65           -5.4973e-009    1.147e-008      1.0809e-009    
  -3.7            -5.6237e-009    1.2541e-008     1.2538e-009    
  -3.75           -5.8046e-009    1.2684e-008     1.4618e-009    
  -3.8            -5.6345e-009    1.0538e-008     5.05e-011      
  -3.85           -5.5396e-009    1.0556e-008     2.42e-010      
  -3.9            -5.4566e-009    1.071e-008      4.558e-010     
  -3.95           -5.4108e-009    1.1192e-008     6.502e-010     
  -4              -5.4041e-009    1.1171e-008     8.177e-010     
  -4.05           -5.4381e-009    1.111e-008      9.468e-010     
  -4.1            -5.5142e-009    1.1602e-008     1.0958e-009    
  -4.15           -5.6496e-009    1.2658e-008     1.2732e-009    
  -4.2            -5.8421e-009    1.2721e-008     1.484e-009     
  -4.25           -5.6381e-009    1.047e-008      6.85e-011      
  -4.3            -5.5402e-009    1.0611e-008     2.677e-010     
  -4.35           -5.4643e-009    1.0804e-008     4.757e-010     
  -4.4            -5.419e-009     1.1253e-008     6.691e-010     
  -4.45           -5.4252e-009    1.113e-008      8.369e-010     
  -4.5            -5.4609e-009    1.1067e-008     9.619e-010     
  -4.55           -5.5419e-009    1.1732e-008     1.1127e-009    
  -4.6            -5.8153e-009    1.1367e-008     -1.458e-009    
  -4.65           -7.9344e-009    9.397e-009      -1.4014e-009   
  -4.7            -7.8088e-009    9.633e-009      -1.3724e-009   
  -4.75           -7.6794e-009    8.876e-009      -1.3467e-009   
  -4.8            -7.5414e-009    9.262e-009      -1.327e-009    
  -4.85           -7.389e-009     1.2491e-008     -2.5316e-009   
  -4.9            -8.5265e-009    7.9e-011        -2.3094e-009   
  -4.95           -9.4917e-009    -1.3548e-008    1.6261e-009    
  -5              -7.4899e-009    -9.148e-009     1.4232e-009    
END_DB

BEGIN_DB
 ICCAP_VAR VG         -2             
 ICCAP_VAR VS         0              
 ICCAP_VAR VB         0              

 #VD              ID              IB              IG             
  0               -1.5504e-009    1.42e-010       1.813e-010     
  -0.05           -4.2796e-008    -1.1115e-008    -1.3295e-009   
  -0.1            -7.7642e-008    1.1072e-008     1.0389e-009    
  -0.15           -1.1941e-007    2.7112e-008     -1.7067e-009   
  -0.2            -1.494e-007     1.8339e-008     -1.6232e-009   
  -0.25           -1.7922e-007    1.0917e-008     7.997e-010     
  -0.3            -2.1062e-007    -2.2946e-008    1.4787e-009    
  -0.35           -2.3784e-007    -1.3209e-008    1.444e-010     
  -0.4            -2.6089e-007    8.645e-009      -2.5953e-009   
  -0.45           -2.7866e-007    1.2594e-008     1.5699e-009    
  -0.5            -3.0181e-007    -2.2101e-008    1.8726e-009    
  -0.55           -3.1905e-007    -1.1131e-008    -7.083e-010    
  -0.6            -3.3031e-007    2.2176e-008     -1.5847e-009   
  -0.65           -3.3984e-007    1.107e-008      8.324e-010     
  -0.7            -3.5197e-007    -2.3535e-008    1.4402e-009    
  -0.75           -3.6004e-007    -1.2833e-008    1.062e-010     
  -0.8            -3.6392e-007    8.728e-009      -2.5595e-009   
  -0.85           -3.6528e-007    1.1338e-008     -8e-013        
  -0.9            -3.6885e-007    -1.668e-008     2.5889e-009    
  -0.95           -3.7184e-007    -1.1464e-008    -2.026e-010    
  -1              -3.7048e-007    1.3508e-008     -2.157e-009    
  -1.05           -3.6892e-007    1.271e-008      1.9693e-009    
  -1.1            -3.7267e-007    -1.3944e-008    1.97e-010      
  -1.15           -3.715e-007     8.975e-009      -2.6461e-009   
  -1.2            -3.6868e-007    1.2353e-008     1.4837e-009    
  -1.25           -3.7125e-007    -1.4986e-008    2.7011e-009    
  -1.3            -3.7312e-007    -1.177e-008     -9.68e-011     
  -1.35           -3.7152e-007    1.1376e-008     -2.3157e-009   
  -1.4            -3.6968e-007    1.057e-008      2.364e-010     
  -1.45           -3.7191e-007    -1.8772e-008    2.2551e-009    
  -1.5            -3.7371e-007    -1.0983e-008    -4.532e-010    
  -1.55           -3.7118e-007    1.7919e-008     -1.8448e-009   
  -1.6            -3.6955e-007    1.0655e-008     6.115e-010     
  -1.65           -3.7221e-007    -2.1078e-008    1.714e-009     
  -1.7            -3.7404e-007    -1.1307e-008    -7.878e-010    
  -1.75           -3.7123e-007    2.3562e-008     -1.5127e-009   
  -1.8            -3.6948e-007    1.1197e-008     9.013e-010     
  -1.85           -3.7257e-007    -2.5043e-008    1.3679e-009    
  -1.9            -3.735e-007     -1.2222e-008    2.72e-011      
  -1.95           -3.7214e-007    9.251e-009      -2.4627e-009   
  -2              -3.696e-007     1.2779e-008     1.7252e-009    
  -2.05           -3.7364e-007    -1.8384e-008    1.6492e-009    
  -2.1            -3.744e-007     -1.1329e-008    -8.243e-010    
  -2.15           -3.7157e-007    2.4153e-008     -1.4868e-009   
  -2.2            -3.6972e-007    1.1185e-008     9.319e-010     
  -2.25           -3.7287e-007    -2.5531e-008    1.3451e-009    
  -2.3            -3.7381e-007    -1.197e-008     -8.6e-012      
  -2.35           -3.7231e-007    9.801e-009      -2.4084e-009   
  -2.4            -3.6992e-007    1.2836e-008     1.7761e-009    
  -2.45           -3.7384e-007    -1.7356e-008    1.5945e-009    
  -2.5            -3.7388e-007    -1.4432e-008    1.4378e-009    
  -2.55           -3.7389e-007    -1.2728e-008    1.004e-010     
  -2.6            -3.726e-007     8.627e-009      -2.5524e-009   
  -2.65           -3.7066e-007    1.1162e-008     1.05e-011      
  -2.7            -3.7231e-007    -1.6799e-008    2.572e-009     
  -2.75           -3.7426e-007    -1.145e-008     -2.207e-010    
  -2.8            -3.7234e-007    1.3819e-008     -2.148e-009    
  -2.85           -3.7058e-007    1.2752e-008     1.9836e-009    
  -2.9            -3.7411e-007    -1.3815e-008    1.898e-010     
  -2.95           -3.7284e-007    8.931e-009      -2.6389e-009   
  -3              -3.6998e-007    1.237e-008      1.4988e-009    
  -3.05           -3.7248e-007    -1.5206e-008    2.6873e-009    
  -3.1            -3.7429e-007    -1.1803e-008    -1.018e-010    
  -3.15           -3.7269e-007    1.1636e-008     -2.2979e-009   
  -3.2            -3.7086e-007    1.061e-008      2.493e-010     
  -3.25           -3.7303e-007    -1.8939e-008    2.2454e-009    
  -3.3            -3.7478e-007    -1.1057e-008    -4.725e-010    
  -3.35           -3.7223e-007    1.8182e-008     -1.8206e-009   
  -3.4            -3.7056e-007    1.0616e-008     6.241e-010     
  -3.45           -3.7327e-007    -2.1018e-008    1.6879e-009    
  -3.5            -3.7508e-007    -1.1363e-008    -8.02e-010     
  -3.55           -3.7223e-007    2.3834e-008     -1.5014e-009   
  -3.6            -3.704e-007     1.1154e-008     9.116e-010     
  -3.65           -3.7352e-007    -2.5267e-008    1.3594e-009    
  -3.7            -3.7448e-007    -1.219e-008     1.62e-011      
  -3.75           -3.7305e-007    9.458e-009      -2.4456e-009   
  -3.8            -3.7054e-007    1.28e-008       1.7459e-009    
  -3.85           -3.7449e-007    -1.7803e-008    1.6318e-009    
  -3.9            -3.7455e-007    -1.5036e-008    1.4531e-009    
  -3.95           -3.7456e-007    -1.2955e-008    1.228e-010     
  -4              -3.7325e-007    8.705e-009      -2.5801e-009   
  -4.05           -3.7125e-007    1.1335e-008     -1.54e-011     
  -4.1            -3.7295e-007    -1.62e-008      2.6057e-009    
  -4.15           -3.7484e-007    -1.1501e-008    -1.984e-010    
