! VERSION = 6.00
BEGIN_HEADER
 ICCAP_INPUTS
  VG         V  B GROUND SMU4 0.001 LIN        2    0          -5         6    -1        
  VS         V  E GROUND SMU3 0.1 CON        0
  VD         V  S GROUND SMU2 0.1 LIN        1    0          -5         101  -0.05     
  VB         V  C GROUND SMU1 0.1 LIN        3    0          2.5        2    2.5       
 ICCAP_OUTPUTS
  ID         I  S GROUND SMU2 B
  IB         I  C GROUND SMU1 B
  IG         I  B GROUND SMU4 B
END_HEADER

BEGIN_DB
 ICCAP_VAR VG         0              
 ICCAP_VAR VS         0              
 ICCAP_VAR VB         0              

 #VD              ID              IB              IG             
  0               -8.165e-010     -5.3363e-009    3.68e-010      
  -0.05           -2.3063e-009    2.7765e-009     -6.782e-010    
  -0.1            2.1653e-009     -6.4488e-009    8.427e-010     
  -0.15           -2.0152e-009    3.5616e-009     -1.0134e-009   
  -0.2            2.2444e-009     -5.9508e-009    7.592e-010     
  -0.25           -2.1101e-009    4.5107e-009     -8.903e-010    
  -0.3            2.3031e-009     -5.5457e-009    6.839e-010     
  -0.35           -2.2037e-009    4.1678e-009     -7.959e-010    
  -0.4            2.0169e-009     -5.1689e-009    1.0153e-009    
  -0.45           -2.2742e-009    3.8865e-009     -7.19e-010     
  -0.5            2.1078e-009     -6.786e-009     8.958e-010     
  -0.55           -1.9596e-009    3.6693e-009     -1.094e-009    
  -0.6            2.2028e-009     -6.1922e-009    8.04e-010      
  -0.65           -2.0591e-009    3.4672e-009     -9.549e-010    
  -0.7            2.2718e-009     -5.7561e-009    7.271e-010     
  -0.75           -2.1487e-009    4.3602e-009     -8.459e-010    
  -0.8            1.9666e-009     -5.3942e-009    1.0952e-009    
  -0.85           -2.2377e-009    4.0261e-009     -7.627e-010    
  -0.9            2.0582e-009     -7.156e-009     9.587e-010     
  -0.95           -2.2999e-009    3.7933e-009     -6.88e-010     
  -1              2.1537e-009     -6.525e-009     8.532e-010     
  -1.05           -2.0075e-009    3.5875e-009     -1.0301e-009   
  -1.1            2.2344e-009     -6.0005e-009    7.69e-010      
  -1.15           -2.0974e-009    3.374e-009      -9.067e-010    
  -1.2            2.2917e-009     -5.5827e-009    6.94e-010      
  -1.25           -2.1939e-009    4.2074e-009     -8.072e-010    
  -1.3            2.0065e-009     -5.2369e-009    1.0327e-009    
  -1.35           -2.2667e-009    3.9202e-009     -7.279e-010    
  -1.4            2.0968e-009     -6.8701e-009    9.092e-010     
  -1.45           -2.3226e-009    3.7009e-009     -6.552e-010    
  -1.5            2.1916e-009     -6.2825e-009    8.133e-010     
  -1.55           -2.045e-009     3.4973e-009     -9.757e-010    
  -1.6            2.2632e-009     -5.8154e-009    7.35e-010      
  -1.65           -2.1374e-009    4.4046e-009     -8.587e-010    
  -1.7            1.9574e-009     -5.4416e-009    1.1062e-009    
  -1.75           -2.2274e-009    4.0674e-009     -7.705e-010    
  -1.8            2.0451e-009     -7.2294e-009    9.743e-010     
  -1.85           -2.2933e-009    3.8127e-009     -6.981e-010    
  -1.9            2.1431e-009     -6.5862e-009    8.639e-010     
  -1.95           -1.9941e-009    3.6118e-009     -1.0427e-009   
  -2              2.2298e-009     -6.0463e-009    7.775e-010     
  -2.05           -2.0865e-009    3.4026e-009     -9.179e-010    
  -2.1            2.2917e-009     -5.6251e-009    7.024e-010     
  -2.15           -2.1806e-009    4.2391e-009     -8.183e-010    
  -2.2            1.9961e-009     -5.2611e-009    1.0453e-009    
  -2.25           -2.2649e-009    3.9487e-009     -7.349e-010    
  -2.3            2.0875e-009     -6.9473e-009    9.203e-010     
  -2.35           -2.3179e-009    3.7215e-009     -6.604e-010    
  -2.4            2.1825e-009     -6.3347e-009    8.234e-010     
  -2.45           -2.0355e-009    3.5105e-009     -9.88e-010     
  -2.5            2.2591e-009     -5.8566e-009    7.463e-010     
  -2.55           -2.1274e-009    4.4329e-009     -8.699e-010    
  -2.6            1.9431e-009     -5.4873e-009    1.1255e-009    
  -2.65           -2.2203e-009    4.09e-009       -7.8e-010      
  -2.7            2.036e-009      -7.3066e-009    9.873e-010     
  -2.75           -2.2858e-009    3.845e-009      -7.038e-010    
  -2.8            2.1276e-009     -6.655e-009     8.752e-010     
  -2.85           -1.9814e-009    3.6278e-009     -1.0648e-009   
  -2.9            2.2203e-009     -6.1028e-009    7.872e-010     
  -2.95           -2.0749e-009    3.4301e-009     -9.314e-010    
  -3              2.2856e-009     -5.6802e-009    7.098e-010     
  -3.05           -2.1728e-009    4.2896e-009     -8.276e-010    
  -3.1            1.9823e-009     -5.3287e-009    1.0662e-009    
  -3.15           -2.254e-009     3.9823e-009     -7.477e-010    
  -3.2            2.0747e-009     -7.031e-009     9.36e-010      
  -3.25           -2.3105e-009    3.7535e-009     -6.703e-010    
  -3.3            2.1741e-009     -6.3995e-009    8.371e-010     
  -3.35           -2.0197e-009    3.5382e-009     -1.0056e-009   
  -3.4            2.2517e-009     -5.9213e-009    7.556e-010     
  -3.45           -2.1143e-009    4.4931e-009     -8.862e-010    
  -3.5            2.3115e-009     -5.5311e-009    6.786e-010     
  -3.55           -2.2129e-009    4.1481e-009     -7.94e-010     
  -3.6            2.02e-009       -5.1599e-009    1.0094e-009    
  -3.65           -2.2842e-009    3.8738e-009     -7.187e-010    
  -3.7            2.1158e-009     -6.7489e-009    8.94e-010      
  -3.75           -1.9559e-009    3.6711e-009     -1.0875e-009   
  -3.8            2.2085e-009     -6.1891e-009    8.036e-010     
  -3.85           -2.0527e-009    3.475e-009      -9.549e-010    
  -3.9            2.2827e-009     -5.7513e-009    7.265e-010     
  -3.95           -2.1521e-009    4.3386e-009     -8.456e-010    
  -4              1.9572e-009     -5.3855e-009    1.0939e-009    
  -4.05           -2.2479e-009    4.0181e-009     -7.612e-010    
  -4.1            2.049e-009      -7.1416e-009    9.569e-010     
  -4.15           -2.3115e-009    3.7829e-009     -6.878e-010    
  -4.2            2.1512e-009     -6.5124e-009    8.535e-010     
  -4.25           -1.9934e-009    3.5825e-009     -1.0279e-009   
  -4.3            2.2423e-009     -5.9769e-009    7.713e-010     
  -4.35           -2.0819e-009    3.3717e-009     -9.063e-010    
  -4.4            2.3067e-009     -5.5967e-009    6.944e-010     
  -4.45           -2.1876e-009    4.1922e-009     -8.082e-010    
  -4.5            1.9924e-009     -5.229e-009     1.0308e-009    
  -4.55           -2.2747e-009    3.9145e-009     -7.282e-010    
  -4.6            2.0885e-009     -6.8651e-009    9.081e-010     
  -4.65           -2.3349e-009    3.699e-009      -6.573e-010    
  -4.7            2.1869e-009     -6.2628e-009    8.136e-010     
  -4.75           -2.0277e-009    3.4904e-009     -9.741e-010    
  -4.8            2.2723e-009     -5.8079e-009    7.37e-010      
  -4.85           -2.1281e-009    4.3996e-009     -8.598e-010    
  -4.9            1.9385e-009     -5.4494e-009    1.1147e-009    
  -4.95           -2.2307e-009    4.0589e-009     -7.721e-010    
  -5              2.0276e-009     -7.2545e-009    9.772e-010     
END_DB

BEGIN_DB
 ICCAP_VAR VG         -1             
 ICCAP_VAR VS         0              
 ICCAP_VAR VB         0              

 #VD              ID              IB              IG             
  0               3.7633e-008     -1.6845e-009    -3.586e-010    
  -0.05           -1.5078e-006    -3.4608e-009    -1.4315e-009   
  -0.1            -2.7218e-006    5.5601e-009     -1.4439e-009   
  -0.15           -3.6391e-006    5.5883e-009     -1.4529e-009   
  -0.2            -4.2987e-006    5.6175e-009     -1.4596e-009   
  -0.25           -4.773e-006     5.6351e-009     -1.4684e-009   
  -0.3            -5.1074e-006    5.6614e-009     -1.4752e-009   
  -0.35           -5.3512e-006    5.6872e-009     -1.4795e-009   
  -0.4            -5.5412e-006    5.7035e-009     -1.475e-009    
  -0.45           -5.6981e-006    5.6969e-009     -1.374e-009    
  -0.5            -5.8269e-006    5.4124e-009     -1.3958e-009   
  -0.55           -5.9423e-006    5.4713e-009     -1.4133e-009   
  -0.6            -6.0527e-006    5.5155e-009     -1.4276e-009   
  -0.65           -6.1428e-006    5.5551e-009     -1.4395e-009   
  -0.7            -6.2347e-006    5.583e-009      -1.4499e-009   
  -0.75           -6.3167e-006    5.6111e-009     -1.4569e-009   
  -0.8            -6.4002e-006    5.6288e-009     -1.4653e-009   
  -0.85           -6.4836e-006    5.6549e-009     -1.4737e-009   
  -0.9            -6.5571e-006    5.6768e-009     -1.4782e-009   
  -0.95           -6.635e-006     5.7035e-009     -1.4759e-009   
  -1              -6.7074e-006    5.6995e-009     -1.3682e-009   
  -1.05           -6.7721e-006    5.386e-009      -1.3909e-009   
  -1.1            -6.8413e-006    5.4531e-009     -1.4085e-009   
  -1.15           -6.9125e-006    5.5061e-009     -1.4244e-009   
  -1.2            -6.9773e-006    5.5462e-009     -1.4359e-009   
  -1.25           -7.0458e-006    5.5716e-009     -1.4462e-009   
  -1.3            -7.1149e-006    5.6036e-009     -1.4559e-009   
  -1.35           -7.1785e-006    5.6249e-009     -1.4633e-009   
  -1.4            -7.2366e-006    5.6491e-009     -1.4722e-009   
  -1.45           -7.2989e-006    5.6677e-009     -1.4778e-009   
  -1.5            -7.3661e-006    5.6972e-009     -1.4786e-009   
  -1.55           -7.4264e-006    5.6968e-009     -1.4727e-009   
  -1.6            -7.49e-006      5.6857e-009     -1.3834e-009   
  -1.65           -7.5477e-006    5.4387e-009     -1.4026e-009   
  -1.7            -7.605e-006     5.4872e-009     -1.4188e-009   
  -1.75           -7.6688e-006    5.5353e-009     -1.431e-009    
  -1.8            -7.7283e-006    5.5579e-009     -1.4437e-009   
  -1.85           -7.7891e-006    5.5946e-009     -1.4552e-009   
  -1.9            -7.8448e-006    5.6186e-009     -1.4618e-009   
  -1.95           -7.8994e-006    5.6397e-009     -1.4694e-009   
  -2              -7.9599e-006    5.66e-009       -1.4744e-009   
  -2.05           -8.0202e-006    5.6857e-009     -1.4777e-009   
  -2.1            -8.072e-006     5.6993e-009     -1.4736e-009   
  -2.15           -8.1238e-006    5.6907e-009     -1.3768e-009   
  -2.2            -8.1795e-006    5.4238e-009     -1.3968e-009   
  -2.25           -8.2374e-006    5.4725e-009     -1.4133e-009   
  -2.3            -8.2946e-006    5.5218e-009     -1.4289e-009   
  -2.35           -8.35e-006      5.5584e-009     -1.4403e-009   
  -2.4            -8.4083e-006    5.5918e-009     -1.4537e-009   
  -2.45           -8.4604e-006    5.6201e-009     -1.4599e-009   
  -2.5            -8.508e-006     5.6418e-009     -1.4673e-009   
  -2.55           -8.5711e-006    5.6679e-009     -1.4744e-009   
  -2.6            -8.6161e-006    5.6978e-009     -1.478e-009    
  -2.65           -8.6656e-006    5.7274e-009     -1.4761e-009   
  -2.7            -8.7281e-006    5.7324e-009     -1.3696e-009   
  -2.75           -8.7747e-006    5.4381e-009     -1.3924e-009   
  -2.8            -8.8325e-006    5.5134e-009     -1.4079e-009   
  -2.85           -8.8816e-006    5.5793e-009     -1.425e-009    
  -2.9            -8.9417e-006    5.64e-009       -1.4374e-009   
  -2.95           -8.9982e-006    5.6991e-009     -1.4495e-009   
  -3              -9.0499e-006    5.7579e-009     -1.4571e-009   
  -3.05           -9.0972e-006    5.8168e-009     -1.4655e-009   
  -3.1            -9.1522e-006    5.8981e-009     -1.4712e-009   
  -3.15           -9.202e-006     5.9732e-009     -1.477e-009    
  -3.2            -9.257e-006     6.0807e-009     -1.4785e-009   
  -3.25           -9.3057e-006    6.1702e-009     -1.4723e-009   
  -3.3            -9.3586e-006    6.2605e-009     -1.3839e-009   
  -3.35           -9.4084e-006    6.1444e-009     -1.4029e-009   
  -3.4            -9.4634e-006    6.3589e-009     -1.4191e-009   
  -3.45           -9.5177e-006    6.5898e-009     -1.4339e-009   
  -3.5            -9.575e-006     6.8425e-009     -1.4456e-009   
  -3.55           -9.6259e-006    7.15e-009       -1.4546e-009   
  -3.6            -9.6794e-006    7.4886e-009     -1.462e-009    
  -3.65           -9.7392e-006    7.8931e-009     -1.4705e-009   
  -3.7            -9.7865e-006    8.3554e-009     -1.4766e-009   
  -3.75           -9.841e-006     8.9111e-009     -1.4789e-009   
  -3.8            -9.8952e-006    9.5226e-009     -1.4729e-009   
  -3.85           -9.9515e-006    1.02234e-008    -1.3772e-009   
  -3.9            -9.9999e-006    1.07807e-008    -1.3973e-009   
  -3.95           -1.0069e-005    1.2158e-008     3.36e-010      
  -4              -1.0135e-005    1.3809e-008     6.14e-010      
  -4.05           -1.019e-005     1.5312e-008     5.802e-010     
  -4.1            -1.0247e-005    1.7005e-008     5.469e-010     
  -4.15           -1.0315e-005    1.6102e-008     8.385e-010     
  -4.2            -1.0381e-005    1.2163e-008     1.4507e-009    
  -4.25           -1.0423e-005    1.0196e-008     1.4839e-009    
  -4.3            -1.0477e-005    1.226e-008      1.4141e-009    
  -4.35           -1.0556e-005    1.6472e-008     1.4584e-009    
  -4.4            -1.061e-005     1.8722e-008     1.4857e-009    
  -4.45           -1.0664e-005    2.1948e-008     1.4229e-009    
  -4.5            -1.074e-005     2.7392e-008     1.4651e-009    
  -4.55           -1.0805e-005    3.1139e-008     1.4839e-009    
  -4.6            -1.0866e-005    3.5787e-008     1.4304e-009    
  -4.65           -1.0952e-005    4.3076e-008     1.4697e-009    
  -4.7            -1.1012e-005    4.8841e-008     1.3852e-009    
  -4.75           -1.1099e-005    5.7503e-008     1.4379e-009    
  -4.8            -1.1182e-005    6.4979e-008     1.4797e-009    
  -4.85           -1.1252e-005    7.3431e-008     1.3956e-009    
  -4.9            -1.1347e-005    8.4777e-008     1.4525e-009    
  -4.95           -1.1429e-005    9.5135e-008     1.4906e-009    
  -5              -1.1523e-005    1.1986e-007     6.142e-010     
END_DB

BEGIN_DB
 ICCAP_VAR VG         -2             
 ICCAP_VAR VS         0              
 ICCAP_VAR VB         0              

 #VD              ID              IB              IG             
  0               1.1207e-007     -4.005e-009     7.302e-010     
  -0.05           -6.0577e-006    1.63e-009       -1.4294e-009   
  -0.1            -1.2006e-005    -3.4993e-009    9.662e-010     
  -0.15           -1.7725e-005    -7.5277e-009    1.4824e-009    
  -0.2            -2.3206e-005    -4.5292e-009    1.4219e-009    
  -0.25           -2.8439e-005    -3.9225e-009    1.4996e-009    
  -0.3            -3.3411e-005    -4.9878e-009    1.4514e-009    
  -0.35           -3.8131e-005    -4.2175e-009    1.3909e-009    
  -0.4            -4.2577e-005    -3.6075e-009    1.482e-009     
  -0.45           -4.6745e-005    -4.531e-009     1.4211e-009    
  -0.5            -5.0609e-005    -3.9146e-009    1.4994e-009    
  -0.55           -5.4235e-005    -4.9878e-009    1.4497e-009    
  -0.6            -5.7573e-005    -4.2199e-009    1.3896e-009    
  -0.65           -6.0673e-005    -3.6087e-009    1.4821e-009    
  -0.7            -6.3455e-005    -4.5173e-009    1.4195e-009    
  -0.75           -6.6042e-005    -3.9289e-009    1.5004e-009    
  -0.8            -6.834e-005     -5.007e-009     1.4507e-009    
  -0.85           -7.0437e-005    -4.2147e-009    1.391e-009     
  -0.9            -7.234e-005     -3.604e-009     1.4824e-009    
  -0.95           -7.3992e-005    -4.5186e-009    1.4224e-009    
  -1              -7.5545e-005    -3.9198e-009    1.4988e-009    
  -1.05           -7.6922e-005    -4.9867e-009    1.4492e-009    
  -1.1            -7.8101e-005    -4.214e-009     1.3901e-009    
  -1.15           -7.9205e-005    -3.6123e-009    1.4805e-009    
  -1.2            -8.0157e-005    -4.5213e-009    1.4211e-009    
  -1.25           -8.1082e-005    -3.9224e-009    1.5009e-009    
  -1.3            -8.1901e-005    -4.9709e-009    1.4502e-009    
  -1.35           -8.2686e-005    -4.2188e-009    1.3905e-009    
  -1.4            -8.3405e-005    -3.6051e-009    1.4815e-009    
  -1.45           -8.4058e-005    -4.526e-009     1.4194e-009    
  -1.5            -8.4696e-005    -3.9218e-009    1.4974e-009    
  -1.55           -8.5259e-005    -4.9805e-009    1.4512e-009    
  -1.6            -8.5834e-005    -4.2104e-009    1.392e-009     
  -1.65           -8.6392e-005    -3.6057e-009    1.482e-009     
  -1.7            -8.6856e-005    -4.5182e-009    1.4204e-009    
  -1.75           -8.7369e-005    -3.9081e-009    1.4982e-009    
  -1.8            -8.7815e-005    -4.9864e-009    1.4499e-009    
  -1.85           -8.8285e-005    -4.2028e-009    1.3904e-009    
  -1.9            -8.8761e-005    -3.5947e-009    1.482e-009     
  -1.95           -8.9151e-005    -4.5143e-009    1.4182e-009    
  -2              -8.9609e-005    -3.9192e-009    1.4991e-009    
  -2.05           -8.9977e-005    -4.9662e-009    1.4476e-009    
  -2.1            -9.0392e-005    -4.2055e-009    1.3898e-009    
  -2.15           -9.0796e-005    -3.6032e-009    1.4802e-009    
  -2.2            -9.1155e-005    -4.5115e-009    1.4202e-009    
  -2.25           -9.1555e-005    -3.9239e-009    1.4993e-009    
  -2.3            -9.1904e-005    -4.9773e-009    1.4504e-009    
  -2.35           -9.2271e-005    -4.2208e-009    1.3905e-009    
  -2.4            -9.2667e-005    -3.6041e-009    1.4803e-009    
  -2.45           -9.2966e-005    -4.5141e-009    1.4202e-009    
  -2.5            -9.3338e-005    -3.918e-009     1.4993e-009    
  -2.55           -9.3643e-005    -4.9783e-009    1.4506e-009    
  -2.6            -9.3992e-005    -4.204e-009     1.3894e-009    
  -2.65           -9.4352e-005    -3.5915e-009    1.4822e-009    
  -2.7            -9.4625e-005    -4.5079e-009    1.4207e-009    
  -2.75           -9.4989e-005    -3.9029e-009    1.4992e-009    
  -2.8            -9.5277e-005    -4.9465e-009    1.449e-009     
  -2.85           -9.5593e-005    -4.1867e-009    1.3902e-009    
  -2.9            -9.5939e-005    -3.5708e-009    1.4814e-009    
  -2.95           -9.6195e-005    -4.4551e-009    1.4176e-009    
  -3              -9.6525e-005    -3.8452e-009    1.4997e-009    
  -3.05           -9.6807e-005    -4.8853e-009    1.4495e-009    
  -3.1            -9.7114e-005    -4.0841e-009    1.3901e-009    
  -3.15           -9.744e-005     -3.4354e-009    1.4814e-009    
  -3.2            -9.7688e-005    -4.2986e-009    1.4195e-009    
  -3.25           -9.7984e-005    -3.6198e-009    1.4981e-009    
  -3.3            -9.8245e-005    -4.5771e-009    1.4484e-009    
  -3.35           -9.8546e-005    -3.7032e-009    1.3888e-009    
  -3.4            -9.8858e-005    -2.9467e-009    1.4788e-009    
  -3.45           -9.911e-005     -3.6637e-009    1.4201e-009    
  -3.5            -9.9389e-005    -6.543e-009     1.4724e-009    
  -3.55           -9.9648e-005    -3.0536e-009    1.4121e-009    
  -3.6            -9.9925e-005    -5.9871e-009    1.4648e-009    
  -3.65           -0.000100231    -4.7087e-009    1.4994e-009    
  -3.7            -0.000100547    -3.3398e-009    1.4448e-009    
  -3.75           -0.000100798    -2.0566e-009    1.2904e-009    
  -3.8            -0.000101011    -6.909e-010     1.3919e-009    
  -3.85           -0.000101284    1.7054e-009     1.4816e-009    
  -3.9            -0.000101519    2.0459e-009     1.4548e-009    
  -3.95           -0.0001017      1.4376e-008     -1.4581e-009   
  -4              -0.00010188     1.6047e-008     -1.4825e-009   
  -4.05           -0.00010216     1.8324e-008     -1.384e-009    
  -4.1            -0.00010241     2.0942e-008     -1.4176e-009   
  -4.15           -0.00010266     2.3907e-008     -1.4452e-009   
