! VERSION = 6.00
BEGIN_HEADER
 ICCAP_INPUTS
  VG         V  B GROUND SMU4 0.001 LIN        2    0          -5         6    -1        
  VS         V  E GROUND SMU2 0.1 CON        0
  VD         V  S GROUND SMU1 0.1 LIN        1    0          -5         101  -0.05     
  VB         V  C GROUND SMU3 0.1 LIN        3    0          2.5        2    2.5       
 ICCAP_OUTPUTS
  ID         I  S GROUND SMU1 B
  IB         I  C GROUND SMU3 B
  IG         I  B GROUND SMU4 B
END_HEADER

BEGIN_DB
 ICCAP_VAR VG         0              
 ICCAP_VAR VS         0              
 ICCAP_VAR VB         0              

 #VD              ID              IB              IG             
  0               5.546e-010      -1.2737e-008    4.458e-010     
  -0.05           2.5e-012        -1.2916e-008    2.8347e-009    
  -0.1            1.3926e-009     2.7807e-008     -1.3868e-009   
  -0.15           -7.5e-012       1.0955e-008     -1.3833e-009   
  -0.2            1.415e-010      1.2219e-008     -2.6587e-009   
  -0.25           -2.1568e-009    -1.2574e-008    -1.144e-010    
  -0.3            -2.2247e-009    -1.3282e-008    -3.298e-010    
  -0.35           -2.2356e-009    -1.3141e-008    -5.491e-010    
  -0.4            -2.2208e-009    -1.1926e-008    -7.53e-010     
  -0.45           -1.5773e-009    -1.9314e-008    2.1575e-009    
  -0.5            1.9862e-009     -7.27e-009      1.4904e-009    
  -0.55           1.367e-009      2.8212e-008     -1.3871e-009   
  -0.6            -3.48e-011      1.0979e-008     -1.3861e-009   
  -0.65           1.194e-010      1.1862e-008     -2.667e-009    
  -0.7            -1.5172e-009    -2.2704e-008    2.3364e-009    
  -0.75           2.0865e-009     -5.834e-009     1.3803e-009    
  -0.8            1.8818e-009     1.1693e-008     1.5615e-009    
  -0.85           1.4256e-009     2.6759e-008     -1.3899e-009   
  -0.9            2.74e-011       1.1136e-008     -1.3793e-009   
  -0.95           1.837e-010      1.2666e-008     -2.6447e-009   
  -1              -1.2733e-009    1.065e-009      -1.9522e-009   
  -1.05           -2.2294e-009    -1.2566e-008    -6.795e-010    
  -1.1            -1.5422e-009    -2.1264e-008    2.2653e-009    
  -1.15           2.0444e-009     -6.429e-009     1.4247e-009    
  -1.2            1.8215e-009     1.1453e-008     1.61e-009      
  -1.25           1.5637e-009     1.1836e-008     1.7804e-009    
  -1.3            2.2599e-009     1.2704e-008     3.543e-010     
  -1.35           2.2889e-009     1.2577e-008     5.521e-010     
  -1.4            2.301e-009      1.128e-008      7.329e-010     
  -1.45           2.2985e-009     9.71e-009       8.929e-010     
  -1.5            1.7467e-009     1.3389e-008     -1.6878e-009   
  -1.55           -1.5825e-009    6.755e-009      -1.7432e-009   
  -1.6            -2.2176e-009    -1.3065e-008    -3.123e-010    
  -1.65           -2.2377e-009    -1.3099e-008    -5.233e-010    
  -1.7            -2.2275e-009    -1.1992e-008    -7.3e-010      
  -1.75           -1.572e-009     -1.9531e-008    2.1822e-009    
  -1.8            1.9925e-009     -6.987e-009     1.4749e-009    
  -1.85           2.1313e-009     1.1567e-008     1.33e-011      
  -1.9            1.0998e-009     2.6984e-008     -1.4308e-009   
  -1.95           -2.1681e-009    8.778e-009      -1.0856e-009   
  -2              -1.7647e-009    -1.0531e-008    1.5192e-009    
  -2.05           2.2985e-009     -8.312e-009     9.184e-010     
  -2.1            2.2694e-009     9.19e-009       1.0745e-009    
  -2.15           2.1987e-009     9.956e-009      1.2264e-009    
  -2.2            2.0548e-009     1.1182e-008     1.3998e-009    
  -2.25           1.8517e-009     1.169e-008      1.5831e-009    
  -2.3            1.6072e-009     1.1871e-008     1.7604e-009    
  -2.35           2.2495e-009     1.2706e-008     3.211e-010     
  -2.4            2.2905e-009     1.2687e-008     5.167e-010     
  -2.45           2.299e-009      1.1604e-008     6.997e-010     
  -2.5            2.3009e-009     1.0102e-008     8.717e-010     
  -2.55           1.7283e-009     1.422e-008      -1.7259e-009   
  -2.6            -1.6232e-009    6.35e-009       -1.7159e-009   
  -2.65           -1.5362e-009    -2.1287e-008    2.2725e-009    
  -2.7            2.0492e-009     -6.245e-009     1.4222e-009    
  -2.75           1.8278e-009     1.151e-008      1.6073e-009    
  -2.8            1.5731e-009     1.1748e-008     1.7778e-009    
  -2.85           2.2563e-009     1.2674e-008     3.45e-010      
  -2.9            2.2913e-009     1.2617e-008     5.426e-010     
  -2.95           2.3049e-009     1.1481e-008     7.251e-010     
  -3              2.3001e-009     9.725e-009      8.894e-010     
  -3.05           1.7384e-009     1.3645e-008     -1.6983e-009   
  -3.1            -1.5967e-009    6.625e-009      -1.7323e-009   
  -3.15           -2.2169e-009    -1.3016e-008    -2.949e-010    
  -3.2            -2.2402e-009    -1.304e-008     -5.069e-010    
  -3.25           -2.233e-009     -1.2158e-008    -7.205e-010    
  -3.3            -1.5579e-009    -2.0098e-008    2.2102e-009    
  -3.35           2.0128e-009     -6.71e-009      1.4598e-009    
  -3.4            1.3468e-009     2.8153e-008     -1.3868e-009   
  -3.45           -5.56e-011      1.0891e-008     -1.3876e-009   
  -3.5            9.11e-011       1.1507e-008     -2.6836e-009   
  -3.55           -1.4941e-009    -2.3536e-008    2.382e-009     
  -3.6            2.1137e-009     -5.331e-009     1.3544e-009    
  -3.65           1.9169e-009     1.1508e-008     1.5331e-009    
  -3.7            2.1523e-009     1.1764e-008     5.83e-011      
  -3.75           2.2306e-009     1.2521e-008     2.609e-010     
  -3.8            2.2802e-009     1.2489e-008     4.61e-010      
  -3.85           2.2999e-009     1.175e-008      6.489e-010     
  -3.9            2.3035e-009     1.0304e-008     8.222e-010     
  -3.95           1.6854e-009     1.5707e-008     -1.8006e-009   
  -4              -1.6936e-009    5.713e-009      -1.6673e-009   
  -4.05           -1.4992e-009    -2.3504e-008    2.3786e-009    
  -4.1            2.1082e-009     -5.403e-009     1.3567e-009    
  -4.15           1.9092e-009     1.0884e-008     1.5341e-009    
  -4.2            2.1551e-009     1.1919e-008     7.28e-011      
  -4.25           1.1385e-009     2.7412e-008     -1.4103e-009   
  -4.3            -2.156e-009     9.018e-009      -1.137e-009    
  -4.35           -1.7951e-009    -1.0197e-008    1.4607e-009    
  -4.4            2.2938e-009     -8.107e-009     9.569e-010     
  -4.45           2.2592e-009     9.295e-009      1.1139e-009    
  -4.5            2.1687e-009     1.0348e-008     1.2709e-009    
  -4.55           2.0215e-009     1.0452e-008     -1.97e-010     
  -4.6            9.487e-010      2.3526e-008     -1.5883e-009   
  -4.65           -1.4835e-009    7.737e-009      -1.8099e-009   
  -4.7            -2.236e-009     -1.3173e-008    -4.091e-010    
  -4.75           -2.2367e-009    -1.3142e-008    -6.189e-010    
  -4.8            -2.2202e-009    -1.1667e-008    -8.179e-010    
  -4.85           -1.6081e-009    -1.7321e-008    2.056e-009     
  -4.9            1.9016e-009     -7.7e-009       1.5507e-009    
  -4.95           1.4194e-009     2.6819e-008     -1.3893e-009   
  -5              1.71e-011       1.1103e-008     -2.7024e-009   
END_DB

BEGIN_DB
 ICCAP_VAR VG         -1             
 ICCAP_VAR VS         0              
 ICCAP_VAR VB         0              

 #VD              ID              IB              IG             
  0               -2.5607e-008    1.1861e-008     -2.794e-010    
  -0.05           -1.3814e-006    -1.1159e-008    -1.9219e-009   
  -0.1            -2.1691e-006    1.815e-008      -1.5936e-009   
  -0.15           -2.6417e-006    1.1254e-008     2.1224e-009    
  -0.2            -2.9302e-006    -1.3254e-008    3.132e-010     
  -0.25           -3.0684e-006    8.525e-009      -1.3903e-009   
  -0.3            -3.2262e-006    2.8566e-008     -1.3911e-009   
  -0.35           -3.3505e-006    2.8772e-008     -1.3891e-009   
  -0.4            -3.4643e-006    2.8608e-008     -1.3872e-009   
  -0.45           -3.5644e-006    2.8479e-008     -1.3855e-009   
  -0.5            -3.6615e-006    2.8475e-008     -1.3818e-009   
  -0.55           -3.7539e-006    2.8109e-008     -1.38e-009     
  -0.6            -3.8468e-006    2.7886e-008     -1.9929e-009   
  -0.65           -4.0041e-006    1.1696e-008     1.8452e-009    
  -0.7            -4.0758e-006    -2.1343e-008    1.8233e-009    
  -0.75           -4.1583e-006    -2.4853e-008    2.0269e-009    
  -0.8            -4.2393e-006    -2.6824e-008    2.2065e-009    
  -0.85           -4.3257e-006    -2.7285e-008    2.3647e-009    
  -0.9            -4.4138e-006    -2.7025e-008    2.5176e-009    
  -0.95           -4.4915e-006    -1.0247e-008    2.84e-011      
  -1              -4.4968e-006    1.0962e-008     -2.6318e-009   
  -1.05           -4.5935e-006    1.3458e-008     -1.4552e-009   
  -1.1            -4.6826e-006    1.2813e-008     7.136e-010     
  -1.15           -4.8031e-006    -1.9382e-008    1.9328e-009    
  -1.2            -4.8717e-006    -2.6064e-008    2.1205e-009    
  -1.25           -4.9478e-006    -2.7185e-008    2.2945e-009    
  -1.3            -5.025e-006     -2.7166e-008    2.4499e-009    
  -1.35           -5.1002e-006    -1.0699e-008    -2.09e-011     
  -1.4            -5.103e-006     1.1133e-008     -2.6119e-009   
  -1.45           -5.2542e-006    8.971e-009      1.3093e-009    
  -1.5            -5.3313e-006    -2.6002e-008    2.669e-009     
  -1.55           -5.4082e-006    -9.963e-009     1.438e-010     
  -1.6            -5.3946e-006    1.037e-008      -2.6772e-009   
  -1.65           -5.4892e-006    1.7524e-008     -1.562e-009    
  -1.7            -5.5881e-006    1.1467e-008     2.1564e-009    
  -1.75           -5.6994e-006    -1.2444e-008    2.866e-010     
  -1.8            -5.6879e-006    8.742e-009      -1.3876e-009   
  -1.85           -5.765e-006     2.8588e-008     -1.3886e-009   
  -1.9            -5.8342e-006    2.8634e-008     -1.3859e-009   
  -1.95           -5.9055e-006    2.8536e-008     -1.3838e-009   
  -2              -5.9816e-006    2.8329e-008     -1.3826e-009   
  -2.05           -6.0472e-006    2.7957e-008     -1.3787e-009   
  -2.1            -6.1185e-006    2.7562e-008     -1.9771e-009   
  -2.15           -6.281e-006     1.1818e-008     1.8594e-009    
  -2.2            -6.3357e-006    -2.1154e-008    1.8094e-009    
  -2.25           -6.3974e-006    -2.4534e-008    1.9949e-009    
  -2.3            -6.4749e-006    -2.6611e-008    2.1832e-009    
  -2.35           -6.5543e-006    -2.7187e-008    2.3506e-009    
  -2.4            -6.6286e-006    -2.7168e-008    2.5036e-009    
  -2.45           -6.7001e-006    -1.0307e-008    2.22e-011      
  -2.5            -6.6805e-006    1.1082e-008     -2.6277e-009   
  -2.55           -6.7641e-006    1.3267e-008     -1.4496e-009   
  -2.6            -6.8678e-006    1.2889e-008     7.293e-010     
  -2.65           -6.9844e-006    -1.9291e-008    1.9145e-009    
  -2.7            -7.0398e-006    -2.5742e-008    2.0933e-009    
  -2.75           -7.1155e-006    -2.7028e-008    2.2788e-009    
  -2.8            -7.1909e-006    -2.7133e-008    2.4274e-009    
  -2.85           -7.2655e-006    -2.6569e-008    2.5667e-009    
  -2.9            -7.3418e-006    -2.5635e-008    2.6696e-009    
  -2.95           -7.4207e-006    -9.793e-009     1.603e-010     
  -3              -7.3857e-006    1.0581e-008     -1.3722e-009   
  -3.05           -7.564e-006     9.71e-009       1.3706e-009    
  -3.1            -7.6261e-006    -2.6096e-008    2.5983e-009    
  -3.15           -7.7054e-006    -2.4984e-008    1.2971e-009    
  -3.2            -7.7766e-006    -2.4997e-008    2.676e-009     
  -3.25           -7.8551e-006    -9.059e-009     1.593e-010     
  -3.3            -7.8202e-006    1.1415e-008     -1.3711e-009   
  -3.35           -8.0013e-006    1.0641e-008     1.3653e-009    
  -3.4            -8.0604e-006    -7.364e-009     2.8345e-009    
  -3.45           -8.1297e-006    -1.8238e-008    1.7479e-009    
  -3.5            -8.2031e-006    -2.0933e-008    1.9173e-009    
  -3.55           -8.2842e-006    -1.6443e-008    1.883e-009     
  -3.6            -8.3621e-006    -1.584e-008     1.8374e-009    
  -3.65           -8.439e-006     -1.5264e-008    1.7924e-009    
  -3.7            -8.5131e-006    -1.4385e-008    1.7503e-009    
  -3.75           -8.5835e-006    -1.3471e-008    1.707e-009     
  -3.8            -8.6678e-006    -1.2376e-008    1.6686e-009    
  -3.85           -8.7516e-006    -1.871e-009     2.8251e-009    
  -3.9            -8.8358e-006    -8.81e-010      2.8212e-009    
  -3.95           -8.9087e-006    4.41e-010       2.8161e-009    
  -4              -8.909e-006     2.3443e-008     2.3985e-009    
  -4.05           -9.0131e-006    2.1783e-008     2.8346e-009    
  -4.1            -9.0914e-006    1.6165e-008     2.2842e-009    
  -4.15           -9.0769e-006    9.988e-009      -1.7757e-009   
  -4.2            -9.1882e-006    4.9223e-008     -1.8905e-009   
  -4.25           -9.3889e-006    3.8928e-008     1.9088e-009    
  -4.3            -9.4558e-006    1.1563e-008     1.7089e-009    
  -4.35           -9.4576e-006    2.4959e-008     -1.9887e-009   
  -4.4            -9.5314e-006    5.5175e-008     -1.489e-009    
  -4.45           -9.6624e-006    5.7417e-008     2.225e-009     
  -4.5            -9.8157e-006    4.1223e-008     2.365e-010     
  -4.55           -9.7646e-006    6.8575e-008     -2.6944e-009   
  -4.6            -9.9356e-006    7.7604e-008     1.0595e-009    
  -4.65           -1.00643e-005   5.4544e-008     1.4089e-009    
  -4.7            -1.00935e-005   7.6562e-008     -2.1666e-009   
  -4.75           -1.0212e-005    1.2066e-007     -1.563e-010    
  -4.8            -1.0249e-005    1.356e-007      -1.3699e-009   
  -4.85           -1.041e-005     1.3261e-007     2.8023e-009    
  -4.9            -1.0472e-005    1.2519e-007     -1.1139e-009   
  -4.95           -1.0537e-005    1.8165e-007     -2.1461e-009   
  -5              -1.0703e-005    1.8078e-007     2.2476e-009    
END_DB

BEGIN_DB
 ICCAP_VAR VG         -2             
 ICCAP_VAR VS         0              
 ICCAP_VAR VB         0              

 #VD              ID              IB              IG             
  0               -1.7449e-007    2.4518e-008     -1.3863e-009   
  -0.05           -1.2414e-005    -2.6781e-008    1.4362e-009    
  -0.1            -2.4027e-005    -1.7999e-008    1.6484e-009    
  -0.15           -3.4983e-005    -2.6235e-008    2.6232e-009    
  -0.2            -4.5306e-005    -2.4607e-008    2.0009e-009    
  -0.25           -5.4899e-005    -1.277e-008     -8.99e-010     
  -0.3            -6.379e-005     2.6999e-008     -1.3828e-009   
  -0.35           -7.2029e-005    2.3864e-008     -1.7885e-009   
  -0.4            -7.964e-005     1.176e-008      8.979e-010     
  -0.45           -8.6549e-005    -2.6547e-008    2.6245e-009    
  -0.5            -9.2731e-005    -2.4455e-008    1.9833e-009    
  -0.55           -9.8202e-005    -1.273e-008     -9.052e-010    
  -0.6            -0.000103062    2.7063e-008     -1.3833e-009   
  -0.65           -0.000107418    2.3832e-008     -1.7735e-009   
  -0.7            -0.000111371    1.2038e-008     9.037e-010     
  -0.75           -0.00011456     -2.6665e-008    -2.0872e-009   
  -0.8            -0.00011761     1.256e-008      8.411e-010     
  -0.85           -0.00012033     -2.7025e-008    2.5541e-009    
  -0.9            -0.0001225      -1.3403e-008    -6.867e-010    
  -0.95           -0.00012446     8.319e-009      -1.3926e-009   
  -1              -0.0001264      1.2917e-008     6.762e-010     
  -1.05           -0.00012823     -2.5107e-008    2.7243e-009    
  -1.1            -0.00012965     -2.4162e-008    1.9638e-009    
  -1.15           -0.00013096     -1.1672e-008    -1.0208e-009   
  -1.2            -0.0001322      2.8922e-008     -1.3904e-009   
  -1.25           -0.00013374     1.1934e-008     1.8416e-009    
  -1.3            -0.0001348      -1.9044e-008    1.5983e-009    
  -1.35           -0.0001358      -2.7484e-008    2.4308e-009    
  -1.4            -0.00013671     -1.3296e-008    -7.894e-010    
  -1.45           -0.00013757     2.7095e-008     -1.3828e-009   
  -1.5            -0.00013892     1.0948e-008     1.5787e-009    
  -1.55           -0.0001397      -1.1504e-008    2.578e-010     
  -1.6            -0.00014027     1.5296e-008     -2.3084e-009   
  -1.65           -0.00014126     1.286e-008      6.876e-010     
  -1.7            -0.00014224     -2.5312e-008    1.2982e-009    
  -1.75           -0.00014291     -1.3071e-008    -5.078e-010    
  -1.8            -0.00014358     7.512e-009      -1.3832e-009   
  -1.85           -0.00014475     1.0863e-008     1.5857e-009    
  -1.9            -0.00014539     -1.133e-008     2.489e-010     
  -1.95           -0.00014582     1.548e-008      -2.3047e-009   
  -2              -0.00014663     1.2847e-008     6.962e-010     
  -2.05           -0.00014752     -2.5589e-008    1.2984e-009    
  -2.1            -0.00014806     -1.3031e-008    -5.11e-010     
  -2.15           -0.00014859     7.629e-009      -1.3855e-009   
  -2.2            -0.0001497      1.0933e-008     1.5904e-009    
  -2.25           -0.00015026     -1.1213e-008    2.406e-010     
  -2.3            -0.00015056     1.5444e-008     -2.2935e-009   
  -2.35           -0.00015137     1.2861e-008     6.973e-010     
  -2.4            -0.00015219     -2.556e-008     1.2965e-009    
  -2.45           -0.00015262     -1.3012e-008    -5.212e-010    
  -2.5            -0.00015313     7.648e-009      -1.3853e-009   
  -2.55           -0.00015423     9.843e-009      1.5972e-009    
  -2.6            -0.00015472     -1.0964e-008    2.386e-010     
  -2.65           -0.00015497     1.5684e-008     -2.2925e-009   
  -2.7            -0.0001557      1.2967e-008     7.05e-010      
  -2.75           -0.00015648     -2.5598e-008    2.7035e-009    
  -2.8            -0.00015699     -2.3022e-008    1.9071e-009    
  -2.85           -0.00015745     -1.1233e-008    -1.0477e-009   
  -2.9            -0.00015792     2.9099e-008     -1.3904e-009   
  -2.95           -0.00015889     1.2169e-008     1.8749e-009    
  -3              -0.00015936     -1.891e-008     1.5581e-009    
  -3.05           -0.0001599      -2.7028e-008    2.3911e-009    
  -3.1            -0.00016031     -1.2527e-008    -8.197e-010    
  -3.15           -0.00016069     2.856e-008      -1.3841e-009   
  -3.2            -0.00016177     1.1288e-008     1.6153e-009    
  -3.25           -0.00016212     -1.7557e-008    2.0238e-009    
  -3.3            -0.00016272     -1.619e-008     2.5873e-009    
  -3.35           -0.0001632      -1.6508e-008    1.6961e-009    
  -3.4            -0.00016378     -1.6295e-008    2.3294e-009    
  -3.45           -0.0001644      -1.0864e-008    2.7393e-009    
  -3.5            -0.00016483     -1.3591e-008    1.7695e-009    
  -3.55           -0.00016543     -1.2795e-008    2.3982e-009    
  -3.6            -0.00016598     -5.634e-009     2.7685e-009    
  -3.65           -0.00016637     -8.409e-009     1.8611e-009    
  -3.7            -0.00016671     5.223e-009      -2.4603e-009   
  -3.75           -0.00016732     2.8647e-008     8.105e-010     
  -3.8            -0.00016791     1.839e-008      2.2017e-009    
  -3.85           -0.00016827     1.6532e-008     -2.2647e-009   
  -3.9            -0.00016879     4.2354e-008     6.092e-010     
  -3.95           -0.00016953     1.1559e-008     1.3139e-009    
  -4              -0.00016976     3.6093e-008     -2.7294e-009   
  -4.05           -0.0001705      6.1031e-008     1.2401e-009    
  -4.1            -0.00017098     4.1428e-008     1.7924e-009    
  -4.15           -0.00017135     6.6461e-008     -2.4901e-009   
