! VERSION = 6.00
BEGIN_HEADER
 ICCAP_INPUTS
  VG         V  B GROUND SMU4 0.001 LIN        2    0          -5         6    -1        
  VS         V  E GROUND SMU2 0.1 CON        0
  VD         V  S GROUND SMU1 0.1 LIN        1    0          -5         101  -0.05     
  VB         V  C GROUND SMU3 0.1 LIN        3    0          2.5        2    2.5       
 ICCAP_OUTPUTS
  ID         I  S GROUND SMU1 B
  IB         I  C GROUND SMU3 B
  IG         I  B GROUND SMU4 B
END_HEADER

BEGIN_DB
 ICCAP_VAR VG         0              
 ICCAP_VAR VS         0              
 ICCAP_VAR VB         0              

 #VD              ID              IB              IG             
  0               -1.419e-009     1.0362e-008     -1.4038e-009   
  -0.05           -2.0834e-009    -1.1008e-008    -6.67e-011     
  -0.1            -2.1973e-009    -1.1006e-008    -2.849e-010    
  -0.15           -2.2619e-009    -1.1107e-008    -4.971e-010    
  -0.2            -2.2851e-009    -1.1569e-008    -7.054e-010    
  -0.25           -1.5833e-009    -1.8708e-008    1.242e-009     
  -0.3            -2.145e-010     -1.3996e-008    2.8274e-009    
  -0.35           2.1484e-009     1.0415e-008     1.692e-010     
  -0.4            2.259e-009      1.0476e-008     3.592e-010     
  -0.45           2.3342e-009     1.0843e-008     5.516e-010     
  -0.5            1.4908e-009     2.3404e-008     -1.3324e-009   
  -0.55           1.349e-010      1.1691e-008     -2.7173e-009   
  -0.6            -1.3508e-009    6.35e-010       -1.9278e-009   
  -0.65           -2.2825e-009    -1.1324e-008    -6.217e-010    
  -0.7            -1.5391e-009    -2.0362e-008    1.2534e-009    
  -0.75           -1.426e-010     -1.262e-008     2.865e-009     
  -0.8            2.1048e-009     1.0391e-008     9.71e-011      
  -0.85           2.2193e-009     1.0434e-008     2.818e-010     
  -0.9            2.3081e-009     1.0616e-008     4.71e-010      
  -0.95           1.4267e-009     2.524e-008      -1.3461e-009   
  -1              7.78e-011       1.1522e-008     -1.316e-009    
  -1.05           2.22e-010       1.2951e-008     -2.6514e-009   
  -1.1            -1.2868e-009    7.43e-010       -1.9844e-009   
  -1.15           -2.2862e-009    -1.1409e-008    -7.47e-010     
  -1.2            -1.598e-009     -1.7941e-008    2.149e-009     
  -1.25           1.9549e-009     -8.015e-009     1.4812e-009    
  -1.3            2.0928e-009     1.0404e-008     7.93e-011      
  -1.35           2.2058e-009     1.0463e-008     2.589e-010     
  -1.4            2.3027e-009     1.0604e-008     4.53e-010      
  -1.45           1.411e-009      2.5629e-008     -1.3494e-009   
  -1.5            6.37e-011       1.1346e-008     -1.3179e-009   
  -1.55           2.103e-010      1.2766e-008     -2.6642e-009   
  -1.6            -1.2966e-009    7.87e-010       -1.9741e-009   
  -1.65           -2.2856e-009    -1.1441e-008    -7.157e-010    
  -1.7            -1.589e-009     -1.8298e-008    1.2404e-009    
  -1.75           -2.225e-010     -1.4039e-008    2.8209e-009    
  -1.8            2.1598e-009     1.0369e-008     1.811e-010     
  -1.85           2.2681e-009     1.0433e-008     3.705e-010     
  -1.9            2.3362e-009     1.0916e-008     5.606e-010     
  -1.95           1.4979e-009     2.313e-008      -1.3317e-009   
  -2              1.447e-010      1.1753e-008     -2.7022e-009   
  -2.05           -1.348e-009     5.86e-010       -1.933e-009    
  -2.1            -2.2816e-009    -1.1347e-008    -6.296e-010    
  -2.15           -2.278e-009     -1.1458e-008    -8.329e-010    
  -2.2            -2.2415e-009    -1.1094e-008    -9.983e-010    
  -2.25           -1.7039e-009    -1.3195e-008    1.6988e-009    
  -2.3            1.5947e-009     -9.144e-009     1.7535e-009    
  -2.35           2.2556e-009     1.0539e-008     3.542e-010     
  -2.4            2.3301e-009     1.085e-008      5.414e-010     
  -2.45           1.4807e-009     2.3655e-008     -1.3359e-009   
  -2.5            1.319e-010      1.1728e-008     -2.719e-009    
  -2.55           -1.3603e-009    5.91e-010       -1.923e-009    
  -2.6            -2.2785e-009    -1.1404e-008    -6.071e-010    
  -2.65           -2.2789e-009    -1.1509e-008    -8.126e-010    
  -2.7            -1.6254e-009    -1.6309e-008    2.0254e-009    
  -2.75           1.87e-009       -8.675e-009     1.5459e-009    
  -2.8            2.1312e-009     1.0366e-008     1.431e-010     
  -2.85           2.2414e-009     1.0446e-008     3.245e-010     
  -2.9            2.326e-009      1.0823e-008     5.208e-010     
  -2.95           1.4591e-009     2.3983e-008     -1.3395e-009   
  -3              1.106e-010      1.1389e-008     -1.3114e-009   
  -3.05           2.6e-010        1.3864e-008     -2.6228e-009   
  -3.1            -1.2612e-009    8.99e-010       -2.0088e-009   
  -3.15           -1.7494e-009    -1.2475e-008    1.5844e-009    
  -3.2            1.4836e-009     -8.999e-009     1.8488e-009    
  -3.25           2.2991e-009     1.0602e-008     4.479e-010     
  -3.3            1.4033e-009     2.5634e-008     -1.3529e-009   
  -3.35           5.83e-011       1.146e-008      -1.3212e-009   
  -3.4            2.013e-010      1.2891e-008     -2.6713e-009   
  -3.45           -1.3006e-009    8.12e-010       -1.9725e-009   
  -3.5            -2.2863e-009    -1.1367e-008    -7.089e-010    
  -3.55           -1.5826e-009    -1.8387e-008    1.2445e-009    
  -3.6            -2.207e-010     -1.4127e-008    2.8309e-009    
  -3.65           2.1523e-009     1.0412e-008     1.754e-010     
  -3.7            2.2601e-009     1.0487e-008     3.572e-010     
  -3.75           2.3341e-009     1.0882e-008     5.524e-010     
  -3.8            1.4843e-009     2.3268e-008     -1.3345e-009   
  -3.85           1.368e-010      1.1936e-008     -2.7151e-009   
  -3.9            -1.3477e-009    7.06e-010       -1.9289e-009   
  -3.95           -2.278e-009     -1.136e-008     -6.185e-010    
  -4              -1.5371e-009    -2.0401e-008    1.2572e-009    
  -4.05           -1.385e-010     -1.2796e-008    2.8646e-009    
  -4.1            2.1032e-009     1.0375e-008     9.49e-011      
  -4.15           2.2173e-009     1.0431e-008     2.839e-010     
  -4.2            2.3045e-009     1.0745e-008     4.659e-010     
  -4.25           1.4198e-009     2.5208e-008     -1.3499e-009   
  -4.3            7.55e-011       1.1362e-008     -1.3177e-009   
  -4.35           2.225e-010      1.3106e-008     -2.6557e-009   
  -4.4            -1.2871e-009    9.09e-010       -1.9835e-009   
  -4.45           -2.2835e-009    -1.1506e-008    -7.342e-010    
  -4.5            -1.5954e-009    -1.7787e-008    1.2424e-009    
  -4.55           -2.368e-010     -1.4395e-008    2.8167e-009    
  -4.6            2.168e-009      1.0521e-008     1.969e-010     
  -4.65           2.2761e-009     1.0586e-008     3.852e-010     
  -4.7            2.3402e-009     1.0942e-008     5.735e-010     
  -4.75           1.5048e-009     2.2607e-008     -1.3321e-009   
  -4.8            1.549e-010      1.2007e-008     -2.7063e-009   
  -4.85           -1.337e-009     6.54e-010       -1.9412e-009   
  -4.9            -2.2796e-009    -1.1419e-008    -6.39e-010     
  -4.95           -2.2764e-009    -1.1402e-008    -8.408e-010    
  -5              -1.639e-009     -1.5657e-008    1.9716e-009    
END_DB

BEGIN_DB
 ICCAP_VAR VG         -1             
 ICCAP_VAR VS         0              
 ICCAP_VAR VB         0              

 #VD              ID              IB              IG             
  0               -1.115e-008     2.2223e-008     -2.7279e-009   
  -0.05           -5.2804e-007    -1.0983e-008    2.8698e-009    
  -0.1            -8.8868e-007    -1.1253e-008    -1.0918e-009   
  -0.15           -1.12337e-006   2.6754e-008     -1.3944e-009   
  -0.2            -1.2759e-006    -1.105e-008     -1.3698e-009   
  -0.25           -1.3804e-006    1.1704e-008     -7.37e-011     
  -0.3            -1.4702e-006    -9.338e-009     2.8514e-009    
  -0.35           -1.5294e-006    -1.4711e-008    1.5462e-009    
  -0.4            -1.5682e-006    -1.1139e-008    -7.096e-010    
  -0.45           -1.6025e-006    1.8639e-008     -1.9155e-009   
  -0.5            -1.6403e-006    1.0602e-008     2.917e-010     
  -0.55           -1.6957e-006    -1.5005e-008    2.5489e-009    
  -0.6            -1.7303e-006    -1.1951e-008    3.36e-011      
  -0.65           -1.7443e-006    1.1278e-008     -2.6796e-009   
  -0.7            -1.7766e-006    1.6067e-008     -1.5203e-009   
  -0.75           -1.8085e-006    1.0542e-008     6.563e-010     
  -0.8            -1.8537e-006    -1.9677e-008    1.9794e-009    
  -0.85           -1.8782e-006    -1.0994e-008    -3.596e-010    
  -0.9            -1.8925e-006    1.3917e-008     -2.3542e-009   
  -0.95           -1.9434e-006    1.1711e-008     1.5667e-009    
  -1              -1.9678e-006    -2.4715e-008    1.2531e-009    
  -1.05           -1.9749e-006    -1.1115e-008    -1.3327e-009   
  -1.1            -2.0055e-006    2.6763e-008     -1.3943e-009   
  -1.15           -2.0344e-006    1.2797e-008     -1.692e-010    
  -1.2            -2.0795e-006    -8.639e-009     2.8884e-009    
  -1.25           -2.1065e-006    -1.6913e-008    1.6836e-009    
  -1.3            -2.1242e-006    -1.0988e-008    -5.818e-010    
  -1.35           -2.139e-006     1.7057e-008     -2.0777e-009   
  -1.4            -2.1637e-006    1.0882e-008     1.759e-010     
  -1.45           -2.2136e-006    -1.3356e-008    2.6773e-009    
  -1.5            -2.2105e-006    -1.1799e-008    -1.5221e-009   
  -1.55           -2.2409e-006    2.8258e-008     -1.3551e-009   
  -1.6            -2.2833e-006    1.0585e-008     1.1029e-009    
  -1.65           -2.3209e-006    -2.4148e-008    1.3939e-009    
  -1.7            -2.3301e-006    -1.1398e-008    -8.952e-010    
  -1.75           -2.3459e-006    2.0928e-008     -1.6832e-009   
  -1.8            -2.3858e-006    1.0105e-008     2.0507e-009    
  -1.85           -2.4191e-006    -1.4392e-008    1.5282e-009    
  -1.9            -2.4307e-006    -1.1096e-008    -7.284e-010    
  -1.95           -2.4462e-006    1.8859e-008     -1.8924e-009   
  -2              -2.4704e-006    1.054e-008      3.044e-010     
  -2.05           -2.5212e-006    -1.5255e-008    2.537e-009     
  -2.1            -2.5474e-006    -1.1873e-008    2.28e-011      
  -2.15           -2.5434e-006    1.1513e-008     -2.6752e-009   
  -2.2            -2.5735e-006    1.5775e-008     -1.5088e-009   
  -2.25           -2.6019e-006    1.0552e-008     6.721e-010     
  -2.3            -2.6463e-006    -1.9691e-008    1.9676e-009    
  -2.35           -2.6626e-006    -1.0994e-008    -3.723e-010    
  -2.4            -2.6674e-006    1.436e-008      -2.3346e-009   
  -2.45           -2.6951e-006    1.1433e-008     2e-013         
  -2.5            -2.7462e-006    -1.02e-008      2.813e-009     
  -2.55           -2.7401e-006    -1.1125e-008    -1.3416e-009   
  -2.6            -2.7673e-006    2.6842e-008     -1.3909e-009   
  -2.65           -2.7956e-006    1.2721e-008     -1.592e-010    
  -2.7            -2.8435e-006    -8.545e-009     2.8884e-009    
  -2.75           -2.8677e-006    -1.679e-008     1.6662e-009    
  -2.8            -2.8842e-006    -1.0997e-008    -5.974e-010    
  -2.85           -2.8911e-006    1.7197e-008     -2.0628e-009   
  -2.9            -2.9147e-006    1.0842e-008     1.92e-010      
  -2.95           -2.9699e-006    -1.3589e-008    2.6615e-009    
  -3              -2.9573e-006    -1.1706e-008    -1.5333e-009   
  -3.05           -2.9877e-006    2.8314e-008     -1.3526e-009   
  -3.1            -3.0347e-006    1.0713e-008     1.1142e-009    
  -3.15           -3.0683e-006    -2.4263e-008    1.3859e-009    
  -3.2            -3.0727e-006    -1.1271e-008    -9.06e-010     
  -3.25           -3.0885e-006    2.1278e-008     -1.6674e-009   
  -3.3            -3.1319e-006    1.031e-008      2.0597e-009    
  -3.35           -3.1673e-006    -1.3878e-008    1.5211e-009    
  -3.4            -3.1803e-006    -1.0627e-008    -7.369e-010    
  -3.45           -3.1879e-006    1.9669e-008     -1.8814e-009   
  -3.5            -3.2125e-006    1.1108e-008     3.159e-010     
  -3.55           -3.2697e-006    -1.4763e-008    2.522e-009     
  -3.6            -3.294e-006     -1.0986e-008    -1e-013        
  -3.65           -3.2844e-006    1.2521e-008     -2.6681e-009   
  -3.7            -3.3422e-006    1.1855e-008     1.2284e-009    
  -3.75           -3.3687e-006    -2.3965e-008    1.3258e-009    
  -3.8            -3.3952e-006    -2.3809e-008    1.3166e-009    
  -3.85           -3.4211e-006    -2.3587e-008    1.3078e-009    
  -3.9            -3.4521e-006    -1.3405e-008    2.4683e-009    
  -3.95           -3.4734e-006    -1.3255e-008    2.4228e-009    
  -4              -3.4972e-006    -1.3078e-008    2.3939e-009    
  -4.05           -3.5227e-006    -1.3162e-008    2.3496e-009    
  -4.1            -3.552e-006     -1.2656e-008    2.2975e-009    
  -4.15           -3.575e-006     -1.2311e-008    2.2604e-009    
  -4.2            -3.6023e-006    -1.179e-008     2.2124e-009    
  -4.25           -3.6252e-006    -1.1085e-008    2.1704e-009    
  -4.3            -3.6534e-006    -1.0538e-008    2.1222e-009    
  -4.35           -3.6827e-006    -9.575e-009     2.0808e-009    
  -4.4            -3.7107e-006    -8.444e-009     2.0257e-009    
  -4.45           -3.7169e-006    2.0073e-008     2.8387e-009    
  -4.5            -3.7665e-006    -2.938e-009     2.3518e-009    
  -4.55           -3.7765e-006    2.4686e-008     2.7211e-009    
  -4.6            -3.8023e-006    2.6054e-008     2.6424e-009    
  -4.65           -3.8328e-006    2.9499e-008     2.5655e-009    
  -4.7            -3.8723e-006    1.2476e-008     -3.463e-010    
  -4.75           -3.8737e-006    4.041e-008      -2.36e-009     
  -4.8            -3.9464e-006    4.1626e-008     1.5533e-009    
  -4.85           -3.9644e-006    8.607e-009      1.256e-009     
  -4.9            -3.9802e-006    2.9386e-008     -2.6353e-009   
  -4.95           -4.0018e-006    5.2508e-008     4.116e-010     
  -5              -4.0662e-006    3.0529e-008     2.4107e-009    
END_DB

BEGIN_DB
 ICCAP_VAR VG         -2             
 ICCAP_VAR VS         0              
 ICCAP_VAR VB         0              

 #VD              ID              IB              IG             
  0               -3.92e-008      3.213e-009      1.8502e-009    
  -0.05           -3.1559e-006    1.1239e-008     1.6787e-009    
  -0.1            -6.1208e-006    -1.1048e-008    -5.769e-010    
  -0.15           -8.9223e-006    1.6663e-008     -2.0901e-009   
  -0.2            -1.1578e-005    1.1168e-008     -2.3972e-009   
  -0.25           -1.4063e-005    1.0528e-008     6.381e-010     
  -0.3            -1.64e-005      -2.4281e-008    1.4e-009       
  -0.35           -1.8535e-005    -1.1072e-008    -1.3405e-009   
  -0.4            -2.0524e-005    1.1956e-008     -2.5187e-009   
  -0.45           -2.2356e-005    1.0519e-008     3.356e-010     
  -0.5            -2.4053e-005    -2.0889e-008    1.694e-009     
  -0.55           -2.5571e-005    -1.223e-008     1.05e-010      
  -0.6            -2.689e-005     1.4844e-008     -2.2631e-009   
  -0.65           -2.8145e-005    9.895e-009      2.1104e-009    
  -0.7            -2.9239e-005    -1.1292e-008    -2.058e-010    
  -0.75           -3.0172e-005    1.9536e-008     -1.8232e-009   
  -0.8            -3.1058e-005    1.0953e-008     8.506e-010     
  -0.85           -3.1849e-005    -2.6125e-008    1.3033e-009    
  -0.9            -3.2457e-005    -1.199e-008     -1.566e-009    
  -0.95           -3.3073e-005    1.813e-008      -1.5985e-009   
  -1              -3.3621e-005    1.181e-008      -5.85e-011     
  -1.05           -3.4161e-005    -1.7069e-008    2.3474e-009    
  -1.1            -3.4575e-005    -1.1039e-008    -6.902e-010    
  -1.15           -3.4939e-005    2.4756e-008     -1.4564e-009   
  -1.2            -3.532e-005     1.101e-008      1.406e-010     
  -1.25           -3.5728e-005    -1.9305e-008    2.0019e-009    
  -1.3            -3.6009e-005    -1.137e-008     -8.975e-010    
  -1.35           -3.6284e-005    2.7331e-008     -1.3879e-009   
  -1.4            -3.6588e-005    1.0528e-008     3.472e-010     
  -1.45           -3.6925e-005    -2.1165e-008    1.6743e-009    
  -1.5            -3.7128e-005    -1.123e-008     -1.0804e-009   
  -1.55           -3.7363e-005    2.8116e-008     -1.3471e-009   
  -1.6            -3.7633e-005    1.0471e-008     5.652e-010     
  -1.65           -3.792e-005     -2.342e-008     1.4474e-009    
  -1.7            -3.807e-005     -1.1159e-008    -1.2707e-009   
  -1.75           -3.8293e-005    1.1765e-008     -2.588e-009    
  -1.8            -3.8519e-005    1.0599e-008     2.672e-010     
  -1.85           -3.8795e-005    -2.0375e-008    1.7966e-009    
  -1.9            -3.8949e-005    -1.1327e-008    -1.0068e-009   
  -1.95           -3.9125e-005    2.8137e-008     -1.3638e-009   
  -2              -3.9346e-005    1.0497e-008     4.827e-010     
  -2.05           -3.9596e-005    -2.2432e-008    1.5299e-009    
  -2.1            -3.9787e-005    -1.1771e-008    -2.36e-011     
  -2.15           -3.9896e-005    1.693e-008      -2.0704e-009   
  -2.2            -4.0123e-005    1.066e-008      6.925e-010     
  -2.25           -4.0348e-005    -2.4931e-008    1.368e-009     
  -2.3            -4.0508e-005    -1.1217e-008    -2.528e-010    
  -2.35           -4.0624e-005    1.9967e-008     -1.7765e-009   
  -2.4            -4.081e-005     1.3419e-008     -2.116e-010    
  -2.45           -4.1053e-005    -1.4542e-008    2.5788e-009    
  -2.5            -4.1189e-005    -1.1028e-008    -4.931e-010    
  -2.55           -4.1305e-005    2.2718e-008     -1.5564e-009   
  -2.6            -4.1537e-005    1.0633e-008     1.0709e-009    
  -2.65           -4.1703e-005    -2.4727e-008    1.2557e-009    
  -2.7            -4.1832e-005    -1.1079e-008    -7.32e-010     
  -2.75           -4.1952e-005    2.5322e-008     -1.4389e-009   
  -2.8            -4.212e-005     1.0917e-008     1.755e-010     
  -2.85           -4.235e-005     -1.9718e-008    1.9385e-009    
  -2.9            -4.2455e-005    -1.1345e-008    -9.305e-010    
  -2.95           -4.2577e-005    2.7625e-008     -1.3793e-009   
  -3              -4.2751e-005    1.0578e-008     3.919e-010     
  -3.05           -4.2969e-005    -2.1378e-008    1.6318e-009    
  -3.1            -4.3127e-005    -1.1921e-008    5.32e-011      
  -3.15           -4.3182e-005    1.5881e-008     -2.1957e-009   
  -3.2            -4.3364e-005    1.0704e-008     6.043e-010     
  -3.25           -4.3569e-005    -2.3651e-008    1.4218e-009    
  -3.3            -4.3621e-005    -1.0646e-008    -1.3127e-009   
  -3.35           -4.3768e-005    1.2225e-008     -2.5491e-009   
  -3.4            -4.3932e-005    1.1236e-008     2.996e-010     
  -3.45           -4.4143e-005    -1.991e-008     1.7443e-009    
  -3.5            -4.4292e-005    -1.1278e-008    1.385e-010     
  -3.55           -4.4338e-005    1.5526e-008     -2.3114e-009   
  -3.6            -4.4551e-005    1.1637e-008     2.0834e-009    
  -3.65           -4.4713e-005    -2.0499e-008    1.4938e-009    
  -3.7            -4.4846e-005    -1.5466e-008    2.1746e-009    
  -3.75           -4.4939e-005    -7.913e-009     -8.012e-010    
  -3.8            -4.5033e-005    2.9918e-008     -1.4161e-009   
  -3.85           -4.5275e-005    1.5686e-008     1.3161e-009    
  -3.9            -4.5407e-005    -8.163e-009     2.6037e-009    
  -3.95           -4.5528e-005    -1.485e-009     2.9042e-009    
  -4              -4.5675e-005    -6.092e-009     2.5346e-009    
  -4.05           -4.5806e-005    2.015e-009      2.8908e-009    
  -4.1            -4.5935e-005    -3.083e-009     2.4676e-009    
  -4.15           -4.6041e-005    2.4548e-008     2.2957e-009    
