! VERSION = 6.00
BEGIN_HEADER
 ICCAP_INPUTS
  VG         V  B GROUND SMU4 0.001 LIN        2    0          -5         6    -1        
  VS         V  E GROUND SMU2 0.1 CON        0
  VD         V  S GROUND SMU1 0.1 LIN        1    0          -5         101  -0.05     
  VB         V  C GROUND SMU3 0.1 LIN        3    0          2.5        2    2.5       
 ICCAP_OUTPUTS
  ID         I  S GROUND SMU1 B
  IB         I  C GROUND SMU3 B
  IG         I  B GROUND SMU4 B
END_HEADER

BEGIN_DB
 ICCAP_VAR VG         0              
 ICCAP_VAR VS         0              
 ICCAP_VAR VB         0              

 #VD              ID              IB              IG             
  0               -2.117e-010     -2.0052e-008    -5.235e-010    
  -0.05           1.6552e-009     -9.277e-009     1.7613e-009    
  -0.1            2.2624e-009     1.2614e-008     3.345e-010     
  -0.15           2.3057e-009     1.2289e-008     5.419e-010     
  -0.2            2.3272e-009     1.1031e-008     7.306e-010     
  -0.25           1.6097e-009     1.8421e-008     -1.3807e-009   
  -0.3            2.592e-010      1.2084e-008     -2.6143e-009   
  -0.35           -2.1911e-009    1.091e-009      -1.0524e-009   
  -0.4            -1.7402e-009    -1.1135e-008    1.569e-009     
  -0.45           2.3322e-009     -9.108e-009     8.689e-010     
  -0.5            1.7519e-009     1.3322e-008     -1.3448e-009   
  -0.55           4.423e-010      1.4736e-008     -2.4695e-009   
  -0.6            -2.2328e-009    -1.2876e-008    -5.102e-010    
  -0.65           -1.4646e-009    -2.6827e-008    2.5197e-009    
  -0.7            2.2033e-009     -4.662e-009     1.2848e-009    
  -0.75           2.0181e-009     1.2194e-008     1.4631e-009    
  -0.8            2.1392e-009     1.1531e-008     1.56e-011      
  -0.85           2.2193e-009     1.2411e-008     2.195e-010     
  -0.9            2.2841e-009     1.2523e-008     4.283e-010     
  -0.95           2.3171e-009     1.18e-008       6.284e-010     
  -1              2.3325e-009     1.0345e-008     8.037e-010     
  -1.05           1.6788e-009     1.5856e-008     -1.3702e-009   
  -1.1            3.397e-010      1.3484e-008     -2.5535e-009   
  -1.15           -2.1728e-009    1.249e-009      -1.1258e-009   
  -1.2            -1.7957e-009    -1.0342e-008    1.4657e-009    
  -1.25           2.3238e-009     -8.61e-009      9.648e-010     
  -1.3            2.2846e-009     9.514e-009      1.1317e-009    
  -1.35           2.1771e-009     1.1015e-008     1.2938e-009    
  -1.4            2.0042e-009     1.2249e-008     1.4791e-009    
  -1.45           2.1481e-009     1.1659e-008     2.97e-011      
  -1.5            2.2297e-009     1.2451e-008     2.352e-010     
  -1.55           2.2837e-009     1.2569e-008     4.454e-010     
  -1.6            2.3208e-009     1.1692e-008     6.272e-010     
  -1.65           2.3297e-009     1.0221e-008     8.173e-010     
  -1.7            1.689e-009      1.5443e-008     -1.3664e-009   
  -1.75           3.527e-010      1.358e-008      -2.5489e-009   
  -1.8            -2.1729e-009    1.13e-009       -1.134e-009    
  -1.85           -1.8021e-009    -1.0364e-008    1.4462e-009    
  -1.9            2.3247e-009     -8.712e-009     9.797e-010     
  -1.95           1.8236e-009     1.0912e-008     -1.57e-009     
  -2              -1.4611e-009    7.668e-009      -1.8274e-009   
  -2.05           -2.2324e-009    -1.2941e-008    -4.666e-010    
  -2.1            -2.2364e-009    -1.2135e-008    -6.809e-010    
  -2.15           -1.5599e-009    -2.2408e-008    2.2924e-009    
  -2.2            2.0728e-009     -6.834e-009     1.4295e-009    
  -2.25           1.8236e-009     1.3062e-008     1.6172e-009    
  -2.3            1.5543e-009     1.2671e-008     1.8047e-009    
  -2.35           2.2773e-009     1.2544e-008     3.894e-010     
  -2.4            2.3103e-009     1.2145e-008     5.882e-010     
  -2.45           2.3345e-009     1.0676e-008     7.717e-010     
  -2.5            2.3274e-009     9.529e-009      9.358e-010     
  -2.55           2.3019e-009     9.311e-009      1.089e-009     
  -2.6            2.2171e-009     1.0565e-008     1.2552e-009    
  -2.65           2.0298e-009     1.0406e-008     -2.144e-010    
  -2.7            9.447e-010      2.4037e-008     -1.5833e-009   
  -2.75           -1.4764e-009    7.594e-009      -1.8206e-009   
  -2.8            -2.2313e-009    -1.292e-008     -4.555e-010    
  -2.85           -2.2369e-009    -1.2302e-008    -6.647e-010    
  -2.9            -1.5517e-009    -2.2699e-008    2.3137e-009    
  -2.95           2.0793e-009     -6.7e-009       1.4193e-009    
  -3              1.8416e-009     1.2965e-008     1.6121e-009    
  -3.05           1.5654e-009     1.2808e-008     1.7976e-009    
  -3.1            2.276e-009      1.2568e-008     3.715e-010     
  -3.15           2.3136e-009     1.2119e-008     5.768e-010     
  -3.2            2.33e-009       1.0818e-008     7.605e-010     
  -3.25           2.3285e-009     9.59e-009       9.257e-010     
  -3.3            2.3034e-009     9.221e-009      1.0832e-009    
  -3.35           2.2204e-009     1.0484e-008     1.2447e-009    
  -3.4            2.0731e-009     1.2043e-008     1.4152e-009    
  -3.45           1.8468e-009     1.3045e-008     1.6121e-009    
  -3.5            1.5612e-009     1.267e-008      1.7941e-009    
  -3.55           2.276e-009      1.2501e-008     3.757e-010     
  -3.6            2.3138e-009     1.206e-008      5.783e-010     
  -3.65           2.3301e-009     1.1012e-008     7.62e-010      
  -3.7            2.3287e-009     9.802e-009      9.258e-010     
  -3.75           2.3061e-009     9.155e-009      1.0787e-009    
  -3.8            2.2241e-009     9.652e-009      1.2384e-009    
  -3.85           2.0228e-009     1.0273e-008     -2.211e-010    
  -3.9            9.361e-010      2.3706e-008     -1.5919e-009   
  -3.95           -1.4897e-009    7.492e-009      -1.8138e-009   
  -4              -2.2318e-009    -1.2893e-008    -4.388e-010    
  -4.05           -2.2375e-009    -1.2413e-008    -6.459e-010    
  -4.1            -1.5486e-009    -2.3001e-008    2.3312e-009    
  -4.15           2.0879e-009     -6.525e-009     1.408e-009     
  -4.2            1.8631e-009     1.2812e-008     1.5953e-009    
  -4.25           1.5816e-009     1.2958e-008     1.7832e-009    
  -4.3            2.2706e-009     1.2593e-008     3.601e-010     
  -4.35           2.3112e-009     1.2205e-008     5.65e-010      
  -4.4            2.3268e-009     1.1155e-008     7.492e-010     
  -4.45           2.3275e-009     9.81e-009       9.14e-010      
  -4.5            2.307e-009      9.045e-009      1.0726e-009    
  -4.55           2.2274e-009     9.608e-009      1.2336e-009    
  -4.6            2.0755e-009     1.1017e-008     1.4029e-009    
  -4.65           1.861e-009      1.2776e-008     1.5993e-009    
  -4.7            1.5877e-009     1.291e-008      1.7846e-009    
  -4.75           2.2711e-009     1.2539e-008     3.639e-010     
  -4.8            2.3121e-009     1.219e-008      5.701e-010     
  -4.85           2.3299e-009     1.0794e-008     7.527e-010     
  -4.9            2.3283e-009     9.606e-009      9.2e-010       
  -4.95           2.3038e-009     9.177e-009      1.0754e-009    
  -5              2.2232e-009     1.0402e-008     1.2345e-009    
END_DB

BEGIN_DB
 ICCAP_VAR VG         -1             
 ICCAP_VAR VS         0              
 ICCAP_VAR VB         0              

 #VD              ID              IB              IG             
  0               -3.401e-009     -7.464e-009     -1.4313e-009   
  -0.05           -2.0245e-007    9.035e-009      -2.0701e-009   
  -0.1            -3.3317e-007    1.3154e-008     2.0496e-009    
  -0.15           -4.1717e-007    -1.0793e-008    1.583e-010     
  -0.2            -4.5606e-007    9.882e-009      -2.5943e-009   
  -0.25           -4.8343e-007    1.0256e-008     1.5933e-009    
  -0.3            -5.0002e-007    -2.2346e-008    1.8562e-009    
  -0.35           -5.0732e-007    -1.3047e-008    -7.614e-010    
  -0.4            -5.1022e-007    2.0257e-008     -1.5585e-009   
  -0.45           -5.1684e-007    1.2333e-008     8.529e-010     
  -0.5            -5.2523e-007    -9.115e-009     2.8311e-009    
  -0.55           -5.2869e-007    -1.1068e-008    -1.0446e-009   
  -0.6            -5.2989e-007    8.215e-009      -1.4019e-009   
  -0.65           -5.3785e-007    9.16e-009       1.3788e-009    
  -0.7            -5.4327e-007    -2.7692e-008    2.2349e-009    
  -0.75           -5.4732e-007    -2.4361e-008    1.948e-009     
  -0.8            -5.5186e-007    -1.9409e-008    1.6754e-009    
  -0.85           -5.5155e-007    -1.2917e-008    -8.547e-010    
  -0.9            -5.5123e-007    7.008e-009      -1.3982e-009   
  -0.95           -5.5711e-007    9.618e-009      1.1561e-009    
  -1              -5.6327e-007    -2.7221e-008    2.5852e-009    
  -1.05           -5.6601e-007    -2.7993e-008    2.3644e-009    
  -1.1            -5.6916e-007    -2.6637e-008    2.098e-009     
  -1.15           -5.7315e-007    -2.1993e-008    1.8058e-009    
  -1.2            -5.7281e-007    -1.2944e-008    -7.857e-010    
  -1.25           -5.7127e-007    2.0673e-008     -1.5335e-009   
  -1.3            -5.7521e-007    1.2174e-008     8.71e-010      
  -1.35           -5.8158e-007    -8.896e-009     2.8363e-009    
  -1.4            -5.8175e-007    -1.0892e-008    -1.0705e-009   
  -1.45           -5.8239e-007    8.267e-009      -1.4011e-009   
  -1.5            -5.9001e-007    9.178e-009      1.4023e-009    
  -1.55           -5.9421e-007    -2.7241e-008    2.1949e-009    
  -1.6            -5.9718e-007    -2.3675e-008    1.8974e-009    
  -1.65           -5.9702e-007    -1.2964e-008    -7.294e-010    
  -1.7            -5.9491e-007    1.9935e-008     -1.5758e-009   
  -1.75           -5.9862e-007    1.2464e-008     8.31e-010      
  -1.8            -6.0494e-007    -9.117e-009     2.8241e-009    
  -1.85           -6.0527e-007    -1.1355e-008    -1.0274e-009   
  -1.9            -6.0515e-007    8.317e-009      -1.4005e-009   
  -1.95           -6.1247e-007    9.319e-009      1.3529e-009    
  -2              -6.164e-007     -2.7747e-008    2.2751e-009    
  -2.05           -6.194e-007     -2.5278e-008    1.9949e-009    
  -2.1            -6.1925e-007    -1.2865e-008    -6.734e-010    
  -2.15           -6.1697e-007    1.9222e-008     -1.6329e-009   
  -2.2            -6.2004e-007    1.2382e-008     7.796e-010     
  -2.25           -6.2632e-007    -9.372e-009     2.8105e-009    
  -2.3            -6.31e-007      -2.5707e-008    2.0274e-009    
  -2.35           -6.3074e-007    -1.2965e-008    -6.608e-010    
  -2.4            -6.2851e-007    1.9167e-008     -1.647e-009    
  -2.45           -6.3155e-007    1.2438e-008     7.698e-010     
  -2.5            -6.4055e-007    -2.0305e-008    1.4737e-009    
  -2.55           -6.4371e-007    -1.1688e-008    1.918e-010     
  -2.6            -6.3722e-007    9.686e-009      -2.6132e-009   
  -2.65           -6.4549e-007    1.1136e-008     1.5547e-009    
  -2.7            -6.4939e-007    -2.3875e-008    1.9244e-009    
  -2.75           -6.4859e-007    -1.2912e-008    -7.132e-010    
  -2.8            -6.4605e-007    1.9775e-008     -1.5926e-009   
  -2.85           -6.4935e-007    1.2242e-008     8.114e-010     
  -2.9            -6.5531e-007    -9.136e-009     2.823e-009     
  -2.95           -6.5982e-007    -2.4615e-008    1.9512e-009    
  -3              -6.5921e-007    -1.2939e-008    -7.03e-010     
  -3.05           -6.566e-007     1.9671e-008     -1.6048e-009   
  -3.1            -6.5991e-007    1.2599e-008     8.094e-010     
  -3.15           -6.6593e-007    -9.227e-009     2.8222e-009    
  -3.2            -6.6624e-007    -1.1652e-008    -1.0034e-009   
  -3.25           -6.6503e-007    8.154e-009      -1.3999e-009   
  -3.3            -6.7204e-007    9.163e-009      1.3289e-009    
  -3.35           -6.7598e-007    -2.8122e-008    2.323e-009     
  -3.4            -6.7861e-007    -2.6128e-008    2.0388e-009    
  -3.45           -6.815e-007     -2.1025e-008    1.7544e-009    
  -3.5            -6.7974e-007    -1.2893e-008    -8.162e-010    
  -3.55           -6.7671e-007    2.1018e-008     -1.4999e-009   
  -3.6            -6.808e-007     1.1737e-008     8.988e-010     
  -3.65           -6.8704e-007    -8.33e-009      2.8354e-009    
  -3.7            -6.9146e-007    -2.1131e-008    1.7542e-009    
  -3.75           -6.8962e-007    -1.2653e-008    -8.032e-010    
  -3.8            -6.8672e-007    2.0909e-008     -1.507e-009    
  -3.85           -6.9044e-007    1.2087e-008     8.892e-010     
  -3.9            -6.9708e-007    -8.204e-009     2.8316e-009    
  -3.95           -7.0133e-007    -2.1146e-008    1.7685e-009    
  -4              -6.9956e-007    -1.2381e-008    -7.938e-010    
  -4.05           -6.9714e-007    2.0912e-008     -1.5089e-009   
  -4.1            -7.0014e-007    1.255e-008      8.815e-010     
  -4.15           -7.0664e-007    -7.785e-009     2.8281e-009    
  -4.2            -7.1159e-007    -2.0935e-008    1.7904e-009    
  -4.25           -7.1e-007       -1.1747e-008    -7.871e-010    
  -4.3            -7.0688e-007    2.1664e-008     -1.5154e-009   
  -4.35           -7.1124e-007    1.3406e-008     8.685e-010     
  -4.4            -7.1729e-007    -6.79e-009      2.8227e-009    
  -4.45           -7.2189e-007    -2.0082e-008    1.8032e-009    
  -4.5            -7.2053e-007    -1.0635e-008    -7.762e-010    
  -4.55           -7.1726e-007    2.2704e-008     -1.5264e-009   
  -4.6            -7.2149e-007    1.5035e-008     8.615e-010     
  -4.65           -7.2858e-007    -5.162e-009     2.8213e-009    
  -4.7            -7.3237e-007    -1.4631e-008    1.8305e-009    
  -4.75           -7.351e-007     -9.311e-009     2.8215e-009    
  -4.8            -7.3727e-007    -1.4301e-008    2.6048e-009    
  -4.85           -7.3933e-007    -1.3448e-008    2.1477e-009    
  -4.9            -7.4257e-007    -4.086e-009     2.8512e-009    
  -4.95           -7.4495e-007    -9.498e-009     2.7665e-009    
  -5              -7.4736e-007    -1.1723e-008    2.4412e-009    
END_DB

BEGIN_DB
 ICCAP_VAR VG         -2             
 ICCAP_VAR VS         0              
 ICCAP_VAR VB         0              

 #VD              ID              IB              IG             
  0               -1.6702e-008    1.2456e-008     -4.772e-010    
  -0.05           -1.26e-006      -1.9078e-008    -2.1904e-009   
  -0.1            -2.4387e-006    1.8654e-008     -1.697e-009    
  -0.15           -3.555e-006     1.2704e-008     2.0651e-009    
  -0.2            -4.6119e-006    -1.5998e-008    1.5306e-009    
  -0.25           -5.5935e-006    -1.2951e-008    -7.17e-010     
  -0.3            -6.5053e-006    1.6617e-008     -1.9377e-009   
  -0.35           -7.3643e-006    1.3152e-008     1.8954e-009    
  -0.4            -8.1498e-006    -2.088e-008     1.7753e-009    
  -0.45           -8.8668e-006    -2.4416e-008    1.9535e-009    
  -0.5            -9.5193e-006    -2.6928e-008    2.1292e-009    
  -0.55           -1.01069e-005   -2.7862e-008    2.3048e-009    
  -0.6            -1.06333e-005   -2.7804e-008    2.4584e-009    
  -0.65           -1.10989e-005   -2.7078e-008    2.5869e-009    
  -0.7            -1.1502e-005    -2.3053e-008    1.9003e-009    
  -0.75           -1.1857e-005    -1.0333e-008    6.25e-011      
  -0.8            -1.2133e-005    1.405e-008      -2.2137e-009   
  -0.85           -1.2403e-005    1.257e-008      6.314e-010     
  -0.9            -1.2635e-005    -8.889e-009     2.8361e-009    
  -0.95           -1.2831e-005    -1.4948e-008    1.4597e-009    
  -1              -1.2988e-005    -2.7781e-008    2.4384e-009    
  -1.05           -1.3119e-005    -1.2876e-008    -6.609e-010    
  -1.1            -1.3225e-005    7.685e-009      -1.3989e-009   
  -1.15           -1.3365e-005    1.0251e-008     1.466e-009     
  -1.2            -1.3453e-005    -1.846e-008     1.6348e-009    
  -1.25           -1.3534e-005    -2.6732e-008    2.6169e-009    
  -1.3            -1.3606e-005    -2.4738e-008    1.9746e-009    
  -1.35           -1.3667e-005    -1.2283e-008    -9.233e-010    
  -1.4            -1.3713e-005    2.7408e-008     -1.3989e-009   
  -1.45           -1.3814e-005    1.0311e-008     1.4786e-009    
  -1.5            -1.3861e-005    -1.7699e-008    1.6048e-009    
  -1.55           -1.3915e-005    -2.6986e-008    2.5971e-009    
  -1.6            -1.3958e-005    -2.4175e-008    1.9375e-009    
  -1.65           -1.4014e-005    -1.2605e-008    2.282e-010     
  -1.7            -1.4022e-005    1.1011e-008     -2.4563e-009   
  -1.75           -1.41e-005      1.2919e-008     2.0231e-009    
  -1.8            -1.4142e-005    -1.944e-008     1.5787e-009    
  -1.85           -1.4183e-005    -2.7249e-008    2.5749e-009    
  -1.9            -1.4218e-005    -2.359e-008     1.9002e-009    
  -1.95           -1.4265e-005    -1.2197e-008    2.143e-010     
  -2              -1.4269e-005    1.1319e-008     -2.4334e-009   
  -2.05           -1.4332e-005    1.2894e-008     2.0432e-009    
  -2.1            -1.4371e-005    -1.9551e-008    1.5577e-009    
  -2.15           -1.4402e-005    -2.7512e-008    2.5454e-009    
  -2.2            -1.4434e-005    -2.2922e-008    1.8674e-009    
  -2.25           -1.4477e-005    -1.1629e-008    1.967e-010     
  -2.3            -1.4475e-005    1.1614e-008     -2.4166e-009   
  -2.35           -1.4533e-005    1.2803e-008     2.0634e-009    
  -2.4            -1.4569e-005    -1.9664e-008    1.5312e-009    
  -2.45           -1.4597e-005    -2.7565e-008    2.5286e-009    
  -2.5            -1.4626e-005    -2.2237e-008    1.8316e-009    
  -2.55           -1.4663e-005    -1.14e-008      1.847e-010     
  -2.6            -1.4655e-005    1.195e-008      -2.3946e-009   
  -2.65           -1.4718e-005    1.2637e-008     2.0823e-009    
  -2.7            -1.4746e-005    -1.997e-008     1.5086e-009    
  -2.75           -1.4772e-005    -2.7636e-008    2.5032e-009    
  -2.8            -1.4797e-005    -2.1847e-008    1.7991e-009    
  -2.85           -1.4833e-005    -1.1108e-008    1.701e-010     
  -2.9            -1.4824e-005    1.2328e-008     -2.3696e-009   
  -2.95           -1.4875e-005    1.2462e-008     2.0994e-009    
  -3              -1.4909e-005    -2.0112e-008    1.4897e-009    
  -3.05           -1.4932e-005    -2.7699e-008    2.4802e-009    
  -3.1            -1.4945e-005    -1.285e-008     -6.399e-010    
  -3.15           -1.4955e-005    7.508e-009      -1.3981e-009   
  -3.2            -1.5018e-005    1.0058e-008     1.4353e-009    
  -3.25           -1.5038e-005    -1.8943e-008    1.6696e-009    
  -3.3            -1.5061e-005    -2.6357e-008    2.6495e-009    
  -3.35           -1.5079e-005    -2.5576e-008    2.0252e-009    
  -3.4            -1.5092e-005    -1.2268e-008    -9.007e-010    
  -3.45           -1.5101e-005    2.7241e-008     -1.3974e-009   
  -3.5            -1.5168e-005    1.0231e-008     1.4518e-009    
  -3.55           -1.5178e-005    -1.842e-008     1.6496e-009    
  -3.6            -1.5205e-005    -2.6475e-008    2.6303e-009    
  -3.65           -1.5225e-005    -2.4765e-008    1.9894e-009    
  -3.7            -1.5253e-005    -1.2765e-008    2.456e-010     
  -3.75           -1.5238e-005    1.1031e-008     -2.4855e-009   
  -3.8            -1.5296e-005    1.3929e-008     1.9944e-009    
  -3.85           -1.5316e-005    -1.8414e-008    1.6211e-009    
  -3.9            -1.5348e-005    -2.5854e-008    2.6133e-009    
  -3.95           -1.5358e-005    -2.3252e-008    1.955e-009     
  -4              -1.5383e-005    -1.6204e-008    2.6823e-009    
  -4.05           -1.54e-005      -2.4424e-008    2.0815e-009    
  -4.1            -1.5431e-005    -1.4057e-008    2.744e-009     
  -4.15           -1.5447e-005    -1.626e-008     1.98e-009      
