! VERSION = 6.00
BEGIN_HEADER
 ICCAP_INPUTS
  VG         V  B GROUND SMU4 0.001 LIN        2    0          -5         6    -1        
  VS         V  E GROUND SMU2 0.1 CON        0
  VD         V  S GROUND SMU1 0.1 LIN        1    0          -5         101  -0.05     
  VB         V  C GROUND SMU3 0.1 LIN        3    0          2.5        2    2.5       
 ICCAP_OUTPUTS
  ID         I  S GROUND SMU1 B
  IB         I  C GROUND SMU3 B
  IG         I  B GROUND SMU4 B
END_HEADER

BEGIN_DB
 ICCAP_VAR VG         0              
 ICCAP_VAR VS         0              
 ICCAP_VAR VB         0              

 #VD              ID              IB              IG             
  0               1.2203e-009     -1.2841e-008    1.2907e-009    
  -0.05           2.1069e-009     1.1175e-008     1.3554e-009    
  -0.1            1.914e-009      1.2029e-008     1.5385e-009    
  -0.15           2.1642e-009     1.1851e-008     7.4e-011       
  -0.2            2.2449e-009     1.2532e-008     2.788e-010     
  -0.25           2.2904e-009     1.2534e-008     4.788e-010     
  -0.3            2.3108e-009     1.1689e-008     6.643e-010     
  -0.35           2.3102e-009     1.0076e-008     8.418e-010     
  -0.4            1.7102e-009     1.4738e-008     -1.7624e-009   
  -0.45           -1.6646e-009    6.098e-009      -1.7105e-009   
  -0.5            -2.2072e-009    -1.2884e-008    -2.473e-010    
  -0.55           -2.2455e-009    -1.2962e-008    -4.626e-010    
  -0.6            -1.433e-009     -2.6633e-008    2.5307e-009    
  -0.65           2.2028e-009     -4.094e-009     1.2534e-009    
  -0.7            2.0184e-009     1.0374e-008     -2.065e-010    
  -0.75           9.404e-010      2.3261e-008     -1.5915e-009   
  -0.8            -1.49e-009      7.622e-009      -1.8174e-009   
  -0.85           -2.2416e-009    -1.3024e-008    -4.145e-010    
  -0.9            -2.2443e-009    -1.2725e-008    -6.229e-010    
  -0.95           -1.5284e-009    -2.3212e-008    2.3374e-009    
  -1              2.098e-009      -6.015e-009     1.3821e-009    
  -1.05           1.8755e-009     1.1851e-008     1.5646e-009    
  -1.1            2.1796e-009     1.1995e-008     1.042e-010     
  -1.15           2.2576e-009     1.2537e-008     3.055e-010     
  -1.2            2.2977e-009     1.2676e-008     5.043e-010     
  -1.25           2.314e-009      1.1428e-008     6.903e-010     
  -1.3            2.3079e-009     9.849e-009      8.651e-010     
  -1.35           1.7312e-009     1.3995e-008     -1.7281e-009   
  -1.4            -1.6304e-009    6.555e-009      -1.7303e-009   
  -1.45           -2.2158e-009    -1.2923e-008    -2.778e-010    
  -1.5            -2.2471e-009    -1.2953e-008    -4.993e-010    
  -1.55           -1.4507e-009    -2.6203e-008    2.5014e-009    
  -1.6            2.1831e-009     -4.561e-009     1.2796e-009    
  -1.65           2.0343e-009     1.052e-008      -1.87e-010     
  -1.7            9.6e-010        2.3943e-008     -1.563e-009    
  -1.75           -1.4634e-009    7.914e-009      -1.8367e-009   
  -1.8            -2.2404e-009    -1.3013e-008    -4.461e-010    
  -1.85           -2.2391e-009    -1.2498e-008    -6.568e-010    
  -1.9            -1.5404e-009    -2.2233e-008    2.2873e-009    
  -1.95           2.0639e-009     -6.329e-009     1.4099e-009    
  -2              1.8407e-009     1.2338e-008     1.5937e-009    
  -2.05           1.582e-009      1.2414e-008     1.7719e-009    
  -2.1            2.2624e-009     1.2645e-008     3.376e-010     
  -2.15           2.2983e-009     1.234e-008      5.343e-010     
  -2.2            2.3125e-009     1.1207e-008     7.173e-010     
  -2.25           2.3122e-009     9.843e-009      8.885e-010     
  -2.3            2.2902e-009     9.26e-009       1.047e-009     
  -2.35           2.2305e-009     9.963e-009      1.203e-009     
  -2.4            2.0997e-009     1.0301e-008     1.3691e-009    
  -2.45           1.9024e-009     1.1579e-008     1.5494e-009    
  -2.5            2.1716e-009     1.2011e-008     8.58e-011      
  -2.55           2.2516e-009     1.2593e-008     2.905e-010     
  -2.6            2.2962e-009     1.2758e-008     4.86e-010      
  -2.65           2.3103e-009     1.1909e-008     6.78e-010      
  -2.7            2.3103e-009     1.0071e-008     8.498e-010     
  -2.75           1.7133e-009     1.4651e-008     -1.7556e-009   
  -2.8            -1.6545e-009    6.18e-009       -1.712e-009    
  -2.85           -2.2107e-009    -1.2866e-008    -2.571e-010    
  -2.9            -2.2447e-009    -1.298e-008     -4.747e-010    
  -2.95           -1.4416e-009    -2.6539e-008    2.5296e-009    
  -3              2.2e-009        -4.202e-009     1.2606e-009    
  -3.05           2.0361e-009     1.1641e-008     1.4316e-009    
  -3.1            1.8176e-009     1.2252e-008     1.6164e-009    
  -3.15           1.5601e-009     1.2398e-008     1.7883e-009    
  -3.2            2.2687e-009     1.262e-008      3.544e-010     
  -3.25           2.3e-009        1.2347e-008     5.516e-010     
  -3.3            2.3123e-009     1.1059e-008     7.357e-010     
  -3.35           2.309e-009      9.725e-009      9.016e-010     
  -3.4            2.288e-009      9.285e-009      1.0595e-009    
  -3.45           2.2189e-009     1.0126e-008     1.2215e-009    
  -3.5            2.083e-009      1.1416e-008     1.385e-009     
  -3.55           1.8813e-009     1.2112e-008     1.5673e-009    
  -3.6            2.1785e-009     1.2121e-008     1.069e-010     
  -3.65           2.2541e-009     1.248e-008      3.068e-010     
  -3.7            2.2964e-009     1.252e-008      5.025e-010     
  -3.75           2.3121e-009     1.1446e-008     6.888e-010     
  -3.8            2.3072e-009     1.0013e-008     8.623e-010     
  -3.85           1.7282e-009     1.4102e-008     -1.7408e-009   
  -3.9            -1.6392e-009    6.368e-009      -1.7244e-009   
  -3.95           -1.5463e-009    -2.2112e-008    2.2827e-009    
  -4              2.0673e-009     -6.452e-009     1.4214e-009    
  -4.05           1.8433e-009     1.2101e-008     1.6047e-009    
  -4.1            1.5728e-009     1.2494e-008     1.7766e-009    
  -4.15           2.2651e-009     1.2621e-008     3.399e-010     
  -4.2            2.2985e-009     1.2389e-008     5.36e-010      
  -4.25           2.3124e-009     1.1136e-008     7.161e-010     
  -4.3            2.3108e-009     9.761e-009      8.866e-010     
  -4.35           2.2851e-009     9.294e-009      1.0452e-009    
  -4.4            1.865e-009      1.0124e-008     -1.5109e-009   
  -4.45           -1.3966e-009    8.246e-009      -1.8771e-009   
  -4.5            -2.2469e-009    -1.3001e-008    -5.221e-010    
  -4.55           -1.468e-009     -2.5711e-008    2.4779e-009    
  -4.6            2.1766e-009     -4.727e-009     1.2973e-009    
  -4.65           2.0454e-009     1.0562e-008     -1.715e-010    
  -4.7            9.718e-010      2.4219e-008     -1.5558e-009   
  -4.75           -1.4516e-009    7.914e-009      -1.8476e-009   
  -4.8            -2.2479e-009    -1.3006e-008    -4.64e-010     
  -4.85           -2.2408e-009    -1.2731e-008    -6.746e-010    
  -4.9            -1.5503e-009    -2.2051e-008    2.2687e-009    
  -4.95           2.0626e-009     -6.586e-009     1.4228e-009    
  -5              1.8274e-009     1.2281e-008     1.6084e-009    
END_DB

BEGIN_DB
 ICCAP_VAR VG         -1             
 ICCAP_VAR VS         0              
 ICCAP_VAR VB         0              

 #VD              ID              IB              IG             
  0               -3.4498e-008    -1.3135e-008    -7.015e-010    
  -0.05           -1.7069e-006    -1.3186e-008    -1.4019e-009   
  -0.1            -2.6369e-006    9.578e-009      1.1858e-009    
  -0.15           -3.1171e-006    -8.137e-009     2.8435e-009    
  -0.2            -3.3649e-006    -1.2587e-008    -9.501e-010    
  -0.25           -3.539e-006     1.9899e-008     -1.6002e-009   
  -0.3            -3.7303e-006    1.2204e-008     2.1278e-009    
  -0.35           -3.885e-006     -1.3784e-008    3.042e-010     
  -0.4            -3.9179e-006    8.367e-009      -1.4039e-009   
  -0.45           -4.0802e-006    9.434e-009      1.1836e-009    
  -0.5            -4.1804e-006    -8.221e-009     2.8377e-009    
  -0.55           -4.2798e-006    -2.6438e-008    2.1027e-009    
  -0.6            -4.3702e-006    -2.7612e-008    2.2806e-009    
  -0.65           -4.4593e-006    -2.753e-008     2.4484e-009    
  -0.7            -4.5476e-006    -2.7095e-008    2.5836e-009    
  -0.75           -4.6364e-006    -2.583e-008     2.6888e-009    
  -0.8            -4.7246e-006    -1.0086e-008    1.526e-010     
  -0.85           -4.7084e-006    9.774e-009      -1.3851e-009   
  -0.9            -4.8801e-006    9.281e-009      1.36e-009      
  -0.95           -4.952e-006     -2.6993e-008    2.616e-009     
  -1              -5.0384e-006    -9.825e-009     9.22e-011      
  -1.05           -5.0145e-006    1.0221e-008     -2.67e-009     
  -1.1            -5.1107e-006    1.5553e-008     -1.5153e-009   
  -1.15           -5.2028e-006    1.2787e-008     6.402e-010     
  -1.2            -5.3331e-006    -1.94e-008      2.0813e-009    
  -1.25           -5.4051e-006    -2.7704e-008    2.2638e-009    
  -1.3            -5.48e-006      -2.7652e-008    2.4259e-009    
  -1.35           -5.5635e-006    -2.7198e-008    2.5675e-009    
  -1.4            -5.6407e-006    -1.0065e-008    5.45e-011      
  -1.45           -5.6084e-006    1.0214e-008     -2.6564e-009   
  -1.5            -5.7049e-006    1.4298e-008     -1.4848e-009   
  -1.55           -5.7953e-006    1.286e-008      6.83e-010      
  -1.6            -5.9222e-006    -1.9294e-008    2.0081e-009    
  -1.65           -5.9867e-006    -2.7419e-008    2.1859e-009    
  -1.7            -6.0691e-006    -2.7721e-008    2.358e-009     
  -1.75           -6.1439e-006    -2.7527e-008    2.513e-009     
  -1.8            -6.2192e-006    -1.0321e-008    8.6e-012       
  -1.85           -6.1847e-006    1.0358e-008     -2.6388e-009   
  -1.9            -6.2786e-006    1.3288e-008     -1.4572e-009   
  -1.95           -6.3757e-006    1.2859e-008     7.28e-010      
  -2              -6.5073e-006    -1.9255e-008    1.9165e-009    
  -2.05           -6.5691e-006    -2.6309e-008    2.104e-009     
  -2.1            -6.6456e-006    -2.7694e-008    2.2828e-009    
  -2.15           -6.7218e-006    -2.7528e-008    2.4409e-009    
  -2.2            -6.7999e-006    -2.6908e-008    2.5737e-009    
  -2.25           -6.881e-006     -2.5828e-008    2.6803e-009    
  -2.3            -6.9618e-006    -1.0113e-008    1.518e-010     
  -2.35           -6.9053e-006    9.771e-009      -1.3857e-009   
  -2.4            -7.1055e-006    9.345e-009      1.3669e-009    
  -2.45           -7.1649e-006    -2.6854e-008    2.6097e-009    
  -2.5            -7.2488e-006    -9.841e-009     8.5e-011       
  -2.55           -7.188e-006     1.0182e-008     -1.3707e-009   
  -2.6            -7.4079e-006    9.822e-009      1.4432e-009    
  -2.65           -7.4544e-006    -2.7442e-008    2.5182e-009    
  -2.7            -7.5311e-006    -2.6347e-008    2.6363e-009    
  -2.75           -7.616e-006     -9.774e-009     1.17e-010      
  -2.8            -7.5515e-006    1.0192e-008     -1.3784e-009   
  -2.85           -7.77e-006      9.759e-009      1.4154e-009    
  -2.9            -7.8221e-006    -2.7145e-008    2.5599e-009    
  -2.95           -7.9015e-006    -2.5847e-008    2.6697e-009    
  -3              -7.9882e-006    -9.642e-009     1.413e-010     
  -3.05           -7.9205e-006    1.0204e-008     -1.382e-009    
  -3.1            -8.143e-006     9.801e-009      1.3811e-009    
  -3.15           -8.1984e-006    -2.6415e-008    2.5968e-009    
  -3.2            -8.2838e-006    -9.181e-009     7.32e-011      
  -3.25           -8.2128e-006    1.1152e-008     -2.6682e-009   
  -3.3            -8.4079e-006    1.0497e-008     1.215e-009     
  -3.35           -8.4843e-006    -6.927e-009     2.8407e-009    
  -3.4            -8.557e-006     -2.4289e-008    2.0464e-009    
  -3.45           -8.6298e-006    -2.567e-008     2.2292e-009    
  -3.5            -8.7155e-006    -1.7248e-008    2.1957e-009    
  -3.55           -8.7906e-006    -1.6711e-008    2.152e-009     
  -3.6            -8.8716e-006    -1.6093e-008    2.1037e-009    
  -3.65           -8.9487e-006    -1.5454e-008    2.0489e-009    
  -3.7            -9.0179e-006    -1.4517e-008    2.0148e-009    
  -3.75           -9.101e-006     -1.3757e-008    1.9686e-009    
  -3.8            -9.1801e-006    -1.2722e-008    1.9152e-009    
  -3.85           -9.2579e-006    -1.1507e-008    1.8739e-009    
  -3.9            -9.3358e-006    -1.0043e-008    1.8261e-009    
  -3.95           -9.421e-006     -8.459e-009     1.784e-009     
  -4              -9.4501e-006    2.0132e-008     2.8383e-009    
  -4.05           -9.5711e-006    -5.094e-009     2.1604e-009    
  -4.1            -9.5048e-006    6.045e-009      -1.8432e-009   
  -4.15           -9.6151e-006    4.2384e-008     -1.7706e-009   
  -4.2            -9.8129e-006    3.5211e-008     1.9909e-009    
  -4.25           -9.9086e-006    8.719e-009      1.5876e-009    
  -4.3            -9.8944e-006    2.0887e-008     -2.0403e-009   
  -4.35           -9.9547e-006    4.6466e-008     -1.4476e-009   
  -4.4            -1.00777e-005   4.969e-008      2.2979e-009    
  -4.45           -1.02603e-005   3.418e-008      1.616e-010     
  -4.5            -1.01772e-005   6.0049e-008     -1.386e-009    
  -4.55           -1.03557e-005   6.9327e-008     2.7705e-009    
  -4.6            -1.04238e-005   5.1572e-008     -6.001e-010    
  -4.65           -1.04576e-005   8.9583e-008     -2.0895e-009   
  -4.7            -1.07336e-005   9.5153e-008     1.798e-009     
  -4.75           -1.07614e-005   6.8659e-008     1.9643e-009    
  -4.8            -1.0791e-005    1.2015e-007     -5.881e-010    
  -4.85           -1.083e-005     1.3897e-007     -1.4593e-009   
  -4.9            -1.0992e-005    1.4259e-007     2.6688e-009    
  -4.95           -1.107e-005     1.3297e-007     -8.863e-010    
  -5              -1.1118e-005    1.915e-007      -1.3658e-009   
END_DB

BEGIN_DB
 ICCAP_VAR VG         -2             
 ICCAP_VAR VS         0              
 ICCAP_VAR VB         0              

 #VD              ID              IB              IG             
  0               -2.5263e-007    -1.4538e-008    2.8339e-009    
  -0.05           -2.0225e-005    1.0661e-008     -2.151e-009    
  -0.1            -3.9081e-005    2.4552e-008     -1.4044e-009   
  -0.15           -5.6969e-005    9.195e-009      1.322e-009     
  -0.2            -7.3679e-005    -2.2997e-008    1.8846e-009    
  -0.25           -8.9287e-005    -1.1695e-008    2.404e-010     
  -0.3            -0.00010351     1.2533e-008     -2.4702e-009   
  -0.35           -0.00011681     1.295e-008      2.7446e-009    
  -0.4            -0.00012894     -1.9318e-008    1.6748e-009    
  -0.45           -0.00013983     -2.7699e-008    2.5123e-009    
  -0.5            -0.00014951     -1.327e-008     -7.397e-010    
  -0.55           -0.00015815     8.19e-009       -1.4052e-009   
  -0.6            -0.00016626     1.1615e-008     1.7785e-009    
  -0.65           -0.00017293     -9.974e-009     7.63e-011      
  -0.7            -0.00017841     1.68e-008       -2.0452e-009   
  -0.75           -0.00018378     1.2481e-008     8.678e-010     
  -0.8            -0.0001884      -2.7718e-008    2.5225e-009    
  -0.85           -0.00019236     -1.8152e-008    1.6204e-009    
  -0.9            -0.00019575     -2.7836e-008    2.4523e-009    
  -0.95           -0.0001986      -1.3154e-008    -7.783e-010    
  -1              -0.00020112     2.682e-008      -1.3946e-009   
  -1.05           -0.00020425     1.0941e-008     1.5714e-009    
  -1.1            -0.00020629     -1.2034e-008    2.562e-010     
  -1.15           -0.00020783     1.4177e-008     -2.3521e-009   
  -1.2            -0.00021004     1.2934e-008     6.616e-010     
  -1.25           -0.00021202     -8.389e-009     2.8381e-009    
  -1.3            -0.00021379     -9.874e-009     9.97e-011      
  -1.35           -0.00021491     1.6547e-008     -2.0689e-009   
  -1.4            -0.00021665     1.2304e-008     8.478e-010     
  -1.45           -0.00021827     -2.7526e-008    2.5492e-009    
  -1.5            -0.00021942     -1.3242e-008    -7.07e-010     
  -1.55           -0.00022057     8.271e-009      -1.4049e-009   
  -1.6            -0.00022251     1.1969e-008     1.755e-009     
  -1.65           -0.00022359     -9.904e-009     1.089e-010     
  -1.7            -0.00022423     1.6434e-008     -2.0827e-009   
  -1.75           -0.00022573     1.2315e-008     8.393e-010     
  -1.8            -0.00022711     -2.7391e-008    2.5595e-009    
  -1.85           -0.000228       -1.3239e-008    -6.957e-010    
  -1.9            -0.00022892     8.216e-009      -1.4046e-009   
  -1.95           -0.0002302      1.2901e-008     6.663e-010     
  -2              -0.00023155     -2.5194e-008    1.302e-009     
  -2.05           -0.00023232     -1.2829e-008    -4.796e-010    
  -2.1            -0.00023315     7.311e-009      -1.3935e-009   
  -2.15           -0.00023483     9.686e-009      1.5617e-009    
  -2.2            -0.00023568     -1.2287e-008    2.664e-010     
  -2.25           -0.00023606     1.4233e-008     -2.3653e-009   
  -2.3            -0.00023732     1.289e-008      6.565e-010     
  -2.35           -0.00023858     -2.496e-008     2.7451e-009    
  -2.4            -0.00023934     -2.5388e-008    2.01e-009      
  -2.45           -0.00024008     -1.196e-008     -1.0103e-009   
  -2.5            -0.00024089     2.8917e-008     -1.4046e-009   
  -2.55           -0.00024248     1.1938e-008     1.821e-009     
  -2.6            -0.00024321     -1.9133e-008    1.6531e-009    
  -2.65           -0.00024406     -2.7685e-008    2.4963e-009    
  -2.7            -0.00024471     -1.321e-008     -7.571e-010    
  -2.75           -0.00024531     8.372e-009      -1.4047e-009   
  -2.8            -0.00024698     1.182e-008      1.7911e-009    
  -2.85           -0.00024759     -1.8688e-008    1.7094e-009    
  -2.9            -0.00024844     -2.7081e-008    2.5309e-009    
  -2.95           -0.00024901     -1.279e-008     -7.188e-010    
  -3              -0.00024959     2.6612e-008     -1.3966e-009   
  -3.05           -0.00025122     1.1056e-008     1.5093e-009    
  -3.1            -0.00025187     -1.226e-008     2.986e-010     
  -3.15           -0.00025209     1.4696e-008     -2.422e-009    
  -3.2            -0.00025327     1.2967e-008     2.1742e-009    
  -3.25           -0.00025427     -2.1478e-008    1.3131e-009    
  -3.3            -0.000255       -1.9931e-008    1.8688e-009    
  -3.35           -0.00025591     -1.5847e-008    2.4825e-009    
  -3.4            -0.00025678     -8.69e-009      2.7949e-009    
  -3.45           -0.00025741     -1.3086e-008    1.976e-009     
  -3.5            -0.00025833     -1.1518e-008    2.5567e-009    
  -3.55           -0.00025913     -2.586e-009     2.8096e-009    
  -3.6            -0.00025978     -7.424e-009     2.0778e-009    
  -3.65           -0.00026031     7.502e-009      -2.3516e-009   
  -3.7            -0.00026108     3.1169e-008     6.921e-010     
  -3.75           -0.00026212     -3.036e-009     1.2947e-009    
  -3.8            -0.00026247     2.1556e-008     -2.7456e-009   
  -3.85           -0.00026373     4.2878e-008     1.3058e-009    
  -3.9            -0.00026433     2.1917e-008     1.6733e-009    
  -3.95           -0.00026481     4.2408e-008     -2.5654e-009   
  -4              -0.00026565     7.1359e-008     8.981e-010     
  -4.05           -0.00026653     4.4218e-008     2.4864e-009    
  -4.1            -0.00026705     7.8203e-008     -2.1254e-009   
  -4.15           -0.00026793     1.09354e-007    -1.6656e-009   
