! VERSION = 6.00
BEGIN_HEADER
 ICCAP_INPUTS
  VG         V  B GROUND SMU4 0.001 LIN        1    0          -5         101  -0.05     
  VS         V  E GROUND SMU2 0.1 CON        0
  VB         V  C GROUND SMU3 0.1 LIN        3    0          5          3    2.5       
  VD         V  S GROUND SMU1 0.1 LIN        2    -0.1       -5         2    -4.9      
 ICCAP_OUTPUTS
  IG         I  B GROUND SMU4 B
  ID         I  S GROUND SMU1 B
  IB         I  C GROUND SMU3 B
END_HEADER

BEGIN_DB
 ICCAP_VAR VS         0              
 ICCAP_VAR VB         0              
 ICCAP_VAR VD         -0.1           

 #VG              IG              ID              IB             
  0               2.0548e-009     2.187e-009      -1.2425e-008   
  -0.05           5.623e-010      2.3409e-009     1.0503e-008    
  -0.1            -1.3309e-009    1.49e-009       2.2524e-008    
  -0.15           -2.713e-009     1.506e-010      1.1576e-008    
  -0.2            -1.9317e-009    -1.3665e-009    7.3e-010       
  -0.25           -6.162e-010     -2.2793e-009    -1.0962e-008   
  -0.3            1.2544e-009     -1.5431e-009    -1.9862e-008   
  -0.35           2.8736e-009     -1.522e-010     -1.2248e-008   
  -0.4            1.0506e-009     2.2646e-009     1.0805e-008    
  -0.45           -1.5198e-009    1.7439e-009     1.2589e-008    
  -0.5            -2.7327e-009    -1.4782e-009    9.732e-009     
  -0.55           1.6674e-009     -3.1791e-009    -1.3198e-008   
  -0.6            1.4661e-009     -4.5092e-009    -9.251e-009    
  -0.65           -1.4133e-009    -1.4918e-008    -1.2016e-008   
  -0.7            -1.3164e-009    -4.0682e-008    1.1619e-008    
  -0.75           -2.4436e-009    -9.9421e-008    1.1916e-008    
  -0.8            7.713e-010      -2.0079e-007    -1.4598e-008   
  -0.85           -1.5689e-009    -3.8758e-007    1.7384e-008    
  -0.9            -1.375e-009     -6.292e-007     9.135e-009     
  -0.95           -2.7022e-009    -9.4923e-007    1.1681e-008    
  -1              -2.0554e-009    -1.2929e-006    -1.2437e-008   
  -1.05           8.15e-011       -1.6951e-006    -1.2513e-008   
  -1.1            -3.729e-010     -2.1012e-006    -1.0987e-008   
  -1.15           -8.475e-010     -2.5177e-006    -1.0868e-008   
  -1.2            -1.2225e-009    -2.9371e-006    -1.1183e-008   
  -1.25           -3.8e-012       -3.3686e-006    -1.2197e-008   
  -1.3            -4.799e-010     -3.7805e-006    -1.094e-008    
  -1.35           -9.252e-010     -4.1894e-006    -1.1155e-008   
  -1.4            -1.3146e-009    -4.5862e-006    -1.1213e-008   
  -1.45           -9.43e-011      -4.9848e-006    -1.1917e-008   
  -1.5            -5.825e-010     -5.3746e-006    -1.0814e-008   
  -1.55           1.9612e-009     -5.7565e-006    -2.0399e-008   
  -1.6            1.4312e-009     -6.1257e-006    -9.114e-009    
  -1.65           1.2642e-009     -6.4852e-006    -9.057e-009    
  -1.7            2.7458e-009     -6.8414e-006    -1.132e-008    
  -1.75           1.4777e-009     -7.1853e-006    1.1619e-008    
  -1.8            3.463e-010      -7.5264e-006    1.0486e-008    
  -1.85           7.765e-010      -7.8541e-006    1.0564e-008    
  -1.9            -1.568e-009     -8.1853e-006    1.7303e-008    
  -1.95           -1.3748e-009    -8.4964e-006    9.123e-009     
  -2              -2.7018e-009    -8.8078e-006    1.1679e-008    
  -2.05           -2.2666e-009    -9.1069e-006    5.35e-010      
  -2.1            -1.6974e-009    -9.4081e-006    2.802e-009     
  -2.15           -1.4175e-009    -9.7e-006       6.942e-009     
  -2.2            -1.3216e-009    -9.9853e-006    1.1318e-008    
  -2.25           -2.4835e-009    -1.02662e-005   1.1747e-008    
  -2.3            -1.8876e-009    -1.05345e-005   1.783e-009     
  -2.35           -1.482e-009     -1.08102e-005   5.017e-009     
  -2.4            -1.3529e-009    -1.1075e-005    1.0328e-008    
  -2.45           -2.6288e-009    -1.13355e-005   1.126e-008     
  -2.5            2.8589e-009     -1.1586e-005    -1.1113e-008   
  -2.55           3.704e-010      -1.1842e-005    1.0493e-008    
  -2.6            7.92e-010       -1.2084e-005    1.0533e-008    
  -2.65           1.1706e-009     -1.2329e-005    1.0707e-008    
  -2.7            3.97e-011       -1.257e-005     1.1628e-008    
  -2.75           4.622e-010      -1.2802e-005    1.0389e-008    
  -2.8            -1.3082e-009    -1.3035e-005    2.4603e-008    
  -2.85           -2.3524e-009    -1.3263e-005    1.3289e-008    
  -2.9            -1.7539e-009    -1.3486e-005    2.458e-009     
  -2.95           -1.4355e-009    -1.3708e-005    6.257e-009     
  -3              -1.3305e-009    -1.3926e-005    1.0818e-008    
  -3.05           -2.5294e-009    -1.4142e-005    1.1511e-008    
  -3.1            -1.9606e-009    -1.4348e-005    1.386e-009     
  -3.15           -1.514e-009     -1.4558e-005    4.56e-009      
  -3.2            -1.3633e-009    -1.4764e-005    9.787e-009     
  -3.25           -2.6665e-009    -1.4963e-005    1.1358e-008    
  -3.3            -2.1777e-009    -1.5164e-005    7.74e-010      
  -3.35           -1.6345e-009    -1.5359e-005    3.09e-009      
  -3.4            -1.3982e-009    -1.5548e-005    7.823e-009     
  -3.45           -1.3133e-009    -1.574e-005     1.1554e-008    
  -3.5            -2.4119e-009    -1.5928e-005    1.2747e-008    
  -3.55           -1.8062e-009    -1.6111e-005    2.161e-009     
  -3.6            -1.4533e-009    -1.6291e-005    5.783e-009     
  -3.65           -1.3403e-009    -1.6476e-005    1.0713e-008    
  -3.7            -2.5794e-009    -1.6654e-005    1.1212e-008    
  -3.75           -2.017e-009     -1.683e-005     1.186e-009     
  -3.8            -1.5367e-009    -1.7e-005       4.248e-009     
  -3.85           -1.3721e-009    -1.7167e-005    9.094e-009     
  -3.9            -2.7009e-009    -1.7333e-005    1.1657e-008    
  -3.95           -2.2455e-009    -1.7498e-005    6.87e-010      
  -4              -1.6754e-009    -1.766e-005     2.82e-009      
  -4.05           -1.4114e-009    -1.7823e-005    7.229e-009     
  -4.1            -1.3205e-009    -1.7978e-005    1.1449e-008    
  -4.15           -2.4675e-009    -1.8135e-005    1.2024e-008    
  -4.2            -1.8697e-009    -1.8289e-005    1.959e-009     
  -4.25           -1.4712e-009    -1.8443e-005    5.303e-009     
  -4.3            -1.3488e-009    -1.8585e-005    1.0213e-008    
  -4.35           -2.629e-009     -1.8736e-005    1.1259e-008    
  -4.4            -2.1061e-009    -1.8882e-005    7.9e-010       
  -4.45           -1.5756e-009    -1.9023e-005    3.719e-009     
  -4.5            -1.3831e-009    -1.9162e-005    8.686e-009     
  -4.55           -2.7242e-009    -1.9305e-005    1.1549e-008    
  -4.6            -2.3283e-009    -1.9445e-005    6.4e-010       
  -4.65           -1.7356e-009    -1.9579e-005    2.633e-009     
  -4.7            -1.4237e-009    -1.9718e-005    6.533e-009     
  -4.75           -1.3301e-009    -1.9847e-005    1.109e-008     
  -4.8            -2.5317e-009    -1.9975e-005    1.165e-008     
  -4.85           -1.9412e-009    -2.0106e-005    1.754e-009     
  -4.9            -1.4939e-009    -2.023e-005     4.782e-009     
  -4.95           -1.3577e-009    -2.0362e-005    9.703e-009     
  -5              -2.6631e-009    -2.0484e-005    1.1199e-008    
END_DB

BEGIN_DB
 ICCAP_VAR VS         0              
 ICCAP_VAR VB         0              
 ICCAP_VAR VD         -5             

 #VG              IG              ID              IB             
  0               -1.2508e-009    -1.1105e-009    -1.2397e-008   
  -0.05           -1.0318e-009    -2.2344e-009    -1.1092e-008   
  -0.1            1.655e-009      -1.73e-009      -1.3058e-008   
  -0.15           8.295e-010      2.3578e-009     -9.058e-009    
  -0.2            -1.738e-009     1.664e-009      1.5939e-008    
  -0.25           -1.7436e-009    -1.7481e-009    6.562e-009     
  -0.3            -3.07e-010      -2.6544e-009    -1.0859e-008   
  -0.35           -5.189e-010     -3.7084e-009    -1.0869e-008   
  -0.4            1.2726e-009     -6.3221e-009    -2.1546e-008   
  -0.45           -2.616e-009     -1.4941e-008    -1.0637e-008   
  -0.5            -2.0888e-009    -3.7144e-008    1.617e-009     
  -0.55           -1.5779e-009    -9.6971e-008    5.691e-009     
  -0.6            1.3147e-009     -2.522e-007     5.06e-009      
  -0.65           2.8695e-009     -5.6631e-007    7.76e-010      
  -0.7            1.2458e-009     -1.1434e-006    2.4658e-008    
  -0.75           1.6812e-009     -2.1644e-006    4.4908e-008    
  -0.8            2.1135e-009     -3.5591e-006    6.2088e-008    
  -0.85           2.4161e-009     -5.3112e-006    8.2592e-008    
  -0.9            1.6848e-009     -7.2609e-006    8.3293e-008    
  -0.95           -2.0875e-009    -9.3577e-006    1.0596e-007    
  -1              2.5751e-009     -1.174e-005     1.2545e-007    
  -1.05           1.9216e-009     -1.407e-005     1.5464e-007    
  -1.1            1.4221e-009     -1.6628e-005    1.6831e-007    
  -1.15           1.2722e-009     -1.9221e-005    1.8656e-007    
  -1.2            2.7553e-009     -2.1916e-005    2.0033e-007    
  -1.25           2.173e-009      -2.4602e-005    2.275e-007     
  -1.3            1.5482e-009     -2.7473e-005    2.3703e-007    
  -1.35           1.299e-009      -3.0341e-005    2.5026e-007    
  -1.4            2.8593e-009     -3.344e-005     2.6299e-007    
  -1.45           2.4124e-009     -3.6413e-005    2.836e-007     
  -1.5            1.7306e-009     -3.9579e-005    2.9024e-007    
  -1.55           1.3461e-009     -4.2862e-005    2.9551e-007    
  -1.6            2.9065e-009     -4.6196e-005    3.0583e-007    
  -1.65           2.6117e-009     -4.9598e-005    3.2172e-007    
  -1.7            1.953e-009      -5.3136e-005    3.2588e-007    
  -1.75           1.4308e-009     -5.6766e-005    3.257e-007     
  -1.8            1.2689e-009     -6.0541e-005    3.3103e-007    
  -1.85           2.7703e-009     -6.4357e-005    3.3052e-007    
  -1.9            2.2072e-009     -6.8213e-005    3.4363e-007    
  -1.95           1.5649e-009     -7.2191e-005    3.3962e-007    
  -2              1.2989e-009     -7.6275e-005    3.3847e-007    
  -2.05           2.8614e-009     -8.0415e-005    3.3743e-007    
  -2.1            2.434e-009      -8.458e-005     3.4448e-007    
  -2.15           1.7624e-009     -8.8907e-005    3.3801e-007    
  -2.2            1.3497e-009     -9.3314e-005    3.2927e-007    
  -2.25           2.9014e-009     -9.7729e-005    3.2588e-007    
  -2.3            2.6346e-009     -0.0001022      3.2898e-007    
  -2.35           1.9989e-009     -0.000106694    3.2109e-007    
  -2.4            1.4431e-009     -0.000111277    3.0824e-007    
  -2.45           2.3349e-009     -0.00011587     3.2117e-007    
  -2.5            1.6636e-009     -0.00012065     2.9704e-007    
  -2.55           1.3235e-009     -0.00012545     2.8513e-007    
  -2.6            2.8936e-009     -0.00013027     2.7692e-007    
  -2.65           2.5562e-009     -0.00013504     2.7693e-007    
  -2.7            1.8863e-009     -0.00014005     2.6447e-007    
  -2.75           1.3963e-009     -0.00014483     2.4998e-007    
  -2.8            1.2545e-009     -0.00014987     2.4129e-007    
  -2.85           2.7351e-009     -0.00015482     2.2895e-007    
  -2.9            2.1314e-009     -0.00015976     2.2991e-007    
  -2.95           1.5193e-009     -0.00016481     2.1478e-007    
  -3              1.2859e-009     -0.00016984     2.0411e-007    
  -3.05           2.8387e-009     -0.00017503     1.9382e-007    
  -3.1            2.3822e-009     -0.00018005     1.9332e-007    
  -3.15           1.7022e-009     -0.00018524     1.8047e-007    
  -3.2            1.3324e-009     -0.00019039     1.6749e-007    
  -3.25           2.8941e-009     -0.00019557     1.5946e-007    
  -3.3            2.5868e-009     -0.00020069     1.592e-007     
  -3.35           1.9335e-009     -0.00020584     1.4825e-007    
  -3.4            1.4109e-009     -0.00021122     1.3449e-007    
  -3.45           1.2603e-009     -0.00021648     1.2719e-007    
  -3.5            2.751e-009      -0.00022181     1.1673e-007    
  -3.55           2.1753e-009     -0.00022702     1.196e-007     
  -3.6            1.5431e-009     -0.00023228     1.0712e-007    
  -3.65           2.6757e-009     -0.00023618     1.1166e-007    
  -3.7            2.8126e-009     -0.00024245     1.032e-007     
  -3.75           1.308e-009      -0.00024833     8.596e-008     
  -3.8            1.2681e-009     -0.00025367     1.09911e-007   
  -3.85           1.2403e-009     -0.00025904     1.00814e-007   
  -3.9            -2.259e-010     -0.00026445     9.2442e-008    
  -3.95           1.848e-010      -0.00026979     8.4652e-008    
  -4              6.159e-010      -0.00027512     7.9396e-008    
  -4.05           1.0105e-009     -0.00028059     7.5169e-008    
  -4.1            1.4154e-009     -0.00028598     7.1669e-008    
  -4.15           1.8535e-009     -0.00029136     6.7305e-008    
  -4.2            2.2362e-009     -0.00029683     6.2034e-008    
  -4.25           2.5217e-009     -0.00030225     5.7943e-008    
  -4.3            2.8367e-009     -0.00030756     5.2747e-008    
  -4.35           2.8787e-009     -0.00031298     4.4259e-008    
  -4.4            2.5396e-009     -0.00031839     3.891e-008     
  -4.45           1.8637e-009     -0.000324       3.3255e-008    
  -4.5            1.387e-009      -0.00032939     2.4741e-008    
  -4.55           1.2562e-009     -0.0003348      2.3104e-008    
  -4.6            2.3927e-009     -0.00034022     2.8511e-008    
  -4.65           1.7115e-009     -0.00034581     2.2402e-008    
  -4.7            2.9027e-009     -0.00035117     3.0471e-008    
  -4.75           2.7711e-009     -0.00035664     2.3719e-008    
  -4.8            2.2356e-009     -0.00036212     2.0422e-008    
  -4.85           2.751e-009      -0.0003676      2.8716e-008    
  -4.9            2.9057e-009     -0.00037306     2.3173e-008    
  -4.95           2.2104e-009     -0.00037848     2.6964e-008    
  -5              2.4987e-009     -0.00038395     2.5255e-008    
END_DB

BEGIN_DB
 ICCAP_VAR VS         0              
 ICCAP_VAR VB         2.5            
 ICCAP_VAR VD         -0.1           

 #VG              IG              ID              IB             
  0               1.5432e-009     1.8153e-009     3.357e-009     
  -0.05           9.078e-010      2.3536e-009     1.0538e-008    
  -0.1            1.0631e-009     2.2989e-009     1.0813e-008    
  -0.15           -1.4936e-009    1.876e-009      1.1959e-008    
  -0.2            -1.9209e-009    -1.3606e-009    9.912e-009     
  -0.25           -6.121e-010     -2.2763e-009    -1.1243e-008   
  -0.3            -8.09e-010      -2.2818e-009    -1.1319e-008   
  -0.35           2.0373e-009     -1.6295e-009    -1.6411e-008   
  -0.4            1.5348e-009     1.8876e-009     -8.706e-009    
  -0.45           1.411e-010      2.1173e-009     1.0252e-008    
  -0.5            3.25e-010       2.2319e-009     1.0377e-008    
  -0.55           5.072e-010      2.3168e-009     1.0542e-008    
  -0.6            -1.3345e-009    1.452e-009      2.4595e-008    
  -0.65           -1.3077e-009    1.044e-010      1.1342e-008    
  -0.7            -2.6361e-009    2.556e-010      1.2965e-008    
  -0.75           -1.9902e-009    -1.2744e-009    7.93e-010      
  -0.8            1.613e-009      -1.7383e-009    -1.2616e-008   
  -0.85           8.579e-010      2.3505e-009     -9.081e-009    
  -0.9            -1.7159e-009    1.682e-009      1.5485e-008    
  -0.95           -2.6059e-009    -1.3086e-009    7.142e-009     
  -1              -3.472e-010     -3.04e-009      -1.0902e-008   
  -1.05           -5.499e-010     -5.5555e-009    -1.1017e-008   
  -1.1            2.7142e-009     -1.0417e-008    2.8078e-008    
  -1.15           5.943e-010      -3.5453e-008    1.0368e-008    
  -1.2            -1.7457e-009    -1.03194e-007   2.2254e-008    
  -1.25           1.2565e-009     -2.1461e-007    -2.0917e-008   
  -1.3            1.178e-010      -4.2364e-007    1.1017e-008    
  -1.35           5.543e-010      -6.8665e-007    1.0326e-008    
  -1.4            -1.7887e-009    -1.02505e-006   2.3198e-008    
  -1.45           -2.701e-009     -1.3758e-006    -2.1775e-008   
  -1.5            -7.939e-010     -1.7742e-006    -1.099e-008    
  -1.55           1.6787e-009     -2.1757e-006    -1.6825e-008   
  -1.6            1.3122e-009     -2.5775e-006    -9.073e-009    
  -1.65           2.8824e-009     -2.9717e-006    -8.518e-009    
  -1.7            3.046e-010      -3.3673e-006    1.0491e-008    
  -1.75           7.324e-010      -3.7518e-006    1.0575e-008    
  -1.8            -1.5846e-009    -4.1391e-006    1.8399e-008    
  -1.85           -1.3763e-009    -4.4879e-006    8.573e-009     
  -1.9            -2.713e-009     -4.8492e-006    1.1633e-008    
  -1.95           -2.3332e-009    -5.1955e-006    5.93e-010      
  -2              -1.733e-009     -5.5378e-006    2.562e-009     
  -2.05           -1.416e-009     -5.8679e-006    6.703e-009     
  -2.1            -1.326e-009     -6.1933e-006    1.1132e-008    
  -2.15           -2.523e-009     -6.5143e-006    1.1756e-008    
  -2.2            -1.9337e-009    -6.8228e-006    1.509e-009     
  -2.25           -1.4823e-009    -7.1244e-006    4.927e-009     
  -2.3            -1.3494e-009    -7.426e-006     1.0045e-008    
  -2.35           -2.6484e-009    -7.7164e-006    1.1276e-008    
  -2.4            -2.1595e-009    -7.9942e-006    7.15e-010      
  -2.45           -1.6021e-009    -8.2774e-006    3.473e-009     
  -2.5            -1.3787e-009    -8.5469e-006    8.354e-009     
  -2.55           -1.309e-009     -8.8206e-006    1.1527e-008    
  -2.6            -2.3824e-009    -9.0788e-006    1.327e-008     
  -2.65           -1.7688e-009    -9.3399e-006    2.62e-009      
  -2.7            -1.4226e-009    -9.5966e-006    6.451e-009     
  -2.75           -1.3274e-009    -9.8433e-006    1.0901e-008    
  -2.8            -2.548e-009     -1.00821e-005   1.158e-008     
  -2.85           -1.9904e-009    -1.03242e-005   1.332e-009     
  -2.9            -1.501e-009     -1.05626e-005   4.662e-009     
  -2.95           -1.3516e-009    -1.07906e-005   9.89e-009      
  -3              -2.6634e-009    -1.10222e-005   1.1144e-008    
  -3.05           -2.2045e-009    -1.12471e-005   7.2e-010       
  -3.1            1.5194e-009     -1.1461e-005    3.468e-009     
  -3.15           1.2757e-009     -1.1675e-005    -8.784e-009    
  -3.2            2.8307e-009     -1.1889e-005    -9.606e-009    
  -3.25           4.357e-010      -1.2101e-005    1.0335e-008    
  -3.3            -1.3097e-009    -1.2308e-005    2.581e-008     
  -3.35           -2.3991e-009    -1.2514e-005    1.3119e-008    
  -3.4            -1.7851e-009    -1.271e-005     2.397e-009     
  -3.45           -1.4291e-009    -1.2912e-005    6.269e-009     
  -3.5            -1.3309e-009    -1.3105e-005    1.0542e-008    
  -3.55           -2.5561e-009    -1.3296e-005    1.1481e-008    
  -3.6            -1.9966e-009    -1.3485e-005    1.377e-009     
  -3.65           -1.5063e-009    -1.3675e-005    4.638e-009     
  -3.7            -1.3543e-009    -1.3857e-005    9.697e-009     
  -3.75           -2.6682e-009    -1.4039e-005    1.1144e-008    
  -3.8            -2.2125e-009    -1.4218e-005    7.8e-010       
  -3.85           -1.6385e-009    -1.4396e-005    3.444e-009     
  -3.9            -1.3873e-009    -1.4567e-005    7.981e-009     
  -3.95           -1.3136e-009    -1.4742e-005    1.1526e-008    
  -4              -2.4225e-009    -1.4908e-005    1.2602e-008    
  -4.05           -1.812e-009     -1.5073e-005    2.209e-009     
  -4.1            -1.4355e-009    -1.524e-005     6.114e-009     
  -4.15           -1.3327e-009    -1.54e-005      1.0759e-008    
