! VERSION = 6.00
BEGIN_HEADER
 ICCAP_INPUTS
  VG         V  B GROUND SMU4 0.001 LIN        1    0          -5         101  -0.05     
  VS         V  E GROUND SMU2 0.1 CON        0
  VB         V  C GROUND SMU3 0.1 LIN        3    0          5          3    2.5       
  VD         V  S GROUND SMU1 0.1 LIN        2    -0.1       -5         2    -4.9      
 ICCAP_OUTPUTS
  IG         I  B GROUND SMU4 B
  ID         I  S GROUND SMU1 B
  IB         I  C GROUND SMU3 B
END_HEADER

BEGIN_DB
 ICCAP_VAR VS         0              
 ICCAP_VAR VB         0              
 ICCAP_VAR VD         -0.1           

 #VG              IG              ID              IB             
  0               1.1189e-009     1.0042e-009     1.5922e-008    
  -0.05           2.535e-010      2.1691e-009     1.0488e-008    
  -0.1            4.351e-010      2.2651e-009     1.0577e-008    
  -0.15           6.112e-010      2.3294e-009     1.0877e-008    
  -0.2            -1.3133e-009    1.5196e-009     2.1432e-008    
  -0.25           -2.6725e-009    1.824e-010      1.2138e-008    
  -0.3            -1.9471e-009    -1.3051e-009    8.75e-010      
  -0.35           -6.726e-010     -2.2636e-009    -1.1328e-008   
  -0.4            1.2387e-009     -1.5704e-009    -1.9088e-008   
  -0.45           2.8418e-009     -2.326e-010     -1.3507e-008   
  -0.5            1.382e-010      1.947e-009      1.0434e-008    
  -0.55           3.25e-010       1.6583e-009     1.0451e-008    
  -0.6            -1.5945e-009    -2.4793e-009    1.0681e-008    
  -0.65           -1.469e-009     -7.4416e-009    7.941e-009     
  -0.7            1.2647e-009     -2.3893e-008    1.0493e-008    
  -0.75           2.7988e-009     -7.6654e-008    -1.0552e-008   
  -0.8            -5.174e-010     -2.1351e-007    1.1286e-008    
  -0.85           2.0429e-009     -5.4072e-007    -2.2379e-008   
  -0.9            2.4327e-009     -1.1435e-006    1.7607e-008    
  -0.95           3.293e-010      -2.1198e-006    1.0419e-008    
  -1              7.558e-010      -3.5195e-006    1.069e-008     
  -1.05           -1.5572e-009    -5.2433e-006    1.7498e-008    
  -1.1            -1.3664e-009    -7.224e-006     8.654e-009     
  -1.15           -2.698e-009     -9.3643e-006    1.1425e-008    
  -1.2            -1.2548e-009    -1.1625e-005    1.01e-008      
  -1.25           -1.9123e-009    -1.3837e-005    1.8103e-008    
  -1.3            -1.4687e-009    -1.6087e-005    5.063e-009     
  -1.35           -1.3427e-009    -1.8283e-005    9.914e-009     
  -1.4            -2.6316e-009    -2.0441e-005    1.1322e-008    
  -1.45           -2.1298e-009    -2.256e-005     7.69e-010      
  -1.5            -1.5758e-009    -2.4613e-005    3.703e-009     
  -1.55           -1.3729e-009    -2.6599e-005    8.412e-009     
  -1.6            -2.7134e-009    -2.8548e-005    1.1478e-008    
  -1.65           -3.759e-010     -3.0475e-005    -1.094e-008    
  -1.7            -8.461e-010     -3.229e-005     -1.1148e-008   
  -1.75           -1.2263e-009    -3.4058e-005    -1.0961e-008   
  -1.8            -7e-012         -3.5877e-005    -1.186e-008    
  -1.85           -4.821e-010     -3.7543e-005    -1.0937e-008   
  -1.9            -9.24e-010      -3.9178e-005    -1.1352e-008   
  -1.95           1.4853e-009     -4.0833e-005    -1.411e-008    
  -2              1.2662e-009     -4.238e-005     -8.985e-009    
  -2.05           2.8095e-009     -4.391e-005     -1.0257e-008   
  -2.1            4.528e-010      -4.5367e-005    1.0409e-008    
  -2.15           -1.3011e-009    -4.6811e-005    2.5782e-008    
  -2.2            -2.3785e-009    -4.8227e-005    1.3318e-008    
  -2.25           -1.7606e-009    -4.964e-005     2.537e-009     
  -2.3            -1.4189e-009    -5.0993e-005    6.274e-009     
  -2.35           -1.3212e-009    -5.232e-005     1.084e-008     
  -2.4            -2.5468e-009    -5.3616e-005    1.1496e-008    
  -2.45           -1.9768e-009    -5.4918e-005    1.495e-009     
  -2.5            -1.5e-009       -5.6164e-005    4.585e-009     
  -2.55           -1.348e-009     -5.7392e-005    9.425e-009     
  -2.6            -2.6619e-009    -5.8584e-005    1.1449e-008    
  -2.65           -2.2157e-009    -5.9777e-005    8.5e-010       
  -2.7            -1.6341e-009    -6.0939e-005    3.18e-009      
  -2.75           -1.3838e-009    -6.2069e-005    7.768e-009     
  -2.8            -1.3061e-009    -6.3181e-005    1.149e-008     
  -2.85           -2.4255e-009    -6.4264e-005    1.2806e-008    
  -2.9            -1.8158e-009    -6.5348e-005    2.342e-009     
  -2.95           -1.4372e-009    -6.6408e-005    5.827e-009     
  -3              -1.3303e-009    -6.7446e-005    1.0473e-008    
  -3.05           -2.5825e-009    -6.8453e-005    1.1319e-008    
  -3.1            -2.0432e-009    -6.947e-005     1.075e-009     
  -3.15           -1.5293e-009    -7.0448e-005    4.134e-009     
  -3.2            -1.363e-009     -7.1411e-005    9.088e-009     
  -3.25           -2.6873e-009    -7.2357e-005    1.1569e-008    
  -3.3            -2.2712e-009    -7.3307e-005    7.01e-010      
  -3.35           -1.6842e-009    -7.4226e-005    3.018e-009     
  -3.4            -1.3996e-009    -7.513e-005     6.991e-009     
  -3.45           -1.3159e-009    -7.6024e-005    1.1099e-008    
  -3.5            -2.4873e-009    -7.6886e-005    1.2214e-008    
  -3.55           -1.8925e-009    -7.7771e-005    1.979e-009     
  -3.6            -1.4664e-009    -7.8616e-005    5.065e-009     
  -3.65           -1.3416e-009    -7.9457e-005    9.747e-009     
  -3.7            -2.6329e-009    -8.0275e-005    1.137e-008     
  -3.75           -2.1445e-009    -8.1117e-005    7.73e-010      
  -3.8            -1.5869e-009    -8.1913e-005    3.602e-009     
  -3.85           -1.3712e-009    -8.2693e-005    8.381e-009     
  -3.9            -1.2997e-009    -8.3462e-005    1.1494e-008    
  -3.95           -2.3859e-009    -8.4213e-005    1.3503e-008    
  -4              -1.7726e-009    -8.4979e-005    2.564e-009     
  -4.05           -1.4224e-009    -8.5723e-005    6.337e-009     
  -4.1            -1.3204e-009    -8.6441e-005    1.0622e-008    
  -4.15           -2.5556e-009    -8.7151e-005    1.1475e-008    
  -4.2            -2.0034e-009    -8.7862e-005    1.236e-009     
  -4.25           -1.5103e-009    -8.8565e-005    4.267e-009     
  -4.3            -1.3507e-009    -8.9244e-005    9.456e-009     
  -4.35           -2.6669e-009    -8.9917e-005    1.1256e-008    
  -4.4            -2.2344e-009    -9.0596e-005    6.89e-010      
  -4.45           -1.6523e-009    -9.1249e-005    3.057e-009     
  -4.5            -1.3882e-009    -9.1897e-005    7.598e-009     
  -4.55           -1.3082e-009    -9.2535e-005    1.1217e-008    
  -4.6            -2.4547e-009    -9.3148e-005    1.255e-008     
  -4.65           -1.8542e-009    -9.3795e-005    2.145e-009     
  -4.7            -1.4527e-009    -9.4402e-005    5.617e-009     
  -4.75           -1.3323e-009    -9.5005e-005    1.0314e-008    
  -4.8            -2.5998e-009    -9.5579e-005    1.1254e-008    
  -4.85           -2.0928e-009    -9.6199e-005    9.1e-010       
  -4.9            -1.5589e-009    -9.677e-005     3.866e-009     
  -4.95           -1.3627e-009    -9.7339e-005    8.783e-009     
  -5              -2.6974e-009    -9.7895e-005    1.1507e-008    
END_DB

BEGIN_DB
 ICCAP_VAR VS         0              
 ICCAP_VAR VB         0              
 ICCAP_VAR VD         -5             

 #VG              IG              ID              IB             
  0               -1.3757e-009    -1.4318e-009    -9.096e-009    
  -0.05           -1.2978e-009    -2.0675e-009    -1.1872e-008   
  -0.1            1.69e-010       -1.8725e-009    -1.1725e-008   
  -0.15           -1e-013         -1.9985e-009    -1.1197e-008   
  -0.2            -1.785e-010     -2.1185e-009    -1.1043e-008   
  -0.25           -3.834e-010     -2.2112e-009    -1.1038e-008   
  -0.3            -5.827e-010     -2.2839e-009    -1.1229e-008   
  -0.35           1.2561e-009     -1.6158e-009    -2.1099e-008   
  -0.4            2.8767e-009     -5.235e-010     -1.1721e-008   
  -0.45           -2.2085e-009    -2.2055e-009    1.0666e-008    
  -0.5            -1.9555e-009    -5.5616e-009    3.155e-009     
  -0.55           -1.7259e-009    -1.7405e-008    -1.4814e-008   
  -0.6            -1.4138e-009    -5.3599e-008    7.346e-009     
  -0.65           2.1029e-009     -1.5485e-007    4.881e-009     
  -0.7            1.9723e-009     -4.0033e-007    1.7813e-008    
  -0.75           2.3129e-009     -9.5372e-007    2.6793e-008    
  -0.8            -1.539e-009     -2.0435e-006    2.7683e-008    
  -0.85           -1.3546e-009    -3.9978e-006    7.3446e-008    
  -0.9            1.3571e-009     -7.1063e-006    9.968e-008     
  -0.95           -2.2422e-009    -1.1427e-005    1.7946e-007    
  -1              -1.6477e-009    -1.7087e-005    2.4061e-007    
  -1.05           -1.3633e-009    -2.4101e-005    3.266e-007     
  -1.1            -2.7037e-009    -3.2363e-005    4.1967e-007    
  -1.15           -2.4403e-009    -4.1914e-005    5.0176e-007    
  -1.2            -1.8661e-009    -5.2499e-005    5.9916e-007    
  -1.25           -1.4237e-009    -6.4121e-005    6.9782e-007    
  -1.3            -1.29e-009      -7.6698e-005    7.9747e-007    
  -1.35           -2.603e-009     -9.0124e-005    8.8973e-007    
  -1.4            -2.1515e-009    -0.000104508    9.6596e-007    
  -1.45           -2.6607e-009    -0.0001194      1.04289e-006   
  -1.5            -1.446e-009     -0.00013515     1.1253e-006    
  -1.55           -1.309e-009     -0.00015141     1.2019e-006    
  -1.6            -2.6308e-009    -0.00016831     1.2672e-006    
  -1.65           -2.1803e-009    -0.00018591     1.3121e-006    
  -1.7            -1.6132e-009    -0.00020384     1.363e-006     
  -1.75           -1.3641e-009    -0.00022226     1.4059e-006    
  -1.8            -1.2865e-009    -0.00024137     1.4466e-006    
  -1.85           -2.4482e-009    -0.00026062     1.4751e-006    
  -1.9            -1.8525e-009    -0.00028037     1.4841e-006    
  -1.95           -1.4453e-009    -0.00030036     1.4994e-006    
  -2              -1.3297e-009    -0.00032068     1.5134e-006    
  -2.05           -2.6212e-009    -0.00034125     1.5176e-006    
  -2.1            -2.1134e-009    -0.00036232     1.5014e-006    
  -2.15           -1.5727e-009    -0.00038352     1.4933e-006    
  -2.2            -1.3745e-009    -0.0004049      1.484e-006     
  -2.25           -2.7195e-009    -0.00042661     1.4688e-006    
  -2.3            -2.368e-009     -0.00044862     1.4357e-006    
  -2.35           -1.7758e-009    -0.00047075     1.4093e-006    
  -2.4            -1.4347e-009    -0.000493       1.384e-006     
  -2.45           -1.3312e-009    -0.00051549     1.3544e-006    
  -2.5            -2.5778e-009    -0.00053818     1.3232e-006    
  -2.55           -2.0334e-009    -0.00056126     1.2755e-006    
  -2.6            -1.5315e-009    -0.00058426     1.236e-006     
  -2.65           -1.3638e-009    -0.00060743     1.1993e-006    
  -2.7            -2.6968e-009    -0.0006308      1.1631e-006    
  -2.75           -2.2969e-009    -0.00065443     1.1089e-006    
  -2.8            -1.7134e-009    -0.00067803     1.0667e-006    
  -2.85           -1.4172e-009    -0.00070167     1.026e-006     
  -2.9            2.8058e-009     -0.00072596     9.7537e-007    
  -2.95           2.3459e-009     -0.0007501      9.2977e-007    
  -3              1.6826e-009     -0.00077423     8.8266e-007    
  -3.05           1.328e-009      -0.00079869     8.3562e-007    
  -3.1            2.8842e-009     -0.00082288     7.9404e-007    
  -3.15           2.601e-009      -0.00084715     7.6095e-007    
  -3.2            1.9636e-009     -0.00087177     7.1822e-007    
  -3.25           1.4353e-009     -0.00089638     6.73e-007      
  -3.3            1.2644e-009     -0.00092123     6.3511e-007    
  -3.35           2.7881e-009     -0.00094599     5.9612e-007    
  -3.4            2.2872e-009     -0.00097066     5.6983e-007    
  -3.45           1.6246e-009     -0.00099548     5.3115e-007    
  -3.5            1.3086e-009     -0.00102049     4.9458e-007    
  -3.55           2.8713e-009     -0.00104573     4.6331e-007    
  -3.6            2.5507e-009     -0.00107052     4.4126e-007    
  -3.65           1.8905e-009     -0.00109572     4.0989e-007    
  -3.7            1.3959e-009     -0.00112125     3.7613e-007    
  -3.75           -1.3125e-009    -0.0011452      3.5051e-007    
  -3.8            -2.4588e-009    -0.0011706      3.4785e-007    
  -3.85           -1.8539e-009    -0.0011961      3.1414e-007    
  -3.9            -1.4575e-009    -0.0012212      2.9516e-007    
  -3.95           -1.3428e-009    -0.0012466      2.7919e-007    
  -4              -2.626e-009     -0.001272       2.6094e-007    
  -4.05           -2.1364e-009    -0.0012975      2.3238e-007    
  -4.1            -1.5863e-009    -0.0013231      2.1728e-007    
  -4.15           -1.3779e-009    -0.0013485      2.0589e-007    
  -4.2            -1.3029e-009    -0.0013741      1.9428e-007    
  -4.25           -2.4004e-009    -0.0013994      1.8157e-007    
  -4.3            -1.7932e-009    -0.0014253      1.5774e-007    
  -4.35           -1.4371e-009    -0.001451       1.4887e-007    
  -4.4            -1.334e-009     -0.0014764      1.4212e-007    
  -4.45           -2.587e-009     -0.001502       1.3258e-007    
  -4.5            -2.0521e-009    -0.0015277      1.1241e-007    
  -4.55           -1.543e-009     -0.0015533      1.0632e-007    
  -4.6            -1.3686e-009    -0.0015788      1.0267e-007    
  -4.65           -2.7085e-009    -0.0016046      9.769e-008     
  -4.7            2.2889e-009     -0.001631       6.1757e-008    
  -4.75           1.6227e-009     -0.0016564      6.6263e-008    
  -4.8            1.3058e-009     -0.001682       5.6843e-008    
  -4.85           2.8727e-009     -0.0017079      5.1502e-008    
  -4.9            2.5552e-009     -0.0017331      5.4465e-008    
  -4.95           1.8949e-009     -0.0017587      4.6995e-008    
  -5              1.3946e-009     -0.0017844      3.6786e-008    
END_DB

BEGIN_DB
 ICCAP_VAR VS         0              
 ICCAP_VAR VB         2.5            
 ICCAP_VAR VD         -0.1           

 #VG              IG              ID              IB             
  0               1.29e-009       1.3062e-009     -1.1051e-008   
  -0.05           1.65e-010       2.1127e-009     1.0429e-008    
  -0.1            3.351e-010      2.2158e-009     1.0409e-008    
  -0.15           5.028e-010      2.292e-009      1.0651e-008    
  -0.2            -1.3316e-009    1.4224e-009     2.4908e-008    
  -0.25           -1.3051e-009    8.21e-011       1.1354e-008    
  -0.3            -2.6548e-009    2.164e-010      1.2852e-008    
  -0.35           -1.9554e-009    -1.2924e-009    7.76e-010      
  -0.4            -6.851e-010     -2.2577e-009    -1.1366e-008   
  -0.45           1.2384e-009     -1.5552e-009    -1.9336e-008   
  -0.5            2.8474e-009     -1.719e-010     -1.3187e-008   
  -0.55           1.119e-010      2.0822e-009     1.0316e-008    
  -0.6            2.786e-010      2.1827e-009     1.0394e-008    
  -0.65           4.475e-010      2.2725e-009     1.058e-008     
  -0.7            6.141e-010      2.328e-009      1.0899e-008    
  -0.75           -1.3153e-009    1.5156e-009     2.2091e-008    
  -0.8            -2.6875e-009    1.586e-010      1.1805e-008    
  -0.85           -1.9221e-009    -1.3351e-009    7.84e-010      
  -0.9            -6.163e-010     -2.2593e-009    -1.1295e-008   
  -0.95           -8.002e-010     -2.2963e-009    -1.1368e-008   
  -1              2.073e-009      -1.888e-009     -1.6948e-008   
  -1.05           1.7759e-009     -4.836e-010     -8.307e-009    
  -1.1            1.5511e-009     -3.8625e-009    -9.471e-009    
  -1.15           -2.1723e-009    -1.3368e-008    -1.0946e-008   
  -1.2            -1.6035e-009    -4.6852e-008    3.581e-009     
  -1.25           1.3157e-009     -2.1143e-007    -2.166e-008    
  -1.3            1.76e-010       -4.167e-007     1.0802e-008    
  -1.35           2.8794e-009     -9.8269e-007    5.794e-009     
  -1.4            1.8419e-009     -1.9124e-006    1.0495e-008    
  -1.45           6.899e-010      -3.4538e-006    1.0595e-008    
  -1.5            1.0696e-009     -5.1001e-006    1.0494e-008    
  -1.55           -9.12e-011      -7.0564e-006    1.2042e-008    
  -1.6            3.192e-010      -8.9576e-006    1.0382e-008    
  -1.65           7.32e-010       -1.12704e-005   1.0601e-008    
  -1.7            -1.9016e-009    -1.3203e-005    2.1375e-008    
  -1.75           -8.343e-010     -1.5273e-005    -1.1068e-008   
  -1.8            1.6102e-009     -1.7363e-005    -1.5884e-008   
  -1.85           1.2982e-009     -1.929e-005     -9.162e-009    
  -1.9            2.864e-009      -2.1195e-005    -8.69e-009     
  -1.95           1.2282e-009     -2.3039e-005    1.0474e-008    
  -2              7.88e-011       -2.4783e-005    1.1144e-008    
  -2.05           5.041e-010      -2.651e-005     1.038e-008     
  -2.1            -1.2954e-009    -2.8181e-005    2.4841e-008    
  -2.15           -2.3429e-009    -2.991e-005     1.3716e-008    
  -2.2            -8.516e-010     -3.1408e-005    -1.1173e-008   
  -2.25           1.604e-009      -3.307e-005     -1.5822e-008   
  -2.3            1.2927e-009     -3.46e-005      -9.043e-009    
  -2.35           2.8591e-009     -3.6041e-005    -8.704e-009    
  -2.4            1.2414e-009     -3.75e-005      1.0528e-008    
  -2.45           9.29e-011       -3.8746e-005    1.0991e-008    
  -2.5            5.215e-010      -4.0135e-005    1.041e-008     
  -2.55           -1.86e-009      -4.1459e-005    2.4752e-008    
  -2.6            -1.4466e-009    -4.2779e-005    5.529e-009     
  -2.65           -1.3355e-009    -4.4091e-005    1.0158e-008    
  -2.7            -2.6247e-009    -4.5319e-005    1.1251e-008    
  -2.75           -2.1424e-009    -4.6565e-005    8.28e-010      
  -2.8            -1.5917e-009    -4.7777e-005    3.372e-009     
  -2.85           -1.3758e-009    -4.8979e-005    8.092e-009     
  -2.9            -1.306e-009     -5.0137e-005    1.1525e-008    
  -2.95           -2.4314e-009    -5.1263e-005    1.2732e-008    
  -3              -1.8356e-009    -5.2405e-005    2.045e-009     
  -3.05           -1.4471e-009    -5.3498e-005    5.214e-009     
  -3.1            -1.3377e-009    -5.4579e-005    1.0226e-008    
  -3.15           -2.6276e-009    -5.5627e-005    1.1269e-008    
  -3.2            -2.1443e-009    -5.6692e-005    7.86e-010      
  -3.25           -1.5944e-009    -5.7692e-005    3.368e-009     
  -3.3            -1.3779e-009    -5.87e-005      8.033e-009     
  -3.35           -1.3047e-009    -5.9685e-005    1.1466e-008    
  -3.4            -2.4282e-009    -6.0665e-005    1.2653e-008    
  -3.45           -1.8319e-009    -6.1632e-005    2.196e-009     
  -3.5            -1.4502e-009    -6.2578e-005    5.386e-009     
  -3.55           -1.338e-009     -6.3502e-005    1.0094e-008    
  -3.6            -2.6271e-009    -6.4405e-005    1.1342e-008    
  -3.65           -2.1388e-009    -6.532e-005     9.67e-010      
  -3.7            -1.6e-009       -6.6213e-005    3.558e-009     
  -3.75           -1.3808e-009    -6.708e-005     8.081e-009     
  -3.8            -1.3068e-009    -6.7926e-005    1.1595e-008    
  -3.85           -2.4368e-009    -6.8761e-005    1.2522e-008    
  -3.9            -7.679e-010     -6.9603e-005    -1.1016e-008   
  -3.95           1.7051e-009     -7.0447e-005    -1.7266e-008   
  -4              1.3203e-009     -7.1228e-005    -9.297e-009    
  -4.05           2.8814e-009     -7.2061e-005    -8.455e-009    
  -4.1            2.6347e-009     -7.2819e-005    -2.67e-010     
  -4.15           2.5106e-009     -7.355e-005     8.98e-009      
