! VERSION = 6.00
BEGIN_HEADER
 ICCAP_INPUTS
  VG         V  B GROUND SMU4 0.001 LIN        1    0          -5         101  -0.05     
  VS         V  E GROUND SMU2 0.1 CON        0
  VB         V  C GROUND SMU3 0.1 LIN        3    0          5          3    2.5       
  VD         V  S GROUND SMU1 0.1 LIN        2    -0.1       -5         2    -4.9      
 ICCAP_OUTPUTS
  IG         I  B GROUND SMU4 B
  ID         I  S GROUND SMU1 B
  IB         I  C GROUND SMU3 B
END_HEADER

BEGIN_DB
 ICCAP_VAR VS         0              
 ICCAP_VAR VB         0              
 ICCAP_VAR VD         -0.1           

 #VG              IG              ID              IB             
  0               -9.374e-010     -8.985e-010     -2.4859e-008   
  -0.05           -1.7041e-009    -1.6402e-009    6.547e-009     
  -0.1            -2.492e-010     -2.1795e-009    -1.0997e-008   
  -0.15           -4.519e-010     -2.2487e-009    -1.1083e-008   
  -0.2            -6.38e-010      -2.2793e-009    -1.1506e-008   
  -0.25           -8.226e-010     -2.2761e-009    -1.1452e-008   
  -0.3            2.0142e-009     -1.6128e-009    -1.6138e-008   
  -0.35           1.5231e-009     1.8688e-009     -8.523e-009    
  -0.4            1.113e-010      2.0966e-009     1.0362e-008    
  -0.45           2.802e-010      2.1835e-009     1.0483e-008    
  -0.5            4.482e-010      2.2055e-009     1.0692e-008    
  -0.55           -1.3487e-009    1.102e-009      2.5745e-008    
  -0.6            -2.7556e-009    -1.9842e-009    1.1485e-008    
  -0.65           -1.0298e-009    -5.843e-009     -1.1081e-008   
  -0.7            2.4235e-009     -1.1539e-008    1.1701e-008    
  -0.75           1.3414e-009     -4.0748e-008    1.0912e-008    
  -0.8            2.8878e-009     -1.2917e-007    -1.1165e-008   
  -0.85           2.656e-009      -3.5057e-007    -2.2e-010      
  -0.9            6.196e-010      -8.1577e-007    1.0508e-008    
  -0.95           -1.9411e-009    -1.6357e-006    -1.2458e-008   
  -1              -1.4932e-009    -2.8821e-006    4.531e-009     
  -1.05           -1.3585e-009    -4.5072e-006    9.47e-009      
  -1.1            -2.6778e-009    -6.4161e-006    1.1684e-008    
  -1.15           -2.2411e-009    -8.5125e-006    7.48e-010      
  -1.2            -1.6671e-009    -1.06796e-005   2.911e-009     
  -1.25           1.7827e-009     -1.292e-005     7.374e-009     
  -1.3            1.3537e-009     -1.5101e-005    -9.23e-009     
  -1.35           2.8978e-009     -1.725e-005     -8.385e-009    
  -1.4            2.6789e-009     -1.9342e-005    -1.33e-010     
  -1.45           5.954e-010      -2.1383e-005    1.0545e-008    
  -1.5            -1.7451e-009    -2.337e-005     2.2258e-008    
  -1.55           -1.4204e-009    -2.5327e-005    6.342e-009     
  -1.6            -1.3312e-009    -2.7216e-005    1.0732e-008    
  -1.65           -2.5578e-009    -2.9061e-005    1.1528e-008    
  -1.7            -2.0071e-009    -3.0874e-005    1.202e-009     
  -1.75           -1.5187e-009    -3.2622e-005    4.194e-009     
  -1.8            -1.3666e-009    -3.4343e-005    9.174e-009     
  -1.85           -2.7008e-009    -3.5993e-005    1.1705e-008    
  -1.9            -2.2985e-009    -3.7617e-005    6.81e-010      
  -1.95           -1.7185e-009    -3.9191e-005    2.661e-009     
  -2              -1.416e-009     -4.0728e-005    6.549e-009     
  -2.05           -1.3292e-009    -4.2219e-005    1.0677e-008    
  -2.1            -2.5505e-009    -4.3676e-005    1.1792e-008    
  -2.15           -1.9871e-009    -4.5121e-005    1.292e-009     
  -2.2            -1.5138e-009    -4.6519e-005    4.534e-009     
  -2.25           -1.3633e-009    -4.7879e-005    9.046e-009     
  -2.3            -2.699e-009     -4.9213e-005    1.1516e-008    
  -2.35           -2.2876e-009    -5.0533e-005    7e-010         
  -2.4            -1.7098e-009    -5.1814e-005    2.705e-009     
  -2.45           -1.4146e-009    -5.3069e-005    6.706e-009     
  -2.5            -1.3284e-009    -5.4289e-005    1.0942e-008    
  -2.55           -2.5344e-009    -5.5485e-005    1.1953e-008    
  -2.6            -1.977e-009     -5.6682e-005    1.386e-009     
  -2.65           -1.5111e-009    -5.7843e-005    4.302e-009     
  -2.7            -1.3657e-009    -5.8977e-005    9.292e-009     
  -2.75           -2.6952e-009    -6.0081e-005    1.1542e-008    
  -2.8            -2.2699e-009    -6.1189e-005    7.1e-010       
  -2.85           -1.6945e-009    -6.2265e-005    2.756e-009     
  -2.9            -1.4115e-009    -6.3321e-005    6.783e-009     
  -2.95           -1.3258e-009    -6.4355e-005    1.1159e-008    
  -3              -2.5282e-009    -6.5367e-005    1.1943e-008    
  -3.05           -1.9599e-009    -6.6378e-005    1.521e-009     
  -3.1            -1.4989e-009    -6.7363e-005    4.7e-009       
  -3.15           -1.363e-009     -6.8329e-005    9.591e-009     
  -3.2            -2.6856e-009    -6.9272e-005    1.1641e-008    
  -3.25           -2.2568e-009    -7.0221e-005    8.01e-010      
  -3.3            -1.6842e-009    -7.1145e-005    2.808e-009     
  -3.35           -1.4077e-009    -7.2049e-005    6.967e-009     
  -3.4            -1.3245e-009    -7.2948e-005    1.1211e-008    
  -3.45           -2.5116e-009    -7.3803e-005    1.211e-008     
  -3.5            -1.9377e-009    -7.4694e-005    1.594e-009     
  -3.55           -1.4937e-009    -7.5545e-005    4.708e-009     
  -3.6            -1.3582e-009    -7.6381e-005    9.502e-009     
  -3.65           -2.6747e-009    -7.7192e-005    1.1646e-008    
  -3.7            -2.2357e-009    -7.8034e-005    7.29e-010      
  -3.75           -1.6584e-009    -7.8839e-005    3.225e-009     
  -3.8            -1.4013e-009    -7.9607e-005    7.238e-009     
  -3.85           -1.3217e-009    -8.0386e-005    1.1306e-008    
  -3.9            -2.4948e-009    -8.1131e-005    1.209e-008     
  -3.95           -1.9057e-009    -8.1909e-005    1.586e-009     
  -4              -1.4837e-009    -8.2646e-005    4.834e-009     
  -4.05           -1.3549e-009    -8.3371e-005    9.776e-009     
  -4.1            -2.66e-009      -8.4074e-005    1.1609e-008    
  -4.15           -2.2002e-009    -8.4798e-005    7.97e-010      
  -4.2            -1.6412e-009    -8.5495e-005    3.227e-009     
  -4.25           -1.3964e-009    -8.6181e-005    7.581e-009     
  -4.3            -1.3171e-009    -8.6867e-005    1.1301e-008    
  -4.35           -2.4749e-009    -8.7506e-005    1.235e-008     
  -4.4            -1.8849e-009    -8.8196e-005    1.897e-009     
  -4.45           -1.4718e-009    -8.8839e-005    4.975e-009     
  -4.5            -1.3522e-009    -8.9478e-005    9.798e-009     
  -4.55           -2.6493e-009    -9.0098e-005    1.1569e-008    
  -4.6            -2.1784e-009    -9.0727e-005    8.1e-010       
  -4.65           -1.626e-009     -9.1345e-005    3.27e-009      
  -4.7            -1.3934e-009    -9.1945e-005    7.695e-009     
  -4.75           -1.3159e-009    -9.2542e-005    1.157e-008     
  -4.8            -2.4583e-009    -9.3111e-005    1.2723e-008    
  -4.85           -1.8655e-009    -9.3713e-005    2.092e-009     
  -4.9            -1.4628e-009    -9.4282e-005    5.266e-009     
  -4.95           -1.35e-009      -9.4837e-005    1.0018e-008    
  -5              -2.6419e-009    -9.5385e-005    1.1503e-008    
END_DB

BEGIN_DB
 ICCAP_VAR VS         0              
 ICCAP_VAR VB         0              
 ICCAP_VAR VD         -5             

 #VG              IG              ID              IB             
  0               -5.057e-010     -6.119e-010     1.0349e-008    
  -0.05           -1.3786e-009    -2.0041e-009    1.1483e-008    
  -0.1            9.31e-011       -1.9462e-009    -1.1352e-008   
  -0.15           -6.65e-011      -2.0751e-009    -1.0846e-008   
  -0.2            -2.652e-010     -2.183e-009     -1.104e-008    
  -0.25           -4.692e-010     -2.2494e-009    -1.1123e-008   
  -0.3            -6.63e-010      -2.2898e-009    -1.1491e-008   
  -0.35           1.2453e-009     -1.5945e-009    -1.9493e-008   
  -0.4            2.8488e-009     -3.279e-010     -1.3022e-008   
  -0.45           1.056e-010      1.551e-009      1.0362e-008    
  -0.5            -1.858e-009     -2.5444e-009    1.0526e-008    
  -0.55           -1.64e-009      -7.2304e-009    5.619e-009     
  -0.6            -1.6004e-009    -2.3611e-008    -1.2982e-008   
  -0.65           -1.3801e-009    -7.3546e-008    9.63e-009      
  -0.7            -2.7407e-009    -2.1461e-007    1.492e-008     
  -0.75           -2.438e-009     -5.6441e-007    1.1319e-008    
  -0.8            2.301e-010      -1.359e-006     3.0936e-008    
  -0.85           -1.73e-010      -2.7963e-006    3.6576e-008    
  -0.9            -1.4093e-009    -5.1487e-006    9.4145e-008    
  -0.95           1.4052e-009     -8.7006e-006    1.2521e-007    
  -1              1.6538e-009     -1.3626e-005    1.983e-007     
  -1.05           1.3449e-009     -1.9721e-005    2.6491e-007    
  -1.1            1.2771e-009     -2.7164e-005    3.4782e-007    
  -1.15           2.6125e-009     -3.5747e-005    4.2817e-007    
  -1.2            1.928e-009      -4.5376e-005    5.3066e-007    
  -1.25           1.4437e-009     -5.612e-005     6.1565e-007    
  -1.3            1.3123e-009     -6.784e-005     7.0709e-007    
  -1.35           2.7984e-009     -8.0435e-005    7.9115e-007    
  -1.4            2.2446e-009     -9.3674e-005    8.8597e-007    
  -1.45           1.5961e-009     -0.000107831    9.596e-007     
  -1.5            2.2681e-009     -0.00012248     1.05307e-006   
  -1.55           2.5531e-009     -0.00013782     1.11882e-006   
  -1.6            -6.762e-010     -0.00015386     1.1796e-006    
  -1.65           -1.5555e-009    -0.00017027     1.2467e-006    
  -1.7            -1.3445e-009    -0.00018731     1.2795e-006    
  -1.75           -2.6995e-009    -0.00020488     1.3245e-006    
  -1.8            -2.3601e-009    -0.00022324     1.3513e-006    
  -1.85           -1.7605e-009    -0.00024161     1.3808e-006    
  -1.9            -1.4117e-009    -0.00026036     1.4036e-006    
  -1.95           -1.319e-009     -0.0002795      1.4255e-006    
  -2              -2.571e-009     -0.00029893     1.4338e-006    
  -2.05           -2.036e-009     -0.00031886     1.4285e-006    
  -2.1            -1.5274e-009    -0.0003389      1.4311e-006    
  -2.15           -1.3614e-009    -0.00035912     1.4266e-006    
  -2.2            -2.7016e-009    -0.0003797      1.42e-006      
  -2.25           -2.306e-009     -0.00040066     1.3909e-006    
  -2.3            -1.7139e-009    -0.0004217      1.3721e-006    
  -2.35           -1.4089e-009    -0.000443       1.3498e-006    
  -2.4            -1.3247e-009    -0.00046445     1.3255e-006    
  -2.45           -2.5367e-009    -0.00048611     1.2968e-006    
  -2.5            -1.9722e-009    -0.0005082      1.2562e-006    
  -2.55           -1.4991e-009    -0.00053026     1.2249e-006    
  -2.6            -1.3574e-009    -0.00055242     1.1908e-006    
  -2.65           -2.6766e-009    -0.00057475     1.1552e-006    
  -2.7            -2.2457e-009    -0.0005975      1.1047e-006    
  -2.75           -1.6567e-009    -0.00062016     1.067e-006     
  -2.8            -1.396e-009     -0.00064297     1.0273e-006    
  -2.85           -1.3183e-009    -0.00066585     9.915e-007     
  -2.9            2.2699e-009     -0.00068951     9.3449e-007    
  -2.95           1.611e-009      -0.00071275     8.8826e-007    
  -3              1.3048e-009     -0.00073613     8.4337e-007    
  -3.05           2.8704e-009     -0.00075956     8.026e-007     
  -3.1            2.5425e-009     -0.00078288     7.7021e-007    
  -3.15           1.8793e-009     -0.00080649     7.2737e-007    
  -3.2            1.3862e-009     -0.00083035     6.8304e-007    
  -3.25           1.2571e-009     -0.00085424     6.4573e-007    
  -3.3            2.7469e-009     -0.00087823     6.0566e-007    
  -3.35           2.1913e-009     -0.00090195     5.8005e-007    
  -3.4            1.5462e-009     -0.00092598     5.4045e-007    
  -3.45           1.2887e-009     -0.00095018     5.0506e-007    
  -3.5            2.8523e-009     -0.00097449     4.7319e-007    
  -3.55           2.4753e-009     -0.00099833     4.5086e-007    
  -3.6            1.7977e-009     -0.00102286     4.1854e-007    
  -3.65           1.3585e-009     -0.00104725     3.8543e-007    
  -3.7            1.2442e-009     -0.00107196     3.5923e-007    
  -3.75           2.7032e-009     -0.00109669     3.3027e-007    
  -3.8            2.1082e-009     -0.00112096     3.1686e-007    
  -3.85           -1.4385e-009    -0.0011443      2.8887e-007    
  -3.9            -1.3371e-009    -0.0011692      2.8631e-007    
  -3.95           -2.5907e-009    -0.0011937      2.6727e-007    
  -4              -2.0628e-009    -0.0012185      2.3793e-007    
  -4.05           -1.547e-009     -0.0012428      2.2333e-007    
  -4.1            -1.3686e-009    -0.0012676      2.1132e-007    
  -4.15           -2.7075e-009    -0.0012925      1.9845e-007    
  -4.2            -2.324e-009     -0.0013172      1.7297e-007    
  -4.25           -1.7308e-009    -0.001342       1.6152e-007    
  -4.3            -1.4174e-009    -0.0013671      1.5278e-007    
  -4.35           -1.3297e-009    -0.0013919      1.4489e-007    
  -4.4            -2.55e-009      -0.0014166      1.353e-007     
  -4.45           -1.9903e-009    -0.0014417      1.1465e-007    
  -4.5            -1.5106e-009    -0.0014667      1.0858e-007    
  -4.55           -1.3584e-009    -0.0014917      1.0455e-007    
  -4.6            -2.6824e-009    -0.0015164      9.85e-008      
  -4.65           2.2285e-009     -0.0015421      6.1529e-008    
  -4.7            1.552e-009      -0.0015672      6.5839e-008    
  -4.75           1.2902e-009     -0.0015922      5.7534e-008    
  -4.8            2.86e-009       -0.0016172      5.1564e-008    
  -4.85           2.4724e-009     -0.0016419      5.4594e-008    
  -4.9            1.7982e-009     -0.0016668      4.6203e-008    
  -4.95           1.3604e-009     -0.0016916      3.6655e-008    
  -5              1.2466e-009     -0.0017171      3.3241e-008    
END_DB

BEGIN_DB
 ICCAP_VAR VS         0              
 ICCAP_VAR VB         2.5            
 ICCAP_VAR VD         -0.1           

 #VG              IG              ID              IB             
  0               1.532e-010      -5.784e-010     1.045e-008     
  -0.05           2.7239e-009     -3.537e-010     -1.5848e-008   
  -0.1            1.2557e-009     2.1372e-009     1.1634e-008    
  -0.15           -1.317e-010     1.97e-009       1.1146e-008    
  -0.2            3.4e-011        2.0502e-009     1.05e-008      
  -0.25           1.973e-010      2.149e-009      1.0456e-008    
  -0.3            3.712e-010      2.2512e-009     1.0535e-008    
  -0.35           5.476e-010      2.32e-009       1.0812e-008    
  -0.4            -1.3325e-009    1.466e-009      2.3291e-008    
  -0.45           -2.7183e-009    1.207e-010      1.1761e-008    
  -0.5            -1.9066e-009    -1.3663e-009    6.25e-010      
  -0.55           -5.645e-010     -2.2614e-009    -1.1201e-008   
  -0.6            1.2609e-009     -1.4951e-009    -2.1495e-008   
  -0.65           2.883e-009      -8.54e-011      -1.1649e-008   
  -0.7            1.0011e-009     2.3092e-009     1.0649e-008    
  -0.75           -1.556e-009     1.8147e-009     1.2848e-008    
  -0.8            -1.863e-009     -1.4276e-009    8.945e-009     
  -0.85           -4.843e-010     -2.2465e-009    -1.1122e-008   
  -0.9            -6.735e-010     -2.2757e-009    -1.1456e-008   
  -0.95           1.243e-009      -1.5704e-009    -1.9119e-008   
  -1              2.8483e-009     -2.248e-010     -1.3272e-008   
  -1.05           1.204e-010      1.8809e-009     1.0475e-008    
  -1.1            -1.577e-009     -6.8e-011       1.0472e-008    
  -1.15           -1.4545e-009    -4.721e-009     8.501e-009     
  -1.2            -2.1046e-009    -1.8972e-008    -1.1089e-008   
  -1.25           -1.5603e-009    -6.7947e-008    3.897e-009     
  -1.3            1.3852e-009     -2.2002e-007    -2.274e-008    
  -1.35           2.348e-010      -5.787e-007     1.0588e-008    
  -1.4            -1.3493e-009    -1.2936e-006    -1.1109e-008   
  -1.45           -2.6488e-009    -2.4474e-006    1.1229e-008    
  -1.5            -2.1771e-009    -4.0272e-006    8.13e-010      
  -1.55           -1.6124e-009    -5.8785e-006    3.348e-009     
  -1.6            -1.3846e-009    -7.8956e-006    7.853e-009     
  -1.65           -1.3145e-009    -9.9697e-006    1.1406e-008    
  -1.7            2.737e-010      -1.2101e-005    1.0209e-008    
  -1.75           -1.074e-010     -1.4123e-005    -1.1389e-008   
  -1.8            -6.048e-010     -1.6111e-005    -1.1002e-008   
  -1.85           1.9371e-009     -1.8041e-005    -2.101e-008    
  -1.9            1.3969e-009     -1.9904e-005    -9.092e-009    
  -1.95           1.2523e-009     -2.1714e-005    -8.635e-009    
  -2              2.7492e-009     -2.3462e-005    -1.1423e-008   
  -2.05           1.4671e-009     -2.5173e-005    1.1487e-008    
  -2.1            3.155e-010      -2.6759e-005    1.0324e-008    
  -2.15           7.437e-010      -2.838e-005     1.0837e-008    
  -2.2            -1.5814e-009    -2.9931e-005    1.8326e-008    
  -2.25           -1.3733e-009    -3.1433e-005    8.495e-009     
  -2.3            -2.7195e-009    -3.2913e-005    1.1334e-008    
  -2.35           -2.3607e-009    -3.4367e-005    4.92e-010      
  -2.4            -8.329e-010     -3.5777e-005    -1.1181e-008   
  -2.45           -1.2067e-009    -3.7146e-005    -1.1157e-008   
  -2.5            2.48e-011       -3.8542e-005    -1.1874e-008   
  -2.55           -4.39e-010      -3.9837e-005    -1.0883e-008   
  -2.6            -8.925e-010     -4.1111e-005    -1.1468e-008   
  -2.65           -1.2751e-009    -4.2364e-005    -1.1158e-008   
  -2.7            -3.7e-011       -4.3645e-005    -1.1644e-008   
  -2.75           -5.109e-010     -4.4839e-005    -1.0925e-008   
  -2.8            -9.532e-010     -4.6019e-005    -1.1388e-008   
  -2.85           2.862e-010      -4.7229e-005    -1.3971e-008   
  -2.9            -9.45e-011      -4.835e-005     -1.1416e-008   
  -2.95           -5.886e-010     -4.9461e-005    -1.0956e-008   
  -3              -1.0038e-009    -5.0556e-005    -1.1324e-008   
  -3.05           2.297e-010      -5.1684e-005    -1.3261e-008   
  -3.1            -1.696e-010     -5.2715e-005    -1.1194e-008   
  -3.15           -6.633e-010     -5.3752e-005    -1.0977e-008   
  -3.2            -1.0603e-009    -5.477e-005     -1.135e-008    
  -3.25           1.781e-010      -5.5829e-005    -1.2657e-008   
  -3.3            -2.473e-010     -5.6786e-005    -1.1026e-008   
  -3.35           -7.318e-010     -5.775e-005     -1.1043e-008   
  -3.4            1.7552e-009     -5.8736e-005    -1.8359e-008   
  -3.45           1.3331e-009     -5.966e-005     -9.307e-009    
  -3.5            2.8903e-009     -6.0596e-005    -8.609e-009    
  -3.55           2.6394e-009     -6.15e-005      -2.32e-010     
  -3.6            6.414e-010      -6.2388e-005    1.0456e-008    
  -3.65           -1.6909e-009    -6.3274e-005    2.1131e-008    
  -3.7            -1.3983e-009    -6.4146e-005    7.216e-009     
  -3.75           -1.3196e-009    -6.5e-005       1.117e-008     
  -3.8            -2.4931e-009    -6.5828e-005    1.2056e-008    
  -3.85           -1.9132e-009    -6.6671e-005    1.79e-009      
  -3.9            -1.4809e-009    -6.7484e-005    5.212e-009     
  -3.95           -1.3487e-009    -6.8287e-005    9.925e-009     
  -4              -2.6502e-009    -6.907e-005     1.1156e-008    
  -4.05           -2.1825e-009    -6.9867e-005    8.28e-010      
  -4.1            -1.627e-009     -7.0635e-005    3.393e-009     
  -4.15           -1.3888e-009    -7.1389e-005    7.895e-009     
