! VERSION = 6.00
BEGIN_HEADER
 ICCAP_INPUTS
  VG         V  B GROUND SMU4 0.001 LIN        1    0          -5         101  -0.05     
  VS         V  E GROUND SMU2 0.1 CON        0
  VB         V  C GROUND SMU3 0.1 LIN        3    0          5          3    2.5       
  VD         V  S GROUND SMU1 0.1 LIN        2    -0.1       -5         2    -4.9      
 ICCAP_OUTPUTS
  IG         I  B GROUND SMU4 B
  ID         I  S GROUND SMU1 B
  IB         I  C GROUND SMU3 B
END_HEADER

BEGIN_DB
 ICCAP_VAR VS         0              
 ICCAP_VAR VB         0              
 ICCAP_VAR VD         -0.1           

 #VG              IG              ID              IB             
  0               3.358e-010      4.713e-010      1.0902e-008    
  -0.05           2.8526e-009     -1.744e-010     -1.7436e-008   
  -0.1            -1.4045e-009    1.5378e-009     2.21e-008      
  -0.15           -2.6994e-009    1.474e-010      1.2625e-008    
  -0.2            2.3117e-009     -1.5482e-009    -2.153e-008    
  -0.25           1.4168e-009     2.1115e-009     -6.198e-009    
  -0.3            1.5962e-009     1.8643e-009     1.1641e-008    
  -0.35           -1.4078e-009    1.461e-009      2.6025e-008    
  -0.4            -1.3925e-009    5.45e-011       1.1769e-008    
  -0.45           -2.6759e-009    2.184e-010      1.352e-008     
  -0.5            -1.9754e-009    -1.2603e-009    1.29e-009      
  -0.55           -7.166e-010     -2.2508e-009    -1.2411e-008   
  -0.6            -8.925e-010     -2.243e-009     -1.0436e-008   
  -0.65           1.8972e-009     -1.6941e-009    -1.422e-008    
  -0.7            6.856e-010      2.2056e-009     -8.401e-009    
  -0.75           -1.4055e-009    9.917e-010      9.564e-009     
  -0.8            -2.7214e-009    -2.1006e-009    1.1211e-008    
  -0.85           2.6075e-009     -4.3496e-009    -2.7005e-008   
  -0.9            2.3141e-009     -5.3053e-009    -3.946e-009    
  -0.95           -2.5905e-009    -1.1507e-008    -2.7901e-008   
  -1              -2.0149e-009    -1.7598e-008    1.653e-009     
  -1.05           -1.4698e-009    -2.4545e-008    5.187e-009     
  -1.1            -1.4038e-009    -3.2505e-008    8.072e-009     
  -1.15           -2.6893e-009    -4.116e-008     1.1004e-008    
  -1.2            1.7777e-009     -5.0816e-008    -2.063e-008    
  -1.25           1.3273e-009     -5.8255e-008    -8.643e-009    
  -1.3            2.859e-009      -6.8181e-008    -8.61e-009     
  -1.35           -1.4013e-009    -7.8277e-008    2.8384e-008    
  -1.4            -2.5235e-009    -8.9456e-008    1.3184e-008    
  -1.45           -7.756e-010     -1.01236e-007   -1.3338e-008   
  -1.5            1.6581e-009     -1.10033e-007   -1.7947e-008   
  -1.55           -1.4016e-009    -1.2156e-007    1.9692e-008    
  -1.6            2.4553e-009     -1.291e-007     -2.8141e-008   
  -1.65           1.6417e-009     -1.3666e-007    -5.246e-009    
  -1.7            2.8136e-009     -1.4632e-007    -8.463e-009    
  -1.75           8.536e-010      -1.5428e-007    1.2287e-008    
  -1.8            -1.4765e-009    -1.6479e-007    1.393e-008     
  -1.85           -1.4028e-009    -1.7616e-007    8.082e-009     
  -1.9            -2.6848e-009    -1.8499e-007    1.1047e-008    
  -1.95           -4.7e-010       -1.9537e-007    -1.2991e-008   
  -2              -9.243e-010     -2.0416e-007    -1.2327e-008   
  -2.05           1.4547e-009     -2.1172e-007    -1.3351e-008   
  -2.1            2.8355e-009     -2.182e-007     -7.809e-009    
  -2.15           2.1002e-009     -2.259e-007     1.1051e-008    
  -2.2            9.369e-010      -2.3345e-007    1.1523e-008    
  -2.25           -3.175e-010     -2.4305e-007    1.1451e-008    
  -2.3            -1.4643e-009    -2.5212e-007    2.0751e-008    
  -2.35           -1.4074e-009    -2.614e-007     8.145e-009     
  -2.4            -2.6831e-009    -2.6924e-007    1.1103e-008    
  -2.45           -2.2719e-009    -2.7755e-007    1.252e-009     
  -2.5            -1.613e-009     -2.8526e-007    3.849e-009     
  -2.55           -1.3942e-009    -2.9276e-007    6.886e-009     
  -2.6            -1.396e-009     -3.0043e-007    9.47e-009      
  -2.65           -2.5172e-009    -3.0751e-007    1.3003e-008    
  -2.7            -7.814e-010     -3.1684e-007    -1.3162e-008   
  -2.75           1.6741e-009     -3.2317e-007    -1.8331e-008   
  -2.8            1.3097e-009     -3.282e-007     -8.552e-009    
  -2.85           2.8533e-009     -3.3548e-007    -9.172e-009    
  -2.9            -1.3889e-009    -3.4287e-007    2.7211e-008    
  -2.95           -2.4407e-009    -3.5111e-007    1.4224e-008    
  -3              -8.453e-010     -3.6017e-007    -1.3235e-008   
  -3.05           1.5826e-009     -3.6598e-007    -1.6548e-008   
  -3.1            2.8335e-009     -3.7067e-007    -8.2e-009      
  -3.15           9.147e-010      -3.7587e-007    1.1819e-008    
  -3.2            -1.4409e-009    -3.8398e-007    1.2262e-008    
  -3.25           -1.4044e-009    -3.9276e-007    8.346e-009     
  -3.3            -2.648e-009     -3.992e-007     1.1015e-008    
  -3.35           -2.1958e-009    -4.0624e-007    1.326e-009     
  -3.4            -1.5737e-009    -4.1264e-007    4.393e-009     
  -3.45           -1.3918e-009    -4.1888e-007    7.523e-009     
  -3.5            -1.3871e-009    -4.2514e-007    1.0083e-008    
  -3.55           -2.454e-009     -4.3106e-007    1.3673e-008    
  -3.6            -8.278e-010     -4.3921e-007    -1.3069e-008   
  -3.65           1.6105e-009     -4.4429e-007    -1.7256e-008   
  -3.7            2.8375e-009     -4.4825e-007    -8.511e-009    
  -3.75           9.065e-010      -4.528e-007     1.1724e-008    
  -3.8            -1.4586e-009    -4.6033e-007    1.303e-008     
  -3.85           -1.3999e-009    -4.6824e-007    8.396e-009     
  -3.9            -2.6529e-009    -4.739e-007     1.1017e-008    
  -3.95           -2.2117e-009    -4.8036e-007    1.324e-009     
  -4              -1.5858e-009    -4.8594e-007    4.386e-009     
  -4.05           -1.3912e-009    -4.9152e-007    7.371e-009     
  -4.1            -1.3904e-009    -4.9709e-007    9.902e-009     
  -4.15           -2.4645e-009    -5.023e-007     1.3647e-008    
  -4.2            -8.252e-010     -5.0975e-007    -1.3177e-008   
  -4.25           1.6123e-009     -5.1427e-007    -1.716e-008    
  -4.3            2.8284e-009     -5.175e-007     -8.454e-009    
  -4.35           9.018e-010      -5.2146e-007    1.2029e-008    
  -4.4            -1.4506e-009    -5.283e-007     1.2733e-008    
  -4.45           -1.4062e-009    -5.3567e-007    8.312e-009     
  -4.5            -2.6629e-009    -5.4068e-007    1.1244e-008    
  -4.55           -2.2315e-009    -5.4635e-007    1.244e-009     
  -4.6            -1.5844e-009    -5.5157e-007    4.363e-009     
  -4.65           -1.3944e-009    -5.5664e-007    7.164e-009     
  -4.7            -1.3938e-009    -5.6164e-007    9.9e-009       
  -4.75           -2.4776e-009    -5.6612e-007    1.3753e-008    
  -4.8            -8.165e-010     -5.7319e-007    -1.312e-008    
  -4.85           1.6025e-009     -5.7706e-007    -1.687e-008    
  -4.9            1.3081e-009     -5.7967e-007    -8.331e-009    
  -4.95           2.8564e-009     -5.8453e-007    -9.752e-009    
  -5              -1.3821e-009    -5.8964e-007    2.5747e-008    
END_DB

BEGIN_DB
 ICCAP_VAR VS         0              
 ICCAP_VAR VB         0              
 ICCAP_VAR VD         -5             

 #VG              IG              ID              IB             
  0               -7.94e-010      -8.41e-010      -2.5928e-008   
  -0.05           -1.9347e-009    -1.3378e-009    8.421e-009     
  -0.1            -6.146e-010     -2.271e-009     -1.2779e-008   
  -0.15           2.3802e-009     -1.5359e-009    -2.3186e-008   
  -0.2            1.3784e-009     2.141e-009      -5.741e-009    
  -0.25           1.5578e-009     1.9281e-009     1.1737e-008    
  -0.3            8.42e-011       2.2012e-009     1.1925e-008    
  -0.35           -1.411e-009     1.165e-009      2.7782e-008    
  -0.4            -1.1566e-009    -2.1928e-009    8.759e-009     
  -0.45           3.246e-010      -1.84e-009      -9.865e-009    
  -0.5            1.9471e-009     -8.702e-010     -1.9809e-008   
  -0.55           1.6276e-009     1.857e-009      -8.442e-009    
  -0.6            1.8021e-009     1.5577e-009     1.1863e-008    
  -0.65           3.709e-010      2.2706e-009     1.2649e-008    
  -0.7            5.637e-010      2.2114e-009     1.2301e-008    
  -0.75           -1.3911e-009    8.73e-010       1.0864e-008    
  -0.8            -2.7453e-009    -2.2367e-009    1.027e-008     
  -0.85           1.3025e-009     -4.5539e-009    -2.7103e-008   
  -0.9            2.8639e-009     -6.7812e-009    -9.944e-009    
  -0.95           -2.5706e-009    -1.3373e-008    -1.2203e-008   
  -1              -2.0106e-009    -2.2527e-008    1.695e-009     
  -1.05           -1.4778e-009    -3.4145e-008    5.325e-009     
  -1.1            -1.3961e-009    -4.9091e-008    8.767e-009     
  -1.15           -2.6736e-009    -6.766e-008     1.1417e-008    
  -1.2            -2.2848e-009    -9.0593e-008    1.804e-009     
  -1.25           2.1902e-009     -1.1431e-007    -2.4465e-008   
  -1.3            1.0171e-009     -1.4376e-007    1.1484e-008    
  -1.35           1.4065e-009     -1.7773e-007    1.0469e-008    
  -1.4            1.8411e-009     -2.161e-007     1.2862e-008    
  -1.45           6.824e-010      -2.5801e-007    1.3853e-008    
  -1.5            1.0795e-009     -3.0394e-007    1.103e-008     
  -1.55           1.4815e-009     -3.5351e-007    1.1429e-008    
  -1.6            1.9084e-009     -4.0723e-007    1.3318e-008    
  -1.65           7.573e-010      -4.6388e-007    1.4218e-008    
  -1.7            1.1454e-009     -5.2498e-007    1.1071e-008    
  -1.75           1.5601e-009     -5.8969e-007    1.1112e-008    
  -1.8            1.9854e-009     -6.5775e-007    1.3651e-008    
  -1.85           8.266e-010      -7.2966e-007    1.42e-008      
  -1.9            1.2099e-009     -8.0516e-007    1.0678e-008    
  -1.95           1.632e-009      -8.839e-007     1.258e-008     
  -2              2.0596e-009     -9.6567e-007    1.2946e-008    
  -2.05           8.961e-010      -1.05017e-006   1.3224e-008    
  -2.1            1.2773e-009     -1.13933e-006   1.0465e-008    
  -2.15           -2.5513e-009    -1.2325e-006    -2.0218e-008   
  -2.2            -1.9972e-009    -1.3269e-006    2.951e-009     
  -2.25           -1.4749e-009    -1.4241e-006    6.35e-009      
  -2.3            -1.398e-009     -1.5255e-006    9.548e-009     
  -2.35           -2.6683e-009    -1.6291e-006    1.1898e-008    
  -2.4            -2.2719e-009    -1.7377e-006    2.352e-009     
  -2.45           -1.6424e-009    -1.8475e-006    4.893e-009     
  -2.5            -1.3934e-009    -1.9605e-006    7.975e-009     
  -2.55           -1.3878e-009    -2.0763e-006    1.0374e-008    
  -2.6            -2.4963e-009    -2.1949e-006    1.3603e-008    
  -2.65           -1.8804e-009    -2.3174e-006    2.678e-009     
  -2.7            -1.4378e-009    -2.4421e-006    5.806e-009     
  -2.75           -1.3977e-009    -2.5693e-006    8.995e-009     
  -2.8            -2.6314e-009    -2.6993e-006    1.1584e-008    
  -2.85           -2.1634e-009    -2.834e-006     1.804e-009     
  -2.9            -1.5608e-009    -2.969e-006     4.925e-009     
  -2.95           -1.3959e-009    -3.1065e-006    8.092e-009     
  -3              -2.7023e-009    -3.2465e-006    1.0641e-008    
  -3.05           1.9656e-009     -3.3942e-006    -2.3444e-008   
  -3.1            1.3706e-009     -3.5384e-006    -8.161e-009    
  -3.15           2.8662e-009     -3.6878e-006    -8.179e-009    
  -3.2            2.209e-009      -3.8367e-006    1.1659e-008    
  -3.25           1.0355e-009     -3.9902e-006    1.0827e-008    
  -3.3            -2.115e-010     -4.145e-006     1.0261e-008    
  -3.35           -1.4248e-009    -4.3033e-006    2.3397e-008    
  -3.4            -1.3969e-009    -4.4662e-006    8.687e-009     
  -3.45           -2.6126e-009    -4.6278e-006    1.1364e-008    
  -3.5            -2.0994e-009    -4.7961e-006    1.469e-009     
  -3.55           -1.5239e-009    -4.9633e-006    4.881e-009     
  -3.6            -1.3941e-009    -5.1331e-006    8.088e-009     
  -3.65           -2.6919e-009    -5.3035e-006    1.0607e-008    
  -3.7            1.8925e-009     -5.4841e-006    -2.2385e-008   
  -3.75           1.3447e-009     -5.6616e-006    -8.737e-009    
  -3.8            2.864e-009      -5.8412e-006    -8.685e-009    
  -3.85           -1.3934e-009    -6.0163e-006    2.8531e-008    
  -3.9            -2.5417e-009    -6.2006e-006    1.2233e-008    
  -3.95           -1.9573e-009    -6.3883e-006    1.682e-009     
  -4              -1.4595e-009    -6.5742e-006    5.185e-009     
  -4.05           -1.4001e-009    -6.7638e-006    8.385e-009     
  -4.1            -2.651e-009     -6.9541e-006    1.0998e-008    
  -4.15           -2.2208e-009    -7.1501e-006    1.25e-009      
  -4.2            -9.628e-010     -7.3476e-006    -1.2258e-008   
  -4.25           3e-010          -7.5482e-006    -1.3135e-008   
  -4.3            1.5006e-009     -7.7449e-006    -1.98e-008     
  -4.35           2.8546e-009     -7.9451e-006    -8.231e-009    
  -4.4            2.833e-009      -8.147e-006     6.27e-010      
  -4.45           -1.7583e-009    -8.3479e-006    2.2498e-008    
  -4.5            -1.4041e-009    -8.5565e-006    6.038e-009     
  -4.55           -1.3975e-009    -8.764e-006     8.777e-009     
  -4.6            -2.5737e-009    -8.9744e-006    1.1809e-008    
  -4.65           -2.0126e-009    -9.1881e-006    1.645e-009     
  -4.7            -1.4753e-009    -9.4015e-006    5.18e-009      
  -4.75           -1.3979e-009    -9.616e-006     8.362e-009     
  -4.8            -2.67e-009      -9.8322e-006    1.0836e-008    
  -4.85           -2.2763e-009    -1.00542e-005   1.189e-009     
  -4.9            -9.382e-010     -1.02756e-005   -1.2847e-008   
  -4.95           3.267e-010      -1.05009e-005   -1.4014e-008   
  -5              1.5377e-009     -1.07235e-005   -1.9529e-008   
END_DB

BEGIN_DB
 ICCAP_VAR VS         0              
 ICCAP_VAR VB         2.5            
 ICCAP_VAR VD         -0.1           

 #VG              IG              ID              IB             
  0               1.2458e-009     1.1305e-009     1.0758e-008    
  -0.05           1.8462e-009     1.4767e-009     1.1343e-008    
  -0.1            4.292e-010      2.3074e-009     1.2854e-008    
  -0.15           6.183e-010      2.3252e-009     1.2306e-008    
  -0.2            7.933e-010      2.3339e-009     1.0563e-008    
  -0.25           -1.8594e-009    1.6722e-009     1.5898e-008    
  -0.3            -1.65e-009      -1.7675e-009    5.525e-009     
  -0.35           2.4585e-009     -1.5009e-009    -2.44e-008     
  -0.4            1.3407e-009     2.1911e-009     -5.13e-009     
  -0.45           1.5175e-009     1.9889e-009     1.1007e-008    
  -0.5            -1.4052e-009    1.4017e-009     2.8218e-008    
  -0.55           -1.4031e-009    -2.58e-011      1.0878e-008    
  -0.6            -2.6934e-009    1.317e-010      1.2296e-008    
  -0.65           2.3455e-009     -1.5473e-009    -2.2382e-008   
  -0.7            1.4045e-009     2.1268e-009     -6.117e-009    
  -0.75           1.5834e-009     1.8943e-009     1.1936e-008    
  -0.8            -1.4068e-009    1.451e-009      2.6676e-008    
  -0.85           -1.3938e-009    3.88e-011       1.1338e-008    
  -0.9            -2.6703e-009    2.004e-010      1.3373e-008    
  -0.95           -1.9741e-009    -1.2676e-009    1.219e-009     
  -1              -7.034e-010     -2.2525e-009    -1.2413e-008   
  -1.05           2.2657e-009     -1.572e-009     -2.0905e-008   
  -1.1            1.4489e-009     2.078e-009      -6.537e-009    
  -1.15           1.6293e-009     1.8286e-009     1.1894e-008    
  -1.2            1.7983e-009     1.5447e-009     1.1692e-008    
  -1.25           3.726e-010      2.2833e-009     1.2898e-008    
  -1.3            5.668e-010      2.2416e-009     1.2601e-008    
  -1.35           -1.3932e-009    9.444e-010      1.114e-008     
  -1.4            -2.7362e-009    -2.1669e-009    1.0217e-008    
  -1.45           1.2998e-009     -4.4845e-009    -2.7691e-008   
  -1.5            2.8561e-009     -6.4272e-009    -1.002e-008    
  -1.55           -2.577e-009     -1.1871e-008    -1.2448e-008   
  -1.6            -2.0131e-009    -1.8393e-008    1.516e-009     
  -1.65           -1.4761e-009    -2.495e-008     5.16e-009      
  -1.7            -1.398e-009     -3.2342e-008    8.289e-009     
  -1.75           -2.6664e-009    -4.0181e-008    1.0794e-008    
  -1.8            -2.2878e-009    -4.8768e-008    1.196e-009     
  -1.85           -9.293e-010     -5.8419e-008    -1.265e-008    
  -1.9            1.4607e-009     -6.5606e-008    -1.4022e-008   
  -1.95           2.8551e-009     -7.2037e-008    -8.051e-009    
  -2              2.8205e-009     -8.0406e-008    4.23e-010      
  -2.05           1.4069e-009     -8.6546e-008    9.321e-009     
  -2.1            1.8283e-009     -9.5285e-008    1.1828e-008    
  -2.15           6.784e-010      -1.04087e-007   1.2607e-008    
  -2.2            -1.525e-010     -1.1637e-007    8.673e-009     
  -2.25           -6.704e-010     -1.2507e-007    -1.3033e-008   
  -2.3            1.8453e-009     -1.3193e-007    -2.1698e-008   
  -2.35           1.3339e-009     -1.3763e-007    -8.79e-009     
  -2.4            2.8659e-009     -1.4564e-007    -8.779e-009    
  -2.45           -1.392e-009     -1.5359e-007    2.829e-008     
  -2.5            -2.5213e-009    -1.6259e-007    1.2464e-008    
  -2.55           -1.9168e-009    -1.709e-007     1.722e-009     
  -2.6            -1.4459e-009    -1.7833e-007    5.315e-009     
  -2.65           -1.398e-009     -1.8561e-007    8.463e-009     
  -2.7            -2.6411e-009    -1.929e-007     1.0952e-008    
  -2.75           -2.1897e-009    -2.0069e-007    1.367e-009     
  -2.8            -1.5807e-009    -2.0779e-007    4.379e-009     
  -2.85           -1.3915e-009    -2.1484e-007    7.535e-009     
  -2.9            -1.3841e-009    -2.2185e-007    1.0237e-008    
  -2.95           -2.4401e-009    -2.2848e-007    1.3549e-008    
  -3              -8.313e-010     -2.3734e-007    -1.3077e-008   
  -3.05           1.6022e-009     -2.4307e-007    -1.6858e-008   
  -3.1            2.8387e-009     -2.4772e-007    -8.48e-009     
  -3.15           9.109e-010      -2.5293e-007    1.1642e-008    
  -3.2            -1.4508e-009    -2.61e-007      1.2892e-008    
  -3.25           -1.3989e-009    -2.6973e-007    8.466e-009     
  -3.3            -2.6464e-009    -2.7617e-007    1.12e-008      
  -3.35           -2.1902e-009    -2.8313e-007    1.482e-009     
  -3.4            -1.5837e-009    -2.8952e-007    4.379e-009     
  -3.45           -1.3934e-009    -2.9576e-007    7.467e-009     
  -3.5            -1.3846e-009    -3.0201e-007    1.0184e-008    
  -3.55           -2.4431e-009    -3.078e-007     1.3726e-008    
  -3.6            -8.324e-010     -3.1597e-007    -1.2981e-008   
  -3.65           1.6114e-009     -3.2092e-007    -1.6991e-008   
  -3.7            1.3018e-009     -3.2486e-007    -8.563e-009    
  -3.75           2.8468e-009     -3.3091e-007    -9.857e-009    
  -3.8            1.2941e-009     -3.3476e-007    9.076e-009     
  -3.85           7.92e-011       -3.4211e-007    1.0332e-008    
  -3.9            -1.3955e-009    -3.4921e-007    2.7717e-008    
  -3.95           -2.6743e-009    -3.5638e-007    1.0901e-008    
  -4              1.8062e-009     -3.6254e-007    -2.1257e-008   
  -4.05           1.3187e-009     -3.66e-007      -8.736e-009    
  -4.1            2.8588e-009     -3.7176e-007    -8.913e-009    
  -4.15           -1.393e-009     -3.7753e-007    2.8313e-008    
