! VERSION = 6.00
BEGIN_HEADER
 ICCAP_INPUTS
  VG         V  B GROUND SMU4 0.001 LIN        2    0          -5         6    -1        
  VS         V  E GROUND SMU2 0.1 CON        0
  VD         V  S GROUND SMU1 0.1 LIN        1    0          -5         101  -0.05     
  VB         V  C GROUND SMU3 0.1 LIN        3    0          2.5        2    2.5       
 ICCAP_OUTPUTS
  ID         I  S GROUND SMU1 B
  IB         I  C GROUND SMU3 B
  IG         I  B GROUND SMU4 B
END_HEADER

BEGIN_DB
 ICCAP_VAR VG         0              
 ICCAP_VAR VS         0              
 ICCAP_VAR VB         0              

 #VD              ID              IB              IG             
  0               1.0959e-009     1.153e-008      1.2148e-009    
  -0.05           1.4913e-009     9.994e-009      1.8363e-009    
  -0.1            2.3062e-009     1.0487e-008     4.335e-010     
  -0.15           2.3688e-009     1.0771e-008     6.154e-010     
  -0.2            1.5421e-009     2.1551e-008     -1.3295e-009   
  -0.25           1.812e-010      1.2088e-008     -2.6995e-009   
  -0.3            -1.3373e-009    7.92e-010       -1.9535e-009   
  -0.35           -2.2935e-009    -1.124e-008     -6.545e-010    
  -0.4            -1.5679e-009    -1.961e-008     1.2582e-009    
  -0.45           -1.495e-010     -1.2745e-008    2.8757e-009    
  -0.5            2.3158e-009     1.0682e-008     1.0756e-009    
  -0.55           1.8971e-009     1.2057e-008     -1.5046e-009   
  -0.6            -1.374e-009     9.637e-009      -1.9301e-009   
  -0.65           -2.2846e-009    -1.1106e-008    -5.927e-010    
  -0.7            -2.299e-009     -1.1106e-008    -7.922e-010    
  -0.75           -1.6326e-009    -1.6652e-008    2.0745e-009    
  -0.8            1.9267e-009     -8.314e-009     1.507e-009     
  -0.85           2.1201e-009     1.0429e-008     1.036e-010     
  -0.9            2.2244e-009     1.0325e-008     2.792e-010     
  -0.95           2.3194e-009     1.0516e-008     4.606e-010     
  -1              1.417e-009      2.5203e-008     -1.3535e-009   
  -1.05           6.32e-011       1.1295e-008     -1.3233e-009   
  -1.1            2.015e-010      1.2322e-008     -2.6859e-009   
  -1.15           -1.3211e-009    7.63e-010       -1.9682e-009   
  -1.2            -2.295e-009     -1.1245e-008    -6.834e-010    
  -1.25           -1.5864e-009    -1.9061e-008    1.2533e-009    
  -1.3            -1.828e-010     -1.3152e-008    2.8637e-009    
  -1.35           2.1369e-009     1.0412e-008     1.351e-010     
  -1.4            2.244e-009      1.0426e-008     3.11e-010      
  -1.45           2.3324e-009     1.0666e-008     4.899e-010     
  -1.5            1.4453e-009     2.4523e-008     -1.3487e-009   
  -1.55           8.84e-011       1.1221e-008     -1.3188e-009   
  -1.6            2.262e-010      1.2771e-008     -2.6652e-009   
  -1.65           -1.3052e-009    8.94e-010       -1.985e-009    
  -1.7            -1.7333e-009    -1.2865e-008    1.679e-009     
  -1.75           1.5864e-009     -9.089e-009     1.7721e-009    
  -1.8            2.2773e-009     1.0393e-008     3.661e-010     
  -1.85           2.3514e-009     1.0729e-008     5.414e-010     
  -1.9            1.4835e-009     2.333e-008      -1.3399e-009   
  -1.95           1.295e-010      1.1654e-008     -1.3097e-009   
  -2              2.744e-010      1.3427e-008     -2.6263e-009   
  -2.05           -1.2776e-009    8.85e-010       -2.0151e-009   
  -2.1            -2.3025e-009    -1.1148e-008    -7.794e-010    
  -2.15           -1.6261e-009    -1.7036e-008    2.1026e-009    
  -2.2            1.9465e-009     -8.042e-009     1.4907e-009    
  -2.25           2.1134e-009     1.0474e-008     9.66e-011      
  -2.3            2.2165e-009     1.0455e-008     2.655e-010     
  -2.35           2.309e-009      1.0519e-008     4.46e-010      
  -2.4            1.4072e-009     2.5699e-008     -1.3543e-009   
  -2.45           4.97e-011       1.1281e-008     -1.3259e-009   
  -2.5            1.89e-010       1.2163e-008     -2.6944e-009   
  -2.55           -1.3348e-009    8.22e-010       -1.9607e-009   
  -2.6            -2.2968e-009    -1.1407e-008    -6.631e-010    
  -2.65           -1.5761e-009    -1.9587e-008    1.2536e-009    
  -2.7            -1.672e-010     -1.3086e-008    2.8701e-009    
  -2.75           2.1327e-009     1.033e-008      1.158e-010     
  -2.8            2.2393e-009     1.0404e-008     2.941e-010     
  -2.85           2.3259e-009     1.0649e-008     4.766e-010     
  -2.9            2.3797e-009     1.0772e-008     6.538e-010     
  -2.95           1.5827e-009     2.076e-008      -1.3211e-009   
  -3              2.148e-010      1.2684e-008     -2.673e-009    
  -3.05           -1.3131e-009    6.98e-010       -1.9799e-009   
  -3.1            -2.2996e-009    -1.139e-008     -7.032e-010    
  -3.15           -1.5938e-009    -1.8812e-008    1.2482e-009    
  -3.2            -2.018e-010     -1.3559e-008    2.8523e-009    
  -3.25           2.1498e-009     1.0333e-008     1.539e-010     
  -3.3            2.2584e-009     1.0418e-008     3.237e-010     
  -3.35           2.3424e-009     1.0718e-008     5.12e-010      
  -3.4            1.4566e-009     2.4558e-008     -1.3388e-009   
  -3.45           1e-010          1.125e-008      -1.3137e-009   
  -3.5            2.425e-010      1.3109e-008     -2.651e-009    
  -3.55           -1.2916e-009    8.2e-010        -1.9956e-009   
  -3.6            -2.3003e-009    -1.136e-008     -7.431e-010    
  -3.65           -1.6161e-009    -1.8074e-008    1.2417e-009    
  -3.7            -2.394e-010     -1.3968e-008    2.8351e-009    
  -3.75           2.1744e-009     1.0383e-008     1.843e-010     
  -3.8            2.2785e-009     1.0374e-008     3.669e-010     
  -3.85           2.3551e-009     1.0772e-008     5.513e-010     
  -3.9            1.49e-009       2.3643e-008     -1.3342e-009   
  -3.95           1.291e-010      1.1683e-008     -2.7254e-009   
  -4              -1.3865e-009    6.58e-010       -1.9277e-009   
  -4.05           -2.292e-009     -1.1227e-008    -5.888e-010    
  -4.1            -2.2987e-009    -1.1278e-008    -7.877e-010    
  -4.15           -1.6332e-009    -1.7063e-008    2.0966e-009    
  -4.2            1.9431e-009     -8.405e-009     1.5048e-009    
  -4.25           2.1205e-009     1.0224e-008     1.035e-010     
  -4.3            2.234e-009      1.0421e-008     2.775e-010     
  -4.35           2.3214e-009     1.0553e-008     4.607e-010     
  -4.4            1.4207e-009     2.5408e-008     -1.3466e-009   
  -4.45           6.65e-011       1.1392e-008     -1.3178e-009   
  -4.5            2.063e-010      1.2538e-008     -2.6734e-009   
  -4.55           -1.3148e-009    8.75e-010       -1.9756e-009   
  -4.6            -2.2997e-009    -1.1332e-008    -6.986e-010    
  -4.65           -1.5955e-009    -1.8913e-008    1.2486e-009    
  -4.7            -1.94e-010      -1.3486e-008    2.8505e-009    
  -4.75           2.1506e-009     1.032e-008      1.455e-010     
  -4.8            2.2574e-009     1.0362e-008     3.31e-010      
  -4.85           2.3421e-009     1.0744e-008     5.047e-010     
  -4.9            1.4553e-009     2.4375e-008     -1.3391e-009   
  -4.95           1e-010          1.1286e-008     -1.3124e-009   
  -5              2.433e-010      1.2993e-008     -2.6488e-009   
END_DB

BEGIN_DB
 ICCAP_VAR VG         -1             
 ICCAP_VAR VS         0              
 ICCAP_VAR VB         0              

 #VD              ID              IB              IG             
  0               -6.3982e-008    1.9289e-008     5.023e-010     
  -0.05           -2.8271e-006    -3.06e-009      -9.524e-010    
  -0.1            -4.4837e-006    2.1367e-008     -1.6214e-009   
  -0.15           -5.5028e-006    1.008e-008      2.1021e-009    
  -0.2            -6.2281e-006    -1.3616e-008    2.893e-010     
  -0.25           -6.5959e-006    1.0523e-008     -1.3403e-009   
  -0.3            -7.0144e-006    1.1034e-008     8.17e-011      
  -0.35           -7.4752e-006    -1.1428e-008    2.7784e-009    
  -0.4            -7.8074e-006    -1.2946e-008    2.279e-010     
  -0.45           -7.9434e-006    1.0899e-008     -1.3295e-009   
  -0.5            -8.248e-006     1.0844e-008     1.519e-010     
  -0.55           -8.6438e-006    -1.2825e-008    2.7143e-009    
  -0.6            -8.9203e-006    -1.2386e-008    1.615e-010     
  -0.65           -9.0048e-006    1.1292e-008     -1.3189e-009   
  -0.7            -9.2619e-006    1.0626e-008     2.22e-010      
  -0.75           -9.6553e-006    -1.3817e-008    2.6386e-009    
  -0.8            -9.9029e-006    -1.2034e-008    9.15e-011      
  -0.85           -9.9705e-006    1.1424e-008     -2.7223e-009   
  -0.9            -1.02611e-005   1.7902e-008     -1.578e-009    
  -0.95           -1.04498e-005   1.0414e-008     5.808e-010     
  -1              -1.08405e-005   -1.8409e-008    2.1451e-009    
  -1.05           -1.10149e-005   -1.1072e-008    -2.665e-010    
  -1.1            -1.11434e-005   1.2439e-008     -2.4602e-009   
  -1.15           -1.1397e-005    -4.85e-010      -1.5653e-009   
  -1.2            -1.1679e-005    1.0571e-008     1.0618e-009    
  -1.25           -1.1988e-005    -2.4676e-008    1.2569e-009    
  -1.3            -1.2096e-005    -1.0842e-008    -7.181e-010    
  -1.35           -1.2307e-005    2.4883e-008     -1.4438e-009   
  -1.4            -1.2527e-005    1.0762e-008     1.607e-010     
  -1.45           -1.2929e-005    -1.9454e-008    1.9855e-009    
  -1.5            -1.2988e-005    -1.1271e-008    -9.148e-010    
  -1.55           -1.3242e-005    2.7115e-008     -1.3831e-009   
  -1.6            -1.3446e-005    1.0371e-008     3.626e-010     
  -1.65           -1.3874e-005    -2.0868e-008    1.6759e-009    
  -1.7            -1.3894e-005    -1.1161e-008    -1.0868e-009   
  -1.75           -1.4161e-005    2.7751e-008     -1.3465e-009   
  -1.8            -1.4395e-005    1.0415e-008     5.656e-010     
  -1.85           -1.4805e-005    -2.3092e-008    1.4647e-009    
  -1.9            -1.4789e-005    -1.0933e-008    -1.2743e-009   
  -1.95           -1.5082e-005    1.1309e-008     -2.5957e-009   
  -2              -1.5328e-005    1.047e-008      2.538e-010     
  -2.05           -1.5752e-005    -2.0212e-008    1.8324e-009    
  -2.1            -1.6015e-005    -1.2521e-008    1.77e-010      
  -2.15           -1.6039e-005    1.331e-008      -2.3942e-009   
  -2.2            -1.6278e-005    1.043e-008      4.586e-010     
  -2.25           -1.6718e-005    -2.1847e-008    1.5644e-009    
  -2.3            -1.6947e-005    -1.1683e-008    -8.6e-012      
  -2.35           -1.7e-005       1.6316e-008     -2.1173e-009   
  -2.4            -1.7267e-005    1.0439e-008     6.558e-010     
  -2.45           -1.7696e-005    -2.4251e-008    1.3928e-009    
  -2.5            -1.7865e-005    -1.1154e-008    -2.121e-010    
  -2.55           -1.7989e-005    1.9335e-008     -1.8315e-009   
  -2.6            -1.8264e-005    1.0842e-008     8.452e-010     
  -2.65           -1.8655e-005    -2.5572e-008    1.3051e-009    
  -2.7            -1.8792e-005    -1.0668e-008    -4.458e-010    
  -2.75           -1.8963e-005    2.1958e-008     -1.6042e-009   
  -2.8            -1.9231e-005    1.2097e-008     -7.2e-011      
  -2.85           -1.9669e-005    -1.6128e-008    2.3848e-009    
  -2.9            -1.9747e-005    -1.039e-008     -6.722e-010    
  -2.95           -1.9952e-005    2.4876e-008     -1.4621e-009   
  -3              -2.0194e-005    1.1704e-008     1.193e-010     
  -3.05           -2.0669e-005    -1.7969e-008    2.061e-009     
  -3.1            -2.0716e-005    -1.0041e-008    -8.75e-010     
  -3.15           -2.096e-005     2.8219e-008     -1.3908e-009   
  -3.2            -2.1427e-005    1.2816e-008     1.3922e-009    
  -3.25           -2.1713e-005    -1.2847e-008    2.5338e-009    
  -3.3            -2.1962e-005    -1.814e-008     1.7059e-009    
  -3.35           -2.2236e-005    -1.2435e-008    2.465e-009     
  -3.4            -2.2477e-005    -4.825e-009     2.8774e-009    
  -3.45           -2.2749e-005    -1.1577e-008    2.3968e-009    
  -3.5            -2.3002e-005    -3.295e-009     2.8615e-009    
  -3.55           -2.3285e-005    -9.786e-009     2.3223e-009    
  -3.6            -2.3536e-005    -1.365e-009     2.8371e-009    
  -3.65           -2.3791e-005    -7.47e-009      2.244e-009     
  -3.7            -2.4076e-005    1.644e-009      2.806e-009     
  -3.75           -2.4133e-005    2.2774e-008     2.7812e-009    
  -3.8            -2.4459e-005    2.2019e-008     2.9101e-009    
  -3.85           -2.4551e-005    8.325e-009      -1.5494e-009   
  -3.9            -2.5002e-005    4.2412e-008     -1.6197e-009   
  -3.95           -2.5241e-005    3.6741e-008     2.4588e-009    
  -4              -2.5538e-005    2.143e-008      -7.674e-010    
  -4.05           -2.5769e-005    6.3403e-008     -1.4255e-009   
  -4.1            -2.6104e-005    5.2572e-008     2.6846e-009    
  -4.15           -2.633e-005     3.9994e-008     -1.0385e-009   
  -4.2            -2.6633e-005    8.775e-008      -1.3523e-009   
  -4.25           -2.6972e-005    7.5643e-008     2.8709e-009    
  -4.3            -2.7101e-005    6.7863e-008     -1.3146e-009   
  -4.35           -2.7515e-005    1.13335e-007    -2.6666e-009   
  -4.4            -2.7779e-005    1.0335e-007     -2.5635e-009   
  -4.45           -2.8324e-005    1.3063e-007     1.8613e-009    
  -4.5            -2.8693e-005    1.2405e-007     7.28e-011      
  -4.55           -2.871e-005     1.6982e-007     -2.2296e-009   
  -4.6            -2.9149e-005    1.8632e-007     2.1427e-009    
  -4.65           -2.9541e-005    1.8847e-007     -2.267e-010    
  -4.7            -2.9683e-005    2.4542e-007     -1.7935e-009   
  -4.75           -3.0069e-005    2.6542e-007     2.3743e-009    
  -4.8            -3.0438e-005    2.762e-007      -5.595e-010    
  -4.85           -3.0704e-005    3.4737e-007     -1.4737e-009   
  -4.9            -3.1119e-005    3.7263e-007     2.598e-009     
  -4.95           -3.1462e-005    3.9488e-007     -8.456e-010    
  -5              -3.1812e-005    4.8452e-007     -1.3153e-009   
END_DB

BEGIN_DB
 ICCAP_VAR VG         -2             
 ICCAP_VAR VS         0              
 ICCAP_VAR VB         0              

 #VD              ID              IB              IG             
  0               -2.8468e-007    1.0315e-008     -1.0608e-009   
  -0.05           -2.5166e-005    2.284e-009      1.3095e-009    
  -0.1            -4.8716e-005    -1.1913e-008    -1.5525e-009   
  -0.15           -7.1031e-005    1.8647e-008     -1.6156e-009   
  -0.2            -9.2011e-005    1.1938e-008     -7.79e-011     
  -0.25           -0.000111679    -1.6385e-008    2.3927e-009    
  -0.3            -0.00012975     -1.1207e-008    -2.762e-009    
  -0.35           -0.00014646     1.6051e-008     -1.5173e-009   
  -0.4            -0.00016169     1.0877e-008     1.491e-010     
  -0.45           -0.00017586     -2.0484e-008    1.7997e-009    
  -0.5            -0.00018857     -1.1881e-008    3.8e-011       
  -0.55           -0.00019945     1.7297e-008     -2.0113e-009   
  -0.6            -0.0002098      1.0719e-008     8.459e-010     
  -0.65           -0.00021879     -2.5772e-008    1.2775e-009    
  -0.7            -0.00022666     -1.0889e-008    -7.352e-010    
  -0.75           -0.00023359     2.657e-008      -1.4021e-009   
  -0.8            -0.00023992     1.0301e-008     4.192e-010     
  -0.85           -0.00024599     -2.3278e-008    1.4767e-009    
  -0.9            -0.00025093     -1.1121e-008    -2.419e-010    
  -0.95           -0.00025497     2.0881e-008     -1.6632e-009   
  -1              -0.00025949     1.053e-008      1.0781e-009    
  -1.05           -0.00026325     -2.2033e-008    2.0721e-009    
  -1.1            -0.00026678     -1.2735e-008    1.961e-010     
  -1.15           -0.00026944     1.4686e-008     -2.2476e-009   
  -1.2            -0.00027263     1.0476e-008     6.838e-010     
  -1.25           -0.00027583     -2.5589e-008    1.3205e-009    
  -1.3            -0.00027826     -1.0936e-008    -5.469e-010    
  -1.35           -0.00028042     2.4437e-008     -1.4618e-009   
  -1.4            -0.00028347     1.0622e-008     1.3257e-009    
  -1.45           -0.0002855      -1.6089e-008    1.6543e-009    
  -1.5            -0.00028793     -1.1636e-008    -5.52e-011     
  -1.55           -0.00028939     1.8999e-008     -1.8609e-009   
  -1.6            -0.00029152     2.6923e-008     -1.3872e-009   
  -1.65           -0.00029362     1.0446e-008     4.724e-010     
  -1.7            -0.000296       -2.3646e-008    1.4327e-009    
  -1.75           -0.00029789     -1.0956e-008    -2.985e-010    
  -1.8            -0.00029924     2.1802e-008     -1.6102e-009   
  -1.85           -0.00030162     1.0558e-008     1.1282e-009    
  -1.9            -0.00030335     -2.0649e-008    1.9854e-009    
  -1.95           -0.00030471     -1.1258e-008    -1.0284e-009   
  -2              -0.00030646     2.738e-008      -1.337e-009    
  -2.05           -0.00030835     1.0484e-008     7.42e-010      
  -2.1            -0.00031031     -2.6029e-008    1.304e-009     
  -2.15           -0.00031189     -1.0883e-008    -6.016e-010    
  -2.2            -0.0003131      2.5167e-008     -1.4366e-009   
  -2.25           -0.00031549     1.088e-008      1.3841e-009    
  -2.3            -0.00031708     -1.5068e-008    1.5897e-009    
  -2.35           -0.00031857     -1.1465e-008    -1.072e-010    
  -2.4            -0.00031954     1.9628e-008     -1.7934e-009   
  -2.45           -0.00032122     1.2322e-008     -1.083e-010    
  -2.5            -0.00032321     -1.751e-008     2.2501e-009    
  -2.55           -0.00032441     -1.1134e-008    -8.856e-010    
  -2.6            -0.00032553     2.7708e-008     -1.3657e-009   
  -2.65           -0.00032741     1.0444e-008     5.783e-010     
  -2.7            -0.0003293      -2.4646e-008    1.3712e-009    
  -2.75           -0.00033046     -1.0621e-008    -4.138e-010    
  -2.8            -0.00033165     2.3425e-008     -1.5273e-009   
  -2.85           -0.00033293     1.1397e-008     1.402e-010     
  -2.9            -0.00033505     -1.9846e-008    1.8193e-009    
  -2.95           -0.00033665     -1.117e-008     4.53e-011      
  -3              -0.00033728     1.819e-008      -2.024e-009    
  -3.05           -0.00033913     1.1983e-008     8.388e-010     
  -3.1            -0.00034059     -2.4237e-008    1.279e-009     
  -3.15           -0.00034187     -8.646e-009     -7.176e-010    
  -3.2            -0.00034295     2.9397e-008     -1.4043e-009   
  -3.25           -0.00034518     1.5247e-008     1.4835e-009    
  -3.3            -0.00034627     -1.3063e-008    2.1988e-009    
  -3.35           -0.00034773     -6.95e-009      2.6782e-009    
  -3.4            -0.00034899     -8.73e-010      2.8954e-009    
  -3.45           -0.00035037     -7.427e-009     2.2849e-009    
  -3.5            -0.00035176     2.43e-010       2.7339e-009    
  -3.55           -0.00035271     2.1794e-008     2.887e-009     
  -3.6            -0.00035347     7.679e-009      -1.482e-009    
  -3.65           -0.00035508     4.0753e-008     -1.561e-009    
  -3.7            -0.00035665     3.7293e-008     2.595e-009     
  -3.75           -0.00035777     2.4829e-008     -1.0504e-009   
  -3.8            -0.00035897     7.0966e-008     -1.3331e-009   
  -3.85           -0.00036063     5.7817e-008     2.909e-009     
  -3.9            -0.00036141     5.2945e-008     -1.696e-009    
  -3.95           -0.00036313     9.1862e-008     -1.893e-010    
  -4              -0.00036494     7.8377e-008     2.3976e-009    
  -4.05           -0.00036594     1.2464e-007     9.011e-010     
  -4.1            -0.00036729     1.1087e-007     1.2658e-009    
  -4.15           -0.00036831     1.5805e-007     -2.7954e-009   
