! VERSION = 6.00
BEGIN_HEADER
 ICCAP_INPUTS
  VG         V  B GROUND SMU4 0.001 LIN        1    0          -5         101  -0.05     
  VS         V  E GROUND SMU2 0.1 CON        0
  VB         V  C GROUND SMU3 0.1 LIN        3    0          5          3    2.5       
  VD         V  S GROUND SMU1 0.1 LIN        2    -0.1       -5         2    -4.9      
 ICCAP_OUTPUTS
  IG         I  B GROUND SMU4 B
  ID         I  S GROUND SMU1 B
  IB         I  C GROUND SMU3 B
END_HEADER

BEGIN_DB
 ICCAP_VAR VS         0              
 ICCAP_VAR VB         0              
 ICCAP_VAR VD         -0.1           

 #VG              IG              ID              IB             
  0               2.2245e-009     2.2536e-009     -1.2741e-008   
  -0.05           4.639e-010      2.2946e-009     1.123e-008     
  -0.1            6.612e-010      2.3491e-009     1.1499e-008    
  -0.15           8.431e-010      2.354e-009      1.1282e-008    
  -0.2            9.991e-010      2.3191e-009     1.07e-008      
  -0.25           1.164e-009      2.236e-009      1.1261e-008    
  -0.3            1.3378e-009     2.074e-009      1.1338e-008    
  -0.35           -1.259e-010     1.8839e-009     1.0578e-008    
  -0.4            5.02e-011       1.6945e-009     1.0415e-008    
  -0.45           -1.6005e-009    -3.627e-010     1.0736e-008    
  -0.5            -1.476e-009     -4.4444e-009    8.264e-009     
  -0.55           -2.4681e-009    -1.3518e-008    -1.6229e-008   
  -0.6            -4.615e-010     -3.6736e-008    -1.087e-008    
  -0.65           2.0945e-009     -9.0031e-008    -2.4866e-008   
  -0.7            -1.1667e-009    -1.9337e-007    1.8094e-008    
  -0.75           4.55e-011       -3.759e-007     -1.1991e-008   
  -0.8            -3.862e-010     -6.3218e-007    -1.0941e-008   
  -0.85           2.1891e-009     -9.6832e-007    -2.558e-008    
  -0.9            2.6141e-009     -1.3509e-006    1.9378e-008    
  -0.95           1.6114e-009     -1.7893e-006    1.1339e-008    
  -1              2.0505e-009     -2.2373e-006    1.2417e-008    
  -1.05           8.748e-010      -2.6969e-006    1.1578e-008    
  -1.1            1.2646e-009     -3.1714e-006    1.0799e-008    
  -1.15           4.91e-011       -3.6266e-006    1.0803e-008    
  -1.2            5.119e-010      -4.0949e-006    1.0671e-008    
  -1.25           9.58e-010       -4.558e-006     1.1505e-008    
  -1.3            1.3494e-009     -5.0177e-006    1.0983e-008    
  -1.35           1.7967e-009     -5.464e-006     1.1443e-008    
  -1.4            6.2e-010        -5.8905e-006    1.0939e-008    
  -1.45           1.0304e-009     -6.3253e-006    1.1343e-008    
  -1.5            -1.91e-010      -6.7413e-006    1.2099e-008    
  -1.55           2.373e-010      -7.1504e-006    1.0359e-008    
  -1.6            7.142e-010      -7.557e-006     1.1192e-008    
  -1.65           1.1089e-009     -7.9569e-006    1.1123e-008    
  -1.7            1.5303e-009     -8.3472e-006    1.1579e-008    
  -1.75           3.373e-010      -8.7139e-006    1.0397e-008    
  -1.8            8.014e-010      -9.0875e-006    1.1497e-008    
  -1.85           1.1898e-009     -9.4569e-006    1.0996e-008    
  -1.9            1.6265e-009     -9.8144e-006    1.1596e-008    
  -1.95           2.0661e-009     -1.01597e-005   1.2236e-008    
  -2              8.859e-010      -1.04987e-005   1.1634e-008    
  -2.05           1.278e-009      -1.08376e-005   1.0813e-008    
  -2.1            5.69e-011       -1.1157e-005    1.0704e-008    
  -2.15           -2.2689e-009    -1.1478e-005    1.0638e-008    
  -2.2            -2.292e-010     -1.1799e-005    -1.0996e-008   
  -2.25           -7.296e-010     -1.2105e-005    -1.1489e-008   
  -2.3            1.7258e-009     -1.2418e-005    -1.9494e-008   
  -2.35           1.3188e-009     -1.271e-005     -9.169e-009    
  -2.4            2.8901e-009     -1.3008e-005    -9.911e-009    
  -2.45           1.2263e-009     -1.329e-005     1.0665e-008    
  -2.5            9.7e-012        -1.3568e-005    1.0866e-008    
  -2.55           4.839e-010      -1.3848e-005    1.0639e-008    
  -2.6            -1.3494e-009    -1.4121e-005    2.37e-008      
  -2.65           -2.3e-009       -1.4388e-005    1.1093e-008    
  -2.7            1.678e-010      -1.4666e-005    -1.3159e-008   
  -2.75           -2.172e-010     -1.4923e-005    -1.1012e-008   
  -2.8            -7.134e-010     -1.5176e-005    -1.1477e-008   
  -2.85           1.739e-009      -1.5435e-005    -1.9784e-008   
  -2.9            1.3234e-009     -1.5677e-005    -9.204e-009    
  -2.95           2.8882e-009     -1.5922e-005    -9.958e-009    
  -3              2.6254e-009     -1.6157e-005    -2.57e-010     
  -3.05           1.9818e-009     -1.6397e-005    -3.095e-009    
  -3.1            1.4148e-009     -1.6628e-005    -8.9e-009      
  -3.15           2.8996e-009     -1.6856e-005    -9.509e-009    
  -3.2            2.7714e-009     -1.708e-005     2.53e-010      
  -3.25           1.5007e-009     -1.73e-005      1.1943e-008    
  -3.3            2.859e-010      -1.752e-005     1.0294e-008    
  -3.35           7.707e-010      -1.7736e-005    1.1276e-008    
  -3.4            1.1565e-009     -1.7947e-005    1.078e-008     
  -3.45           1.591e-009      -1.8163e-005    1.2235e-008    
  -3.5            3.967e-010      -1.8357e-005    1.0417e-008    
  -3.55           8.562e-010      -1.8562e-005    1.1366e-008    
  -3.6            1.245e-009      -1.8766e-005    1.0805e-008    
  -3.65           3.36e-011       -1.8958e-005    1.0911e-008    
  -3.7            4.958e-010      -1.9155e-005    1.0601e-008    
  -3.75           9.437e-010      -1.9355e-005    1.1364e-008    
  -3.8            1.3323e-009     -1.9545e-005    1.1219e-008    
  -3.85           1.26e-010       -1.9727e-005    1.0569e-008    
  -3.9            6.041e-010      -1.9906e-005    1.082e-008     
  -3.95           1.0213e-009     -2.0088e-005    1.1141e-008    
  -4              -1.981e-010     -2.0272e-005    1.2077e-008    
  -4.05           2.239e-010      -2.0435e-005    1.0328e-008    
  -4.1            6.99e-010       -2.0612e-005    1.1263e-008    
  -4.15           1.1006e-009     -2.0788e-005    1.1187e-008    
  -4.2            1.5312e-009     -2.0954e-005    1.1447e-008    
  -4.25           3.224e-010      -2.1117e-005    1.0321e-008    
  -4.3            8.055e-010      -2.1277e-005    1.145e-008     
  -4.35           1.1825e-009     -2.1442e-005    1.0974e-008    
  -4.4            1.6241e-009     -2.16e-005      1.1372e-008    
  -4.45           2.0604e-009     -2.1756e-005    1.2327e-008    
  -4.5            8.864e-010      -2.1908e-005    1.1637e-008    
  -4.55           1.2791e-009     -2.2063e-005    1.0818e-008    
  -4.6            5.81e-011       -2.2211e-005    1.0765e-008    
  -4.65           5.314e-010      -2.2362e-005    1.08e-008      
  -4.7            9.66e-010       -2.2506e-005    1.1632e-008    
  -4.75           1.3675e-009     -2.2655e-005    1.1015e-008    
  -4.8            1.8155e-009     -2.2797e-005    1.1724e-008    
  -4.85           6.357e-010      -2.2933e-005    1.098e-008     
  -4.9            1.0442e-009     -2.3073e-005    1.1345e-008    
  -4.95           1.4634e-009     -2.3216e-005    1.1312e-008    
  -5              2.602e-010      -2.335e-005     1.0267e-008    
END_DB

BEGIN_DB
 ICCAP_VAR VS         0              
 ICCAP_VAR VB         0              
 ICCAP_VAR VD         -5             

 #VG              IG              ID              IB             
  0               1.009e-010      1.74e-010       1.0886e-008    
  -0.05           2.7007e-009     -7.998e-010     -1.7313e-008   
  -0.1            2.4789e-009     -4.092e-010     -2.35e-009     
  -0.15           2.2148e-009     -2.5039e-009    -4.382e-009    
  -0.2            1.9132e-009     -8.0171e-009    -6.997e-009    
  -0.25           -1.5182e-009    -2.3118e-008    -1.2507e-008   
  -0.3            -1.3909e-009    -5.6117e-008    1.0167e-008    
  -0.35           -1.4772e-009    -1.3033e-007    1.55e-008      
  -0.4            -1.3757e-009    -2.7862e-007    1.4659e-008    
  -0.45           -2.6144e-009    -5.4474e-007    1.8563e-008    
  -0.5            -2.1153e-009    -9.7593e-007    1.8493e-008    
  -0.55           -1.0165e-009    -1.6131e-006    2.3438e-008    
  -0.6            -1.4147e-009    -2.4724e-006    3.051e-008     
  -0.65           -1.7765e-009    -3.599e-006     4.6909e-008    
  -0.7            -2.008e-009     -4.9882e-006    6.7143e-008    
  -0.75           -2.3485e-009    -6.6187e-006    1.1702e-007    
  -0.8            -1.754e-009     -8.4709e-006    1.1919e-007    
  -0.85           -1.4212e-009    -1.05598e-005   1.4571e-007    
  -0.9            1.5308e-009     -1.2943e-005    1.6335e-007    
  -0.95           1.295e-009      -1.5465e-005    1.7787e-007    
  -1              2.8639e-009     -1.8198e-005    1.9996e-007    
  -1.05           2.4281e-009     -2.1073e-005    2.3455e-007    
  -1.1            1.728e-009      -2.4171e-005    2.5394e-007    
  -1.15           1.3431e-009     -2.7461e-005    2.727e-007     
  -1.2            2.9134e-009     -3.0872e-005    2.9421e-007    
  -1.25           2.6499e-009     -3.4415e-005    3.2474e-007    
  -1.3            1.9994e-009     -3.8177e-005    3.4171e-007    
  -1.35           1.4425e-009     -4.2032e-005    3.5475e-007    
  -1.4            1.2718e-009     -4.5997e-005    3.7271e-007    
  -1.45           2.8048e-009     -5.0099e-005    3.8549e-007    
  -1.5            2.2903e-009     -5.4247e-005    4.1263e-007    
  -1.55           1.6087e-009     -5.8552e-005    4.2158e-007    
  -1.6            1.3031e-009     -6.2918e-005    4.3165e-007    
  -1.65           2.8834e-009     -6.7453e-005    4.406e-007     
  -1.7            2.548e-009      -7.1971e-005    4.6038e-007    
  -1.75           1.8669e-009     -7.6621e-005    4.6512e-007    
  -1.8            1.3684e-009     -8.135e-005     4.6552e-007    
  -1.85           2.9098e-009     -8.6211e-005    4.703e-007     
  -1.9            2.7308e-009     -9.1026e-005    4.8366e-007    
  -1.95           2.1508e-009     -9.5986e-005    4.8334e-007    
  -2              1.5117e-009     -0.000100934    4.7903e-007    
  -2.05           2.886e-009      -0.000105975    4.7601e-007    
  -2.1            2.8406e-009     -0.000111       4.8445e-007    
  -2.15           2.7829e-009     -0.00011607     4.9235e-007    
  -2.2            2.2789e-009     -0.00012124     4.757e-007     
  -2.25           1.5954e-009     -0.00012646     4.658e-007     
  -2.3            1.2924e-009     -0.00013175     4.5607e-007    
  -2.35           2.8779e-009     -0.00013707     4.4719e-007    
  -2.4            2.5343e-009     -0.00014235     4.4976e-007    
  -2.45           1.8497e-009     -0.00014775     4.3737e-007    
  -2.5            1.3662e-009     -0.00015316     4.2303e-007    
  -2.55           2.9038e-009     -0.00015858     4.1342e-007    
  -2.6            2.7286e-009     -0.00016402     4.1206e-007    
  -2.65           2.1609e-009     -0.00016951     3.996e-007     
  -2.7            1.5128e-009     -0.00017505     3.8302e-007    
  -2.75           2.8798e-009     -0.0001806      3.7006e-007    
  -2.8            2.8455e-009     -0.00018615     3.6885e-007    
  -2.85           2.4369e-009     -0.00019174     3.5561e-007    
  -2.9            1.7437e-009     -0.00019737     3.3952e-007    
  -2.95           1.3304e-009     -0.00020305     3.2365e-007    
  -3              2.8934e-009     -0.00020874     3.104e-007     
  -3.05           2.6629e-009     -0.0002144      3.0789e-007    
  -3.1            2.0405e-009     -0.00022011     2.9337e-007    
  -3.15           1.4455e-009     -0.00022584     2.7573e-007    
  -3.2            2.8917e-009     -0.00023158     2.6348e-007    
  -3.25           2.8062e-009     -0.00023729     2.6179e-007    
  -3.3            2.3335e-009     -0.0002431      2.4872e-007    
  -3.35           1.649e-009      -0.0002489      2.3317e-007    
  -3.4            1.3011e-009     -0.00025473     2.1906e-007    
  -3.45           2.8805e-009     -0.00026052     2.073e-007     
  -3.5            2.585e-009      -0.00026633     2.0702e-007    
  -3.55           1.9255e-009     -0.00027218     1.9395e-007    
  -3.6            1.393e-009      -0.00027804     1.7847e-007    
  -3.65           2.8985e-009     -0.00028387     1.6905e-007    
  -3.7            2.7591e-009     -0.00028966     1.6963e-007    
  -3.75           2.2222e-009     -0.00029569     1.589e-007     
  -3.8            1.5628e-009     -0.00030159     1.4547e-007    
  -3.85           1.2814e-009     -0.00030749     1.3487e-007    
  -3.9            2.8647e-009     -0.00031342     1.2548e-007    
  -3.95           2.5032e-009     -0.00031929     1.2836e-007    
  -4              1.8162e-009     -0.00032518     1.1761e-007    
  -4.05           1.0847e-009     -0.00033115     1.2604e-007    
  -4.1            1.508e-009      -0.00033715     1.1966e-007    
  -4.15           1.9409e-009     -0.00034306     1.149e-007     
  -4.2            -1.9146e-009    -0.00034876     9.8247e-008    
  -4.25           -1.465e-009     -0.00035476     1.02244e-007   
  -4.3            -1.3735e-009    -0.00036063     9.4414e-008    
  -4.35           -2.5929e-009    -0.00036654     8.8573e-008    
  -4.4            -2.0693e-009    -0.00037247     7.68e-008      
  -4.45           -1.5658e-009    -0.0003784      7.5382e-008    
  -4.5            -1.4026e-009    -0.0003843      7.5531e-008    
  -4.55           -1.3459e-009    -0.00039027     7.195e-008     
  -4.6            -2.3273e-009    -0.00039618     6.9866e-008    
  -4.65           -1.7331e-009    -0.00040213     5.8279e-008    
  -4.7            -1.4404e-009    -0.00040809     5.8675e-008    
  -4.75           -1.3657e-009    -0.00041402     5.7864e-008    
  -4.8            -2.5375e-009    -0.00041993     5.4173e-008    
  -4.85           -1.9763e-009    -0.00042588     4.456e-008     
  -4.9            -1.519e-009     -0.00043179     4.4846e-008    
  -4.95           -1.3914e-009    -0.00043763     4.656e-008     
  -5              -1.3421e-009    -0.00044363     4.3583e-008    
END_DB

BEGIN_DB
 ICCAP_VAR VS         0              
 ICCAP_VAR VB         2.5            
 ICCAP_VAR VD         -0.1           

 #VG              IG              ID              IB             
  0               -8.668e-010     -8.474e-010     -1.1024e-008   
  -0.05           -1.8484e-009    -1.4251e-009    8.646e-009     
  -0.1            -5.092e-010     -2.2647e-009    -1.1507e-008   
  -0.15           2.4451e-009     -1.4853e-009    -2.4069e-008   
  -0.2            1.3061e-009     2.158e-009      -4.849e-009    
  -0.25           -1.627e-010     1.9868e-009     1.077e-008     
  -0.3            4.7e-012        2.0699e-009     1.0482e-008    
  -0.35           1.858e-010      2.1758e-009     1.0664e-008    
  -0.4            3.862e-010      2.2632e-009     1.1086e-008    
  -0.45           5.777e-010      2.328e-009      1.1247e-008    
  -0.5            7.675e-010      2.3556e-009     1.1031e-008    
  -0.55           9.277e-010      2.3448e-009     1.0759e-008    
  -0.6            1.0876e-009     2.2945e-009     1.1069e-008    
  -0.65           1.2427e-009     2.1835e-009     1.2122e-008    
  -0.7            -2.111e-010     1.9483e-009     1.104e-008     
  -0.75           -4.38e-011      1.9875e-009     1.0525e-008    
  -0.8            1.266e-010      1.9184e-009     1.0627e-008    
  -0.85           -1.5442e-009    8.85e-011       1.0886e-008    
  -0.9            -1.4525e-009    -3.7138e-009    8.482e-009     
  -0.95           -2.5123e-009    -1.3317e-008    -1.6664e-008   
  -1              -5.228e-010     -4.042e-008     -1.0962e-008   
  -1.05           2.0303e-009     -1.0681e-007    -2.4077e-008   
  -1.1            -1.0851e-009    -2.373e-007     1.6149e-008    
  -1.15           1.23e-010       -4.6156e-007    -1.2647e-008   
  -1.2            -2.733e-010     -7.6256e-007    -1.1095e-008   
  -1.25           -7.672e-010     -1.13216e-006   -1.1438e-008   
  -1.3            2.8598e-009     -1.5588e-006    1.1037e-008    
  -1.35           1.3447e-009     -2.0023e-006    1.1106e-008    
  -1.4            1.329e-010      -2.4463e-006    1.0762e-008    
  -1.45           6.05e-010       -2.9095e-006    1.0984e-008    
  -1.5            1.0163e-009     -3.3693e-006    1.103e-008     
  -1.55           1.4241e-009     -3.8242e-006    1.1797e-008    
  -1.6            1.8551e-009     -4.2609e-006    1.2677e-008    
  -1.65           6.767e-010      -4.6815e-006    1.1008e-008    
  -1.7            1.0756e-009     -5.1052e-006    1.0889e-008    
  -1.75           -1.496e-010     -5.5085e-006    1.1644e-008    
  -1.8            2.829e-010      -5.9071e-006    1.0498e-008    
  -1.85           7.516e-010      -6.3096e-006    1.1219e-008    
  -1.9            1.1397e-009     -6.6907e-006    1.0716e-008    
  -1.95           1.5555e-009     -7.0663e-006    1.2181e-008    
  -2              3.608e-010      -7.4184e-006    1.0539e-008    
  -2.05           8.197e-010      -7.7769e-006    1.1335e-008    
  -2.1            1.1985e-009     -8.129e-006     1.0751e-008    
  -2.15           1.6305e-009     -8.4727e-006    1.2379e-008    
  -2.2            2.0616e-009     -8.8017e-006    1.2119e-008    
  -2.25           8.853e-010      -9.1242e-006    1.1133e-008    
  -2.3            1.2701e-009     -9.4486e-006    1.0837e-008    
  -2.35           5.46e-011       -9.7548e-006    1.0878e-008    
  -2.4            5.117e-010      -1.00639e-005   1.0708e-008    
  -2.45           9.451e-010      -1.03718e-005   1.1145e-008    
  -2.5            1.3342e-009     -1.06679e-005   1.1121e-008    
  -2.55           1.195e-010      -1.09514e-005   1.0699e-008    
  -2.6            5.951e-010      -1.12372e-005   1.0855e-008    
  -2.65           -2.7647e-009    -1.1517e-005    1.1102e-008    
  -2.7            -1.015e-010     -1.1797e-005    -1.1417e-008   
  -2.75           -5.905e-010     -1.2064e-005    -1.1158e-008   
  -2.8            1.9126e-009     -1.2334e-005    -2.256e-008    
  -2.85           1.3859e-009     -1.2595e-005    -9.167e-009    
  -2.9            2.8997e-009     -1.285e-005     -9.733e-009    
  -2.95           2.7502e-009     -1.3099e-005    2.37e-010      
  -3              1.5204e-009     -1.335e-005     1.2206e-008    
  -3.05           3.188e-010      -1.3589e-005    1.0468e-008    
  -3.1            7.832e-010      -1.3831e-005    1.1151e-008    
  -3.15           1.1634e-009     -1.407e-005     1.0764e-008    
  -3.2            1.5875e-009     -1.4304e-005    1.2462e-008    
  -3.25           3.929e-010      -1.4526e-005    1.0537e-008    
  -3.3            8.45e-010       -1.4752e-005    1.1202e-008    
  -3.35           1.2265e-009     -1.4976e-005    1.0731e-008    
  -3.4            9.3e-012        -1.5194e-005    1.1019e-008    
  -3.45           4.664e-010      -1.5404e-005    1.0713e-008    
  -3.5            9.091e-010      -1.562e-005     1.1533e-008    
  -3.55           1.2954e-009     -1.5833e-005    1.0892e-008    
  -3.6            7.72e-011       -1.6032e-005    1.0837e-008    
  -3.65           5.427e-010      -1.6237e-005    1.0774e-008    
  -3.7            9.69e-010       -1.6441e-005    1.1114e-008    
  -3.75           1.3666e-009     -1.6641e-005    1.1287e-008    
  -3.8            1.8011e-009     -1.6828e-005    1.2726e-008    
  -3.85           6.222e-010      -1.7018e-005    1.0944e-008    
  -3.9            1.0305e-009     -1.7206e-005    1.0935e-008    
  -3.95           1.4338e-009     -1.7396e-005    1.1817e-008    
  -4              1.877e-009      -1.7576e-005    1.271e-008     
  -4.05           6.941e-010      -1.7749e-005    1.1085e-008    
  -4.1            1.0887e-009     -1.7936e-005    1.0853e-008    
  -4.15           1.5116e-009     -1.811e-005     1.1342e-008    
