! VERSION = 6.00
BEGIN_HEADER
 ICCAP_INPUTS
  VG         V  B GROUND SMU4 0.001 LIN        1    0          -5         101  -0.05     
  VS         V  E GROUND SMU2 0.1 CON        0
  VB         V  C GROUND SMU3 0.1 LIN        3    0          5          3    2.5       
  VD         V  S GROUND SMU1 0.1 LIN        2    -0.1       -5         2    -4.9      
 ICCAP_OUTPUTS
  IG         I  B GROUND SMU4 B
  ID         I  S GROUND SMU1 B
  IB         I  C GROUND SMU3 B
END_HEADER

BEGIN_DB
 ICCAP_VAR VS         0              
 ICCAP_VAR VB         0              
 ICCAP_VAR VD         -0.1           

 #VG              IG              ID              IB             
  0               7.234e-010      7.76e-010       2.8027e-008    
  -0.05           9.696e-010      2.3581e-009     -8.29e-009     
  -0.1            1.1288e-009     2.3258e-009     9.382e-009     
  -0.15           1.2986e-009     2.2259e-009     1.0828e-008    
  -0.2            1.4778e-009     2.0483e-009     1.2274e-008    
  -0.25           2e-013          2.1705e-009     1.146e-008     
  -0.3            2.114e-010      2.25e-009       1.235e-008     
  -0.35           4.224e-010      2.3105e-009     1.2514e-008    
  -0.4            6.258e-010      2.3112e-009     1.1823e-008    
  -0.45           8.094e-010      2.225e-009      1.0338e-008    
  -0.5            -1.4153e-009    9.871e-010      9.402e-009     
  -0.55           -2.6985e-009    -2.6584e-009    9.897e-009     
  -0.6            2.4213e-009     -7.6402e-009    -2.4487e-008   
  -0.65           -1.4864e-009    -2.0213e-008    -1.0775e-008   
  -0.7            -1.4141e-009    -5.6098e-008    8.268e-009     
  -0.75           1.0035e-009     -1.3665e-007    -1.9494e-008   
  -0.8            1.4031e-009     -2.9194e-007    9.739e-009     
  -0.85           1.8529e-009     -5.2388e-007    1.2833e-008    
  -0.9            6.925e-010      -8.2259e-007    1.2637e-008    
  -0.95           -1.411e-009     -1.1757e-006    -1.2996e-008   
  -1              -1.383e-009     -1.5628e-006    9.633e-009     
  -1.05           -2.2867e-009    -1.9712e-006    1.346e-008     
  -1.1            1.388e-010      -2.405e-006     -1.0329e-008   
  -1.15           1.3579e-009     -2.8224e-006    -2.2703e-008   
  -1.2            2.8851e-009     -3.2371e-006    -9.049e-009    
  -1.25           2.768e-009      -3.6453e-006    -2.85e-010     
  -1.3            2.6368e-009     -4.0497e-006    1.1443e-008    
  -1.35           1.5078e-009     -4.4538e-006    1.0432e-008    
  -1.4            3.293e-010      -4.8317e-006    1.1551e-008    
  -1.45           7.99e-010       -5.2132e-006    1.2324e-008    
  -1.5            -1.5436e-009    -5.5837e-006    1.6259e-008    
  -1.55           -1.4101e-009    -5.9469e-006    7.978e-009     
  -1.6            -1.3919e-009    -6.3001e-006    9.601e-009     
  -1.65           -2.3483e-009    -6.6485e-006    1.291e-008     
  -1.7            1.712e-010      -7.0042e-006    -1.091e-008    
  -1.75           1.3832e-009     -7.3319e-006    -2.1807e-008   
  -1.8            2.8843e-009     -7.6561e-006    -8.682e-009    
  -1.85           2.7999e-009     -7.9773e-006    -1.67e-010     
  -1.9            1.539e-009      -8.2941e-006    1.0681e-008    
  -1.95           3.63e-010       -8.5927e-006    1.1716e-008    
  -2              8.283e-010      -8.8959e-006    1.2588e-008    
  -2.05           -1.5251e-009    -9.1913e-006    1.5466e-008    
  -2.1            -1.4119e-009    -9.4791e-006    8.146e-009     
  -2.15           -1.3866e-009    -9.7599e-006    9.48e-009      
  -2.2            -2.3113e-009    -1.00379e-005   1.3401e-008    
  -2.25           1.464e-010      -1.03293e-005   -1.052e-008    
  -2.3            1.3667e-009     -1.05915e-005   -2.2401e-008   
  -2.35           2.8855e-009     -1.08551e-005   -9.116e-009    
  -2.4            -1.4137e-009    -1.11073e-005   2.8357e-008    
  -2.45           -2.5279e-009    -1.13611e-005   1.0449e-008    
  -2.5            -1.2018e-009    -1.1615e-005    9.645e-009     
  -2.55           -1.5478e-009    -1.1858e-005    2.0356e-008    
  -2.6            -1.4095e-009    -1.2104e-005    7.835e-009     
  -2.65           -1.3919e-009    -1.2343e-005    9.559e-009     
  -2.7            -2.3583e-009    -1.2575e-005    1.2846e-008    
  -2.75           1.766e-010      -1.2825e-005    -1.1005e-008   
  -2.8            1.3847e-009     -1.3046e-005    -2.1727e-008   
  -2.85           2.8841e-009     -1.3271e-005    -8.808e-009    
  -2.9            2.8011e-009     -1.3492e-005    -2.22e-010     
  -2.95           1.5398e-009     -1.3716e-005    1.0652e-008    
  -3              3.624e-010      -1.3925e-005    1.1724e-008    
  -3.05           8.252e-010      -1.4135e-005    1.2214e-008    
  -3.1            -1.5237e-009    -1.4354e-005    1.5262e-008    
  -3.15           -1.4107e-009    -1.4557e-005    7.956e-009     
  -3.2            -1.3868e-009    -1.4758e-005    9.508e-009     
  -3.25           -2.3067e-009    -1.4956e-005    1.3423e-008    
  -3.3            1.488e-010      -1.5172e-005    -1.0474e-008   
  -3.35           1.3631e-009     -1.5359e-005    -2.253e-008    
  -3.4            2.8876e-009     -1.5553e-005    -9.055e-009    
  -3.45           -1.4137e-009    -1.5736e-005    2.8386e-008    
  -3.5            -2.5302e-009    -1.5925e-005    1.0347e-008    
  -3.55           -7.645e-010     -1.6121e-005    -1.3048e-008   
  -3.6            1.7163e-009     -1.6309e-005    -2.0128e-008   
  -3.65           2.8461e-009     -1.6483e-005    -9.029e-009    
  -3.7            8.69e-010       -1.666e-005     1.1926e-008    
  -3.75           1.2577e-009     -1.6842e-005    9.229e-009     
  -3.8            1.7008e-009     -1.7013e-005    1.2115e-008    
  -3.85           2.1494e-009     -1.7182e-005    1.2532e-008    
  -3.9            9.649e-010      -1.7355e-005    1.1115e-008    
  -3.95           1.3532e-009     -1.7522e-005    9.297e-009     
  -4              1.8021e-009     -1.7687e-005    1.2539e-008    
  -4.05           6.462e-010      -1.7851e-005    1.2608e-008    
  -4.1            1.0545e-009     -1.8013e-005    1.0299e-008    
  -4.15           1.4625e-009     -1.8176e-005    9.307e-009     
  -4.2            1.9102e-009     -1.8332e-005    1.3098e-008    
  -4.25           7.585e-010      -1.8485e-005    1.2657e-008    
  -4.3            1.1517e-009     -1.8641e-005    9.526e-009     
  -4.35           1.5722e-009     -1.8793e-005    1.1115e-008    
  -4.4            2.0274e-009     -1.8942e-005    1.3001e-008    
  -4.45           8.547e-010      -1.909e-005     1.2126e-008    
  -4.5            -1.4932e-009    -1.9241e-005    1.416e-008     
  -4.55           -1.4167e-009    -1.9381e-005    8.153e-009     
  -4.6            -1.3782e-009    -1.9521e-005    9.645e-009     
  -4.65           -2.2686e-009    -1.9654e-005    1.398e-008     
  -4.7            1.224e-010      -1.9815e-005    -1.011e-008    
  -4.75           1.344e-009      -1.9943e-005    -2.3035e-008   
  -4.8            2.8885e-009     -2.0078e-005    -9.14e-009     
  -4.85           -1.4133e-009    -2.0206e-005    2.81e-008      
  -4.9            -2.5008e-009    -2.0339e-005    1.0847e-008    
  -4.95           -7.999e-010     -2.0479e-005    -1.3018e-008   
  -5              1.6745e-009     -2.0616e-005    -1.8962e-008   
END_DB

BEGIN_DB
 ICCAP_VAR VS         0              
 ICCAP_VAR VB         0              
 ICCAP_VAR VD         -5             

 #VG              IG              ID              IB             
  0               1.2896e-009     1.1246e-009     8.127e-009     
  -0.05           1.6569e-009     1.8281e-009     1.3097e-008    
  -0.1            1.8369e-009     1.545e-009      1.2538e-008    
  -0.15           4.075e-010      2.3167e-009     1.2746e-008    
  -0.2            6.139e-010      2.345e-009      1.2332e-008    
  -0.25           7.967e-010      2.3527e-009     1.0663e-008    
  -0.3            -1.3955e-009    1.6571e-009     1.5934e-008    
  -0.35           -2.6069e-009    2.337e-010      1.3126e-008    
  -0.4            -2.0334e-009    -1.5498e-009    1.398e-009     
  -0.45           -8.607e-010     -3.3891e-009    -1.1068e-008   
  -0.5            2.0099e-009     -5.7348e-009    -1.6817e-008   
  -0.55           -1.3819e-009    -1.4494e-008    -1.2707e-008   
  -0.6            -2.275e-009     -4.3323e-008    1.4734e-008    
  -0.65           1.3855e-009     -1.2486e-007    1.306e-009     
  -0.7            2.8824e-009     -3.0145e-007    -3.845e-009    
  -0.75           2.2452e-009     -6.2988e-007    2.1717e-008    
  -0.8            6.613e-010      -1.1631e-006    1.7266e-008    
  -0.85           1.0678e-009     -1.9401e-006    3.5428e-008    
  -0.9            1.4811e-009     -2.9792e-006    4.5872e-008    
  -0.95           1.9272e-009     -4.2386e-006    6.2327e-008    
  -1              2.3585e-009     -5.7086e-006    7.4611e-008    
  -1.05           2.6954e-009     -7.4335e-006    8.8973e-008    
  -1.1            8.968e-010      -9.3703e-006    9.388e-008     
  -1.15           2.5093e-009     -1.1504e-005    9.808e-008     
  -1.2            1.71e-009       -1.3828e-005    1.1722e-007    
  -1.25           2.8541e-009     -1.6312e-005    1.2803e-007    
  -1.3            2.8942e-009     -1.8931e-005    1.5313e-007    
  -1.35           2.6968e-009     -2.1709e-005    1.6331e-007    
  -1.4            1.9967e-009     -2.4644e-005    1.7325e-007    
  -1.45           1.3821e-009     -2.7696e-005    1.7898e-007    
  -1.5            2.8916e-009     -3.086e-005     1.8891e-007    
  -1.55           2.8134e-009     -3.4095e-005    2.0676e-007    
  -1.6            2.2658e-009     -3.749e-005     2.1385e-007    
  -1.65           1.5073e-009     -4.0966e-005    2.1557e-007    
  -1.7            2.8711e-009     -4.4534e-005    2.2035e-007    
  -1.75           2.8676e-009     -4.8146e-005    2.3387e-007    
  -1.8            2.5185e-009     -5.1886e-005    2.3648e-007    
  -1.85           1.7276e-009     -5.5758e-005    2.3528e-007    
  -1.9            2.8434e-009     -5.9637e-005    2.3285e-007    
  -1.95           2.8851e-009     -6.3551e-005    2.4533e-007    
  -2              2.6967e-009     -6.7556e-005    2.4245e-007    
  -2.05           2.0101e-009     -7.1645e-005    2.3907e-007    
  -2.1            1.3737e-009     -7.5778e-005    2.3193e-007    
  -2.15           2.8846e-009     -7.9967e-005    2.2943e-007    
  -2.2            2.8091e-009     -8.4147e-005    2.3479e-007    
  -2.25           2.2777e-009     -8.8446e-005    2.2942e-007    
  -2.3            1.5144e-009     -9.2778e-005    2.1977e-007    
  -2.35           2.8669e-009     -9.7162e-005    2.1337e-007    
  -2.4            2.8642e-009     -0.000101533    2.1692e-007    
  -2.45           2.5137e-009     -0.000105985    2.0977e-007    
  -2.5            1.7328e-009     -0.000110518    1.9992e-007    
  -2.55           2.8842e-009     -0.00011499     2.0826e-007    
  -2.6            2.8059e-009     -0.00011953     1.9178e-007    
  -2.65           2.2472e-009     -0.00012413     1.8362e-007    
  -2.7            1.4977e-009     -0.00012879     1.7172e-007    
  -2.75           2.8689e-009     -0.00013344     1.636e-007     
  -2.8            2.8628e-009     -0.00013812     1.6546e-007    
  -2.85           2.5021e-009     -0.00014282     1.5679e-007    
  -2.9            1.7017e-009     -0.00014762     1.4583e-007    
  -2.95           2.8462e-009     -0.00015236     1.3521e-007    
  -3              2.8822e-009     -0.00015711     1.3959e-007    
  -3.05           2.6881e-009     -0.00016196     1.2998e-007    
  -3.1            1.9859e-009     -0.00016686     1.2101e-007    
  -3.15           -1.9177e-009    -0.00017158     1.3438e-007    
  -3.2            -1.4437e-009    -0.00017649     1.168e-007     
  -3.25           -1.4196e-009    -0.00018137     1.135e-007     
  -3.3            -2.6368e-009    -0.00018629     1.0923e-007    
  -3.35           -2.1318e-009    -0.00019123     9.527e-008     
  -3.4            1.411e-009      -0.00019633     6.7213e-008    
  -3.45           -8.546e-010     -0.00020126     6.9894e-008    
  -3.5            -1.2229e-009    -0.00020618     6.8412e-008    
  -3.55           -1.6436e-009    -0.00021114     6.257e-008     
  -3.6            -1.9495e-009    -0.00021625     5.8724e-008    
  -3.65           -2.274e-009     -0.00022136     5.7017e-008    
  -3.7            -2.668e-009     -0.00022634     5.2901e-008    
  -3.75           -2.749e-009     -0.00023152     5.0719e-008    
  -3.8            -2.665e-009     -0.00023661     5.0804e-008    
  -3.85           -2.238e-009     -0.00024166     4.9341e-008    
  -3.9            -1.6115e-009    -0.00024674     4.8547e-008    
  -3.95           -1.4082e-009    -0.00025187     4.8604e-008    
  -4              -1.4096e-009    -0.00025695     4.7536e-008    
  -4.05           -2.4593e-009    -0.00026205     4.7333e-008    
  -4.1            -1.797e-009     -0.00026721     3.5387e-008    
  -4.15           -1.4262e-009    -0.00027236     3.5998e-008    
  -4.2            -1.4211e-009    -0.00027744     3.629e-008     
  -4.25           -2.5994e-009    -0.00028258     3.6036e-008    
  -4.3            -2.0333e-009    -0.00028785     2.5289e-008    
  -4.35           -1.4929e-009    -0.00029311     2.701e-008     
  -4.4            -1.4175e-009    -0.00029828     2.8336e-008    
  -4.45           -1.384e-009     -0.00030342     2.8383e-008    
  -4.5            -2.2828e-009    -0.00030866     3.1044e-008    
  -4.55           -1.6231e-009    -0.00031381     1.9505e-008    
  -4.6            -1.4081e-009    -0.00031901     2.1357e-008    
  -4.65           -1.4123e-009    -0.00032415     2.2291e-008    
  -4.7            -2.4774e-009    -0.00032936     2.3542e-008    
  -4.75           -1.8351e-009    -0.00033457     1.3603e-008    
  -4.8            -1.4327e-009    -0.00033982     1.5642e-008    
  -4.85           -1.4208e-009    -0.00034501     1.747e-008     
  -4.9            -2.6097e-009    -0.00035022     1.8358e-008    
  -4.95           -2.0641e-009    -0.00035547     9.268e-009     
  -5              -1.5015e-009    -0.00036077     1.2014e-008    
END_DB

BEGIN_DB
 ICCAP_VAR VS         0              
 ICCAP_VAR VB         2.5            
 ICCAP_VAR VD         -0.1           

 #VG              IG              ID              IB             
  0               1.3167e-009     1.4715e-009     -1.2862e-008   
  -0.05           -1.4184e-009    1.4785e-009     2.4957e-008    
  -0.1            -1.4043e-009    7.73e-011       9.823e-009     
  -0.15           -2.6454e-009    2.476e-010      1.1672e-008    
  -0.2            -1.9957e-009    -1.277e-009     1.388e-009     
  -0.25           1.599e-009      -1.7777e-009    -1.1232e-008   
  -0.3            1.8646e-009     1.5269e-009     -8.719e-009    
  -0.35           4.358e-010      2.3285e-009     1.2664e-008    
  -0.4            6.349e-010      2.3581e-009     1.1899e-008    
  -0.45           8.206e-010      2.3705e-009     1.0341e-008    
  -0.5            -1.3889e-009    1.705e-009      1.5641e-008    
  -0.55           -2.5817e-009    3.362e-010      1.3356e-008    
  -0.6            -1.1423e-009    -2.2277e-009    1.375e-009     
  -0.65           3.002e-010      -1.8406e-009    -1.0247e-008   
  -0.7            1.986e-009      -8.835e-010     -1.9623e-008   
  -0.75           1.6342e-009     1.868e-009      -8.694e-009    
  -0.8            1.823e-009      1.5677e-009     1.2825e-008    
  -0.85           3.853e-010      2.3119e-009     1.2542e-008    
  -0.9            5.923e-010      2.3389e-009     1.2121e-008    
  -0.95           7.788e-010      2.3092e-009     1.0623e-008    
  -1              -1.4203e-009    1.2051e-009     9.429e-009     
  -1.05           -2.7119e-009    -2.0559e-009    9.645e-009     
  -1.1            2.4765e-009     -6.387e-009     -2.5245e-008   
  -1.15           -1.5234e-009    -1.9134e-008    -1.1464e-008   
  -1.2            -1.4156e-009    -5.9724e-008    8.003e-009     
  -1.25           1.4201e-009     -1.5669e-007    -2.0319e-008   
  -1.3            1.872e-009      -3.3336e-007    1.2777e-008    
  -1.35           7.135e-010      -5.8779e-007    1.2695e-008    
  -1.4            1.1094e-009     -9.1545e-007    9.92e-009      
  -1.45           -2.326e-009     -1.2779e-006    -1.6494e-008   
  -1.5            1.736e-010      -1.6789e-006    -1.1059e-008   
  -1.55           1.3903e-009     -2.075e-006     -2.2008e-008   
  -1.6            2.8904e-009     -2.4723e-006    -8.862e-009    
  -1.65           2.7964e-009     -2.8578e-006    -2.03e-010     
  -1.7            1.5314e-009     -3.2442e-006    1.05e-008      
  -1.75           3.553e-010      -3.6041e-006    1.1705e-008    
  -1.8            8.146e-010      -3.9662e-006    1.2222e-008    
  -1.85           -1.5341e-009    -4.3207e-006    1.551e-008     
  -1.9            -1.4157e-009    -4.6603e-006    7.996e-009     
  -1.95           -1.3899e-009    -4.9868e-006    9.63e-009      
  -2              -2.3321e-009    -5.3067e-006    1.3165e-008    
  -2.05           1.667e-010      -5.6352e-006    -1.0833e-008   
  -2.1            1.3793e-009     -5.9374e-006    -2.2246e-008   
  -2.15           2.8936e-009     -6.2338e-006    -8.864e-009    
  -2.2            2.7947e-009     -6.5171e-006    -2.73e-010     
  -2.25           1.5454e-009     -6.8062e-006    9.619e-009     
  -2.3            3.723e-010      -7.0812e-006    1.18e-008      
  -2.35           8.279e-010      -7.3501e-006    1.2187e-008    
  -2.4            -1.5271e-009    -7.6182e-006    1.5209e-008    
  -2.45           -1.4148e-009    -7.8833e-006    8.12e-009      
  -2.5            -1.3877e-009    -8.1378e-006    9.586e-009     
  -2.55           -2.3076e-009    -8.3921e-006    1.3281e-008    
  -2.6            1.544e-010      -8.654e-006     -1.0659e-008   
  -2.65           1.3715e-009     -8.8861e-006    -2.2539e-008   
  -2.7            2.8912e-009     -9.1268e-006    -8.993e-009    
  -2.75           -1.4184e-009    -9.3521e-006    2.8321e-008    
  -2.8            -2.5367e-009    -9.5892e-006    1.0093e-008    
  -2.85           -7.551e-010     -9.806e-006     -1.2967e-008   
  -2.9            1.7508e-009     -1.00393e-005   -2.0575e-008   
  -2.95           2.8426e-009     -1.0247e-005    -9.052e-009    
  -3              8.532e-010      -1.04588e-005   1.2198e-008    
  -3.05           -1.4985e-009    -1.06698e-005   1.4397e-008    
  -3.1            -1.4136e-009    -1.08956e-005   8.084e-009     
  -3.15           -1.3849e-009    -1.11008e-005   9.594e-009     
  -3.2            -2.2812e-009    -1.12971e-005   1.386e-008     
  -3.25           -9.012e-010     -1.1501e-005    2.0019e-008    
  -3.3            -1.3775e-009    -1.1711e-005    2.189e-008     
  -3.35           -2.2402e-009    -1.1893e-005    1.4212e-008    
  -3.4            -9.785e-010     -1.2088e-005    -1.2202e-008   
  -3.45           2.584e-010      -1.2275e-005    -1.3193e-008   
  -3.5            1.4876e-009     -1.2462e-005    -2.0029e-008   
  -3.55           2.8769e-009     -1.2655e-005    -8.268e-009    
  -3.6            2.8552e-009     -1.283e-005     3.01e-010      
  -3.65           1.4102e-009     -1.3013e-005    9.706e-009     
  -3.7            1.8607e-009     -1.3182e-005    1.2917e-008    
  -3.75           6.98e-010       -1.3355e-005    1.2789e-008    
  -3.8            1.0968e-009     -1.3528e-005    9.793e-009     
  -3.85           1.5091e-009     -1.3705e-005    1.049e-008     
  -3.9            3.345e-010      -1.3867e-005    1.1664e-008    
  -3.95           7.921e-010      -1.4031e-005    1.2345e-008    
  -4              -1.5502e-009    -1.4212e-005    1.5987e-008    
  -4.05           -1.4132e-009    -1.4366e-005    7.715e-009     
  -4.1            -1.3947e-009    -1.4524e-005    9.419e-009     
  -4.15           -2.3634e-009    -1.4679e-005    1.2836e-008    
