! VERSION = 6.00
BEGIN_HEADER
 ICCAP_INPUTS
  VG         V  B GROUND SMU4 0.001 LIN        1    0          -5         101  -0.05     
  VS         V  E GROUND SMU2 0.1 CON        0
  VB         V  C GROUND SMU3 0.1 LIN        3    0          5          3    2.5       
  VD         V  S GROUND SMU1 0.1 LIN        2    -0.1       -5         2    -4.9      
 ICCAP_OUTPUTS
  IG         I  B GROUND SMU4 B
  ID         I  S GROUND SMU1 B
  IB         I  C GROUND SMU3 B
END_HEADER

BEGIN_DB
 ICCAP_VAR VS         0              
 ICCAP_VAR VB         0              
 ICCAP_VAR VD         -0.1           

 #VG              IG              ID              IB             
  0               1.1927e-009     1.0579e-009     1.1602e-008    
  -0.05           1.7321e-009     1.6197e-009     -1.3e-011      
  -0.1            3.29e-010       2.2349e-009     1.032e-008     
  -0.15           4.953e-010      2.3171e-009     1.0681e-008    
  -0.2            -1.3434e-009    1.4322e-009     2.4531e-008    
  -0.25           -1.3142e-009    7.94e-011       1.1297e-008    
  -0.3            -2.6646e-009    2.123e-010      1.2625e-008    
  -0.35           -1.9679e-009    -1.3272e-009    8.02e-010      
  -0.4            -6.942e-010     -2.3484e-009    -1.1336e-008   
  -0.45           1.2496e-009     -1.8101e-009    -1.8879e-008   
  -0.5            2.855e-009      -1.0106e-009    -1.3103e-008   
  -0.55           -1.35e-009      -2.8024e-009    1.0479e-008    
  -0.6            -1.3224e-009    -8.8395e-009    1.1519e-008    
  -0.65           2.6873e-009     -2.754e-008     1.0782e-008    
  -0.7            6.226e-010      -7.3666e-008    1.0396e-008    
  -0.75           2.5185e-009     -1.8387e-007    -1.2487e-008   
  -0.8            4.183e-010      -3.8702e-007    1.0444e-008    
  -0.85           8.327e-010      -7.136e-007     1.0792e-008    
  -0.9            -1.3815e-009    -1.1468e-006    -1.0898e-008   
  -0.95           -1.3089e-009    -1.6744e-006    1.1573e-008    
  -1              -2.4091e-009    -2.2672e-006    1.3119e-008    
  -1.05           -1.8052e-009    -2.9029e-006    2.508e-009     
  -1.1            -1.4457e-009    -3.5543e-006    5.903e-009     
  -1.15           -1.3415e-009    -4.211e-006     1.034e-008     
  -1.2            -2.6107e-009    -4.8704e-006    1.1404e-008    
  -1.25           -2.0917e-009    -5.5266e-006    8.83e-010      
  -1.3            -1.568e-009     -6.1706e-006    3.759e-009     
  -1.35           -1.3785e-009    -6.7993e-006    8.469e-009     
  -1.4            -1.3085e-009    -7.4199e-006    1.1645e-008    
  -1.45           -2.3859e-009    -8.0251e-006    1.3297e-008    
  -1.5            -1.78e-009      -8.6229e-006    2.605e-009     
  -1.55           -1.4375e-009    -9.2011e-006    6.034e-009     
  -1.6            -1.3366e-009    -9.7638e-006    1.0547e-008    
  -1.65           -2.5918e-009    -1.03133e-005   1.1278e-008    
  -1.7            -2.0654e-009    -1.08575e-005   9.72e-010      
  -1.75           -1.5541e-009    -1.13815e-005   3.837e-009     
  -1.8            1.2644e-009     -1.1905e-005    3.412e-009     
  -1.85           2.775e-009      -1.2408e-005    -1.1238e-008   
  -1.9            5.18e-010       -1.2885e-005    1.0345e-008    
  -1.95           -1.3025e-009    -1.3363e-005    2.4199e-008    
  -2              -2.3261e-009    -1.3827e-005    1.427e-008     
  -2.05           -8.727e-010     -1.4295e-005    -1.1213e-008   
  -2.1            -1.2524e-009    -1.474e-005     -1.1065e-008   
  -2.15           -9.3e-012       -1.5191e-005    -1.1722e-008   
  -2.2            -4.832e-010     -1.5613e-005    -1.0941e-008   
  -2.25           -9.205e-010     -1.6034e-005    -1.1384e-008   
  -2.3            -1.3028e-009    -1.644e-005     -1.1043e-008   
  -2.35           -5.57e-011      -1.686e-005     -1.1619e-008   
  -2.4            -5.389e-010     -1.7246e-005    -1.0961e-008   
  -2.45           2.0509e-009     -1.7637e-005    -2.2041e-008   
  -2.5            1.4541e-009     -1.802e-005     -8.269e-009    
  -2.55           1.2705e-009     -1.8397e-005    -8.627e-009    
  -2.6            2.8165e-009     -1.8765e-005    -1.0406e-008   
  -2.65           4.492e-010      -1.9116e-005    1.0451e-008    
  -2.7            8.581e-010      -1.9478e-005    1.0744e-008    
  -2.75           -1.4975e-009    -1.983e-005     1.5355e-008    
  -2.8            -1.3551e-009    -2.0169e-005    9.747e-009     
  -2.85           -2.6617e-009    -2.05e-005      1.1353e-008    
  -2.9            -2.2219e-009    -2.0841e-005    8.11e-010      
  -2.95           -1.649e-009     -2.1167e-005    3.071e-009     
  -3              -1.3952e-009    -2.149e-005     7.332e-009     
  -3.05           -1.3193e-009    -2.1803e-005    1.1204e-008    
  -3.1            -2.4831e-009    -2.211e-005     1.2179e-008    
  -3.15           -1.9015e-009    -2.2423e-005    2.038e-009     
  -3.2            -1.4739e-009    -2.2721e-005    5.25e-009      
  -3.25           -1.3503e-009    -2.3019e-005    9.757e-009     
  -3.3            -2.6511e-009    -2.3308e-005    1.1366e-008    
  -3.35           -2.1865e-009    -2.3598e-005    8.61e-010      
  -3.4            -1.6291e-009    -2.3883e-005    3.47e-009      
  -3.45           -1.39e-009      -2.4162e-005    7.699e-009     
  -3.5            -1.3169e-009    -2.4435e-005    1.1208e-008    
  -3.55           -2.4561e-009    -2.4699e-005    1.2581e-008    
  -3.6            -1.867e-009     -2.4972e-005    2.155e-009     
  -3.65           -1.4612e-009    -2.5235e-005    5.421e-009     
  -3.7            -1.3467e-009    -2.5498e-005    9.903e-009     
  -3.75           -2.6348e-009    -2.5753e-005    1.1269e-008    
  -3.8            -2.1554e-009    -2.6011e-005    8.51e-010      
  -3.85           -1.6004e-009    -2.6249e-005    3.627e-009     
  -3.9            -1.3859e-009    -2.6495e-005    7.988e-009     
  -3.95           -1.3117e-009    -2.6734e-005    1.1605e-008    
  -4              -2.4252e-009    -2.6968e-005    1.287e-008     
  -4.05           -1.8184e-009    -2.7209e-005    2.161e-009     
  -4.1            -1.4492e-009    -2.7438e-005    5.868e-009     
  -4.15           -1.3406e-009    -2.7663e-005    1.0496e-008    
  -4.2            -2.6082e-009    -2.7888e-005    1.126e-008     
  -4.25           -2.0996e-009    -2.8114e-005    9.17e-010      
  -4.3            -1.5708e-009    -2.8333e-005    3.893e-009     
  -4.35           -1.3783e-009    -2.8545e-005    8.302e-009     
  -4.4            -1.3101e-009    -2.876e-005     1.1638e-008    
  -4.45           -2.3879e-009    -2.8965e-005    1.3212e-008    
  -4.5            -1.7823e-009    -2.9173e-005    2.364e-009     
  -4.55           -1.4384e-009    -2.9377e-005    6.002e-009     
  -4.6            -1.3377e-009    -2.9577e-005    1.0357e-008    
  -4.65           -2.5896e-009    -2.9772e-005    1.1465e-008    
  -4.7            -2.0662e-009    -2.9974e-005    9.55e-010      
  -4.75           -1.5475e-009    -3.0169e-005    4.008e-009     
  -4.8            -1.3753e-009    -3.0357e-005    8.899e-009     
  -4.85           -2.713e-009     -3.0543e-005    1.1458e-008    
  -4.9            -2.3312e-009    -3.0729e-005    5.84e-010      
  -4.95           -8.583e-010     -3.0922e-005    -1.1183e-008   
  -5              -1.2327e-009    -3.1095e-005    -1.095e-008    
END_DB

BEGIN_DB
 ICCAP_VAR VS         0              
 ICCAP_VAR VB         0              
 ICCAP_VAR VD         -5             

 #VG              IG              ID              IB             
  0               -7.878e-010     -8.285e-010     -2.6119e-008   
  -0.05           -1.9039e-009    -1.3855e-009    9.523e-009     
  -0.1            -5.673e-010     -2.2763e-009    -1.1061e-008   
  -0.15           -7.554e-010     -2.3115e-009    -1.1167e-008   
  -0.2            1.2383e-009     -1.6753e-009    -1.7455e-008   
  -0.25           2.8265e-009     -4.809e-010     -1.409e-008    
  -0.3            1.819e-010      1.3945e-009     1.0398e-008    
  -0.35           -1.3124e-009    -2.3754e-009    1.0445e-008    
  -0.4            -2.6518e-009    -7.6379e-009    1.3031e-008    
  -0.45           -1.3176e-009    -2.5041e-008    -1.0386e-008   
  -0.5            -2.468e-009     -7.1598e-008    1.3769e-008    
  -0.55           1.2724e-009     -1.9283e-007    4.108e-009     
  -0.6            2.8045e-009     -4.4718e-007    -3e-009        
  -0.65           2.4232e-009     -8.981e-007     2.4409e-008    
  -0.7            6.085e-010      -1.6378e-006    2.6467e-008    
  -0.75           1.004e-009      -2.7344e-006    5.1457e-008    
  -0.8            1.3902e-009     -4.2147e-006    7.0281e-008    
  -0.85           1.8209e-009     -6.0589e-006    9.2472e-008    
  -0.9            -3.97e-010      -8.2472e-006    1.184e-007     
  -0.95           -8.549e-010     -1.08145e-005   1.2001e-007    
  -1              1.0016e-009     -1.3765e-005    1.3654e-007    
  -1.05           1.3942e-009     -1.7065e-005    1.9806e-007    
  -1.1            1.821e-009      -2.0618e-005    2.2658e-007    
  -1.15           2.2085e-009     -2.4399e-005    2.5255e-007    
  -1.2            2.4957e-009     -2.8485e-005    2.7978e-007    
  -1.25           2.8069e-009     -3.2843e-005    3.0458e-007    
  -1.3            2.9176e-009     -3.7452e-005    3.2566e-007    
  -1.35           2.6804e-009     -4.2265e-005    3.4541e-007    
  -1.4            2.0688e-009     -4.729e-005     3.6562e-007    
  -1.45           1.4952e-009     -5.2494e-005    3.8029e-007    
  -1.5            1.2916e-009     -5.7878e-005    3.9832e-007    
  -1.55           2.8423e-009     -6.343e-005     4.131e-007     
  -1.6            2.3811e-009     -6.9077e-005    4.3765e-007    
  -1.65           1.7096e-009     -7.4923e-005    4.4633e-007    
  -1.7            1.3406e-009     -8.0916e-005    4.5342e-007    
  -1.75           2.9055e-009     -8.7012e-005    4.6271e-007    
  -1.8            2.6305e-009     -9.3253e-005    4.7912e-007    
  -1.85           1.9966e-009     -9.9608e-005    4.8154e-007    
  -1.9            1.4487e-009     -0.000106031    4.7917e-007    
  -1.95           1.2754e-009     -0.00011258     4.8008e-007    
  -2              2.586e-009      -0.00011901     5.0057e-007    
  -2.05           2.8673e-009     -0.00012572     4.9454e-007    
  -2.1            2.8602e-009     -0.00013253     4.858e-007     
  -2.15           2.4818e-009     -0.00013944     4.7874e-007    
  -2.2            1.8153e-009     -0.0001464      4.6946e-007    
  -2.25           1.3693e-009     -0.00015343     4.5742e-007    
  -2.3            1.2529e-009     -0.00016047     4.5041e-007    
  -2.35           2.7214e-009     -0.00016766     4.3779e-007    
  -2.4            2.125e-009      -0.00017475     4.3853e-007    
  -2.45           1.5165e-009     -0.00018202     4.225e-007     
  -2.5            1.2894e-009     -0.00018935     4.0999e-007    
  -2.55           2.85e-009       -0.00019675     3.976e-007     
  -2.6            2.4318e-009     -0.00020404     3.936e-007     
  -2.65           1.7627e-009     -0.00021156     3.7727e-007    
  -2.7            1.3576e-009     -0.00021908     3.5929e-007    
  -2.75           1.2467e-009     -0.00022661     3.468e-007     
  -2.8            2.6862e-009     -0.00023422     3.2936e-007    
  -2.85           2.0707e-009     -0.00024176     3.2626e-007    
  -2.9            1.4875e-009     -0.00024943     3.075e-007     
  -2.95           1.2796e-009     -0.00025715     2.9341e-007    
  -3              2.836e-009      -0.00026489     2.7891e-007    
  -3.05           2.385e-009      -0.00027257     2.7466e-007    
  -3.1            1.7116e-009     -0.00028038     2.5779e-007    
  -3.15           1.3398e-009     -0.00028823     2.4091e-007    
  -3.2            2.8983e-009     -0.00029608     2.2922e-007    
  -3.25           2.6449e-009     -0.00030388     2.2531e-007    
  -3.3            2.0211e-009     -0.00031181     2.1139e-007    
  -3.35           1.4629e-009     -0.00031975     1.9418e-007    
  -3.4            1.275e-009      -0.00032772     1.8269e-007    
  -3.45           2.8193e-009     -0.00033572     1.7067e-007    
  -3.5            2.3392e-009     -0.00034364     1.695e-007     
  -3.55           1.6759e-009     -0.00035165     1.5539e-007    
  -3.6            1.3296e-009     -0.00035971     1.4208e-007    
  -3.65           2.8939e-009     -0.00036776     1.3367e-007    
  -3.7            2.6139e-009     -0.0003759      1.3312e-007    
  -3.75           1.9688e-009     -0.00038397     1.2221e-007    
  -3.8            1.4339e-009     -0.00039203     1.0883e-007    
  -3.85           1.9913e-009     -0.00040021     1.2059e-007    
  -3.9            2.3201e-009     -0.00040821     1.1263e-007    
  -3.95           1.6475e-009     -0.0004164      7.986e-008     
  -4              1.4896e-009     -0.00042448     1.14905e-007   
  -4.05           -1.3361e-009    -0.00043241     1.10994e-007   
  -4.1            -2.5741e-009    -0.00044061     8.9686e-008    
  -4.15           -2.0208e-009    -0.0004488      7.3894e-008    
  -4.2            -1.5353e-009    -0.00045704     7.1769e-008    
  -4.25           -1.3712e-009    -0.0004652      7.2094e-008    
  -4.3            -2.704e-009     -0.00047338     7.0003e-008    
  -4.35           -2.2995e-009    -0.00048163     5.5092e-008    
  -4.4            -1.722e-009     -0.00048983     5.3464e-008    
  -4.45           -1.421e-009     -0.00049799     5.3511e-008    
  -4.5            -1.3295e-009    -0.00050616     5.4523e-008    
  -4.55           -2.5452e-009    -0.00051432     5.2011e-008    
  -4.6            -1.9745e-009    -0.0005226      3.8739e-008    
  -4.65           -1.5097e-009    -0.00053079     3.8916e-008    
  -4.7            -1.3657e-009    -0.00053892     4.13e-008      
  -4.75           -2.6906e-009    -0.00054719     4.1064e-008    
  -4.8            -2.262e-009     -0.00055544     2.7975e-008    
  -4.85           -1.6838e-009    -0.00056371     2.8342e-008    
  -4.9            -1.4106e-009    -0.00057175     3.0244e-008    
  -4.95           -1.3268e-009    -0.00057998     3.2742e-008    
  -5              -2.5173e-009    -0.0005883      3.1784e-008    
END_DB

BEGIN_DB
 ICCAP_VAR VS         0              
 ICCAP_VAR VB         2.5            
 ICCAP_VAR VD         -0.1           

 #VG              IG              ID              IB             
  0               8.369e-010      8.364e-010      1.0746e-008    
  -0.05           1.7686e-009     1.5664e-009     -9.151e-009    
  -0.1            3.651e-010      2.254e-009      1.0318e-008    
  -0.15           5.383e-010      2.3293e-009     1.0575e-008    
  -0.2            -1.3379e-009    1.4628e-009     2.3411e-008    
  -0.25           -1.3117e-009    1.105e-010      1.1671e-008    
  -0.3            -2.6439e-009    2.505e-010      1.3092e-008    
  -0.35           -1.9835e-009    -1.2876e-009    8.84e-010      
  -0.4            -7.295e-010     -2.2887e-009    -1.1193e-008   
  -0.45           1.2417e-009     -1.5908e-009    -1.8095e-008   
  -0.5            2.8472e-009     -2.121e-010     -1.3424e-008   
  -0.55           1.522e-010      2.127e-009      1.0375e-008    
  -0.6            3.247e-010      2.2292e-009     1.0312e-008    
  -0.65           4.847e-010      2.3168e-009     1.0506e-008    
  -0.7            -1.3452e-009    1.4266e-009     2.4426e-008    
  -0.75           -1.3162e-009    7.32e-011       1.1317e-008    
  -0.8            -2.6704e-009    2.013e-010      1.2371e-008    
  -0.85           -1.9624e-009    -1.3445e-009    7.87e-010      
  -0.9            -6.783e-010     -2.4163e-009    -1.1265e-008   
  -0.95           -8.555e-010     -2.8638e-009    -1.1098e-008   
  -1              -1.0012e-009    -4.6858e-009    -1.1036e-008   
  -1.05           2.3726e-009     -9.695e-009     1.0653e-008    
  -1.1            1.6889e-009     -3.4353e-008    -5.201e-009    
  -1.15           1.333e-009      -1.07291e-007   -9.179e-009    
  -1.2            -1.684e-009     -2.6781e-007    2.6177e-008    
  -1.25           -5.078e-010     -5.5919e-007    -1.0877e-008   
  -1.3            2.0972e-009     -9.8096e-007    -2.2531e-008   
  -1.35           2.4964e-009     -1.4892e-006    1.8754e-008    
  -1.4            3.897e-010      -2.0666e-006    1.0342e-008    
  -1.45           8.07e-010       -2.6929e-006    1.0626e-008    
  -1.5            -1.535e-009     -3.322e-006     1.6514e-008    
  -1.55           -1.368e-009     -3.954e-006     9.217e-009     
  -1.6            -2.704e-009     -4.5804e-006    1.1467e-008    
  -1.65           -2.2901e-009    -5.2004e-006    6.66e-010      
  -1.7            -1.7206e-009    -5.7994e-006    2.871e-009     
  -1.75           -1.4197e-009    -6.3842e-006    6.513e-009     
  -1.8            -1.3297e-009    -6.9602e-006    1.083e-008     
  -1.85           -2.5458e-009    -7.5117e-006    1.1408e-008    
  -1.9            -1.9878e-009    -8.0541e-006    1.49e-009      
  -1.95           -1.5188e-009    -8.5805e-006    4.175e-009     
  -2              -1.3647e-009    -9.0886e-006    9.335e-009     
  -2.05           -2.6978e-009    -9.586e-006     1.1428e-008    
  -2.1            -2.2779e-009    -1.00787e-005   7.69e-010      
  -2.15           -1.7097e-009    -1.05513e-005   2.712e-009     
  -2.2            -1.4169e-009    -1.10173e-005   6.77e-009      
  -2.25           2.0454e-009     -1.1469e-005    1.0913e-008    
  -2.3            1.4658e-009     -1.1916e-005    -8.235e-009    
  -2.35           1.2756e-009     -1.2351e-005    -8.915e-009    
  -2.4            2.8196e-009     -1.2775e-005    -1.0114e-008   
  -2.45           4.416e-010      -1.3181e-005    1.0382e-008    
  -2.5            8.497e-010      -1.3592e-005    1.0727e-008    
  -2.55           -1.5064e-009    -1.3995e-005    1.5556e-008    
  -2.6            -1.3585e-009    -1.4385e-005    9.725e-009     
  -2.65           -2.6774e-009    -1.4764e-005    1.1447e-008    
  -2.7            -2.2327e-009    -1.5149e-005    9.82e-010      
  -2.75           -1.665e-009     -1.5519e-005    2.945e-009     
  -2.8            -1.405e-009     -1.5881e-005    7.238e-009     
  -2.85           -1.3222e-009    -1.624e-005     1.1269e-008    
  -2.9            -2.4974e-009    -1.6588e-005    1.1893e-008    
  -2.95           -1.9139e-009    -1.6939e-005    1.924e-009     
  -3              -1.4871e-009    -1.7277e-005    4.62e-009      
  -3.05           -1.358e-009     -1.7611e-005    9.823e-009     
  -3.1            -2.665e-009     -1.7935e-005    1.1358e-008    
  -3.15           -2.2164e-009    -1.8264e-005    8e-010         
  -3.2            -1.6557e-009    -1.8579e-005    3.221e-009     
  -3.25           -1.4022e-009    -1.8891e-005    7.24e-009      
  -3.3            -1.3195e-009    -1.9195e-005    1.1351e-008    
  -3.35           -2.4817e-009    -1.9496e-005    1.2129e-008    
  -3.4            -1.8955e-009    -1.9798e-005    1.98e-009      
  -3.45           -1.4821e-009    -2.0094e-005    5.085e-009     
  -3.5            -1.3559e-009    -2.0382e-005    9.921e-009     
  -3.55           -2.6568e-009    -2.0662e-005    1.1473e-008    
  -3.6            -2.1947e-009    -2.0948e-005    1.009e-009     
  -3.65           -1.643e-009     -2.1217e-005    3.358e-009     
  -3.7            -1.3994e-009    -2.1492e-005    7.568e-009     
  -3.75           -1.3177e-009    -2.1762e-005    1.1394e-008    
  -3.8            -2.4672e-009    -2.202e-005     1.2221e-008    
  -3.85           -1.8788e-009    -2.2281e-005    1.906e-009     
  -3.9            -1.4725e-009    -2.2544e-005    5.214e-009     
  -3.95           -1.3545e-009    -2.2795e-005    1.0048e-008    
  -4              -2.6485e-009    -2.3034e-005    1.1192e-008    
  -4.05           -2.1713e-009    -2.328e-005     6.93e-010      
  -4.1            -1.625e-009     -2.3519e-005    3.366e-009     
  -4.15           -1.3957e-009    -2.3757e-005    7.728e-009     
