! VERSION = 6.00
BEGIN_HEADER
 ICCAP_INPUTS
  VG         V  B GROUND SMU4 0.001 LIN        1    0          -5         101  -0.05     
  VS         V  E GROUND SMU2 0.1 CON        0
  VB         V  C GROUND SMU3 0.1 LIN        3    0          5          3    2.5       
  VD         V  S GROUND SMU1 0.1 LIN        2    -0.1       -5         2    -4.9      
 ICCAP_OUTPUTS
  IG         I  B GROUND SMU4 B
  ID         I  S GROUND SMU1 B
  IB         I  C GROUND SMU3 B
END_HEADER

BEGIN_DB
 ICCAP_VAR VS         0              
 ICCAP_VAR VB         0              
 ICCAP_VAR VD         -0.1           

 #VG              IG              ID              IB             
  0               1.3307e-009     1.4807e-009     5.97e-009      
  -0.05           1.1061e-009     2.2883e-009     9.263e-009     
  -0.1            1.253e-009      2.2186e-009     1.0389e-008    
  -0.15           1.4106e-009     2.0853e-009     1.1661e-008    
  -0.2            1.581e-009      1.8977e-009     1.2458e-008    
  -0.25           7.85e-011       2.1859e-009     1.2033e-008    
  -0.3            2.681e-010      2.2565e-009     1.2642e-008    
  -0.35           4.547e-010      2.2992e-009     1.2786e-008    
  -0.4            6.365e-010      2.3094e-009     1.188e-008     
  -0.45           8.05e-010       2.2815e-009     1.0484e-008    
  -0.5            -1.4086e-009    1.3072e-009     9.399e-009     
  -0.55           -2.2727e-009    -1.7307e-009    1.0162e-008    
  -0.6            2.6518e-009     -3.427e-009     -2.7852e-008   
  -0.65           2.4247e-009     -6.589e-009     -2.792e-009    
  -0.7            -1.5539e-009    -2.5148e-008    -1.2009e-008   
  -0.75           -1.3967e-009    -7.6208e-008    7.61e-009      
  -0.8            1.8013e-009     -2.1147e-007    -2.6652e-008   
  -0.85           6.243e-010      -5.1095e-007    1.2744e-008    
  -0.9            1.0126e-009     -1.10661e-006   1.0471e-008    
  -0.95           -2.6502e-009    -2.0696e-006    -2.7647e-008   
  -1              1.8363e-009     -3.4768e-006    -2.2563e-008   
  -1.05           1.3275e-009     -5.2001e-006    -8.802e-009    
  -1.1            2.8524e-009     -7.1691e-006    -8.944e-009    
  -1.15           -1.4068e-009    -9.2051e-006    2.8609e-008    
  -1.2            -6.912e-010     -1.1391e-005    2.4869e-008    
  -1.25           -1.4784e-009    -1.3537e-005    1.3464e-008    
  -1.3            -1.4037e-009    -1.5688e-005    8.192e-009     
  -1.35           -1.3753e-009    -1.7794e-005    9.946e-009     
  -1.4            -2.3278e-009    -1.9871e-005    1.4092e-008    
  -1.45           1.962e-010      -2.1976e-005    -1.1022e-008   
  -1.5            1.399e-009      -2.393e-005     -2.0974e-008   
  -1.55           2.8519e-009     -2.5844e-005    -8.428e-009    
  -1.6            2.8034e-009     -2.7682e-005    2.67e-010      
  -1.65           1.4283e-009     -2.9531e-005    9.71e-009      
  -1.7            1.8488e-009     -3.1294e-005    1.2636e-008    
  -1.75           6.704e-010      -3.2963e-005    1.2763e-008    
  -1.8            1.057e-009      -3.4644e-005    1.0153e-008    
  -1.85           -2.218e-010     -3.6272e-005    9.795e-009     
  -1.9            -1.4288e-009    -3.7826e-005    2.3147e-008    
  -1.95           -1.4105e-009    -3.9373e-005    8.201e-009     
  -2              -2.6159e-009    -4.0866e-005    1.0163e-008    
  -2.05           -2.1663e-009    -4.2354e-005    1.27e-009      
  -2.1            1.14e-010       -4.3837e-005    -9.861e-009    
  -2.15           1.3362e-009     -4.5211e-005    -2.3174e-008   
  -2.2            2.8523e-009     -4.6579e-005    -9.024e-009    
  -2.25           -1.4088e-009    -4.7874e-005    2.8572e-008    
  -2.3            -2.5583e-009    -4.9169e-005    1.05e-008      
  -2.35           -2.0128e-009    -5.0468e-005    1.521e-009     
  -2.4            -1.4929e-009    -5.1718e-005    4.977e-009     
  -2.45           -1.4039e-009    -5.2941e-005    7.992e-009     
  -2.5            -1.3818e-009    -5.4138e-005    9.819e-009     
  -2.55           -2.3768e-009    -5.5305e-005    1.3415e-008    
  -2.6            -8.484e-010     -5.649e-005     -1.3192e-008   
  -2.65           1.587e-009      -5.7664e-005    -1.7599e-008   
  -2.7            2.8391e-009     -5.8747e-005    -8.734e-009    
  -2.75           8.941e-010      -5.9828e-005    1.2262e-008    
  -2.8            -1.4764e-009    -6.0904e-005    1.3548e-008    
  -2.85           -1.405e-009     -6.1936e-005    8.117e-009     
  -2.9            -2.6586e-009    -6.2956e-005    1.0039e-008    
  -2.95           1.8487e-009     -6.4025e-005    -2.2626e-008   
  -3              1.33e-009       -6.5007e-005    -8.855e-009    
  -3.05           2.8547e-009     -6.5991e-005    -8.981e-009    
  -3.1            -1.4076e-009    -6.6921e-005    2.8709e-008    
  -3.15           -2.5554e-009    -6.7863e-005    1.0627e-008    
  -3.2            -2.0269e-009    -6.8812e-005    1.431e-009     
  -3.25           -1.5019e-009    -6.9726e-005    4.936e-009     
  -3.3            -1.4025e-009    -7.0622e-005    7.989e-009     
  -3.35           -1.385e-009     -7.15e-005      9.89e-009      
  -3.4            -2.3847e-009    -7.2369e-005    1.3243e-008    
  -3.45           -8.44e-010      -7.3248e-005    -1.2937e-008   
  -3.5            1.584e-009      -7.4141e-005    -1.7457e-008   
  -3.55           2.8371e-009     -7.4945e-005    -8.784e-009    
  -3.6            8.901e-010      -7.5746e-005    1.2193e-008    
  -3.65           -1.4814e-009    -7.6576e-005    1.3627e-008    
  -3.7            -1.4064e-009    -7.7347e-005    8.162e-009     
  -3.75           -1.3759e-009    -7.8131e-005    1.0061e-008    
  -3.8            -2.3305e-009    -7.889e-005     1.3989e-008    
  -3.85           1.999e-010      -7.9723e-005    -1.0998e-008   
  -3.9            1.4025e-009     -8.0438e-005    -2.1028e-008   
  -3.95           2.8538e-009     -8.1171e-005    -8.425e-009    
  -4              2.8022e-009     -8.1895e-005    2.2e-010       
  -4.05           1.4226e-009     -8.2626e-005    9.094e-009     
  -4.1            1.8475e-009     -8.3324e-005    1.2414e-008    
  -4.15           6.626e-010      -8.3998e-005    1.2839e-008    
  -4.2            1.0507e-009     -8.4695e-005    1.0461e-008    
  -4.25           -2.316e-010     -8.5388e-005    9.848e-009     
  -4.3            -1.4333e-009    -8.6013e-005    2.3057e-008    
  -4.35           -1.4089e-009    -8.6669e-005    8.225e-009     
  -4.4            -2.6217e-009    -8.7312e-005    1.0087e-008    
  -4.45           -2.1856e-009    -8.7976e-005    1.24e-009      
  -4.5            -9.568e-010     -8.8592e-005    -1.2501e-008   
  -4.55           2.873e-010      -8.927e-005     -1.385e-008    
  -4.6            1.5243e-009     -8.9835e-005    -1.9686e-008   
  -4.65           2.8462e-009     -9.043e-005     -8.59e-009     
  -4.7            9.329e-010      -9.1026e-005    1.1655e-008    
  -4.75           1.3091e-009     -9.1621e-005    9.254e-009     
  -4.8            5.72e-011       -9.2177e-005    1.0435e-008    
  -4.85           5.407e-010      -9.2757e-005    1.2611e-008    
  -4.9            9.484e-010      -9.3321e-005    1.1372e-008    
  -4.95           1.3216e-009     -9.3889e-005    9.223e-009     
  -5              1.746e-009      -9.4437e-005    1.1281e-008    
END_DB

BEGIN_DB
 ICCAP_VAR VS         0              
 ICCAP_VAR VB         0              
 ICCAP_VAR VD         -5             

 #VG              IG              ID              IB             
  0               3.229e-010      4.639e-010      1.47e-008      
  -0.05           2.8362e-009     -1.19e-010      -1.6774e-008   
  -0.1            1.0869e-009     2.2918e-009     9.094e-009     
  -0.15           1.2431e-009     2.2351e-009     9.423e-009     
  -0.2            1.3931e-009     2.1049e-009     1.0625e-008    
  -0.25           1.565e-009      1.9225e-009     1.2022e-008    
  -0.3            5.73e-011       2.1608e-009     1.202e-008     
  -0.35           -1.4172e-009    1.0745e-009     2.7809e-008    
  -0.4            -1.9554e-009    -1.4799e-009    8.145e-009     
  -0.45           -6.788e-010     -2.9951e-009    -1.2804e-008   
  -0.5            -8.459e-010     -4.9227e-009    -1.1044e-008   
  -0.55           2.6733e-009     -9.238e-009     1.1489e-008    
  -0.6            2.0147e-009     -3.1248e-008    -1.973e-009    
  -0.65           1.3995e-009     -1.0011e-007    -5.986e-009    
  -0.7            4.423e-010      -2.7456e-007    -7.764e-009    
  -0.75           8.719e-010      -6.7216e-007    2.3871e-008    
  -0.8            -1.3911e-009    -1.4594e-006    1.6513e-008    
  -0.85           -1.3875e-009    -2.9035e-006    5.5481e-008    
  -0.9            -2.4571e-009    -5.2982e-006    9.1544e-008    
  -0.95           2.6964e-009     -8.9101e-006    1.169e-007     
  -1              -3.091e-010     -1.3766e-005    1.9685e-007    
  -1.05           -7.885e-010     -1.9849e-005    2.3857e-007    
  -1.1            -1.143e-009     -2.7145e-005    3.1659e-007    
  -1.15           -1.5284e-009    -3.5546e-005    3.9515e-007    
  -1.2            -1.8479e-009    -4.5283e-005    4.7675e-007    
  -1.25           -2.1341e-009    -5.6076e-005    5.6107e-007    
  -1.3            -2.5398e-009    -6.762e-005     6.4188e-007    
  -1.35           -2.6964e-009    -8.0003e-005    7.2133e-007    
  -1.4            -2.6458e-009    -9.3281e-005    7.9887e-007    
  -1.45           -2.4158e-009    -0.000107256    8.7187e-007    
  -1.5            -1.3669e-009    -0.00012167     9.3234e-007    
  -1.55           -2.6125e-009    -0.00013682     1.00817e-006   
  -1.6            -2.2473e-009    -0.00015285     1.05267e-006   
  -1.65           -1.6255e-009    -0.00016918     1.10159e-006   
  -1.7            1.4023e-009     -0.00018663     1.1521e-006    
  -1.75           1.8232e-009     -0.00020408     1.1908e-006    
  -1.8            2.2317e-009     -0.00022145     1.2193e-006    
  -1.85           2.5793e-009     -0.00023974     1.2403e-006    
  -1.9            2.8114e-009     -0.00025839     1.2605e-006    
  -1.95           2.8568e-009     -0.00027729     1.2648e-006    
  -2              2.7853e-009     -0.00029641     1.2644e-006    
  -2.05           2.2961e-009     -0.00031599     1.265e-006     
  -2.1            1.5582e-009     -0.00033576     1.2557e-006    
  -2.15           2.839e-009      -0.00035584     1.2434e-006    
  -2.2            2.8448e-009     -0.00037599     1.2418e-006    
  -2.25           2.622e-009      -0.00039648     1.2213e-006    
  -2.3            1.9428e-009     -0.00041729     1.1993e-006    
  -2.35           1.3684e-009     -0.00043821     1.17e-006      
  -2.4            2.8509e-009     -0.00045944     1.1437e-006    
  -2.45           2.7943e-009     -0.00048059     1.1224e-006    
  -2.5            2.3612e-009     -0.00050221     1.09e-006      
  -2.55           1.6147e-009     -0.00052395     1.0537e-006    
  -2.6            2.8272e-009     -0.0005458      1.0152e-006    
  -2.65           -1.9017e-009    -0.00056718     9.7805e-007    
  -2.7            -2.1862e-009    -0.0005897      9.4478e-007    
  -2.75           -2.589e-009     -0.00061187     9.0797e-007    
  -2.8            -2.7404e-009    -0.00063424     8.7184e-007    
  -2.85           -2.6872e-009    -0.00065682     8.3739e-007    
  -2.9            -2.4447e-009    -0.00067943     8.0302e-007    
  -2.95           -1.8552e-009    -0.00070205     7.674e-007     
  -3              -1.4319e-009    -0.00072496     7.3384e-007    
  -3.05           -1.4103e-009    -0.0007479      6.9987e-007    
  -3.1            -2.6334e-009    -0.0007708      6.6564e-007    
  -3.15           -2.2059e-009    -0.00079427     6.2216e-007    
  -3.2            -1.602e-009     -0.00081747     5.9067e-007    
  -3.25           -1.3981e-009    -0.00084081     5.6032e-007    
  -3.3            -1.4025e-009    -0.00086409     5.2996e-007    
  -3.35           -2.5014e-009    -0.00088754     5.0074e-007    
  -3.4            -1.9243e-009    -0.00091134     4.616e-007     
  -3.45           -1.4525e-009    -0.00093503     4.3653e-007    
  -3.5            -1.4072e-009    -0.00095863     4.1164e-007    
  -3.55           -2.6503e-009    -0.00098233     3.8687e-007    
  -3.6            -2.2648e-009    -0.00100646     3.5291e-007    
  -3.65           -1.6518e-009    -0.0010303      3.3157e-007    
  -3.7            -1.4021e-009    -0.00105419     3.1173e-007    
  -3.75           -1.4071e-009    -0.00107844     2.9173e-007    
  -3.8            -2.5449e-009    -0.00110253     2.7363e-007    
  -3.85           -1.9931e-009    -0.00112678     2.4537e-007    
  -3.9            2.7424e-009     -0.0011507      2.4666e-007    
  -3.95           2.178e-009      -0.0011748      2.0647e-007    
  -4              1.4832e-009     -0.0011991      1.8546e-007    
  -4.05           2.8431e-009     -0.0012233      1.6923e-007    
  -4.1            2.8301e-009     -0.0012475      1.6439e-007    
  -4.15           2.5502e-009     -0.0012718      1.4964e-007    
  -4.2            1.8418e-009     -0.0012963      1.3448e-007    
  -4.25           1.3323e-009     -0.0013207      1.1829e-007    
  -4.3            2.8521e-009     -0.0013452      1.0779e-007    
  -4.35           2.7549e-009     -0.0013692      1.0696e-007    
  -4.4            2.8446e-009     -0.0013936      8.974e-008     
  -4.45           2.8462e-009     -0.0014181      8.058e-008     
  -4.5            -2.4509e-009    -0.0014417      9.4343e-008    
  -4.55           -1.8351e-009    -0.0014663      7.7301e-008    
  -4.6            -1.4312e-009    -0.0014909      7.3964e-008    
  -4.65           -1.4114e-009    -0.0015151      7.0651e-008    
  -4.7            -2.6272e-009    -0.0015396      6.6965e-008    
  -4.75           -2.1969e-009    -0.0015644      5.3104e-008    
  -4.8            -1.597e-009     -0.0015888      5.1352e-008    
  -4.85           -1.3974e-009    -0.0016134      5.0075e-008    
  -4.9            -1.4003e-009    -0.0016374      4.8005e-008    
  -4.95           -2.507e-009     -0.001662       4.6793e-008    
  -5              -1.9141e-009    -0.0016867      3.3986e-008    
END_DB

BEGIN_DB
 ICCAP_VAR VS         0              
 ICCAP_VAR VB         2.5            
 ICCAP_VAR VD         -0.1           

 #VG              IG              ID              IB             
  0               1.2898e-009     1.2637e-009     -1.3041e-008   
  -0.05           1.2735e-009     2.2079e-009     1.0411e-008    
  -0.1            -2.393e-010     2.0265e-009     1.0143e-008    
  -0.15           -1.6249e-009    9.275e-010      2.2889e-008    
  -0.2            -1.7755e-009    -1.555e-009     7.118e-009     
  -0.25           2.2099e-009     -1.5887e-009    -2.0662e-008   
  -0.3            1.4763e-009     2.0403e-009     -7.126e-009    
  -0.35           1.6478e-009     1.8136e-009     1.2682e-008    
  -0.4            1.808e-009      1.5615e-009     1.272e-008     
  -0.45           3.442e-010      2.2788e-009     1.2796e-008    
  -0.5            5.319e-010      2.3117e-009     1.2761e-008    
  -0.55           7.053e-010      2.3191e-009     1.1674e-008    
  -0.6            8.652e-010      2.3171e-009     1.0158e-008    
  -0.65           -1.7717e-009    1.7176e-009     1.4469e-008    
  -0.7            -1.6857e-009    -1.7026e-009    5.777e-009     
  -0.75           2.3977e-009     -1.524e-009     -2.4598e-008   
  -0.8            1.3666e-009     2.144e-009      -5.674e-009    
  -0.85           1.5271e-009     1.9569e-009     1.1658e-008    
  -0.9            2.78e-011       2.159e-009      1.1738e-008    
  -0.95           -1.4341e-009    1.1001e-009     2.7302e-008    
  -1              -1.9423e-009    -1.3558e-009    8.225e-009     
  -1.05           -6.506e-010     -2.5519e-009    -1.3054e-008   
  -1.1            -8.327e-010     -3.6211e-009    -1.1273e-008   
  -1.15           2.0665e-009     -7.9506e-009    -1.8042e-008   
  -1.2            -2.5545e-009    -2.6002e-008    -2.7342e-008   
  -1.25           -2.0451e-009    -8.9052e-008    1.507e-009     
  -1.3            9.431e-010      -2.6674e-007    -2.0002e-008   
  -1.35           1.3171e-009     -6.8837e-007    9.179e-009     
  -1.4            -2.3975e-009    -1.4432e-006    -1.8035e-008   
  -1.45           -8.16e-010      -2.6533e-006    -1.305e-008    
  -1.5            1.6343e-009     -4.285e-006     -1.837e-008    
  -1.55           2.8372e-009     -6.1579e-006    -8.963e-009    
  -1.6            8.739e-010      -8.1591e-006    1.2407e-008    
  -1.65           -1.4984e-009    -1.01964e-005   1.4287e-008    
  -1.7            2.849e-009      -1.2277e-005    -1.3076e-008   
  -1.75           9.118e-010      -1.4278e-005    1.2107e-008    
  -1.8            -1.4677e-009    -1.6206e-005    1.3196e-008    
  -1.85           -1.4084e-009    -1.8119e-005    8.341e-009     
  -1.9            -2.6432e-009    -1.994e-005     1.0007e-008    
  -1.95           -2.2379e-009    -2.1742e-005    1.261e-009     
  -2              1.585e-010      -2.3507e-005    -1.0585e-008   
  -2.05           1.371e-009      -2.5159e-005    -2.2399e-008   
  -2.1            2.8598e-009     -2.6771e-005    -8.894e-009    
  -2.15           2.2113e-009     -2.8334e-005    1.227e-008     
  -2.2            1.0208e-009     -2.9862e-005    1.1038e-008    
  -2.25           1.4002e-009     -3.1382e-005    9.158e-009     
  -2.3            1.8277e-009     -3.2831e-005    1.222e-008     
  -2.35           6.454e-010      -3.4212e-005    1.2646e-008    
  -2.4            1.0398e-009     -3.5605e-005    1.0438e-008    
  -2.45           1.4286e-009     -3.6984e-005    9.777e-009     
  -2.5            1.8535e-009     -3.8301e-005    1.2353e-008    
  -2.55           6.723e-010      -3.9565e-005    1.2642e-008    
  -2.6            1.0646e-009     -4.0841e-005    1.0169e-008    
  -2.65           1.451e-009      -4.2101e-005    9.882e-009     
  -2.7            1.8853e-009     -4.3311e-005    1.1714e-008    
  -2.75           6.984e-010      -4.4472e-005    1.2742e-008    
  -2.8            1.0871e-009     -4.5655e-005    1.0306e-008    
  -2.85           1.4792e-009     -4.6816e-005    9.453e-009     
  -2.9            1.9074e-009     -4.7936e-005    1.2045e-008    
  -2.95           7.27e-010       -4.901e-005     1.2758e-008    
  -3              1.108e-009      -5.0101e-005    1.0151e-008    
  -3.05           1.5078e-009     -5.1183e-005    9.573e-009     
  -3.1            1.929e-009      -5.2213e-005    1.2503e-008    
  -3.15           7.497e-010      -5.3218e-005    1.2735e-008    
  -3.2            1.1342e-009     -5.4235e-005    9.988e-009     
  -3.25           1.5374e-009     -5.5238e-005    9.624e-009     
  -3.3            3.231e-010      -5.6174e-005    1.1796e-008    
  -3.35           7.801e-010      -5.714e-005     1.268e-008     
  -3.4            1.1603e-009     -5.8089e-005    9.913e-009     
  -3.45           1.5634e-009     -5.9027e-005    9.742e-009     
  -3.5            3.526e-010      -5.9909e-005    1.1945e-008    
  -3.55           8.031e-010      -6.081e-005     1.262e-008     
  -3.6            1.1795e-009     -6.1703e-005    9.748e-009     
  -3.65           1.5919e-009     -6.2575e-005    9.914e-009     
  -3.7            3.893e-010      -6.3406e-005    1.2017e-008    
  -3.75           8.31e-010       -6.4257e-005    1.2589e-008    
  -3.8            -1.5354e-009    -6.51e-005      1.551e-008     
  -3.85           -1.406e-009     -6.5891e-005    8.023e-009     
  -3.9            -1.3851e-009    -6.6684e-005    9.82e-009      
  -3.95           -2.3818e-009    -6.7464e-005    1.3065e-008    
  -4              -8.434e-010     -6.8256e-005    -1.3095e-008   
  -4.05           1.6014e-009     -6.9068e-005    -1.7586e-008   
  -4.1            2.8404e-009     -6.9795e-005    -8.781e-009    
  -4.15           8.953e-010      -7.053e-005     1.2261e-008    
