! VERSION = 6.00
BEGIN_HEADER
 ICCAP_INPUTS
  VG         V  B GROUND SMU4 0.001 LIN        1    0          -5         101  -0.05     
  VS         V  E GROUND SMU3 0.1 CON        0
  VB         V  C GROUND SMU1 0.1 LIN        3    0          5          3    2.5       
  VD         V  S GROUND SMU2 0.1 LIN        2    -0.1       -5         2    -4.9      
 ICCAP_OUTPUTS
  IG         I  B GROUND SMU4 B
  ID         I  S GROUND SMU2 B
  IB         I  C GROUND SMU1 B
END_HEADER

BEGIN_DB
 ICCAP_VAR VS         0              
 ICCAP_VAR VB         0              
 ICCAP_VAR VD         -0.1           

 #VG              IG              ID              IB             
  0               1.934e-010      -1.8594e-009    -7.6815e-009   
  -0.05           1.4219e-009     -2.4133e-009    2.3686e-009    
  -0.1            6.438e-010      2.3252e-009     1.8311e-009    
  -0.15           -7.64e-010      -2.2412e-009    4.0427e-009    
  -0.2            9.647e-010      2.0481e-009     -7.1833e-009   
  -0.25           -6.96e-010      -2.3082e-009    3.8104e-009    
  -0.3            8.681e-010      2.1054e-009     -6.6069e-009   
  -0.35           -1.0551e-009    -2.11e-009      3.6178e-009    
  -0.4            1.4716e-009     -2.1276e-009    -3.2292e-009   
  -0.45           -1.4252e-009    -2.1373e-009    5.706e-009     
  -0.5            -6.493e-010     -7.3321e-009    -6.27e-011     
  -0.55           -1.4516e-009    -1.7527e-008    -4.5314e-009   
  -0.6            -7.291e-010     -4.8516e-008    -5.76e-011     
  -0.65           -1.487e-009     -1.1753e-007    -7.5647e-009   
  -0.7            -6.029e-010     -2.6123e-007    -8.533e-010    
  -0.75           1.4286e-009     -4.9813e-007    -4.6242e-009   
  -0.8            7.933e-010      -8.193e-007     1.3962e-009    
  -0.85           -1.4525e-009    -1.2121e-006    -5.2854e-009   
  -0.9            1.4057e-009     -1.6877e-006    -4.4197e-009   
  -0.95           8.331e-010      -2.1967e-006    1.0896e-009    
  -1              -1.4801e-009    -2.7288e-006    5.2326e-009    
  -1.05           -6.5e-010       -3.2928e-006    -5.139e-010    
  -1.1            1.4056e-009     -3.8813e-006    -4.3848e-009   
  -1.15           8.395e-010      -4.4526e-006    1.0602e-009    
  -1.2            -1.4794e-009    -5.0152e-006    5.216e-009     
  -1.25           -6.563e-010     -5.58e-006      -4.922e-010    
  -1.3            1.4048e-009     -6.1494e-006    -4.3613e-009   
  -1.35           8.444e-010      -6.6922e-006    1.0146e-009    
  -1.4            -1.4763e-009    -7.2145e-006    5.2026e-009    
  -1.45           -6.577e-010     -7.7362e-006    -4.704e-010    
  -1.5            1.4021e-009     -8.2543e-006    -4.3411e-009   
  -1.55           8.451e-010      -8.7372e-006    9.973e-010     
  -1.6            -1.4758e-009    -9.2149e-006    5.1946e-009    
  -1.65           -6.648e-010     -9.6831e-006    -4.321e-010    
  -1.7            1.4008e-009     -1.01485e-005   -4.3265e-009   
  -1.75           8.542e-010      -1.05966e-005   9.514e-010     
  -1.8            -1.4765e-009    -1.10232e-005   5.1854e-009    
  -1.85           -1.4872e-009    -1.145e-005     -3.3487e-009   
  -1.9            -6.195e-010     -1.1858e-005    -7.567e-010    
  -1.95           1.4219e-009     -1.2276e-005    -4.548e-009    
  -2              8.016e-010      -1.2665e-005    1.3057e-009    
  -2.05           -1.4852e-009    -1.3044e-005    5.3006e-009    
  -2.1            -6.206e-010     -1.3419e-005    -7.401e-010    
  -2.15           1.4202e-009     -1.3796e-005    -4.5258e-009   
  -2.2            8.011e-010      -1.415e-005     1.2901e-009    
  -2.25           -1.4846e-009    -1.4505e-005    5.293e-009     
  -2.3            -6.267e-010     -1.4852e-005    -7.102e-010    
  -2.35           1.419e-009      -1.5201e-005    -4.5047e-009   
  -2.4            8.098e-010      -1.5525e-005    1.2509e-009    
  -2.45           -1.4842e-009    -1.5844e-005    5.2839e-009    
  -2.5            -6.321e-010     -1.6157e-005    -6.779e-010    
  -2.55           1.4132e-009     -1.6476e-005    -4.4824e-009   
  -2.6            8.127e-010      -1.6777e-005    1.2183e-009    
  -2.65           -1.4855e-009    -1.7089e-005    5.2778e-009    
  -2.7            -6.356e-010     -1.7371e-005    -6.328e-010    
  -2.75           1.4131e-009     -1.7672e-005    -4.4563e-009   
  -2.8            8.195e-010      -1.7955e-005    1.177e-009     
  -2.85           -1.4847e-009    -1.8231e-005    5.2602e-009    
  -2.9            -6.388e-010     -1.8502e-005    -6.061e-010    
  -2.95           1.4119e-009     -1.8795e-005    -4.4461e-009   
  -3              8.189e-010      -1.9056e-005    1.1665e-009    
  -3.05           -1.4836e-009    -1.9298e-005    5.2535e-009    
  -3.1            -6.402e-010     -1.9568e-005    -6.037e-010    
  -3.15           1.4116e-009     -1.9815e-005    -4.4324e-009   
  -3.2            8.262e-010      -2.0065e-005    1.1278e-009    
  -3.25           -1.4826e-009    -2.0297e-005    5.2451e-009    
  -3.3            -6.451e-010     -2.0533e-005    -5.632e-010    
  -3.35           1.4105e-009     -2.0778e-005    -4.4149e-009   
  -3.4            8.283e-010      -2.1002e-005    1.1133e-009    
  -3.45           -1.481e-009     -2.1229e-005    5.2352e-009    
  -3.5            -6.485e-010     -2.1455e-005    -5.423e-010    
  -3.55           1.4093e-009     -2.1678e-005    -4.4072e-009   
  -3.6            8.322e-010      -2.19e-005      1.0991e-009    
  -3.65           -1.4817e-009    -2.2106e-005    5.2291e-009    
  -3.7            -6.496e-010     -2.2303e-005    -5.088e-010    
  -3.75           1.4082e-009     -2.2509e-005    -4.3862e-009   
  -3.8            8.363e-010      -2.2711e-005    1.0647e-009    
  -3.85           -1.4822e-009    -2.2909e-005    5.2205e-009    
  -3.9            -6.541e-010     -2.3112e-005    -5e-010        
  -3.95           1.4063e-009     -2.3314e-005    -4.3823e-009   
  -4              8.401e-010      -2.3503e-005    1.0456e-009    
  -4.05           -1.4789e-009    -2.3694e-005    5.2097e-009    
  -4.1            -6.576e-010     -2.389e-005     -4.855e-010    
  -4.15           1.4055e-009     -2.4071e-005    -4.361e-009    
  -4.2            8.429e-010      -2.4238e-005    1.017e-009     
  -4.25           -1.4793e-009    -2.442e-005     5.2049e-009    
  -4.3            -6.59e-010      -2.4579e-005    -4.627e-010    
  -4.35           1.4053e-009     -2.4773e-005    -4.3513e-009   
  -4.4            8.433e-010      -2.4944e-005    1.0108e-009    
  -4.45           -1.478e-009     -2.5108e-005    5.2011e-009    
  -4.5            -6.623e-010     -2.5262e-005    -4.425e-010    
  -4.55           1.405e-009      -2.5425e-005    -4.3352e-009   
  -4.6            8.465e-010      -2.5579e-005    9.803e-010     
  -4.65           -1.4774e-009    -2.5751e-005    5.1905e-009    
  -4.7            -6.656e-010     -2.5904e-005    -4.292e-010    
  -4.75           1.402e-009      -2.6059e-005    -4.3204e-009   
  -4.8            8.533e-010      -2.6215e-005    9.595e-010     
  -4.85           -1.4756e-009    -2.6357e-005    5.1877e-009    
  -4.9            -6.665e-010     -2.6494e-005    -4.092e-010    
  -4.95           1.4019e-009     -2.6659e-005    -4.3062e-009   
  -5              8.549e-010      -2.6779e-005    9.367e-010     
END_DB

BEGIN_DB
 ICCAP_VAR VS         0              
 ICCAP_VAR VB         0              
 ICCAP_VAR VD         -5             

 #VG              IG              ID              IB             
  0               1.588e-010      -1.8967e-009    -5.462e-009    
  -0.05           1.4994e-009     -1.4908e-009    -3.6112e-009   
  -0.1            -1.4609e-009    1.1719e-009     5.53e-009      
  -0.15           -5.598e-010     -2.4173e-009    -6.221e-010    
  -0.2            7.241e-010      2.1791e-009     -5.7332e-009   
  -0.25           -8.44e-010      -2.4378e-009    4.3493e-009    
  -0.3            1.3916e-009     -2.2841e-009    -3.8393e-009   
  -0.35           -1.449e-009     -2.3023e-009    5.0727e-009    
  -0.4            -8.669e-010     -1.09972e-008   1.1671e-009    
  -0.45           8.316e-010      -2.4044e-008    4.6164e-009    
  -0.5            -1.4844e-009    -6.8952e-008    6.5537e-009    
  -0.55           1.387e-009      -1.7529e-007    6.5032e-009    
  -0.6            -1.4864e-009    -3.7796e-007    1.248e-008     
  -0.65           -7.102e-010     -7.5112e-007    9.469e-009     
  -0.7            -8.815e-010     -1.3435e-006    1.3554e-008    
  -0.75           1.4262e-009     -2.2211e-006    2.5268e-008    
  -0.8            9.219e-010      -3.3939e-006    4.7689e-008    
  -0.85           -1.4189e-009    -4.8726e-006    6.5119e-008    
  -0.9            -8.731e-010     -6.697e-006     7.4908e-008    
  -0.95           1.4319e-009     -8.9008e-006    9.0878e-008    
  -1              -5.715e-010     -1.13688e-005   1.1171e-007    
  -1.05           -1.4711e-009    -1.4144e-005    1.4334e-007    
  -1.1            -6.904e-010     -1.7243e-005    1.5486e-007    
  -1.15           1.5114e-009     -2.0665e-005    1.7198e-007    
  -1.2            7.464e-010      -2.4325e-005    2.0215e-007    
  -1.25           -1.4718e-009    -2.8176e-005    2.2291e-007    
  -1.3            -6.905e-010     -3.2322e-005    2.3216e-007    
  -1.35           1.507e-009      -3.6721e-005    2.4514e-007    
  -1.4            7.414e-010      -4.133e-005     2.7098e-007    
  -1.45           -1.4762e-009    -4.6115e-005    2.8612e-007    
  -1.5            -6.954e-010     -5.0986e-005    2.8928e-007    
  -1.55           1.5038e-009     -5.6161e-005    2.9579e-007    
  -1.6            7.325e-010      -6.1426e-005    3.1473e-007    
  -1.65           -1.4813e-009    -6.6722e-005    3.2304e-007    
  -1.7            -6.952e-010     -7.2241e-005    3.1909e-007    
  -1.75           1.4992e-009     -7.8193e-005    3.1913e-007    
  -1.8            7.267e-010      -8.3852e-005    3.3119e-007    
  -1.85           -1.4875e-009    -8.9821e-005    3.3287e-007    
  -1.9            -6.977e-010     -9.5801e-005    3.2341e-007    
  -1.95           1.4988e-009     -0.000102031    3.1693e-007    
  -2              7.239e-010      -0.000108237    3.2369e-007    
  -2.05           -1.4616e-009    -0.00011447     3.0406e-007    
  -2.1            -7.828e-010     -0.00012085     3.0656e-007    
  -2.15           1.4561e-009     -0.00012738     2.9637e-007    
  -2.2            8.079e-010      -0.00013389     2.9745e-007    
  -2.25           -1.4637e-009    -0.00014049     2.9115e-007    
  -2.3            -7.832e-010     -0.00014725     2.7424e-007    
  -2.35           1.4554e-009     -0.00015414     2.6136e-007    
  -2.4            8.048e-010      -0.00016091     2.6032e-007    
  -2.45           -1.4649e-009    -0.00016777     2.5217e-007    
  -2.5            -7.801e-010     -0.00017466     2.3392e-007    
  -2.55           1.4583e-009     -0.00018185     2.2015e-007    
  -2.6            8.011e-010      -0.00018894     2.1806e-007    
  -2.65           -1.4697e-009    -0.000196       2.0946e-007    
  -2.7            -7.762e-010     -0.00020315     1.9133e-007    
  -2.75           1.458e-009      -0.00021052     1.7738e-007    
  -2.8            7.991e-010      -0.00021767     1.763e-007     
  -2.85           -1.4656e-009    -0.00022507     1.6772e-007    
  -2.9            -7.742e-010     -0.00023241     1.5042e-007    
  -2.95           1.4612e-009     -0.00024002     1.3748e-007    
  -3              7.935e-010      -0.00024743     1.3752e-007    
  -3.05           -1.4668e-009    -0.00025485     1.3059e-007    
  -3.1            -7.714e-010     -0.00026244     1.144e-007     
  -3.15           1.4627e-009     -0.00027017     1.0275e-007    
  -3.2            7.954e-010      -0.00027773     1.0423e-007    
  -3.25           -7.499e-010     -0.00028531     9.0654e-008    
  -3.3            1.4722e-009     -0.0002931      7.9839e-008    
  -3.35           7.741e-010      -0.00030079     8.2686e-008    
  -3.4            -1.4761e-009    -0.00030855     7.8262e-008    
  -3.45           -7.492e-010     -0.00031628     6.4828e-008    
  -3.5            1.4754e-009     -0.00032425     5.5684e-008    
  -3.55           7.706e-010      -0.00033205     5.9834e-008    
  -3.6            -1.4787e-009    -0.00033988     5.6935e-008    
  -3.65           -7.433e-010     -0.00034778     4.4783e-008    
  -3.7            1.4775e-009     -0.00035591     3.7213e-008    
  -3.75           7.673e-010      -0.00036396     4.269e-008     
  -3.8            -1.4786e-009    -0.00037188     4.1136e-008    
  -3.85           -7.427e-010     -0.0003799      2.9791e-008    
  -3.9            1.4778e-009     -0.00038801     2.3469e-008    
  -3.95           7.632e-010      -0.0003961      3.014e-008     
  -4              -1.4813e-009    -0.00040404     2.9589e-008    
  -4.05           -7.388e-010     -0.00041222     1.9501e-008    
  -4.1            1.4781e-009     -0.00042037     1.3806e-008    
  -4.15           7.61e-010       -0.00042846     2.1564e-008    
  -4.2            -1.4818e-009    -0.00043652     2.1424e-008    
  -4.25           -7.333e-010     -0.00044465     1.1882e-008    
  -4.3            8.688e-010      -0.00045276     1.6341e-008    
  -4.35           -1.446e-009     -0.00046093     1.6979e-008    
  -4.4            -8.427e-010     -0.00046907     8.235e-009     
  -4.45           5.982e-010      -0.00047733     1.5248e-008    
  -4.5            -1.4207e-009    -0.00048547     1.3728e-008    
  -4.55           6.844e-010      -0.00049371     1.2313e-008    
  -4.6            -1.3813e-009    -0.00050189     1.2282e-008    
  -4.65           -1.4859e-009    -0.00050991     1.153e-008     
  -4.7            -1.4473e-009    -0.0005183      1.0811e-008    
  -4.75           -1.4039e-009    -0.00052658     1.0467e-008    
  -4.8            -1.4903e-009    -0.00053477     9.999e-009     
  -4.85           1.4289e-009     -0.00054322     -4.5064e-009   
  -4.9            -1.4514e-009    -0.00055121     7.9458e-009    
  -4.95           -7.391e-010     -0.00055947     2.6081e-009    
  -5              1.477e-009      -0.00056784     -5.1452e-009   
END_DB

BEGIN_DB
 ICCAP_VAR VS         0              
 ICCAP_VAR VB         2.5            
 ICCAP_VAR VD         -0.1           

 #VG              IG              ID              IB             
  0               -1.997e-010     2.1368e-009     4.892e-009     
  -0.05           -7.183e-010     -2.2157e-009    4.802e-009     
  -0.1            -8.261e-010     -2.1158e-009    5.342e-009     
  -0.15           -9.741e-010     -2.0045e-009    6.859e-009     
  -0.2            -7.149e-010     -2.2209e-009    4.778e-009     
  -0.25           -8.224e-010     -2.123e-009     5.308e-009     
  -0.3            -9.649e-010     -2.0114e-009    6.771e-009     
  -0.35           -7.119e-010     -2.223e-009     4.765e-009     
  -0.4            -8.143e-010     -2.1286e-009    5.26e-009      
  -0.45           -9.558e-010     -2.0166e-009    6.657e-009     
  -0.5            -7.028e-010     -2.2284e-009    4.744e-009     
  -0.55           -8.112e-010     -2.1322e-009    5.227e-009     
  -0.6            -9.485e-010     -2.0215e-009    6.549e-009     
  -0.65           -1.4159e-009    2.4053e-009     4.0973e-009    
  -0.7            7.275e-010      2.2351e-009     2.983e-009     
  -0.75           4.974e-010      2.1598e-009     6.569e-009     
  -0.8            -7.21e-010      -2.2258e-009    4.813e-009     
  -0.85           -8.266e-010     -2.1633e-009    5.316e-009     
  -0.9            -9.725e-010     -2.2227e-009    6.863e-009     
  -0.95           -1.2176e-009    -2.7982e-009    4.782e-009     
  -1              -1.3988e-009    -4.1932e-009    5.702e-009     
  -1.05           7.933e-010      -1.5052e-008    5.021e-009     
  -1.1            -1.42e-009      -6.1209e-008    5.3e-009       
  -1.15           1.367e-009      -1.7267e-007    6.861e-009     
  -1.2            -1.3944e-009    -3.8113e-007    8.51e-009      
  -1.25           -1.4039e-009    -6.9986e-007    5.115e-009     
  -1.3            -1.4316e-009    -1.11271e-006   6.225e-009     
  -1.35           7.583e-010      -1.5926e-006    5.876e-009     
  -1.4            -1.4015e-009    -2.1173e-006    5.082e-009     
  -1.45           -1.431e-009     -2.6603e-006    6.176e-009     
  -1.5            -1.3941e-009    -3.2248e-006    8.302e-009     
  -1.55           -1.3984e-009    -3.7796e-006    5.054e-009     
  -1.6            -1.431e-009     -4.3394e-006    6.071e-009     
  -1.65           -1.3978e-009    -4.883e-006     8.142e-009     
  -1.7            -1.3938e-009    -5.4098e-006    4.991e-009     
  -1.75           -1.4303e-009    -5.9251e-006    5.97e-009      
  -1.8            -1.3997e-009    -6.4266e-006    8.003e-009     
  -1.85           -1.385e-009     -6.9198e-006    4.971e-009     
  -1.9            -1.4317e-009    -7.3927e-006    5.864e-009     
  -1.95           -1.4026e-009    -7.8477e-006    7.873e-009     
  -2              -1.3789e-009    -8.2963e-006    4.94e-009      
  -2.05           -1.4299e-009    -8.7329e-006    5.76e-009      
  -2.1            -1.4058e-009    -9.158e-006     7.756e-009     
  -2.15           -1.3736e-009    -9.5704e-006    4.926e-009     
  -2.2            -1.4281e-009    -9.9744e-006    5.699e-009     
  -2.25           -1.4105e-009    -1.03697e-005   7.564e-009     
  -2.3            -1.3661e-009    -1.07508e-005   4.894e-009     
  -2.35           -1.4265e-009    -1.11259e-005   5.598e-009     
  -2.4            1.184e-010      -1.1489e-005    5.438e-009     
  -2.45           -1.3504e-009    -1.1845e-005    3.781e-009     
  -2.5            -1.4293e-009    -1.2199e-005    6.234e-009     
  -2.55           -1.3918e-009    -1.2538e-005    8.405e-009     
  -2.6            -1.3991e-009    -1.288e-005     5.065e-009     
  -2.65           -1.4292e-009    -1.3203e-005    6.125e-009     
  -2.7            -1.3965e-009    -1.3522e-005    8.272e-009     
  -2.75           -1.3944e-009    -1.3833e-005    5.054e-009     
  -2.8            -1.4298e-009    -1.4147e-005    6.031e-009     
  -2.85           -1.3993e-009    -1.4452e-005    8.15e-009      
  -2.9            -1.3882e-009    -1.4748e-005    5.012e-009     
  -2.95           -1.43e-009      -1.5034e-005    5.989e-009     
  -3              -1.4018e-009    -1.5322e-005    8.01e-009      
  -3.05           -1.3846e-009    -1.5605e-005    4.981e-009     
  -3.1            -1.4295e-009    -1.5882e-005    5.867e-009     
  -3.15           -1.4038e-009    -1.6145e-005    7.876e-009     
  -3.2            -1.3791e-009    -1.642e-005     4.955e-009     
  -3.25           -1.4285e-009    -1.667e-005     5.778e-009     
  -3.3            -1.4048e-009    -1.693e-005     7.741e-009     
  -3.35           -1.373e-009     -1.7184e-005    4.918e-009     
  -3.4            -1.4289e-009    -1.7433e-005    5.712e-009     
  -3.45           -1.4076e-009    -1.768e-005     7.603e-009     
  -3.5            -1.3703e-009    -1.7921e-005    4.882e-009     
  -3.55           -1.4275e-009    -1.8152e-005    5.606e-009     
  -3.6            -1.4111e-009    -1.8382e-005    7.473e-009     
  -3.65           -1.3627e-009    -1.8612e-005    4.874e-009     
  -3.7            -1.4267e-009    -1.8835e-005    5.544e-009     
  -3.75           -1.4155e-009    -1.9055e-005    7.333e-009     
  -3.8            -1.3528e-009    -1.9277e-005    4.874e-009     
  -3.85           -1.4267e-009    -1.9492e-005    5.492e-009     
  -3.9            -1.4178e-009    -1.9693e-005    7.234e-009     
  -3.95           -1.3474e-009    -1.9897e-005    4.842e-009     
  -4              -1.4234e-009    -2.0096e-005    5.43e-009      
  -4.05           -1.4205e-009    -2.0302e-005    7.153e-009     
  -4.1            -1.3399e-009    -2.0501e-005    4.813e-009     
  -4.15           -1.4218e-009    -2.0686e-005    5.39e-009      
