! VERSION = 6.00
BEGIN_HEADER
 ICCAP_INPUTS
  VG         V  B GROUND SMU4 0.001 LIN        1    0          -5         101  -0.05     
  VS         V  E GROUND SMU2 0.1 CON        0
  VB         V  C GROUND SMU3 0.1 LIN        3    0          5          3    2.5       
  VD         V  S GROUND SMU1 0.1 LIN        2    -0.1       -5         2    -4.9      
 ICCAP_OUTPUTS
  IG         I  B GROUND SMU4 B
  ID         I  S GROUND SMU1 B
  IB         I  C GROUND SMU3 B
END_HEADER

BEGIN_DB
 ICCAP_VAR VS         0              
 ICCAP_VAR VB         0              
 ICCAP_VAR VD         -0.1           

 #VG              IG              ID              IB             
  0               -1.4049e-009    -8.3519e-009    -1.1372e-008   
  -0.05           -7.298e-010     -1.3297e-008    3.4e-010       
  -0.1            1.6783e-009     -1.8295e-008    -1.8654e-008   
  -0.15           1.3031e-009     -2.5139e-008    -9.016e-009    
  -0.2            2.8614e-009     -3.9678e-008    -1.0643e-008   
  -0.25           1.3024e-009     -5.9078e-008    1.073e-008     
  -0.3            9.96e-011       -9.2792e-008    1.0778e-008    
  -0.35           2.8609e-009     -1.4248e-007    -1.1324e-008   
  -0.4            1.2726e-009     -2.1597e-007    1.0712e-008    
  -0.45           8.09e-011       -3.2668e-007    1.0885e-008    
  -0.5            5.735e-010      -4.9833e-007    1.0714e-008    
  -0.55           1.009e-009      -7.7105e-007    1.1013e-008    
  -0.6            -2.7435e-009    -1.1879e-006    -2.676e-008    
  -0.65           -1.383e-010     -1.8509e-006    -1.1467e-008   
  -0.7            -6.523e-010     -2.8004e-006    -1.1172e-008   
  -0.75           1.7722e-009     -4.1689e-006    -2.0185e-008   
  -0.8            1.3313e-009     -5.9754e-006    -9.141e-009    
  -0.85           2.8732e-009     -8.2533e-006    -1.0045e-008   
  -0.9            2.5777e-009     -1.09265e-005   -4.8e-010      
  -0.95           -1.414e-009     -1.387e-005     -2.432e-009    
  -1              -1.3417e-009    -1.7122e-005    9.316e-009     
  -1.05           -2.3506e-009    -2.0463e-005    1.0115e-008    
  -1.1            1.992e-010      -2.3989e-005    -1.3694e-008   
  -1.15           -1.953e-010     -2.7325e-005    -1.1212e-008   
  -1.2            -7.212e-010     -3.0593e-005    -1.1344e-008   
  -1.25           1.6997e-009     -3.3852e-005    -1.8838e-008   
  -1.3            1.3069e-009     -3.6949e-005    -9.019e-009    
  -1.35           2.8594e-009     -3.9963e-005    -1.0488e-008   
  -1.4            1.2874e-009     -4.2856e-005    1.0774e-008    
  -1.45           9.1e-011        -4.5557e-005    1.0845e-008    
  -1.5            5.91e-010       -4.8258e-005    1.0789e-008    
  -1.55           1.0248e-009     -5.0887e-005    1.0877e-008    
  -1.6            1.4475e-009     -5.3416e-005    1.1747e-008    
  -1.65           2.644e-010      -5.5749e-005    1.0475e-008    
  -1.7            7.572e-010      -5.8116e-005    1.1001e-008    
  -1.75           1.1592e-009     -6.0414e-005    1.0546e-008    
  -1.8            1.6036e-009     -6.2626e-005    1.2168e-008    
  -1.85           2.0582e-009     -6.4763e-005    1.1868e-008    
  -1.9            8.985e-010      -6.6821e-005    1.1023e-008    
  -1.95           1.3048e-009     -6.887e-005     1.0862e-008    
  -2              1.077e-010      -7.0764e-005    1.074e-008     
  -2.05           6.055e-010      -7.2693e-005    1.0938e-008    
  -2.1            1.0354e-009     -7.4579e-005    1.0912e-008    
  -2.15           1.4617e-009     -7.6431e-005    1.1902e-008    
  -2.2            2.731e-010      -7.8146e-005    1.0494e-008    
  -2.25           7.627e-010      -7.99e-005      1.1075e-008    
  -2.3            1.1687e-009     -8.1609e-005    1.0538e-008    
  -2.35           1.612e-009      -8.3285e-005    1.2136e-008    
  -2.4            2.0683e-009     -8.4885e-005    1.1813e-008    
  -2.45           9.093e-010      -8.6467e-005    1.1056e-008    
  -2.5            1.3154e-009     -8.8052e-005    1.0939e-008    
  -2.55           1.154e-010      -8.9541e-005    1.0641e-008    
  -2.6            6.157e-010      -9.1046e-005    1.0881e-008    
  -2.65           1.0384e-009     -9.2519e-005    1.0823e-008    
  -2.7            -1.68e-010      -9.3967e-005    1.1804e-008    
  -2.75           2.827e-010      -9.5347e-005    1.0352e-008    
  -2.8            7.716e-010      -9.6758e-005    1.1146e-008    
  -2.85           1.1757e-009     -9.813e-005     1.0487e-008    
  -2.9            1.6256e-009     -9.948e-005     1.2239e-008    
  -2.95           2.0755e-009     -0.000100774    1.1928e-008    
  -3              9.126e-010      -0.000102061    1.1134e-008    
  -3.05           1.3191e-009     -0.00010335     1.0831e-008    
  -3.1            1.267e-010      -0.000104555    1.0631e-008    
  -3.15           6.231e-010      -0.000105791    1.091e-008     
  -3.2            1.053e-009      -0.000107008    1.0871e-008    
  -3.25           1.4846e-009     -0.000108209    1.202e-008     
  -3.3            2.996e-010      -0.000109335    1.031e-008     
  -3.35           7.92e-010       -0.000110489    1.1106e-008    
  -3.4            1.1917e-009     -0.000111632    1.0506e-008    
  -3.45           1.6449e-009     -0.000112747    1.2238e-008    
  -3.5            2.0889e-009     -0.000113831    1.1722e-008    
  -3.55           -5.9e-011       -0.00011497     1.1069e-008    
  -3.6            -5.616e-010     -0.000116       -1.112e-008    
  -3.65           1.8927e-009     -0.00011705     -2.2255e-008   
  -3.7            1.3665e-009     -0.00011808     -9.132e-009    
  -3.75           2.8782e-009     -0.00011911     -9.651e-009    
  -3.8            2.6678e-009     -0.0001201      -1.79e-010     
  -3.85           2.0203e-009     -0.00012106     -2.458e-009    
  -3.9            1.4336e-009     -0.00012202     -8.473e-009    
  -3.95           2.8774e-009     -0.00012299     -9.437e-009    
  -4              2.7462e-009     -0.00012393     1.31e-010      
  -4.05           1.5199e-009     -0.00012486     1.2074e-008    
  -4.1            3.428e-010      -0.00012574     1.0399e-008    
  -4.15           8.252e-010      -0.00012662     1.1008e-008    
  -4.2            1.2194e-009     -0.00012751     1.0562e-008    
  -4.25           2.49e-011       -0.00012838     1.1094e-008    
  -4.3            5.22e-010       -0.00012923     1.0598e-008    
  -4.35           9.639e-010      -0.00013009     1.104e-008     
  -4.4            1.376e-009      -0.00013093     1.1418e-008    
  -4.45           1.835e-009      -0.00013177     1.2258e-008    
  -4.5            6.846e-010      -0.00013256     1.0973e-008    
  -4.55           1.101e-009      -0.00013336     1.078e-008     
  -4.6            1.5304e-009     -0.00013417     1.2079e-008    
  -4.65           3.577e-010      -0.00013492     1.0427e-008    
  -4.7            8.376e-010      -0.00013569     1.1075e-008    
  -4.75           1.2368e-009     -0.00013645     1.0528e-008    
  -4.8            4.3e-011        -0.0001372      1.1069e-008    
  -4.85           5.352e-010      -0.00013791     1.0569e-008    
  -4.9            9.808e-010      -0.00013864     1.1008e-008    
  -4.95           1.3971e-009     -0.00013937     1.1481e-008    
  -5              1.8507e-009     -0.00014007     1.2318e-008    
END_DB

BEGIN_DB
 ICCAP_VAR VS         0              
 ICCAP_VAR VB         0              
 ICCAP_VAR VD         -5             

 #VG              IG              ID              IB             
  0               -1.2875e-009    -3.2326e-006    -8.109e-009    
  -0.05           -2.4214e-009    -4.0216e-006    1.5899e-008    
  -0.1            -1.8198e-009    -5.0842e-006    2.5847e-008    
  -0.15           -1.4519e-009    -6.5412e-006    4.2331e-008    
  -0.2            -1.3561e-009    -8.5468e-006    6.3376e-008    
  -0.25           -2.5411e-009    -1.12895e-005   8.7853e-008    
  -0.3            9.059e-010      -1.5017e-005    1.1173e-007    
  -0.35           2.338e-009      -1.989e-005     1.2961e-007    
  -0.4            1.612e-009      -2.5888e-005    2.0464e-007    
  -0.45           1.2933e-009     -3.3242e-005    2.6461e-007    
  -0.5            2.8624e-009     -4.2191e-005    3.3389e-007    
  -0.55           2.4791e-009     -5.2262e-005    4.2269e-007    
  -0.6            1.7602e-009     -6.4024e-005    5.019e-007     
  -0.65           1.3314e-009     -7.7207e-005    5.861e-007     
  -0.7            2.8916e-009     -9.1792e-005    6.7531e-007    
  -0.75           2.6044e-009     -0.000107539    7.776e-007     
  -0.8            2.584e-009      -0.00012459     8.8426e-007    
  -0.85           1.8855e-009     -0.00014296     9.5583e-007    
  -0.9            1.3726e-009     -0.00016248     1.03824e-006   
  -0.95           -2.7274e-009    -0.00018286     1.1416e-006    
  -1              -2.4724e-009    -0.00020431     1.2067e-006    
  -1.05           -1.8795e-009    -0.00022656     1.2846e-006    
  -1.1            -1.4597e-009    -0.00024976     1.3589e-006    
  -1.15           -1.3538e-009    -0.00027376     1.4274e-006    
  -1.2            -2.5756e-009    -0.00029842     1.4885e-006    
  -1.25           -2.0269e-009    -0.00032406     1.5347e-006    
  -1.3            -1.5159e-009    -0.00035022     1.5875e-006    
  -1.35           -1.3724e-009    -0.00037689     1.637e-006     
  -1.4            -2.6449e-009    -0.00040418     1.6703e-006    
  -1.45           -2.175e-009     -0.00043233     1.6925e-006    
  -1.5            -1.5942e-009    -0.00046061     1.7179e-006    
  -1.55           -1.3946e-009    -0.0004894      1.7418e-006    
  -1.6            -1.3372e-009    -0.0005185      1.7586e-006    
  -1.65           -2.3165e-009    -0.00054801     1.7658e-006    
  -1.7            -1.6917e-009    -0.00057818     1.7621e-006    
  -1.75           -1.4184e-009    -0.00060858     1.7619e-006    
  -1.8            -1.3486e-009    -0.0006391      1.7593e-006    
  -1.85           -2.4324e-009    -0.00067041     1.7422e-006    
  -1.9            -1.807e-009     -0.00070179     1.7243e-006    
  -1.95           -1.4485e-009    -0.00073317     1.7103e-006    
  -2              -1.3607e-009    -0.00076477     1.6944e-006    
  -2.05           -2.5337e-009    -0.0007966      1.6651e-006    
  -2.1            -1.9422e-009    -0.00082907     1.629e-006     
  -2.15           -1.4896e-009    -0.00086127     1.604e-006     
  -2.2            -1.3741e-009    -0.00089361     1.5742e-006    
  -2.25           -2.6165e-009    -0.00092615     1.5392e-006    
  -2.3            -2.0772e-009    -0.00095918     1.4968e-006    
  -2.35           -1.5515e-009    -0.00099205     1.4627e-006    
  -2.4            -1.3894e-009    -0.00102491     1.4309e-006    
  -2.45           -1.3365e-009    -0.00105771     1.3942e-006    
  -2.5            -2.2414e-009    -0.00109111     1.3552e-006    
  -2.55           -1.6337e-009    -0.00112474     1.304e-006     
  -2.6            1.7234e-009     -0.0011583      1.2752e-006    
  -2.65           1.3075e-009     -0.0011919      1.2126e-006    
  -2.7            2.8641e-009     -0.0012253      1.1712e-006    
  -2.75           2.5475e-009     -0.001259       1.1389e-006    
  -2.8            1.8491e-009     -0.0012928      1.0985e-006    
  -2.85           1.3546e-009     -0.0013266      1.0511e-006    
  -2.9            2.8784e-009     -0.0013601      1.0106e-006    
  -2.95           -2.0841e-009    -0.0013936      9.7625e-007    
  -3              -2.4967e-009    -0.0014274      9.4028e-007    
  -3.05           -2.7402e-009    -0.0014613      9.0368e-007    
  -3.1            -2.6859e-009    -0.001495       8.716e-007     
  -3.15           -2.259e-009     -0.0015289      8.3764e-007    
  -3.2            -1.6639e-009    -0.0015628      8.0699e-007    
  -3.25           -1.4177e-009    -0.0015964      7.7824e-007    
  -3.3            -1.3473e-009    -0.0016304      7.4703e-007    
  -3.35           -2.4076e-009    -0.001664       7.1573e-007    
  -3.4            -1.7873e-009    -0.0016982      6.784e-007     
  -3.45           -1.4426e-009    -0.0017322      6.5306e-007    
  -3.5            -1.3584e-009    -0.0017659      6.2626e-007    
  -3.55           -2.5144e-009    -0.0018         5.9875e-007    
  -3.6            -1.9173e-009    -0.0018339      5.6608e-007    
  -3.65           -1.4818e-009    -0.0018676      5.44e-007      
  -3.7            -1.3715e-009    -0.0019014      5.2373e-007    
  -3.75           -2.6035e-009    -0.0019356      4.9797e-007    
  -3.8            -2.0643e-009    -0.0019695      4.6839e-007    
  -3.85           -1.5415e-009    -0.0020031      4.4996e-007    
  -3.9            -1.3848e-009    -0.0020366      4.3388e-007    
  -3.95           -1.3371e-009    -0.0020699      4.1349e-007    
  -4              -2.2181e-009    -0.0021038      3.9842e-007    
  -4.05           -1.6215e-009    -0.0021376      3.7175e-007    
  -4.1            -1.4021e-009    -0.0021708      3.5857e-007    
  -4.15           -1.3423e-009    -0.002204       3.4347e-007    
  -4.2            -2.354e-009     -0.0022376      3.2884e-007    
  -4.25           -1.7253e-009    -0.0022709      3.0627e-007    
  -4.3            -1.4228e-009    -0.0023043      2.9595e-007    
  -4.35           -1.3542e-009    -0.0023369      2.8493e-007    
  -4.4            -2.4615e-009    -0.0023696      2.711e-007     
  -4.45           -1.8486e-009    -0.0024032      2.52e-007      
  -4.5            -1.4539e-009    -0.0024357      2.4423e-007    
  -4.55           -1.3662e-009    -0.0024686      2.3649e-007    
  -4.6            -2.5569e-009    -0.0025013      2.2482e-007    
  -4.65           -1.9766e-009    -0.002534       2.0803e-007    
  -4.7            -1.5033e-009    -0.0025665      2.0194e-007    
  -4.75           -1.3774e-009    -0.002599       1.9699e-007    
  -4.8            -2.6291e-009    -0.0026315      1.8738e-007    
  -4.85           -2.1242e-009    -0.0026631      1.7199e-007    
  -4.9            -1.5724e-009    -0.0026958      1.6726e-007    
  -4.95           -1.3911e-009    -0.0027278      1.6433e-007    
  -5              -1.3386e-009    -0.0027592      1.5778e-007    
END_DB

BEGIN_DB
 ICCAP_VAR VS         0              
 ICCAP_VAR VB         2.5            
 ICCAP_VAR VD         -0.1           

 #VG              IG              ID              IB             
  0               -1.0001e-009    -9.426e-010     -2.3209e-008   
  -0.05           -1.6781e-009    -1.6451e-009    6.561e-009     
  -0.1            -2.59e-010      -2.1748e-009    -1.0933e-008   
  -0.15           -4.817e-010     -2.2416e-009    -1.1452e-008   
  -0.2            2.4284e-009     -1.4723e-009    -2.4114e-008   
  -0.25           1.3251e-009     2.1097e-009     -5.171e-009    
  -0.3            -1.26e-010      1.973e-009      1.0533e-008    
  -0.35           5.39e-011       2.0578e-009     1.0398e-008    
  -0.4            2.637e-010      2.1351e-009     1.07e-008      
  -0.45           4.796e-010      2.1156e-009     1.1097e-008    
  -0.5            -1.4037e-009    7.758e-010      1.1211e-008    
  -0.55           -2.7612e-009    -2.3794e-009    9.03e-009      
  -0.6            1.38e-010       -5.7783e-009    -1.1425e-008   
  -0.65           -1.8342e-009    -1.0811e-008    8.174e-009     
  -0.7            -1.4511e-009    -2.8725e-008    6.017e-009     
  -0.75           -1.3639e-009    -6.7369e-008    9.146e-009     
  -0.8            6.409e-010      -1.4693e-007    -1.4582e-008   
  -0.85           1.0593e-009     -3.0894e-007    1.0944e-008    
  -0.9            -1.576e-010     -5.9762e-007    1.1629e-008    
  -0.95           3.01e-010       -1.09656e-006   1.0338e-008    
  -1              -1.372e-009     -1.8956e-006    -1.1376e-008   
  -1.05           -2.6048e-009    -3.0921e-006    8.049e-009     
  -1.1            -2.0626e-009    -4.7854e-006    8.06e-010      
  -1.15           -2.6932e-009    -6.9766e-006    -5.875e-009    
  -1.2            1.821e-010      -9.6715e-006    -1.333e-008    
  -1.25           2.573e-009      -1.2586e-005    -1.0935e-008   
  -1.3            1.5879e-009     -1.5867e-005    1.2061e-008    
  -1.35           2.0429e-009     -1.9128e-005    1.214e-008     
  -1.4            8.804e-010      -2.2415e-005    1.1178e-008    
  -1.45           1.2813e-009     -2.573e-005     1.0721e-008    
  -1.5            7.33e-011       -2.8794e-005    1.0521e-008    
  -1.55           5.64e-010       -3.1867e-005    1.0691e-008    
  -1.6            1.001e-009      -3.4829e-005    1.1127e-008    
  -1.65           1.4181e-009     -3.7689e-005    1.1516e-008    
  -1.7            1.8789e-009     -4.0364e-005    1.2421e-008    
  -1.75           7.173e-010      -4.2913e-005    1.1098e-008    
  -1.8            1.1262e-009     -4.5434e-005    1.0842e-008    
  -1.85           1.5662e-009     -4.7894e-005    1.2081e-008    
  -1.9            3.792e-010      -5.0134e-005    1.0298e-008    
  -1.95           8.574e-010      -5.2392e-005    1.1196e-008    
  -2              1.2517e-009     -5.4583e-005    1.0616e-008    
  -2.05           5.01e-011       -5.6617e-005    1.0675e-008    
  -2.1            5.356e-010      -5.866e-005     1.057e-008     
  -2.15           9.797e-010      -6.0658e-005    1.1148e-008    
  -2.2            1.3961e-009     -6.2606e-005    1.149e-008     
  -2.25           1.856e-009      -6.4472e-005    1.2339e-008    
  -2.3            6.892e-010      -6.6255e-005    1.1028e-008    
  -2.35           1.0982e-009     -6.8039e-005    1.0934e-008    
  -2.4            1.535e-009      -6.9795e-005    1.2029e-008    
  -2.45           3.459e-010      -7.1434e-005    1.0354e-008    
  -2.5            8.283e-010      -7.3099e-005    1.1265e-008    
  -2.55           1.2275e-009     -7.4743e-005    1.0642e-008    
  -2.6            2.41e-011       -7.6277e-005    1.0762e-008    
  -2.65           5.133e-010      -7.7822e-005    1.0544e-008    
  -2.7            9.594e-010      -7.9365e-005    1.1128e-008    
  -2.75           1.3727e-009     -8.0868e-005    1.1333e-008    
  -2.8            1.822e-009      -8.2311e-005    1.2334e-008    
  -2.85           6.633e-010      -8.3712e-005    1.0962e-008    
  -2.9            1.0787e-009     -8.5126e-005    1.0816e-008    
  -2.95           1.5096e-009     -8.6511e-005    1.2015e-008    
  -3              3.26e-010       -8.7808e-005    1.0276e-008    
  -3.05           8.097e-010      -8.9133e-005    1.1146e-008    
  -3.1            1.2098e-009     -9.0448e-005    1.0653e-008    
  -3.15           1.3e-012        -9.1692e-005    1.0856e-008    
  -3.2            4.87e-010       -9.296e-005     1.0453e-008    
  -3.25           9.368e-010      -9.421e-005     1.1252e-008    
  -3.3            1.3418e-009     -9.5427e-005    1.1019e-008    
  -3.35           1.8014e-009     -9.6617e-005    1.2331e-008    
  -3.4            6.394e-010      -9.7743e-005    1.0906e-008    
  -3.45           1.059e-009      -9.8905e-005    1.0895e-008    
  -3.5            1.4852e-009     -0.000100048    1.1909e-008    
  -3.55           3.052e-010      -0.000101129    1.0193e-008    
  -3.6            7.812e-010      -0.000102228    1.1228e-008    
  -3.65           1.1807e-009     -0.000103306    1.0668e-008    
  -3.7            1.632e-009      -0.00010437     1.2178e-008    
  -3.75           2.0772e-009     -0.000105429    1.1944e-008    
  -3.8            9.156e-010      -0.000106439    1.1223e-008    
  -3.85           1.3245e-009     -0.000107466    1.0972e-008    
  -3.9            1.2e-010        -0.000108428    1.0505e-008    
  -3.95           6.164e-010      -0.000109419    1.0879e-008    
  -4              1.0407e-009     -0.000110387    1.0985e-008    
  -4.05           -1.721e-010     -0.000111335    1.1745e-008    
  -4.1            2.736e-010      -0.000112247    1.023e-008     
  -4.15           7.612e-010      -0.000113183    1.1097e-008    
