! VERSION = 6.00
BEGIN_HEADER
 ICCAP_INPUTS
  VG         V  B GROUND SMU4 0.001 LIN        1    0          -5         101  -0.05     
  VS         V  E GROUND SMU2 0.1 CON        0
  VB         V  C GROUND SMU3 0.1 LIN        3    0          5          3    2.5       
  VD         V  S GROUND SMU1 0.1 LIN        2    -0.1       -5         2    -4.9      
 ICCAP_OUTPUTS
  IG         I  B GROUND SMU4 B
  ID         I  S GROUND SMU1 B
  IB         I  C GROUND SMU3 B
END_HEADER

BEGIN_DB
 ICCAP_VAR VS         0              
 ICCAP_VAR VB         0              
 ICCAP_VAR VD         -0.1           

 #VG              IG              ID              IB             
  0               1.263e-009      1.3421e-009     7.551e-009     
  -0.05           2.85e-010       2.2322e-009     1.043e-008     
  -0.1            4.853e-010      2.3171e-009     1.0719e-008    
  -0.15           6.659e-010      2.3643e-009     1.1191e-008    
  -0.2            8.179e-010      2.3732e-009     1.1165e-008    
  -0.25           9.417e-010      2.3334e-009     1.1172e-008    
  -0.3            1.0858e-009     2.2533e-009     1.1643e-008    
  -0.35           1.251e-009      2.1221e-009     1.26e-008      
  -0.4            1.4471e-009     1.9437e-009     1.2756e-008    
  -0.45           2.78e-011       2.0354e-009     1.0552e-008    
  -0.5            2.002e-010      1.9984e-009     1.0434e-008    
  -0.55           4.003e-010      1.5997e-009     1.0579e-008    
  -0.6            -2.5923e-009    -2.246e-009     1.1031e-008    
  -0.65           -2.4185e-009    -9.8061e-009    -3.21e-010     
  -0.7            2.8822e-009     -3.2414e-008    1.0439e-008    
  -0.75           5.487e-010      -1.1003e-007    -1.1886e-008   
  -0.8            1.4859e-009     -3.5303e-007    -1.5317e-008   
  -0.85           1.2638e-009     -9.8359e-007    -9.799e-009    
  -0.9            2.8923e-009     -2.4491e-006    2.6969e-008    
  -0.95           2.5819e-009     -5.3494e-006    2.64e-010      
  -1              1.9512e-009     -1.00597e-005   -2.685e-009    
  -1.05           -1.3693e-009    -1.6278e-005    -5.398e-009    
  -1.1            -2.5824e-009    -2.3944e-005    8.581e-009     
  -1.15           -2.0625e-009    -3.2519e-005    -8.5e-011      
  -1.2            3.54e-011       -4.1704e-005    -1.2516e-008   
  -1.25           -3.982e-010     -5.0615e-005    -1.0893e-008   
  -1.3            2.2048e-009     -5.9591e-005    -2.5835e-008   
  -1.35           1.5577e-009     -6.8374e-005    -6.676e-009    
  -1.4            1.288e-009      -7.6922e-005    -9.427e-009    
  -1.45           2.8604e-009     -8.5201e-005    -1.1195e-008   
  -1.5            1.2973e-009     -9.3242e-005    1.1447e-008    
  -1.55           1.7657e-009     -0.000100923    1.2866e-008    
  -1.6            6.174e-010      -0.000108181    1.0455e-008    
  -1.65           2.8101e-009     -0.0001154      1.0945e-008    
  -1.7            1.8397e-009     -0.00012243     1.2903e-008    
  -1.75           6.88e-010       -0.00012895     1.0578e-008    
  -1.8            1.0215e-009     -0.0001356      1.1089e-008    
  -1.85           1.4398e-009     -0.00014187     1.2118e-008    
  -1.9            2.883e-010      -0.0001477      1.0598e-008    
  -1.95           7.516e-010      -0.0001536      1.0739e-008    
  -2              1.0745e-009     -0.00015931     1.1194e-008    
  -2.05           1.5136e-009     -0.00016487     1.2547e-008    
  -2.1            1.9747e-009     -0.00017012     1.2707e-008    
  -2.15           8.149e-010      -0.00017518     1.09e-008      
  -2.2            1.1395e-009     -0.00018021     1.1219e-008    
  -2.25           -1.29e-011      -0.00018499     1.1538e-008    
  -2.3            4.42e-010       -0.00018973     1.0413e-008    
  -2.35           8.606e-010      -0.0001944      1.1204e-008    
  -2.4            1.1937e-009     -0.00019893     1.1141e-008    
  -2.45           5e-011          -0.00020321     1.1279e-008    
  -2.5            5.162e-010      -0.00020745     1.0407e-008    
  -2.55           9.013e-010      -0.00021166     1.1243e-008    
  -2.6            1.2633e-009     -0.00021575     1.1389e-008    
  -2.65           1.7416e-009     -0.00021973     1.2668e-008    
  -2.7            5.898e-010      -0.00022349     1.0412e-008    
  -2.75           9.422e-010      -0.00022735     1.1131e-008    
  -2.8            1.3408e-009     -0.00023105     1.1611e-008    
  -2.85           1.8109e-009     -0.00023463     1.2837e-008    
  -2.9            6.552e-010      -0.00023807     1.0516e-008    
  -2.95           9.961e-010      -0.00024156     1.1105e-008    
  -3              1.4099e-009     -0.00024498     1.1992e-008    
  -3.05           2.626e-010      -0.00024811     1.0622e-008    
  -3.1            7.208e-010      -0.00025143     1.07e-008      
  -3.15           1.0483e-009     -0.00025462     1.1072e-008    
  -3.2            1.4836e-009     -0.00025775     1.2389e-008    
  -3.25           3.349e-010      -0.0002607      1.06e-008      
  -3.3            7.797e-010      -0.00026368     1.0739e-008    
  -3.35           1.1032e-009     -0.00026663     1.1155e-008    
  -3.4            1.5614e-009     -0.00026951     1.27e-008      
  -3.45           2.0112e-009     -0.00027226     1.2582e-008    
  -3.5            8.304e-010      -0.00027497     1.0848e-008    
  -3.55           1.1631e-009     -0.00027771     1.1178e-008    
  -3.6            1.48e-011       -0.00028037     1.1546e-008    
  -3.65           4.736e-010      -0.00028288     1.0586e-008    
  -3.7            8.769e-010      -0.0002855      1.1037e-008    
  -3.75           1.216e-009      -0.00028806     1.1234e-008    
  -3.8            7.57e-011       -0.00029041     1.1452e-008    
  -3.85           5.339e-010      -0.0002928      1.0508e-008    
  -3.9            9.109e-010      -0.00029523     1.1039e-008    
  -3.95           1.2792e-009     -0.00029758     1.1555e-008    
  -4              1.7525e-009     -0.00029985     1.2721e-008    
  -4.05           5.975e-010      -0.00030202     1.0527e-008    
  -4.1            9.397e-010      -0.00030428     1.1098e-008    
  -4.15           1.3464e-009     -0.00030644     1.169e-008     
  -4.2            1.8084e-009     -0.00030855     1.2897e-008    
  -4.25           6.523e-010      -0.00031061     1.0721e-008    
  -4.3            9.877e-010      -0.00031269     1.1044e-008    
  -4.35           1.4111e-009     -0.00031474     1.2055e-008    
  -4.4            2.521e-010      -0.00031667     1.0669e-008    
  -4.45           7.113e-010      -0.00031862     1.0716e-008    
  -4.5            1.0405e-009     -0.00032055     1.1106e-008    
  -4.55           1.4798e-009     -0.0003225      1.237e-008     
  -4.6            3.083e-010      -0.00032427     1.0579e-008    
  -4.65           7.682e-010      -0.00032615     1.0827e-008    
  -4.7            1.0884e-009     -0.00032793     1.1071e-008    
  -4.75           1.5463e-009     -0.0003297      1.2669e-008    
  -4.8            1.9948e-009     -0.00033145     1.2863e-008    
  -4.85           8.143e-010      -0.00033313     1.097e-008     
  -4.9            1.1465e-009     -0.00033482     1.1104e-008    
  -4.95           -1.62e-011      -0.0003365      1.1309e-008    
  -5              4.442e-010      -0.0003381      1.0484e-008    
END_DB

BEGIN_DB
 ICCAP_VAR VS         0              
 ICCAP_VAR VB         0              
 ICCAP_VAR VD         -5             

 #VG              IG              ID              IB             
  0               5.132e-010      6.195e-010      -1.1144e-008   
  -0.05           1.1716e-009     2.2169e-009     -1.0171e-008   
  -0.1            -2.261e-010     1.9484e-009     1.1271e-008    
  -0.15           -6.67e-011      2.0294e-009     1.0696e-008    
  -0.2            1.048e-010      2.1243e-009     1.0425e-008    
  -0.25           2.983e-010      2.2267e-009     1.0507e-008    
  -0.3            4.857e-010      2.2916e-009     1.0862e-008    
  -0.35           6.655e-010      2.2895e-009     1.121e-008     
  -0.4            8.214e-010      2.1299e-009     1.1171e-008    
  -0.45           -1.3581e-009    6.483e-010      1.1204e-008    
  -0.5            -1.3382e-009    -2.8392e-009    8.605e-009     
  -0.55           -2.7479e-009    -1.1728e-008    -2.3436e-008   
  -0.6            -2.282e-010     -3.9272e-008    -1.0391e-008   
  -0.65           5.13e-010       -1.235e-007     -9.659e-009    
  -0.7            8.993e-010      -4.0741e-007    2.0393e-008    
  -0.75           -1.3331e-009    -1.1961e-006    2.0055e-008    
  -0.8            -2.3376e-009    -3.1789e-006    7.621e-008     
  -0.85           2.7239e-009     -7.5175e-006    1.3499e-007    
  -0.9            -2.3304e-009    -1.5467e-005    2.9708e-007    
  -0.95           -2.6319e-009    -2.8154e-005    4.8187e-007    
  -1              -2.6183e-009    -4.6181e-005    7.5553e-007    
  -1.05           -2.3246e-009    -6.9755e-005    1.08414e-006   
  -1.1            -1.7828e-009    -9.8899e-005    1.4455e-006    
  -1.15           -1.013e-009     -0.00013248     1.819e-006     
  -1.2            -1.4242e-009    -0.00017124     2.2427e-006    
  -1.25           -1.6966e-009    -0.00021515     2.6526e-006    
  -1.3            -1.9951e-009    -0.00026266     3.0528e-006    
  -1.35           -2.3874e-009    -0.00031368     3.4423e-006    
  -1.4            -2.5343e-009    -0.00036782     3.8034e-006    
  -1.45           -2.3971e-009    -0.00042502     4.1523e-006    
  -1.5            -1.948e-009     -0.00048481     4.4575e-006    
  -1.55           -1.4269e-009    -0.00054731     4.7405e-006    
  -1.6            -1.2363e-009    -0.00061215     4.9903e-006    
  -1.65           -2.5811e-009    -0.00067922     5.2054e-006    
  -1.7            -2.2887e-009    -0.00074882     5.3706e-006    
  -1.75           -1.7357e-009    -0.00081951     5.5152e-006    
  -1.8            -1.3725e-009    -0.00089309     5.6292e-006    
  -1.85           -1.2874e-009    -0.00096724     5.7116e-006    
  -1.9            -2.5462e-009    -0.0010425      5.757e-006     
  -1.95           -2.0676e-009    -0.00112008     5.7611e-006    
  -2              1.298e-009      -0.0011991      5.778e-006     
  -2.05           2.8124e-009     -0.001279       5.7019e-006    
  -2.1            2.2665e-009     -0.0013587      5.6488e-006    
  -2.15           1.6109e-009     -0.0014403      5.5602e-006    
  -2.2            1.3087e-009     -0.0015227      5.4498e-006    
  -2.25           2.8907e-009     -0.0016064      5.3293e-006    
  -2.3            2.5373e-009     -0.0016896      5.2007e-006    
  -2.35           1.8727e-009     -0.0017746      5.0503e-006    
  -2.4            1.3804e-009     -0.0018602      4.882e-006     
  -2.45           2.9219e-009     -0.0019465      4.7091e-006    
  -2.5            2.741e-009      -0.002033       4.5391e-006    
  -2.55           2.206e-009      -0.0021207      4.3538e-006    
  -2.6            1.5572e-009     -0.0022089      4.1627e-006    
  -2.65           1.2816e-009     -0.0022976      3.9662e-006    
  -2.7            2.8662e-009     -0.0023871      3.7723e-006    
  -2.75           2.496e-009      -0.0024762      3.5887e-006    
  -2.8            1.8201e-009     -0.0025664      3.3968e-006    
  -2.85           1.3592e-009     -0.0026571      3.2048e-006    
  -2.9            2.9166e-009     -0.0027478      3.0155e-006    
  -2.95           2.7135e-009     -0.0028385      2.8447e-006    
  -3              2.1535e-009     -0.0029305      2.6671e-006    
  -3.05           1.5204e-009     -0.0030224      2.4926e-006    
  -3.1            1.2753e-009     -0.0031152      2.3245e-006    
  -3.15           2.8549e-009     -0.0032082      2.1633e-006    
  -3.2            2.4626e-009     -0.0033005      2.0208e-006    
  -3.25           1.7851e-009     -0.0033934      1.8722e-006    
  -3.3            1.3478e-009     -0.0034871      1.7279e-006    
  -3.35           2.9145e-009     -0.0035805      1.5957e-006    
  -3.4            2.6973e-009     -0.0036739      1.4826e-006    
  -3.45           2.1213e-009     -0.0037685      1.3648e-006    
  -3.5            1.5036e-009     -0.0038626      1.2493e-006    
  -3.55           1.2704e-009     -0.0039578      1.1413e-006    
  -3.6            2.846e-009      -0.0040524      1.0425e-006    
  -3.65           -2.2696e-009    -0.0041449      9.5546e-007    
  -3.7            -2.655e-009     -0.0042415      8.7201e-007    
  -3.75           -2.7831e-009    -0.0043365      7.9547e-007    
  -3.8            -2.6248e-009    -0.0044311      7.2739e-007    
  -3.85           -2.1471e-009    -0.0045257      6.6011e-007    
  -3.9            -1.6098e-009    -0.004621       6.0158e-007    
  -3.95           -1.4073e-009    -0.0047152      5.4817e-007    
  -4              -1.3473e-009    -0.004811       4.9772e-007    
  -4.05           -2.425e-009     -0.0049063      4.4977e-007    
  -4.1            -1.8432e-009    -0.0050021      3.9764e-007    
  -4.15           -1.4669e-009    -0.0050974      3.6202e-007    
  -4.2            -1.3715e-009    -0.0051927      3.2873e-007    
  -4.25           -2.6149e-009    -0.0052883      2.9495e-007    
  -4.3            -2.1145e-009    -0.0053842      2.5628e-007    
  -4.35           -1.5905e-009    -0.0054801      2.3319e-007    
  -4.4            -1.4028e-009    -0.005575       2.1224e-007    
  -4.45           -1.3423e-009    -0.005671       1.9174e-007    
  -4.5            -2.397e-009     -0.0057661      1.7213e-007    
  -4.55           -1.812e-009     -0.0058629      1.4556e-007    
  -4.6            -1.4561e-009    -0.0059582      1.3385e-007    
  -4.65           -1.3681e-009    -0.0060534      1.2265e-007    
  -4.7            -2.5948e-009    -0.0061489      1.0889e-007    
  -4.75           -2.0814e-009    -0.0062452      8.885e-008     
  -4.8            1.4624e-009     -0.0063427      5.5266e-008    
  -4.85           1.2595e-009     -0.0064377      5.9456e-008    
  -4.9            2.8193e-009     -0.0065333      4.8475e-008    
  -4.95           2.3584e-009     -0.0066275      5.3247e-008    
  -5              1.6805e-009     -0.0067236      4.212e-008     
END_DB

BEGIN_DB
 ICCAP_VAR VS         0              
 ICCAP_VAR VB         2.5            
 ICCAP_VAR VD         -0.1           

 #VG              IG              ID              IB             
  0               -1.3e-009       -1.1218e-009    -1.5415e-008   
  -0.05           5.51e-011       -1.9668e-009    -1.1434e-008   
  -0.1            -9.87e-011      -2.0915e-009    -1.0922e-008   
  -0.15           -2.841e-010     -2.1965e-009    -1.1091e-008   
  -0.2            -4.735e-010     -2.2619e-009    -1.1111e-008   
  -0.25           1.265e-009      -1.4395e-009    -2.5131e-008   
  -0.3            2.909e-009      -1.6e-011       -1.2652e-008   
  -0.35           1.8292e-009     1.56e-009       4.05e-010      
  -0.4            3.77e-010       2.2824e-009     1.0676e-008    
  -0.45           5.722e-010      2.3439e-009     1.1046e-008    
  -0.5            7.57e-010       2.3709e-009     1.1252e-008    
  -0.55           8.987e-010      2.3568e-009     1.1131e-008    
  -0.6            1.006e-009      2.3101e-009     1.1297e-008    
  -0.65           1.1551e-009     2.2233e-009     1.1998e-008    
  -0.7            -2.441e-010     1.961e-009      1.1339e-008    
  -0.75           -8.25e-011      2.0433e-009     1.0775e-008    
  -0.8            7.99e-011       2.1281e-009     1.037e-008     
  -0.85           2.617e-010      2.2288e-009     1.0574e-008    
  -0.9            4.582e-010      2.3062e-009     1.0687e-008    
  -0.95           6.486e-010      2.3338e-009     1.1174e-008    
  -1              8.147e-010      2.2433e-009     1.1244e-008    
  -1.05           -1.3644e-009    8.84e-010       1.1106e-008    
  -1.1            -1.3398e-009    -2.5186e-009    8.581e-009     
  -1.15           -2.7556e-009    -1.2608e-008    -2.3486e-008   
  -1.2            -1.974e-010     -4.8574e-008    -1.1406e-008   
  -1.25           -2.7373e-009    -1.7425e-007    1.0681e-008    
  -1.3            -2.559e-010     -5.7877e-007    -1.1213e-008   
  -1.35           1.2595e-009     -1.6735e-006    1.0746e-008    
  -1.4            2.8226e-009     -4.1274e-006    -1.2471e-008   
  -1.45           1.3979e-009     -8.3667e-006    1.1774e-008    
  -1.5            -2.0189e-009    -1.4214e-005    1.2869e-008    
  -1.55           1.81e-011       -2.1848e-005    -1.2048e-008   
  -1.6            -4.353e-010     -3e-005         -1.0961e-008   
  -1.65           2.1808e-009     -3.8593e-005    -2.5926e-008   
  -1.7            1.5215e-009     -4.7148e-005    -7.317e-009    
  -1.75           1.2774e-009     -5.5522e-005    -9.366e-009    
  -1.8            2.8498e-009     -6.3735e-005    -1.1496e-008   
  -1.85           1.3185e-009     -7.1566e-005    1.1472e-008    
  -1.9            1.7991e-009     -7.9021e-005    1.2905e-008    
  -1.95           6.37e-010       -8.6045e-005    1.053e-008     
  -2              9.833e-010      -9.3044e-005    1.1197e-008    
  -2.05           1.3805e-009     -9.9788e-005    1.1774e-008    
  -2.1            2.217e-010      -0.000105974    1.0708e-008    
  -2.15           7.016e-010      -0.000112227    1.0698e-008    
  -2.2            2.5943e-009     -0.00011824     1.0456e-008    
  -2.25           1.5096e-009     -0.00012416     1.244e-008     
  -2.3            3.417e-010      -0.0001296      1.0471e-008    
  -2.35           7.962e-010      -0.00013507     1.0996e-008    
  -2.4            1.1208e-009     -0.00014042     1.1139e-008    
  -2.45           1.5784e-009     -0.00014563     1.2648e-008    
  -2.5            2.0292e-009     -0.00015056     1.2698e-008    
  -2.55           8.376e-010      -0.00015536     1.1089e-008    
  -2.6            1.1729e-009     -0.00016013     1.1159e-008    
  -2.65           6.4e-012        -0.00016464     1.1238e-008    
  -2.7            4.722e-010      -0.00016911     1.0509e-008    
  -2.75           8.805e-010      -0.00017352     1.1145e-008    
  -2.8            1.226e-009      -0.00017784     1.1178e-008    
  -2.85           1.7012e-009     -0.00018202     1.2798e-008    
  -2.9            2.1347e-009     -0.000186       1.257e-008     
  -2.95           9.235e-010      -0.00018996     1.1265e-008    
  -3              1.2774e-009     -0.00019387     1.14e-008      
  -3.05           1.7649e-009     -0.00019767     1.2913e-008    
  -3.1            5.92e-010       -0.00020125     1.0501e-008    
  -3.15           9.58e-010       -0.00020493     1.1212e-008    
  -3.2            1.3379e-009     -0.00020851     1.152e-008     
  -3.25           1.816e-009      -0.00021196     1.2863e-008    
  -3.3            6.493e-010      -0.00021529     1.0574e-008    
  -3.35           9.913e-010      -0.00021863     1.1171e-008    
  -3.4            1.4011e-009     -0.00022193     1.1973e-008    
  -3.45           2.417e-010      -0.00022502     1.0616e-008    
  -3.5            7.164e-010      -0.00022817     1.0777e-008    
  -3.55           1.0395e-009     -0.00023129     1.1128e-008    
  -3.6            1.4678e-009     -0.00023431     1.2315e-008    
  -3.65           3.052e-010      -0.00023715     1.049e-008     
  -3.7            7.713e-010      -0.00024013     1.0784e-008    
  -3.75           1.0897e-009     -0.000243       1.1079e-008    
  -3.8            1.5369e-009     -0.00024583     1.2538e-008    
  -3.85           1.9916e-009     -0.00024852     1.2761e-008    
  -3.9            8.176e-010      -0.00025115     1.0996e-008    
  -3.95           1.1392e-009     -0.00025379     1.1071e-008    
  -4              -2.25e-011      -0.00025638     1.1381e-008    
  -4.05           4.374e-010      -0.00025886     1.0414e-008    
  -4.1            8.631e-010      -0.00026137     1.1202e-008    
  -4.15           1.1937e-009     -0.00026388     1.1157e-008    
