! VERSION = 6.00
BEGIN_HEADER
 ICCAP_INPUTS
  VG         V  B GROUND SMU4 0.001 LIN        2    0          -5         6    -1        
  VS         V  E GROUND SMU2 0.1 CON        0
  VD         V  S GROUND SMU1 0.1 LIN        1    0          -5         101  -0.05     
  VB         V  C GROUND SMU3 0.1 LIN        3    0          2.5        2    2.5       
 ICCAP_OUTPUTS
  ID         I  S GROUND SMU1 B
  IB         I  C GROUND SMU3 B
  IG         I  B GROUND SMU4 B
END_HEADER

BEGIN_DB
 ICCAP_VAR VG         0              
 ICCAP_VAR VS         0              
 ICCAP_VAR VB         0              

 #VD              ID              IB              IG             
  0               -5.885e-010     -2.147e-008     -5.327e-010    
  -0.05           -5.77e-011      8.387e-009      -1.3675e-009   
  -0.1            9.12e-011       8.613e-009      -2.686e-009    
  -0.15           -1.352e-009     4.83e-010       -1.8832e-009   
  -0.2            -2.2746e-009    -1.168e-008     -5.995e-010    
  -0.25           -1.5366e-009    -2.1655e-008    2.2972e-009    
  -0.3            2.0671e-009     -6.227e-009     1.3997e-009    
  -0.35           1.8316e-009     1.2033e-008     1.5833e-009    
  -0.4            2.1336e-009     1.0543e-008     6.86e-011      
  -0.45           2.2331e-009     1.0978e-008     2.911e-010     
  -0.5            2.3085e-009     1.1289e-008     5.044e-010     
  -0.55           2.3551e-009     1.1462e-008     6.975e-010     
  -0.6            2.3557e-009     1.1174e-008     8.761e-010     
  -0.65           2.3217e-009     1.1038e-008     1.0353e-009    
  -0.7            1.85e-009       1.2147e-008     -1.5496e-009   
  -0.75           -1.4237e-009    8.748e-009      -1.8368e-009   
  -0.8            -2.2572e-009    -1.1673e-008    -4.995e-010    
  -0.85           -1.4719e-009    -2.3951e-008    2.439e-009     
  -0.9            2.1523e-009     -4.779e-009     1.3043e-009    
  -0.95           1.9557e-009     1.2289e-008     1.4876e-009    
  -1              1.7193e-009     1.1937e-008     1.6696e-009    
  -1.05           1.4916e-009     1.1082e-008     1.8577e-009    
  -1.1            2.2726e-009     1.115e-008      3.924e-010     
  -1.15           2.3334e-009     1.1383e-008     5.971e-010     
  -1.2            2.3566e-009     1.13e-008       7.863e-010     
  -1.25           2.3423e-009     1.0979e-008     9.522e-010     
  -1.3            2.2858e-009     1.1514e-008     1.1122e-009    
  -1.35           1.897e-009      1.1495e-008     -1.4981e-009   
  -1.4            -1.359e-009     8.997e-009      -1.8845e-009   
  -1.45           -1.6747e-009    -1.4594e-008    1.7715e-009    
  -1.5            1.673e-009      -9.177e-009     1.7286e-009    
  -1.55           1.4221e-009     1.1095e-008     1.9175e-009    
  -1.6            2.294e-009      1.1221e-008     4.392e-010     
  -1.65           2.3482e-009     1.1553e-008     6.543e-010     
  -1.7            2.3547e-009     1.1135e-008     8.365e-010     
  -1.75           2.3299e-009     1.0945e-008     1.004e-009     
  -1.8            1.8295e-009     1.2495e-008     -1.5789e-009   
  -1.85           -1.4581e-009    8.45e-009       -1.816e-009    
  -1.9            -2.2474e-009    -1.1566e-008    -4.253e-010    
  -1.95           -1.4509e-009    -2.485e-008     2.5035e-009    
  -2              2.1907e-009     -4.346e-009     1.2672e-009    
  -2.05           1.9757e-009     1.0981e-008     -2.385e-010    
  -2.1            2.0585e-009     1.0519e-008     -9.83e-011     
  -2.15           2.1615e-009     1.0677e-008     9.09e-011      
  -2.2            2.2585e-009     1.1123e-008     3.08e-010      
  -2.25           2.3237e-009     1.1483e-008     5.435e-010     
  -2.3            2.354e-009      1.1422e-008     7.473e-010     
  -2.35           2.3481e-009     1.0985e-008     9.128e-010     
  -2.4            2.3053e-009     1.1204e-008     1.0756e-009    
  -2.45           1.8741e-009     1.174e-008      -1.5166e-009   
  -2.5            -1.3929e-009    8.918e-009      -1.8622e-009   
  -2.55           -1.658e-009     -1.5381e-008    1.8419e-009    
  -2.6            1.7294e-009     -9.129e-009     1.6782e-009    
  -2.65           1.477e-009      1.1137e-008     1.8722e-009    
  -2.7            2.273e-009      1.1334e-008     3.71e-010      
  -2.75           2.3355e-009     1.1476e-008     6.07e-010      
  -2.8            2.3507e-009     1.1301e-008     7.953e-010     
  -2.85           2.3367e-009     1.0901e-008     9.625e-010     
  -2.9            2.2758e-009     1.1532e-008     1.1236e-009    
  -2.95           1.8992e-009     1.14e-008       -1.4887e-009   
  -3              -1.3599e-009    8.899e-009      -1.8878e-009   
  -3.05           -1.683e-009     -1.4472e-008    1.7595e-009    
  -3.1            1.6532e-009     -9.056e-009     1.7363e-009    
  -3.15           2.0608e-009     1.1138e-008     -6.11e-011     
  -3.2            2.175e-009      1.0784e-008     1.323e-010     
  -3.25           2.261e-009      1.1246e-008     3.582e-010     
  -3.3            2.3233e-009     1.1446e-008     5.859e-010     
  -3.35           2.3461e-009     1.1248e-008     7.777e-010     
  -3.4            2.3314e-009     1.0935e-008     9.454e-010     
  -3.45           2.2829e-009     1.1338e-008     1.1036e-009    
  -3.5            1.8781e-009     1.151e-008      -1.504e-009    
  -3.55           -1.3809e-009    8.916e-009      -1.876e-009    
  -3.6            -1.6831e-009    -1.4853e-008    1.797e-009     
  -3.65           1.672e-009      -9.19e-009      1.7143e-009    
  -3.7            2.0427e-009     1.1092e-008     -8.05e-011     
  -3.75           2.1485e-009     1.0611e-008     1.097e-010     
  -3.8            2.2398e-009     1.111e-008      3.416e-010     
  -3.85           2.3032e-009     1.1463e-008     5.647e-010     
  -3.9            2.3297e-009     1.1325e-008     7.565e-010     
  -3.95           2.3206e-009     1.0991e-008     9.24e-010      
  -4              2.2742e-009     1.1089e-008     1.082e-009     
  -4.05           1.848e-009      1.1668e-008     -1.5162e-009   
  -4.1            -1.4226e-009    8.951e-009      -1.8635e-009   
  -4.15           -2.3046e-009    -1.1701e-008    -5.453e-010    
  -4.2            -1.5518e-009    -2.3179e-008    2.3783e-009    
  -4.25           2.0805e-009     -5.461e-009     1.3498e-009    
  -4.3            1.8433e-009     1.2057e-008     -1.5e-009      
  -4.35           -1.4171e-009    8.929e-009      -1.8811e-009   
  -4.4            -1.7256e-009    -1.4835e-008    1.7937e-009    
  -4.45           2.2935e-009     -9.175e-009     7.444e-010     
  -4.5            2.2872e-009     1.1023e-008     9.15e-010      
  -4.55           1.6978e-009     1.3624e-008     -1.665e-009    
  -4.6            -1.6387e-009    7.454e-009      -1.7509e-009   
  -4.65           -2.2985e-009    -1.1296e-008    -3.276e-010    
  -4.7            -1.4632e-009    -2.6393e-008    1.2918e-009    
  -4.75           -2.81e-011      -1.1116e-008    2.8992e-009    
  -4.8            2.2381e-009     2.32e-010       6.3e-010       
  -4.85           2.2464e-009     1.1313e-008     8.074e-010     
  -4.9            1.5649e-009     1.5888e-008     -1.3464e-009   
  -4.95           1.792e-010      1.2127e-008     -2.5378e-009   
  -5              -2.3679e-009    -1.1228e-008    -3.449e-010    
END_DB

BEGIN_DB
 ICCAP_VAR VG         -1             
 ICCAP_VAR VS         0              
 ICCAP_VAR VB         0              

 #VD              ID              IB              IG             
  0               -2.9853e-008    1.0477e-008     -1.5359e-009   
  -0.05           -1.7316e-006    -1.0899e-008    -1.4782e-009   
  -0.1            -3.0218e-006    1.1298e-008     7.484e-010     
  -0.15           -3.9523e-006    -1.9785e-008    1.8679e-009    
  -0.2            -4.6179e-006    -8.605e-009     -1.8989e-009   
  -0.25           -5.1424e-006    1.7001e-008     -1.5948e-009   
  -0.3            -5.5921e-006    1.1285e-008     2.1694e-009    
  -0.35           -5.9674e-006    -1.4311e-008    2.519e-010     
  -0.4            -6.2263e-006    9.032e-009      -1.3695e-009   
  -0.45           -6.5606e-006    1.0989e-008     1.2111e-009    
  -0.5            -6.8242e-006    -2.5306e-008    1.332e-009     
  -0.55           -7.0739e-006    -1.3394e-008    2.104e-010     
  -0.6            -7.2488e-006    9.273e-009      -1.3621e-009   
  -0.65           -7.5333e-006    1.1129e-008     1.2905e-009    
  -0.7            -7.746e-006     -2.6241e-008    1.3015e-009    
  -0.75           -7.9114e-006    -1.1718e-008    -1.0248e-009   
  -0.8            -8.1014e-006    2.266e-008      -1.5336e-009   
  -0.85           -8.3348e-006    1.1174e-008     6.556e-010     
  -0.9            -8.5771e-006    -1.9313e-008    2.0186e-009    
  -0.95           -8.7662e-006    -2.5649e-008    2.1732e-009    
  -1              -8.9734e-006    -2.6848e-008    2.3528e-009    
  -1.05           -9.1788e-006    -1.1396e-008    -1.75e-011     
  -1.1            -9.3103e-006    8.169e-009      -2.5624e-009   
  -1.15           -9.5952e-006    1.1752e-008     1.3792e-009    
  -1.2            -9.7759e-006    -2.6966e-008    1.2797e-009    
  -1.25           -9.9926e-006    -1.1958e-008    1.116e-010     
  -1.3            -1.00988e-005   8.42e-009       -2.6745e-009   
  -1.35           -1.03109e-005   1.5699e-008     -1.5414e-009   
  -1.4            -1.05154e-005   1.1041e-008     6.311e-010     
  -1.45           -1.07572e-005   -1.9096e-008    2.0402e-009    
  -1.5            -1.09533e-005   -1.0936e-008    -2.336e-010    
  -1.55           -1.10538e-005   1.0516e-008     -2.3669e-009   
  -1.6            -1.1297e-005    1.0491e-008     -2.5959e-009   
  -1.65           -1.152e-005     1.1599e-008     9.223e-010     
  -1.7            -1.1733e-005    -2.7143e-008    1.2785e-009    
  -1.75           -1.1901e-005    -1.0962e-008    -4.371e-010    
  -1.8            -1.2044e-005    2.2252e-008     -1.5526e-009   
  -1.85           -1.2324e-005    1.1263e-008     1.1016e-009    
  -1.9            -1.252e-005     -2.6277e-008    2.2809e-009    
  -1.95           -1.2673e-005    -1.1551e-008    -7.236e-010    
  -2              -1.2839e-005    2.5348e-008     -1.4492e-009   
  -2.05           -1.3139e-005    1.1114e-008     1.2936e-009    
  -2.1            -1.3302e-005    -2.2661e-008    1.9318e-009    
  -2.15           -1.3531e-005    -1.3943e-008    2.228e-010     
  -2.2            -1.3613e-005    9.326e-009      -2.4421e-009   
  -2.25           -1.3924e-005    1.183e-008      2.0171e-009    
  -2.3            -1.4116e-005    -1.1548e-008    5.2e-011       
  -2.35           -1.4234e-005    1.4934e-008     -2.0339e-009   
  -2.4            -1.4479e-005    1.1363e-008     7.094e-010     
  -2.45           -1.4735e-005    -2.4878e-008    1.3503e-009    
  -2.5            -1.4906e-005    -1.0996e-008    -1.653e-010    
  -2.55           -1.5037e-005    1.8905e-008     -1.7578e-009   
  -2.6            -1.5308e-005    1.162e-008      9.114e-010     
  -2.65           -1.5545e-005    -2.6897e-008    1.2815e-009    
  -2.7            -1.5705e-005    -1.0759e-008    -4.221e-010    
  -2.75           -1.5861e-005    2.2202e-008     -1.5572e-009   
  -2.8            -1.6153e-005    1.1504e-008     1.0912e-009    
  -2.85           -1.6342e-005    -2.6128e-008    2.2981e-009    
  -2.9            -1.6517e-005    -1.1128e-008    -6.967e-010    
  -2.95           -1.6671e-005    2.554e-008      -1.4558e-009   
  -3              -1.7003e-005    1.1615e-008     1.284e-009     
  -3.05           -1.7225e-005    -1.4253e-008    2.6868e-009    
  -3.1            -1.7383e-005    -1.0121e-008    -2.938e-010    
  -3.15           -1.7524e-005    2.1721e-008     -1.6405e-009   
  -3.2            -1.7806e-005    1.2773e-008     1.0093e-009    
  -3.25           -1.8063e-005    -9.205e-009     2.8676e-009    
  -3.3            -1.8277e-005    -1.5307e-008    2.4006e-009    
  -3.35           -1.8429e-005    -8.891e-009     -6.008e-010    
  -3.4            -1.858e-005     2.6953e-008     -1.4809e-009   
  -3.45           -1.8907e-005    1.4451e-008     1.2141e-009    
  -3.5            -1.9145e-005    -9.998e-009     2.7448e-009    
  -3.55           -1.9338e-005    -1.3967e-008    2.0151e-009    
  -3.6            -1.9588e-005    -8.824e-009     2.6982e-009    
  -3.65           -1.9779e-005    -1.2492e-008    1.9247e-009    
  -3.7            -2.0024e-005    -6.809e-009     2.6493e-009    
  -3.75           -2.0219e-005    -9.596e-009     1.8505e-009    
  -3.8            -2.0378e-005    5.409e-009      -2.2583e-009   
  -3.85           -2.0597e-005    2.5192e-008     5.21e-010      
  -3.9            -2.0876e-005    7.8e-009        1.3032e-009    
  -3.95           -2.1055e-005    1.3435e-008     -2.7072e-009   
  -4              -2.1327e-005    3.4675e-008     1.0868e-009    
  -4.05           -2.1557e-005    9.24e-010       2.2991e-009    
  -4.1            -2.1731e-005    2.4566e-008     -2.0364e-009   
  -4.15           -2.1932e-005    4.7694e-008     1.757e-010     
  -4.2            -2.2266e-005    2.3022e-008     1.7937e-009    
  -4.25           -2.2439e-005    4.3256e-008     -2.2839e-009   
  -4.3            -2.2675e-005    6.8693e-008     5.694e-010     
  -4.35           -2.3002e-005    4.2889e-008     1.4273e-009    
  -4.4            -2.3179e-005    7.0925e-008     -2.5668e-009   
  -4.45           -2.3429e-005    9.9271e-008     -9.83e-010     
  -4.5            -2.3725e-005    1.0866e-007     -2.1375e-009   
  -4.55           -2.3971e-005    1.2596e-007     2.2185e-009    
  -4.6            -2.4237e-005    1.1895e-007     -1.725e-010    
  -4.65           -2.4399e-005    1.6731e-007     -1.7243e-009   
  -4.7            -2.4724e-005    1.772e-007      2.437e-009     
  -4.75           -2.4989e-005    1.7794e-007     -5.755e-010    
  -4.8            -2.5195e-005    2.3769e-007     -1.4696e-009   
  -4.85           -2.5559e-005    2.4954e-007     2.6565e-009    
  -4.9            -2.5817e-005    2.5859e-007     -8.902e-010    
  -4.95           -2.6038e-005    3.3152e-007     -1.3635e-009   
  -5              -2.6423e-005    3.5148e-007     2.8758e-009    
END_DB

BEGIN_DB
 ICCAP_VAR VG         -2             
 ICCAP_VAR VS         0              
 ICCAP_VAR VB         0              

 #VD              ID              IB              IG             
  0               -1.3109e-007    -1.2016e-008    2.8874e-009    
  -0.05           -8.3742e-006    1.2012e-008     2.265e-009     
  -0.1            -1.6239e-005    -1.1638e-008    2.8565e-009    
  -0.15           -2.3739e-005    -1.5845e-008    1.5159e-009    
  -0.2            -3.0833e-005    -1.1695e-008    2.74e-011      
  -0.25           -3.7459e-005    1.4861e-008     -2.0459e-009   
  -0.3            -4.372e-005     1.1267e-008     7.083e-010     
  -0.35           -4.9561e-005    -2.4819e-008    1.357e-009     
  -0.4            -5.4934e-005    -1.1049e-008    -2.065e-010    
  -0.45           -5.9837e-005    1.8946e-008     -1.7594e-009   
  -0.5            -6.4428e-005    1.1595e-008     9.124e-010     
  -0.55           -6.8609e-005    -2.7018e-008    1.2793e-009    
  -0.6            -7.2369e-005    -1.0882e-008    -4.696e-010    
  -0.65           -7.5723e-005    2.2112e-008     -1.5587e-009   
  -0.7            -7.8943e-005    1.1213e-008     1.0955e-009    
  -0.75           -8.174e-005     -2.6442e-008    2.2794e-009    
  -0.8            -8.4249e-005    -1.1574e-008    -7.176e-010    
  -0.85           -8.6495e-005    2.5185e-008     -1.4519e-009   
  -0.9            -8.8773e-005    1.1217e-008     1.2959e-009    
  -0.95           -9.0663e-005    -1.5095e-008    2.6712e-009    
  -1              -9.2374e-005    -1.0834e-008    -3.737e-010    
  -1.05           -9.3895e-005    2.1005e-008     -1.6264e-009   
  -1.1            -9.5517e-005    1.1292e-008     1.0246e-009    
  -1.15           -9.6931e-005    -2.7107e-008    2.4191e-009    
  -1.2            -9.8196e-005    -1.116e-008     -6.212e-010    
  -1.25           -9.933e-005     2.4073e-008     -1.4841e-009   
  -1.3            -0.000100501    2.7051e-008     -1.3683e-009   
  -1.35           -0.000101852    1.2313e-008     1.7613e-009    
  -1.4            -0.000102876    -1.3224e-008    2.325e-010     
  -1.45           -0.000103683    1.032e-008      -2.3861e-009   
  -1.5            -0.000104938    1.1243e-008     2.0716e-009    
  -1.55           -0.000105809    -1.1405e-008    -2.62e-011     
  -1.6            -0.000106552    1.6023e-008     -1.9614e-009   
  -1.65           -0.00010755     1.1384e-008     7.656e-010     
  -1.7            -0.000108508    -2.5479e-008    1.3269e-009    
  -1.75           -0.00010932     -1.1017e-008    -2.839e-010    
  -1.8            -0.000110117    1.9924e-008     -1.6901e-009   
  -1.85           -0.000110966    1.1565e-008     9.637e-010     
  -1.9            -0.000111807    -2.7215e-008    2.5082e-009    
  -1.95           -0.000112537    -1.0968e-008    -5.456e-010    
  -2              -0.000113275    2.2999e-008     -1.5166e-009   
  -2.05           -0.00011404     1.1043e-008     -3.058e-010    
  -2.1            -0.00011466     2.199e-008      -1.5625e-009   
  -2.15           -0.00011541     2.7096e-008     -1.3707e-009   
  -2.2            -0.00011638     1.2042e-008     1.8791e-009    
  -2.25           -0.00011706     -1.1651e-008    3.13e-011      
  -2.3            -0.00011756     1.7296e-008     -1.8724e-009   
  -2.35           -0.00011842     1.1531e-008     9.447e-010     
  -2.4            -0.00011916     -2.6924e-008    2.3516e-009    
  -2.45           -0.00011978     -1.1682e-008    -8.034e-010    
  -2.5            -0.00012037     2.7358e-008     -1.4033e-009   
  -2.55           -0.00012132     1.2272e-008     1.6363e-009    
  -2.6            -0.00012196     -1.3098e-008    2.274e-010     
  -2.65           -0.00012241     1.2719e-008     -2.211e-009    
  -2.7            -0.00012317     1.1399e-008     7.242e-010     
  -2.75           -0.00012394     -2.6207e-008    1.2979e-009    
  -2.8            -0.00012452     -1.0871e-008    -5.429e-010    
  -2.85           -0.00012503     2.511e-008      -1.4617e-009   
  -2.9            -0.00012596     1.1848e-008     1.3948e-009    
  -2.95           -0.00012654     -1.6868e-008    1.5987e-009    
  -3              -0.00012713     -2.652e-008     2.3529e-009    
  -3.05           -0.00012779     -1.555e-008     1.5335e-009    
  -3.1            -0.00012841     -1.8173e-008    2.0526e-009    
  -3.15           -0.00012909     -1.2396e-008    2.273e-010     
  -3.2            -0.00012949     1.3742e-008     -2.2048e-009   
  -3.25           -0.00013022     1.2698e-008     7.296e-010     
  -3.3            -0.00013094     -2.4506e-008    1.2974e-009    
  -3.35           -0.00013157     -1.9312e-008    1.5182e-009    
  -3.4            -0.00013218     -1.6109e-008    2.0172e-009    
  -3.45           -0.00013279     -1.252e-008     2.5643e-009    
  -3.5            -0.00013344     -6.744e-009     2.8462e-009    
  -3.55           -0.00013398     -1.2594e-008    2.0936e-009    
  -3.6            -0.00013461     -8.148e-009     2.6135e-009    
  -3.65           -0.00013524     -1.685e-009     2.8597e-009    
  -3.7            -0.00013579     -6.927e-009     2.1576e-009    
  -3.75           -0.0001363      7.992e-009      -2.2041e-009   
  -3.8            -0.00013687     2.8371e-008     6.27e-010      
  -3.85           -0.00013754     2.0413e-008     2.451e-009     
  -3.9            -0.00013804     1.8304e-008     -2.0476e-009   
  -3.95           -0.00013863     4.1175e-008     3.985e-010     
  -4              -0.0001394      1.4387e-008     1.4603e-009    
  -4.05           -0.00013984     3.8678e-008     -2.646e-009    
  -4.1            -0.00014053     6.461e-008      1.0875e-009    
  -4.15           -0.0001411      3.9211e-008     2.0843e-009    
