! VERSION = 6.00
BEGIN_HEADER
 ICCAP_INPUTS
  VG         V  B GROUND SMU4 0.001 LIN        1    0          -5         101  -0.05     
  VS         V  E GROUND SMU2 0.1 CON        0
  VB         V  C GROUND SMU3 0.1 LIN        3    0          5          3    2.5       
  VD         V  S GROUND SMU1 0.1 LIN        2    -0.1       -5         2    -4.9      
 ICCAP_OUTPUTS
  IG         I  B GROUND SMU4 B
  ID         I  S GROUND SMU1 B
  IB         I  C GROUND SMU3 B
END_HEADER

BEGIN_DB
 ICCAP_VAR VS         0              
 ICCAP_VAR VB         0              
 ICCAP_VAR VD         -0.1           

 #VG              IG              ID              IB             
  0               1.4517e-009     1.7196e-009     -1.0917e-008   
  -0.05           -9.84e-011      1.9984e-009     1.0904e-008    
  -0.1            7.41e-011       2.0904e-009     1.0273e-008    
  -0.15           2.542e-010      2.2033e-009     1.0421e-008    
  -0.2            4.488e-010      2.3018e-009     1.0642e-008    
  -0.25           6.426e-010      2.3555e-009     1.1018e-008    
  -0.3            -1.3195e-009    1.5621e-009     2.0701e-008    
  -0.35           -2.6578e-009    2.187e-010      1.3025e-008    
  -0.4            -1.9865e-009    -1.2981e-009    7.39e-010      
  -0.45           -7.39e-010      -2.3268e-009    -1.1448e-008   
  -0.5            2.1219e-009     -1.7494e-009    -1.7698e-008   
  -0.55           5.464e-010      1.8283e-009     -8.231e-009    
  -0.6            -2.1334e-009    -2.4678e-009    2.3421e-008    
  -0.65           -1.8675e-009    -6.4959e-009    3.879e-009     
  -0.7            -2.5654e-009    -1.9374e-008    -1.1372e-008   
  -0.75           -2.0047e-009    -5.3328e-008    1.295e-009     
  -0.8            -1.145e-010     -1.2332e-007    -9.26e-009     
  -0.85           3.137e-010      -2.4515e-007    1.0355e-008    
  -0.9            7.568e-010      -4.2136e-007    1.0698e-008    
  -0.95           -1.5644e-009    -6.3936e-007    1.7632e-008    
  -1              -1.3694e-009    -8.8928e-007    9.067e-009     
  -1.05           -2.7884e-009    -1.1631e-006    -2.5972e-008   
  -1.1            -1.079e-010     -1.4539e-006    -1.1487e-008   
  -1.15           -6.157e-010     -1.7411e-006    -1.0936e-008   
  -1.2            1.8819e-009     -2.0352e-006    -2.028e-008    
  -1.25           1.3746e-009     -2.3232e-006    -9.406e-009    
  -1.3            1.2498e-009     -2.6117e-006    -8.464e-009    
  -1.35           2.7018e-009     -2.8956e-006    -1.2844e-008   
  -1.4            2.522e-009      -3.1682e-006    8.827e-009     
  -1.45           4.285e-010      -3.4383e-006    1.0357e-008    
  -1.5            8.63e-010       -3.7081e-006    1.1008e-008    
  -1.55           -1.4883e-009    -3.9686e-006    1.5155e-008    
  -1.6            -1.3498e-009    -4.2243e-006    9.96e-009      
  -1.65           -2.6284e-009    -4.4737e-006    1.1374e-008    
  -1.7            -2.1181e-009    -4.7212e-006    9.14e-010      
  -1.75           -1.5704e-009    -4.961e-006     4.046e-009     
  -1.8            -1.3735e-009    -5.1985e-006    8.629e-009     
  -1.85           -2.7066e-009    -5.4283e-006    1.1609e-008    
  -1.9            -2.3002e-009    -5.6559e-006    6.44e-010      
  -1.95           -1.7069e-009    -5.8769e-006    2.917e-009     
  -2              -1.4066e-009    -6.0932e-006    7.036e-009     
  -2.05           -1.3234e-009    -6.3048e-006    1.1218e-008    
  -2.1            -2.4725e-009    -6.512e-006     1.232e-008     
  -2.15           -1.8622e-009    -6.7196e-006    2.092e-009     
  -2.2            -1.4572e-009    -6.9202e-006    5.56e-009      
  -2.25           -1.3446e-009    -7.1168e-006    1.0182e-008    
  -2.3            -2.5942e-009    -7.3088e-006    1.1277e-008    
  -2.35           -2.0569e-009    -7.5027e-006    1.038e-009     
  -2.4            -1.5367e-009    -7.6898e-006    4.449e-009     
  -2.45           -1.3635e-009    -7.8718e-006    9.331e-009     
  -2.5            -2.6835e-009    -8.0529e-006    1.1442e-008    
  -2.55           -2.2417e-009    -8.2336e-006    7.34e-010      
  -2.6            -1.6487e-009    -8.4073e-006    3.18e-009      
  -2.65           -1.3944e-009    -8.5799e-006    7.646e-009     
  -2.7            -1.3165e-009    -8.7498e-006    1.1392e-008    
  -2.75           -2.4245e-009    -8.9148e-006    1.3057e-008    
  -2.8            -1.8172e-009    -9.0825e-006    2.463e-009     
  -2.85           -1.4383e-009    -9.2435e-006    6.026e-009     
  -2.9            -1.3338e-009    -9.4027e-006    1.048e-008     
  -2.95           -2.5666e-009    -9.558e-006     1.1466e-008    
  -3              -1.9944e-009    -9.7159e-006    1.441e-009     
  -3.05           -1.5065e-009    -9.8676e-006    4.632e-009     
  -3.1            -1.3574e-009    -1.00183e-005   9.481e-009     
  -3.15           -2.6639e-009    -1.01622e-005   1.1354e-008    
  -3.2            -2.1985e-009    -1.03113e-005   7.64e-010      
  -3.25           -1.6202e-009    -1.04547e-005   3.488e-009     
  -3.3            -1.3873e-009    -1.05929e-005   8.279e-009     
  -3.35           -1.3122e-009    -1.07333e-005   1.1552e-008    
  -3.4            -2.3883e-009    -1.08717e-005   1.3526e-008    
  -3.45           -1.7623e-009    -1.10111e-005   2.745e-009     
  -3.5            -1.4244e-009    -1.11431e-005   6.511e-009     
  -3.55           -1.3298e-009    -1.12743e-005   1.0691e-008    
  -3.6            2.681e-010      -1.1409e-005    1.195e-008     
  -3.65           -1.295e-010     -1.1533e-005    -1.1428e-008   
  -3.7            -6.37e-010      -1.1661e-005    -1.0973e-008   
  -3.75           1.8637e-009     -1.1788e-005    -2.0048e-008   
  -3.8            1.3714e-009     -1.191e-005     -9.391e-009    
  -3.85           1.2495e-009     -1.2028e-005    -8.455e-009    
  -3.9            2.695e-009      -1.2148e-005    -1.2997e-008   
  -3.95           6.28e-010       -1.2267e-005    1.0432e-008    
  -4              -1.7003e-009    -1.2387e-005    2.1237e-008    
  -4.05           -1.403e-009     -1.2501e-005    7.377e-009     
  -4.1            -1.3211e-009    -1.2618e-005    1.1261e-008    
  -4.15           -2.4651e-009    -1.2727e-005    1.2611e-008    
  -4.2            -7.887e-010     -1.2842e-005    -1.114e-008    
  -4.25           1.6647e-009     -1.2959e-005    -1.6901e-008   
  -4.3            1.3121e-009     -1.3059e-005    -9.117e-009    
  -4.35           2.8774e-009     -1.3169e-005    -8.64e-009     
  -4.4            1.268e-009      -1.3272e-005    1.0663e-008    
  -4.45           1.189e-010      -1.3376e-005    1.0963e-008    
  -4.5            5.683e-010      -1.348e-005     1.0495e-008    
  -4.55           -1.7764e-009    -1.3584e-005    2.2933e-008    
  -4.6            -1.4229e-009    -1.3684e-005    6.614e-009     
  -4.65           -1.329e-009     -1.3782e-005    1.0952e-008    
  -4.7            -2.5259e-009    -1.3879e-005    1.1751e-008    
  -4.75           -1.9384e-009    -1.3981e-005    1.887e-009     
  -4.8            -1.4816e-009    -1.4076e-005    5.047e-009     
  -4.85           -1.3506e-009    -1.4173e-005    1.0116e-008    
  -4.9            -2.6386e-009    -1.4262e-005    1.1304e-008    
  -4.95           -2.133e-009     -1.4356e-005    9.45e-010      
  -5              -1.5831e-009    -1.4446e-005    3.766e-009     
END_DB

BEGIN_DB
 ICCAP_VAR VS         0              
 ICCAP_VAR VB         0              
 ICCAP_VAR VD         -5             

 #VG              IG              ID              IB             
  0               -1.538e-009     -1.7167e-009    -5.127e-009    
  -0.05           1.82e-010       -1.8779e-009    -1.165e-008    
  -0.1            1.28e-011       -2.0149e-009    -1.1099e-008   
  -0.15           -1.753e-010     -2.1478e-009    -1.0874e-008   
  -0.2            -3.794e-010     -2.2378e-009    -1.1013e-008   
  -0.25           -6.023e-010     -2.2925e-009    -1.1416e-008   
  -0.3            1.2581e-009     -1.5446e-009    -2.0928e-008   
  -0.35           2.8775e-009     -2.088e-010     -1.2121e-008   
  -0.4            7.44e-011       1.7899e-009     1.0396e-008    
  -0.45           -1.6095e-009    -1.297e-010     1.0414e-008    
  -0.5            -1.4662e-009    -3.9109e-009    8.454e-009     
  -0.55           -2.7746e-009    -1.2701e-008    -2.2854e-008   
  -0.6            -2.172e-010     -3.7827e-008    -1.062e-008    
  -0.65           -7.199e-010     -1.00769e-007   -9.325e-009    
  -0.7            6.949e-010      -2.3355e-007    -9.973e-009    
  -0.75           1.0906e-009     -4.8725e-007    1.8046e-008    
  -0.8            1.5083e-009     -8.8468e-007    2.4084e-008    
  -0.85           -1.5576e-009    -1.4206e-006    1.2185e-008    
  -0.9            -1.3663e-009    -2.1321e-006    3.647e-008     
  -0.95           -2.6999e-009    -3.0084e-006    4.8359e-008    
  -1              -2.287e-009     -4.0549e-006    4.7751e-008    
  -1.05           -1.685e-009     -5.2506e-006    6.1246e-008    
  -1.1            -1.3978e-009    -6.6047e-006    7.6268e-008    
  -1.15           -1.317e-009     -8.0911e-006    9.214e-008     
  -1.2            -1.0603e-009    -9.742e-006     8.0324e-008    
  -1.25           -5.531e-010     -1.1501e-005    1.1958e-007    
  -1.3            -9.895e-010     -1.3363e-005    1.0328e-007    
  -1.35           -1.3904e-009    -1.5315e-005    1.1415e-007    
  -1.4            -1.7846e-009    -1.7402e-005    1.2355e-007    
  -1.45           -2.0483e-009    -1.962e-005     1.3485e-007    
  -1.5            -2.4169e-009    -2.1917e-005    1.4434e-007    
  -1.55           -2.7443e-009    -2.4274e-005    1.5424e-007    
  -1.6            -2.7707e-009    -2.6714e-005    1.6446e-007    
  -1.65           -2.5062e-009    -2.9227e-005    1.7468e-007    
  -1.7            -1.9288e-009    -3.18e-005      1.8103e-007    
  -1.75           -1.4818e-009    -3.4452e-005    1.893e-007     
  -1.8            -1.3508e-009    -3.7192e-005    1.9805e-007    
  -1.85           -2.645e-009     -3.9966e-005    2.0247e-007    
  -1.9            -2.1472e-009    -4.281e-005     1.9461e-007    
  -1.95           -1.594e-009     -4.569e-005     1.9914e-007    
  -2              -1.3791e-009    -4.8618e-005    2.0419e-007    
  -2.05           -2.7298e-009    -5.1589e-005    2.0729e-007    
  -2.1            -2.3556e-009    -5.4647e-005    1.9549e-007    
  -2.15           -1.7425e-009    -5.7705e-005    1.9674e-007    
  -2.2            -1.4187e-009    -6.0811e-005    1.9838e-007    
  -2.25           -1.3318e-009    -6.3941e-005    2.0045e-007    
  -2.3            -2.5326e-009    -6.712e-005     1.9867e-007    
  -2.35           -1.9463e-009    -7.0344e-005    1.8506e-007    
  -2.4            -1.4867e-009    -7.3602e-005    1.8468e-007    
  -2.45           -1.3551e-009    -7.688e-005     1.8559e-007    
  -2.5            -2.6556e-009    -8.0184e-005    1.8277e-007    
  -2.55           -2.1611e-009    -8.355e-005     1.6747e-007    
  -2.6            -1.5927e-009    -8.6924e-005    1.6533e-007    
  -2.65           -1.384e-009     -9.0318e-005    1.6459e-007    
  -2.7            -1.3137e-009    -9.3742e-005    1.6274e-007    
  -2.75           -2.3826e-009    -9.7184e-005    1.6004e-007    
  -2.8            -1.7733e-009    -0.000100683    1.4335e-007    
  -2.85           -1.4297e-009    -0.000104181    1.4165e-007    
  -2.9            -1.3345e-009    -0.00010768     1.4046e-007    
  -2.95           -2.5451e-009    -0.00011122     1.3589e-007    
  -3              8.943e-010      -0.00011477     1.4357e-007    
  -3.05           1.2784e-009     -0.00011841     1.2419e-007    
  -3.1            1.7145e-009     -0.00012203     1.1958e-007    
  -3.15           2.1313e-009     -0.00012559     1.1271e-007    
  -3.2            2.036e-009      -0.00012923     7.565e-008     
  -3.25           1.829e-010      -0.00013284     6.673e-008     
  -3.3            6.347e-010      -0.0001365      9.836e-008     
  -3.35           -2.7442e-009    -0.00014018     7.6028e-008    
  -3.4            -2.7821e-009    -0.00014388     7.4578e-008    
  -3.45           -2.5316e-009    -0.00014756     7.4094e-008    
  -3.5            -1.9513e-009    -0.00015127     7.1348e-008    
  -3.55           -1.4948e-009    -0.00015501     7.0623e-008    
  -3.6            -1.3583e-009    -0.00015874     7.1539e-008    
  -3.65           -2.6664e-009    -0.00016249     6.9515e-008    
  -3.7            -2.1726e-009    -0.00016636     5.516e-008     
  -3.75           -1.6105e-009    -0.00017013     5.4295e-008    
  -3.8            -1.391e-009     -0.00017394     5.5514e-008    
  -3.85           -1.3166e-009    -0.00017771     5.5774e-008    
  -3.9            -2.3971e-009    -0.00018152     5.4654e-008    
  -3.95           -1.7804e-009    -0.00018535     4.1002e-008    
  -4              -1.4379e-009    -0.00018915     4.196e-008     
  -4.05           -1.3388e-009    -0.00019301     4.4142e-008    
  -4.1            -2.564e-009     -0.00019683     4.2638e-008    
  -4.15           -2.0025e-009    -0.00020073     3.0308e-008    
  -4.2            -1.5167e-009    -0.00020454     3.1311e-008    
  -4.25           -1.3664e-009    -0.00020843     3.407e-008     
  -4.3            -2.6819e-009    -0.0002123      3.4484e-008    
  -4.35           -2.2153e-009    -0.00021622     2.1961e-008    
  -4.4            -1.6388e-009    -0.00022006     2.2935e-008    
  -4.45           -1.3955e-009    -0.00022392     2.5841e-008    
  -4.5            -1.3183e-009    -0.00022781     2.8309e-008    
  -4.55           -2.4333e-009    -0.00023171     2.84e-008      
  -4.6            -1.8255e-009    -0.0002356      1.6554e-008    
  -4.65           -1.4505e-009    -0.00023955     1.8857e-008    
  -4.7            -1.3437e-009    -0.00024338     2.2471e-008    
  -4.75           -2.5915e-009    -0.00024731     2.2421e-008    
  -4.8            -2.0455e-009    -0.00025119     1.1415e-008    
  -4.85           -1.5359e-009    -0.00025513     1.3658e-008    
  -4.9            -1.37e-009      -0.00025898     1.794e-008     
  -4.95           -2.7001e-009    -0.00026293     1.9539e-008    
  -5              -2.2631e-009    -0.00026685     7.989e-009     
END_DB

BEGIN_DB
 ICCAP_VAR VS         0              
 ICCAP_VAR VB         2.5            
 ICCAP_VAR VD         -0.1           

 #VG              IG              ID              IB             
  0               2.038e-009      2.1586e-009     1.048e-009     
  -0.05           5.756e-010      2.3434e-009     1.0823e-008    
  -0.1            -1.3224e-009    1.4972e-009     2.2622e-008    
  -0.15           -1.2897e-009    1.499e-010      1.1714e-008    
  -0.2            -2.5814e-009    2.964e-010      1.3932e-008    
  -0.25           -2.0267e-009    -1.2564e-009    1.097e-009     
  -0.3            1.5588e-009     -1.7637e-009    -1.2588e-008   
  -0.35           9.024e-010      2.3509e-009     -8.793e-009    
  -0.4            1.0536e-009     2.2838e-009     1.0825e-008    
  -0.45           -1.5246e-009    1.8661e-009     1.2462e-008    
  -0.5            -1.9104e-009    -1.3914e-009    9.429e-009     
  -0.55           -5.772e-010     -2.2727e-009    -1.126e-008    
  -0.6            -7.873e-010     -2.2923e-009    -1.1549e-008   
  -0.65           2.086e-009      -1.5973e-009    -1.7333e-008   
  -0.7            1.4929e-009     1.9092e-009     -8.256e-009    
  -0.75           9.63e-011       2.0796e-009     1.0309e-008    
  -0.8            2.725e-010      2.2062e-009     1.0375e-008    
  -0.85           4.534e-010      2.2994e-009     1.0551e-008    
  -0.9            -1.3494e-009    1.3938e-009     2.5195e-008    
  -0.95           -1.3167e-009    2.54e-011       1.1083e-008    
  -1              -2.6603e-009    1.92e-011       1.2302e-008    
  -1.05           -1.9638e-009    -2.0677e-009    7.97e-010      
  -1.1            -6.846e-010     -5.466e-009     -1.1443e-008   
  -1.15           2.9063e-009     -1.1227e-008    2.2954e-008    
  -1.2            2.7531e-009     -4.0324e-008    2.68e-010      
  -1.25           1.4456e-009     -1.08639e-007   1.1369e-008    
  -1.3            2.8976e-009     -2.316e-007     -1.0883e-008   
  -1.35           2.6408e-009     -4.0883e-007    -3.7e-011      
  -1.4            6.436e-010      -6.2728e-007    1.046e-008     
  -1.45           -1.706e-009     -8.7656e-007    2.1001e-008    
  -1.5            -2.3345e-009    -1.1461e-006    -1.6436e-008   
  -1.55           -1.771e-009     -1.4216e-006    2.533e-009     
  -1.6            -1.4352e-009    -1.6998e-006    5.977e-009     
  -1.65           -1.3321e-009    -1.9764e-006    1.0659e-008    
  -1.7            -2.5338e-009    -2.2467e-006    1.1545e-008    
  -1.75           -1.9788e-009    -2.5149e-006    1.512e-009     
  -1.8            -1.5188e-009    -2.7781e-006    4.705e-009     
  -1.85           -1.3594e-009    -3.0304e-006    9.438e-009     
  -1.9            -2.6564e-009    -3.2757e-006    1.1297e-008    
  -1.95           -2.2141e-009    -3.5206e-006    7.81e-010      
  -2              -1.6649e-009    -3.7546e-006    3.135e-009     
  -2.05           -1.4021e-009    -3.984e-006     7.573e-009     
  -2.1            -1.3151e-009    -4.2088e-006    1.1383e-008    
  -2.15           -2.4363e-009    -4.427e-006     1.2399e-008    
  -2.2            -1.8512e-009    -4.6448e-006    2.036e-009     
  -2.25           -1.4635e-009    -4.856e-006     5.606e-009     
  -2.3            -1.343e-009     -5.0608e-006    1.043e-008     
  -2.35           -2.5943e-009    -5.2628e-006    1.1215e-008    
  -2.4            -2.0753e-009    -5.4637e-006    9.4e-010       
  -2.45           -1.572e-009     -5.6587e-006    3.923e-009     
  -2.5            -1.38e-009      -5.85e-006      8.976e-009     
  -2.55           -2.7023e-009    -6.0377e-006    1.1663e-008    
  -2.6            -2.3052e-009    -6.2251e-006    6.66e-010      
  -2.65           -8.731e-010     -6.4082e-006    -1.1339e-008   
  -2.7            -1.2621e-009    -6.5861e-006    -1.1192e-008   
  -2.75           -2.04e-011      -6.7634e-006    -1.1946e-008   
  -2.8            -5.089e-010     -6.9361e-006    -1.0939e-008   
  -2.85           -9.459e-010     -7.1031e-006    -1.1475e-008   
  -2.9            2.88e-010       -7.2765e-006    -1.4179e-008   
  -2.95           -1.019e-010     -7.4393e-006    -1.1716e-008   
  -3              -5.958e-010     -7.5991e-006    -1.0863e-008   
  -3.05           1.9469e-009     -7.7598e-006    -2.0757e-008   
  -3.1            1.4099e-009     -7.9143e-006    -9.158e-009    
  -3.15           1.2553e-009     -8.0694e-006    -8.635e-009    
  -3.2            2.7331e-009     -8.2201e-006    -1.1441e-008   
  -3.25           5.48e-010       -8.3697e-006    1.0335e-008    
  -3.3            -1.805e-009     -8.5185e-006    2.3279e-008    
  -3.35           -1.4441e-009    -8.6655e-006    5.952e-009     
  -3.4            -1.3353e-009    -8.8083e-006    1.0782e-008    
  -3.45           -2.5551e-009    -8.9489e-006    1.1257e-008    
  -3.5            -2.0148e-009    -9.0918e-006    1.296e-009     
  -3.55           -1.5391e-009    -9.2282e-006    4.429e-009     
  -3.6            -1.3688e-009    -9.3622e-006    9.513e-009     
  -3.65           -2.6807e-009    -9.4972e-006    1.1364e-008    
  -3.7            -2.2504e-009    -9.6278e-006    8.01e-010      
  -3.75           -1.6866e-009    -9.7582e-006    3.11e-009      
  -3.8            -1.4121e-009    -9.8869e-006    7.202e-009     
  -3.85           -1.3191e-009    -1.00139e-005   1.1212e-008    
  -3.9            -2.4689e-009    -1.01373e-005   1.2014e-008    
  -3.95           -1.8907e-009    -1.0264e-005    1.82e-009      
  -4              -1.4818e-009    -1.03829e-005   5.267e-009     
  -4.05           -1.3502e-009    -1.05027e-005   1.022e-008     
  -4.1            -2.62e-009      -1.06183e-005   1.1229e-008    
  -4.15           -2.1349e-009    -1.07383e-005   8.3e-010       
