! VERSION = 6.00
BEGIN_HEADER
 ICCAP_INPUTS
  VG         V  B GROUND SMU4 0.001 LIN        1    0          -5         101  -0.05     
  VS         V  E GROUND SMU2 0.1 CON        0
  VB         V  C GROUND SMU3 0.1 LIN        3    0          5          3    2.5       
  VD         V  S GROUND SMU1 0.1 LIN        2    -0.1       -5         2    -4.9      
 ICCAP_OUTPUTS
  IG         I  B GROUND SMU4 B
  ID         I  S GROUND SMU1 B
  IB         I  C GROUND SMU3 B
END_HEADER

BEGIN_DB
 ICCAP_VAR VS         0              
 ICCAP_VAR VB         0              
 ICCAP_VAR VD         -0.1           

 #VG              IG              ID              IB             
  0               -1.0028e-009    3.977e-010      1.2149e-008    
  -0.05           -1.6943e-009    -1.6976e-009    5.862e-009     
  -0.1            2.3862e-009     -1.537e-009     -2.3925e-008   
  -0.15           1.3662e-009     2.1433e-009     -6.122e-009    
  -0.2            1.5507e-009     1.9357e-009     1.2274e-008    
  -0.25           -1.4042e-009    1.416e-009      2.6727e-008    
  -0.3            -1.3979e-009    1.33e-011       9.66e-009      
  -0.35           -1.3726e-009    1.68e-010       1.0214e-008    
  -0.4            -2.571e-009     3.275e-010      1.2952e-008    
  -0.45           -1.1118e-009    -2.2059e-009    1.274e-009     
  -0.5            1.5018e-009     -1.8397e-009    -1.0464e-008   
  -0.55           -1.484e-010     1.8762e-009     -8.587e-009    
  -0.6            -1.5242e-009    2.773e-010      2.5279e-008    
  -0.65           -1.4263e-009    -2.8176e-009    7.717e-009     
  -0.7            -1.4018e-009    -7.79e-009      8.236e-009     
  -0.75           -2.3418e-009    -2.2232e-008    -2.7587e-008   
  -0.8            -8.702e-010     -5.297e-008     -1.2564e-008   
  -0.85           1.5465e-009     -1.06601e-007   -1.6584e-008   
  -0.9            1.55e-010       -1.8719e-007    6.869e-009     
  -0.95           1.3725e-009     -2.9184e-007    -2.2379e-008   
  -1              2.8683e-009     -4.1614e-007    -8.944e-009    
  -1.05           -1.4051e-009    -5.533e-007     2.8576e-008    
  -1.1            -2.5505e-009    -7.0537e-007    9.944e-009     
  -1.15           -2.0051e-009    -8.6423e-007    1.205e-009     
  -1.2            -1.4886e-009    -1.02585e-006   4.873e-009     
  -1.25           -2.4013e-009    -1.1907e-006    -1.943e-008    
  -1.3            2.0229e-009     -1.3544e-006    -2.5167e-008   
  -1.35           1.3927e-009     -1.5136e-006    -8.575e-009    
  -1.4            2.8693e-009     -1.6727e-006    -8.829e-009    
  -1.45           2.179e-009      -1.8263e-006    1.2927e-008    
  -1.5            9.952e-010      -1.9775e-006    1.1121e-008    
  -1.55           -2.593e-010     -2.1263e-006    1.0705e-008    
  -1.6            -1.4502e-009    -2.2716e-006    2.2631e-008    
  -1.65           -1.4051e-009    -2.4168e-006    8.153e-009     
  -1.7            -2.6202e-009    -2.5561e-006    9.683e-009     
  -1.75           -2.1654e-009    -2.6957e-006    1.132e-009     
  -1.8            9.18e-011       -2.8329e-006    -1.0217e-008   
  -1.85           1.3304e-009     -2.965e-006     -2.3557e-008   
  -1.9            2.8692e-009     -3.0932e-006    -9.438e-009    
  -1.95           2.7327e-009     -3.2182e-006    -1.33e-010     
  -2              2.617e-009      -3.3423e-006    1.1046e-008    
  -2.05           1.4928e-009     -3.4649e-006    1.0479e-008    
  -2.1            3.103e-010      -3.5821e-006    1.1443e-008    
  -2.15           7.67e-010       -3.6989e-006    1.243e-008     
  -2.2            1.1378e-009     -3.8164e-006    9.597e-009     
  -2.25           1.5575e-009     -3.9308e-006    9.905e-009     
  -2.3            3.768e-010      -4.0403e-006    1.1886e-008    
  -2.35           8.213e-010      -4.1498e-006    1.2559e-008    
  -2.4            -1.5264e-009    -4.2571e-006    1.5477e-008    
  -2.45           -1.4037e-009    -4.3633e-006    7.858e-009     
  -2.5            -1.3835e-009    -4.4673e-006    9.571e-009     
  -2.55           -2.3423e-009    -4.5697e-006    1.2541e-008    
  -2.6            1.864e-010      -4.6773e-006    -1.1243e-008   
  -2.65           1.4021e-009     -4.7723e-006    -2.1194e-008   
  -2.7            2.863e-009      -4.8712e-006    -8.514e-009    
  -2.75           2.8097e-009     -4.9655e-006    1.64e-010      
  -2.8            1.4509e-009     -5.0613e-006    1.0191e-008    
  -2.85           1.8848e-009     -5.1535e-006    1.3185e-008    
  -2.9            7.279e-010      -5.2469e-006    1.2577e-008    
  -2.95           1.1047e-009     -5.3384e-006    9.717e-009     
  -3              1.5132e-009     -5.4292e-006    1.0766e-008    
  -3.05           3.313e-010      -5.5166e-006    1.1607e-008    
  -3.1            7.809e-010      -5.6046e-006    1.2342e-008    
  -3.15           -1.5521e-009    -5.6936e-006    1.6713e-008    
  -3.2            -1.4e-009       -5.7787e-006    7.424e-009     
  -3.25           -1.3875e-009    -5.8628e-006    9.288e-009     
  -3.3            -2.3897e-009    -5.945e-006     1.2026e-008    
  -3.35           -8.433e-010     -6.0305e-006    -1.2685e-008   
  -3.4            1.5794e-009     -6.1135e-006    -1.7433e-008   
  -3.45           2.8376e-009     -6.1887e-006    -8.677e-009    
  -3.5            9.088e-010      -6.264e-006     1.1639e-008    
  -3.55           1.2856e-009     -6.3434e-006    9.218e-009     
  -3.6            1.7191e-009     -6.42e-006      1.2551e-008    
  -3.65           2.1438e-009     -6.4965e-006    1.2145e-008    
  -3.7            9.615e-010      -6.5691e-006    1.1031e-008    
  -3.75           -2.883e-010     -6.6479e-006    1.1167e-008    
  -3.8            -1.4619e-009    -6.7192e-006    2.184e-008     
  -3.85           -1.4083e-009    -6.7919e-006    8.062e-009     
  -3.9            -2.6325e-009    -6.8616e-006    9.696e-009     
  -3.95           -2.2211e-009    -6.9336e-006    9.47e-010      
  -4              1.218e-010      -7.0107e-006    -9.936e-009    
  -4.05           1.3336e-009     -7.0727e-006    -2.2956e-008   
  -4.1            2.8597e-009     -7.1402e-006    -8.897e-009    
  -4.15           -1.4073e-009    -7.2054e-006    2.8696e-008    
  -4.2            -2.5272e-009    -7.2743e-006    1.0471e-008    
  -4.25           -7.294e-010     -7.3425e-006    -1.3106e-008   
  -4.3            1.75e-009       -7.4089e-006    -2.0973e-008   
  -4.35           2.8e-009        -7.4692e-006    -9.15e-009     
  -4.4            1.881e-009      -7.5296e-006    1.3219e-008    
  -4.45           7.364e-010      -7.5928e-006    1.279e-008     
  -4.5            1.112e-009      -7.654e-006     9.628e-009     
  -4.55           1.522e-009      -7.7164e-006    1.0051e-008    
  -4.6            3.527e-010      -7.7765e-006    1.1964e-008    
  -4.65           7.94e-010       -7.8369e-006    1.2635e-008    
  -4.7            -1.522e-009     -7.8983e-006    1.5711e-008    
  -4.75           -1.4008e-009    -7.9554e-006    7.483e-009     
  -4.8            -1.3891e-009    -8.0147e-006    9.435e-009     
  -4.85           -2.3702e-009    -8.0735e-006    1.2421e-008    
  -4.9            2.019e-010      -8.1375e-006    -1.1258e-008   
  -4.95           1.3995e-009     -8.1861e-006    -2.0781e-008   
  -5              2.8498e-009     -8.2415e-006    -8.23e-009     
END_DB

BEGIN_DB
 ICCAP_VAR VS         0              
 ICCAP_VAR VB         0              
 ICCAP_VAR VD         -5             

 #VG              IG              ID              IB             
  0               6.88e-010       7.578e-010      1.1601e-008    
  -0.05           9.758e-010      2.3327e-009     -8.106e-009    
  -0.1            -1.5747e-009    1.8081e-009     1.0651e-008    
  -0.15           -1.8052e-009    -1.4938e-009    7.218e-009     
  -0.2            -4.491e-010     -2.2445e-009    -1.3004e-008   
  -0.25           -6.489e-010     -2.2496e-009    -1.2517e-008   
  -0.3            2.3725e-009     -1.5406e-009    -2.3746e-008   
  -0.35           1.3917e-009     2.1099e-009     -6.619e-009    
  -0.4            -3.239e-010     1.8362e-009     1.2075e-008    
  -0.45           -1.7386e-009    5.087e-010      2.0962e-008    
  -0.5            -2.5857e-009    -2.3451e-009    6.296e-009     
  -0.55           2.1085e-009     -5.6164e-009    -1.8542e-008   
  -0.6            -1.3892e-009    -1.3097e-008    -1.2888e-008   
  -0.65           -2.3732e-009    -3.3974e-008    1.3252e-008    
  -0.7            2.7616e-009     -8.1645e-008    -1.4651e-008   
  -0.75           1.0465e-009     -1.6733e-007    -1.6441e-008   
  -0.8            1.4542e-009     -3.1586e-007    1.5301e-008    
  -0.85           1.8888e-009     -5.3272e-007    2.1533e-008    
  -0.9            2.2965e-009     -8.2809e-007    2.2763e-008    
  -0.95           4.629e-010      -1.2107e-006    1.7248e-008    
  -1              8.87e-010       -1.6823e-006    3.4044e-008    
  -1.05           1.2668e-009     -2.2461e-006    3.692e-008     
  -1.1            1.7044e-009     -2.8967e-006    4.4819e-008    
  -1.15           2.1163e-009     -3.6006e-006    5.2297e-008    
  -1.2            2.512e-009      -4.3928e-006    5.6787e-008    
  -1.25           2.7629e-009     -5.2701e-006    6.4649e-008    
  -1.3            2.8567e-009     -6.2145e-006    6.4451e-008    
  -1.35           2.8088e-009     -7.2219e-006    6.54e-008      
  -1.4            2.3291e-009     -8.3103e-006    6.9812e-008    
  -1.45           1.5652e-009     -9.4456e-006    6.9758e-008    
  -1.5            2.8327e-009     -1.06375e-005   7.2994e-008    
  -1.55           -7.055e-010     -1.1862e-005    1.02702e-007   
  -1.6            2.8444e-009     -1.3185e-005    7.836e-008     
  -1.65           2.8228e-009     -1.4521e-005    8.533e-008     
  -1.7            2.8533e-009     -1.591e-005     8.905e-008     
  -1.75           2.7165e-009     -1.7318e-005    9.989e-008     
  -1.8            2.8252e-009     -1.8777e-005    1.0275e-007    
  -1.85           2.3673e-009     -2.0307e-005    1.0269e-007    
  -1.9            2.0262e-009     -2.1844e-005    7.987e-008     
  -1.95           2.7814e-009     -2.3393e-005    1.0609e-007    
  -2              2.858e-009      -2.4995e-005    1.0833e-007    
  -2.05           2.6511e-009     -2.661e-005     1.0593e-007    
  -2.1            1.9051e-009     -2.8275e-005    1.0231e-007    
  -2.15           2.0126e-009     -2.9922e-005    1.0238e-007    
  -2.2            1.3645e-009     -3.1619e-005    9.537e-008     
  -2.25           2.7284e-009     -3.3337e-005    1.0228e-007    
  -2.3            2.8274e-009     -3.5086e-005    1.0104e-007    
  -2.35           2.8247e-009     -3.6872e-005    9.006e-008     
  -2.4            2.8522e-009     -3.8659e-005    8.863e-008     
  -2.45           2.8537e-009     -4.0489e-005    8.444e-008     
  -2.5            2.8234e-009     -4.2323e-005    7.824e-008     
  -2.55           2.8349e-009     -4.416e-005     8.063e-008     
  -2.6            1.5454e-009     -4.6038e-005    6.978e-008     
  -2.65           -1.411e-009     -4.7859e-005    1.12382e-007   
  -2.7            -2.6225e-009    -4.976e-005     9.0218e-008    
  -2.75           -2.1679e-009    -5.1698e-005    7.8372e-008    
  -2.8            -1.5628e-009    -5.3624e-005    7.8706e-008    
  -2.85           -1.4002e-009    -5.5567e-005    7.8654e-008    
  -2.9            -1.3954e-009    -5.7511e-005    7.7299e-008    
  -2.95           -2.4313e-009    -5.9489e-005    7.6837e-008    
  -3              -1.7957e-009    -6.149e-005     6.4508e-008    
  -3.05           -1.4158e-009    -6.3488e-005    6.468e-008     
  -3.1            -1.412e-009     -6.5494e-005    6.4097e-008    
  -3.15           -2.5934e-009    -6.7512e-005    6.312e-008     
  -3.2            -2.0777e-009    -6.9571e-005    5.1714e-008    
  -3.25           -1.5094e-009    -7.1598e-005    5.2384e-008    
  -3.3            -1.405e-009     -7.3665e-005    5.271e-008     
  -3.35           -1.3875e-009    -7.5709e-005    5.2055e-008    
  -3.4            -2.3632e-009    -7.78e-005      5.2548e-008    
  -3.45           -1.7057e-009    -7.9848e-005    4.0618e-008    
  -3.5            -1.407e-009     -8.1989e-005    4.1406e-008    
  -3.55           -1.4103e-009    -8.4093e-005    4.1313e-008    
  -3.6            -2.5535e-009    -8.6196e-005    4.0903e-008    
  -3.65           -1.9868e-009    -8.8295e-005    3.0023e-008    
  -3.7            -1.4727e-009    -9.0424e-005    3.1981e-008    
  -3.75           -1.4079e-009    -9.2573e-005    3.3033e-008    
  -3.8            -1.3756e-009    -9.4727e-005    3.3117e-008    
  -3.85           -2.2912e-009    -9.685e-005     3.5128e-008    
  -3.9            -1.6322e-009    -9.9048e-005    2.3968e-008    
  -3.95           -1.4021e-009    -0.000101165    2.5435e-008    
  -4              -1.4061e-009    -0.000103332    2.6025e-008    
  -4.05           -2.5058e-009    -0.000105491    2.6653e-008    
  -4.1            -1.9058e-009    -0.000107696    1.646e-008     
  -4.15           -1.4451e-009    -0.000109868    1.9049e-008    
  -4.2            -1.4132e-009    -0.000112054    2.0773e-008    
  -4.25           1.4131e-009     -0.00011423     2.1305e-008    
  -4.3            2.4359e-009     -0.00011641     2.1886e-008    
  -4.35           1.2493e-009     -0.00011867     1.9098e-008    
  -4.4            1.6845e-009     -0.00012089     2.0382e-008    
  -4.45           2.11e-009       -0.00012306     2.1208e-008    
  -4.5            9.33e-010       -0.00012524     1.9363e-008    
  -4.55           1.3148e-009     -0.00012752     1.6177e-008    
  -4.6            1.7535e-009     -0.00012975     1.8345e-008    
  -4.65           2.1763e-009     -0.00013191     1.8601e-008    
  -4.7            9.874e-010      -0.00013414     1.6396e-008    
  -4.75           1.3772e-009     -0.00013639     1.4177e-008    
  -4.8            1.8163e-009     -0.00013865     1.7225e-008    
  -4.85           6.614e-010      -0.00014074     1.7029e-008    
  -4.9            1.0446e-009     -0.00014305     1.4046e-008    
  -4.95           1.4516e-009     -0.00014536     1.2926e-008    
  -5              1.878e-009      -0.00014757     1.6373e-008    
END_DB

BEGIN_DB
 ICCAP_VAR VS         0              
 ICCAP_VAR VB         2.5            
 ICCAP_VAR VD         -0.1           

 #VG              IG              ID              IB             
  0               2.6029e-009     2.3275e-009     -1.458e-008    
  -0.05           1.8451e-009     1.488e-009      1.269e-008     
  -0.1            4.056e-010      2.292e-009      1.282e-008     
  -0.15           5.964e-010      2.3182e-009     1.2332e-008    
  -0.2            7.815e-010      2.3332e-009     1.077e-008     
  -0.25           9.375e-010      2.3337e-009     9.432e-009     
  -0.3            1.0777e-009     2.3135e-009     9.168e-009     
  -0.35           1.2293e-009     2.2466e-009     1.0622e-008    
  -0.4            -2.45e-010      1.9945e-009     9.998e-009     
  -0.45           -1.6305e-009    9.129e-010      2.2631e-008    
  -0.5            -1.7713e-009    -1.5602e-009    6.964e-009     
  -0.55           -3.702e-010     -2.2308e-009    -1.3101e-008   
  -0.6            -5.7e-010       -2.2463e-009    -1.2799e-008   
  -0.65           2.479e-009      -1.493e-009     -2.5747e-008   
  -0.7            1.3047e-009     2.2025e-009     -5.209e-009    
  -0.75           1.4802e-009     2.0186e-009     1.2518e-008    
  -0.8            3e-013          2.144e-009      1.1402e-008    
  -0.85           1.998e-010      2.2231e-009     1.2499e-008    
  -0.9            3.92e-010       2.2839e-009     1.2771e-008    
  -0.95           5.879e-010      2.3098e-009     1.2173e-008    
  -1              7.528e-010      2.3014e-009     1.0746e-008    
  -1.05           9.038e-010      2.2145e-009     9.548e-009     
  -1.1            -1.4038e-009    1.0213e-009     9.196e-009     
  -1.15           -2.6419e-009    -3.0644e-009    1.0603e-008    
  -1.2            2.2799e-009     -9.7726e-009    -2.1791e-008   
  -1.25           -1.4533e-009    -2.5514e-008    -9.884e-009    
  -1.3            -1.4054e-009    -6.1738e-008    8.175e-009     
  -1.35           2.2006e-009     -1.2429e-007    -2.5553e-008   
  -1.4            9.965e-010      -2.1636e-007    1.0511e-008    
  -1.45           -2.455e-010     -3.3085e-007    1.0422e-008    
  -1.5            -1.4405e-009    -4.6251e-007    2.2757e-008    
  -1.55           -1.4081e-009    -6.0736e-007    8.156e-009     
  -1.6            -2.6124e-009    -7.5913e-007    9.572e-009     
  -1.65           -2.1575e-009    -9.1408e-007    1.095e-009     
  -1.7            8.87e-011       -1.07428e-006   -1.0017e-008   
  -1.75           2.4801e-009     -1.2251e-006    1.5069e-008    
  -1.8            1.7419e-009     -1.376e-006     -4.875e-009    
  -1.85           2.8048e-009     -1.5251e-006    -9.167e-009    
  -1.9            1.8897e-009     -1.6683e-006    1.331e-008     
  -1.95           7.292e-010      -1.8067e-006    1.2699e-008    
  -2              1.0971e-009     -1.9442e-006    9.982e-009     
  -2.05           1.5079e-009     -2.0789e-006    9.67e-009      
  -2.1            3.283e-010      -2.2063e-006    1.1574e-008    
  -2.15           7.768e-010      -2.333e-006     1.2736e-008    
  -2.2            1.1425e-009     -2.458e-006     9.569e-009     
  -2.25           1.5566e-009     -2.5812e-006    1.1177e-008    
  -2.3            1.9921e-009     -2.7009e-006    1.3225e-008    
  -2.35           8.18e-010       -2.8165e-006    1.2291e-008    
  -2.4            -1.5257e-009    -2.9316e-006    1.5581e-008    
  -2.45           -1.3994e-009    -3.0475e-006    7.891e-009     
  -2.5            -1.3861e-009    -3.1571e-006    9.515e-009     
  -2.55           -2.369e-009     -3.2663e-006    1.2431e-008    
  -2.6            -8.66e-010      -3.3776e-006    -1.2778e-008   
  -2.65           1.5537e-009     -3.4843e-006    -1.6744e-008   
  -2.7            2.8358e-009     -3.5849e-006    -8.539e-009    
  -2.75           2.0256e-009     -3.685e-006     1.3216e-008    
  -2.8            8.507e-010      -3.7845e-006    1.2088e-008    
  -2.85           -1.4876e-009    -3.8826e-006    1.4304e-008    
  -2.9            -1.4055e-009    -3.9798e-006    8.094e-009     
  -2.95           -1.3819e-009    -4.0753e-006    9.539e-009     
  -3              -2.3244e-009    -4.1689e-006    1.3082e-008    
  -3.05           -8.974e-010     -4.2654e-006    -1.2502e-008   
  -3.1            1.5021e-009     -4.3599e-006    -1.5723e-008   
  -3.15           2.8328e-009     -4.4451e-006    -8.201e-009    
  -3.2            2.8353e-009     -4.5338e-006    5.22e-010      
  -3.25           -1.3782e-009    -4.6196e-006    2.3151e-008    
  -3.3            -2.2894e-009    -4.7064e-006    1.3666e-008    
  -3.35           -9.203e-010     -4.7942e-006    -1.2674e-008   
  -3.4            1.4712e-009     -4.8819e-006    -1.4678e-008   
  -3.45           2.8406e-009     -4.9616e-006    -8.293e-009    
  -3.5            2.0872e-009     -5.0406e-006    1.2871e-008    
  -3.55           9.029e-010      -5.1214e-006    1.1902e-008    
  -3.6            1.2789e-009     -5.2011e-006    8.933e-009     
  -3.65           1.7109e-009     -5.2798e-006    1.1472e-008    
  -3.7            2.1298e-009     -5.3583e-006    1.2174e-008    
  -3.75           9.456e-010      -5.4343e-006    1.1126e-008    
  -3.8            -3.174e-010     -5.5123e-006    1.1553e-008    
  -3.85           -1.4744e-009    -5.5848e-006    2.1118e-008    
  -3.9            -1.4089e-009    -5.6586e-006    8.097e-009     
  -3.95           -1.3793e-009    -5.7294e-006    9.586e-009     
  -4              -2.2931e-009    -5.8014e-006    1.3545e-008    
  -4.05           1.552e-010      -5.8781e-006    -1.0229e-008   
  -4.1            1.3631e-009     -5.946e-006     -2.1759e-008   
  -4.15           2.8526e-009     -6.0124e-006    -8.561e-009    
