! VERSION = 6.00
BEGIN_HEADER
 ICCAP_INPUTS
  VG         V  B GROUND SMU4 0.001 LIN        2    0          -5         6    -1        
  VS         V  E GROUND SMU2 0.1 CON        0
  VD         V  S GROUND SMU1 0.1 LIN        1    0          -5         101  -0.05     
  VB         V  C GROUND SMU3 0.1 LIN        3    0          2.5        2    2.5       
 ICCAP_OUTPUTS
  ID         I  S GROUND SMU1 B
  IB         I  C GROUND SMU3 B
  IG         I  B GROUND SMU4 B
END_HEADER

BEGIN_DB
 ICCAP_VAR VG         0              
 ICCAP_VAR VS         0              
 ICCAP_VAR VB         0              

 #VD              ID              IB              IG             
  0               5.222e-010      -1.0825e-008    3.705e-010     
  -0.05           -5.02e-011      -1.3361e-008    2.891e-009     
  -0.1            2.3221e-009     1.0701e-008     1.0196e-009    
  -0.15           1.8318e-009     1.2086e-008     -1.5541e-009   
  -0.2            -1.4306e-009    8.487e-009      -1.8383e-009   
  -0.25           -2.2502e-009    -1.1562e-008    -4.92e-010     
  -0.3            -1.4875e-009    -2.4118e-008    2.4364e-009    
  -0.35           2.1445e-009     -5.112e-009     1.3122e-009    
  -0.4            1.9955e-009     1.0625e-008     -1.342e-010    
  -0.45           2.0906e-009     1.0422e-008     4.29e-011      
  -0.5            2.204e-009      1.069e-008      2.374e-010     
  -0.55           2.291e-009      1.1298e-008     4.427e-010     
  -0.6            2.3474e-009     1.1629e-008     6.488e-010     
  -0.65           2.3575e-009     1.1135e-008     8.371e-010     
  -0.7            2.3306e-009     1.0761e-008     1.0021e-009    
  -0.75           2.2504e-009     1.1101e-008     1.1642e-009    
  -0.8            2.1077e-009     1.1474e-008     1.337e-009     
  -0.85           2.0059e-009     1.0635e-008     -1.185e-010    
  -0.9            2.1032e-009     1.0429e-008     6.86e-011      
  -0.95           2.2169e-009     1.0869e-008     2.698e-010     
  -1              2.2998e-009     1.1325e-008     4.75e-010      
  -1.05           2.3497e-009     1.1536e-008     6.815e-010     
  -1.1            2.3564e-009     1.1139e-008     8.576e-010     
  -1.15           2.3195e-009     1.0685e-008     1.0221e-009    
  -1.2            1.8373e-009     1.2053e-008     -1.5465e-009   
  -1.25           -1.4194e-009    8.513e-009      -1.8426e-009   
  -1.3            -2.2487e-009    -1.1616e-008    -5.091e-010    
  -1.35           -1.4888e-009    -2.3926e-008    2.4244e-009    
  -1.4            2.131e-009      -5.197e-009     1.324e-009     
  -1.45           2.0012e-009     1.0707e-008     -1.344e-010    
  -1.5            2.0916e-009     1.0408e-008     5.18e-011      
  -1.55           2.2018e-009     1.0802e-008     2.421e-010     
  -1.6            2.2866e-009     1.1355e-008     4.513e-010     
  -1.65           2.3459e-009     1.1426e-008     6.561e-010     
  -1.7            2.3529e-009     1.1183e-008     8.36e-010      
  -1.75           2.3269e-009     1.0797e-008     1e-009         
  -1.8            2.2495e-009     1.1279e-008     1.1686e-009    
  -1.85           2.1054e-009     1.1577e-008     1.3407e-009    
  -1.9            2.0101e-009     1.0671e-008     -1.102e-010    
  -1.95           2.1048e-009     1.0514e-008     7.15e-011      
  -2              2.2131e-009     1.0843e-008     2.69e-010      
  -2.05           2.2941e-009     1.131e-008      4.721e-010     
  -2.1            1.4288e-009     2.3921e-008     -1.3753e-009   
  -2.15           5.66e-011       7.944e-009      -1.3516e-009   
  -2.2            2.071e-010      9.98e-009       -2.6257e-009   
  -2.25           -1.3007e-009    6.75e-010       -1.9329e-009   
  -2.3            -1.7181e-009    -1.3402e-008    1.6299e-009    
  -2.35           1.5125e-009     -9.264e-009     1.839e-009     
  -2.4            2.2684e-009     1.1231e-008     4.026e-010     
  -2.45           2.3327e-009     1.152e-008      6.054e-010     
  -2.5            2.3503e-009     1.1333e-008     7.973e-010     
  -2.55           2.3312e-009     1.0774e-008     9.645e-010     
  -2.6            2.2645e-009     1.1205e-008     1.1208e-009    
  -2.65           2.1377e-009     1.1694e-008     1.2945e-009    
  -2.7            1.9839e-009     1.0648e-008     -1.547e-010    
  -2.75           2.076e-009      1.0397e-008     2.79e-011      
  -2.8            2.1849e-009     1.0589e-008     2.196e-010     
  -2.85           2.2784e-009     1.1342e-008     4.266e-010     
  -2.9            2.3352e-009     1.1565e-008     6.376e-010     
  -2.95           1.5435e-009     1.9864e-008     -1.3574e-009   
  -3              1.661e-010      9.421e-009      -2.6521e-009   
  -3.05           -1.3237e-009    7.25e-010       -1.9139e-009   
  -3.1            -1.7073e-009    -1.3741e-008    1.6649e-009    
  -3.15           1.5522e-009     -9.261e-009     1.7999e-009    
  -3.2            2.2468e-009     1.0974e-008     3.576e-010     
  -3.25           2.3165e-009     1.1521e-008     5.671e-010     
  -3.3            1.485e-009      2.173e-008      -1.3651e-009   
  -3.35           1.096e-010      8.484e-009      -1.3439e-009   
  -3.4            2.701e-010      1.1522e-008     -2.5634e-009   
  -3.45           -2.2156e-009    -1.1195e-008    -3.146e-010    
  -3.5            -1.3839e-009    -2.6484e-008    1.2915e-009    
  -3.55           3.4e-011        -1.12e-008      2.8982e-009    
  -3.6            1.6437e-009     2.11e-010       1.7258e-009    
  -3.65           2.0512e-009     1.0883e-008     1.31e-011      
  -3.7            2.1656e-009     1.0642e-008     2.114e-010     
  -3.75           2.2541e-009     1.129e-008      4.14e-010      
  -3.8            2.3158e-009     1.1668e-008     6.145e-010     
  -3.85           2.3279e-009     1.1265e-008     8.048e-010     
  -3.9            1.65e-009       1.5772e-008     -1.3409e-009   
  -3.95           2.978e-010      1.2184e-008     -2.5194e-009   
  -4              -2.2499e-009    -1.1316e-008    -3.673e-010    
  -4.05           -1.4413e-009    -2.585e-008     1.2817e-009    
  -4.1            -1.93e-011      -1.1756e-008    2.8996e-009    
  -4.15           2.3126e-009     -7e-012         6.79e-010      
  -4.2            1.5435e-009     1.8761e-008     -1.3521e-009   
  -4.25           1.686e-010      1.0167e-008     -2.6254e-009   
  -4.3            -1.3426e-009    7.88e-010       -1.9404e-009   
  -4.35           -1.7764e-009    -1.3212e-008    1.6147e-009    
  -4.4            2.2953e-009     -9.18e-009      8.783e-010     
  -4.45           2.255e-009      1.0971e-008     1.0404e-009    
  -4.5            1.785e-009      1.1969e-008     -1.5352e-009   
  -4.55           -1.4746e-009    8.591e-009      -1.8527e-009   
  -4.6            -2.3271e-009    -1.1628e-008    -5.344e-010    
  -4.65           -1.5835e-009    -2.3195e-008    2.3868e-009    
  -4.7            2.1601e-009     -5.329e-009     3.574e-010     
  -4.75           2.2281e-009     1.15e-008       5.629e-010     
  -4.8            1.395e-009      2.1671e-008     -1.3671e-009   
  -4.85           1e-011          8.418e-009      -1.3438e-009   
  -4.9            1.642e-010      1.1162e-008     -2.5711e-009   
  -4.95           -1.3931e-009    1.246e-009      -1.9781e-009   
  -5              -1.8897e-009    -1.2625e-008    1.5338e-009    
END_DB

BEGIN_DB
 ICCAP_VAR VG         -1             
 ICCAP_VAR VS         0              
 ICCAP_VAR VB         0              

 #VD              ID              IB              IG             
  0               -2.1179e-008    1.1538e-008     9.75e-011      
  -0.05           -1.2482e-006    -1.0228e-008    -1.8374e-009   
  -0.1            -2.1972e-006    1.9958e-008     -1.7055e-009   
  -0.15           -2.9312e-006    1.0676e-008     2.071e-009     
  -0.2            -3.4773e-006    -1.6173e-008    1.5653e-009    
  -0.25           -3.8755e-006    -1.1237e-008    -6.903e-010    
  -0.3            -4.1812e-006    1.7e-008        -1.891e-009    
  -0.35           -4.4491e-006    1.0528e-008     2.679e-010     
  -0.4            -4.7121e-006    -1.6156e-008    2.5297e-009    
  -0.45           -4.9137e-006    -1.2181e-008    4.53e-011      
  -0.5            -5.0575e-006    8.329e-009      -2.6429e-009   
  -0.55           -5.2405e-006    1.5265e-008     -1.5262e-009   
  -0.6            -5.412e-006     1.1046e-008     6.799e-010     
  -0.65           -5.5919e-006    -1.9711e-008    1.9784e-009    
  -0.7            -5.7333e-006    -1.0934e-008    -3.528e-010    
  -0.75           -5.8461e-006    1.1183e-008     -2.2745e-009   
  -0.8            -6.0483e-006    1.187e-008      1.6107e-009    
  -0.85           -6.1709e-006    -2.5334e-008    2.231e-009     
  -0.9            -6.3135e-006    -1.1283e-008    -1.698e-010    
  -0.95           -6.4028e-006    8.516e-009      -2.4613e-009   
  -1              -6.6011e-006    1.1596e-008     1.4499e-009    
  -1.05           -6.7233e-006    -2.651e-008     2.4605e-009    
  -1.1            -6.8645e-006    -1.196e-008     -4.4e-012      
  -1.15           -6.9429e-006    7.965e-009      -2.6014e-009   
  -1.2            -7.132e-006     1.0948e-008     1.2863e-009    
  -1.25           -7.2628e-006    -2.5732e-008    1.3065e-009    
  -1.3            -7.4001e-006    -1.2795e-008    1.338e-010     
  -1.35           -7.4738e-006    9.135e-009      -1.3444e-009   
  -1.4            -7.6678e-006    1.1301e-008     1.3757e-009    
  -1.45           -7.7879e-006    -2.6499e-008    1.2783e-009    
  -1.5            -7.9229e-006    -1.2137e-008    5.05e-011      
  -1.55           -7.9948e-006    8.539e-009      -2.6461e-009   
  -1.6            -8.1418e-006    1.5459e-008     -1.532e-009    
  -1.65           -8.2837e-006    1.1056e-008     6.715e-010     
  -1.7            -8.4432e-006    -1.9608e-008    1.9843e-009    
  -1.75           -8.5636e-006    -1.0957e-008    -3.447e-010    
  -1.8            -8.6485e-006    1.0996e-008     -2.2959e-009   
  -1.85           -8.8562e-006    1.1737e-008     1.6038e-009    
  -1.9            -8.9624e-006    -2.5349e-008    2.2367e-009    
  -1.95           -9.0986e-006    -1.1294e-008    -1.642e-010    
  -2              -9.17e-006      8.406e-009      -2.4646e-009   
  -2.05           -9.3803e-006    1.1669e-008     1.4427e-009    
  -2.1            -9.4927e-006    -2.6516e-008    2.4634e-009    
  -2.15           -9.633e-006     -1.1887e-008    9e-012         
  -2.2            -9.6961e-006    8.061e-009      -2.6103e-009   
  -2.25           -9.899e-006     1.0951e-008     1.2781e-009    
  -2.3            -1.00256e-005   -2.572e-008     1.3114e-009    
  -2.35           -1.01675e-005   -1.2874e-008    1.452e-010     
  -2.4            -1.02253e-005   9.183e-009      -1.3458e-009   
  -2.45           -1.04365e-005   1.1454e-008     1.3734e-009    
  -2.5            -1.05567e-005   -2.6407e-008    1.2818e-009    
  -2.55           -1.06963e-005   -1.2234e-008    6.59e-011      
  -2.6            -1.07537e-005   8.491e-009      -2.6537e-009   
  -2.65           -1.09076e-005   1.5753e-008     -1.5367e-009   
  -2.7            -1.10557e-005   1.1073e-008     6.632e-010     
  -2.75           -1.123e-005     -6.189e-009     2.8211e-009    
  -2.8            -1.1353e-005    -1.1344e-008    -1.14e-010     
  -2.85           -1.1429e-005    1.7253e-008     -1.8775e-009   
  -2.9            -1.1598e-005    1.1525e-008     8.197e-010     
  -2.95           -1.1765e-005    -2.5595e-008    1.3145e-009    
  -3              -1.1884e-005    -1.0672e-008    -3.658e-010    
  -3.05           -1.197e-005     2.1636e-008     -1.6295e-009   
  -3.1            -1.2157e-005    1.1856e-008     1.0164e-009    
  -3.15           -1.2303e-005    -2.5713e-008    2.3993e-009    
  -3.2            -1.2419e-005    -1.033e-008     -6.229e-010    
  -3.25           -1.2515e-005    2.5299e-008     -1.4913e-009   
  -3.3            -1.2724e-005    1.2123e-008     1.2086e-009    
  -3.35           -1.2874e-005    -1.2528e-008    2.7192e-009    
  -3.4            -1.2998e-005    -1.7631e-008    2.0097e-009    
  -3.45           -1.3146e-005    -1.2626e-008    2.918e-010     
  -3.5            -1.3204e-005    1.141e-008      -2.4549e-009   
  -3.55           -1.3425e-005    1.4667e-008     1.9838e-009    
  -3.6            -1.3569e-005    -1.7049e-008    1.6787e-009    
  -3.65           -1.3717e-005    -1.2411e-008    2.4003e-009    
  -3.7            -1.3865e-005    -5.782e-009     2.8405e-009    
  -3.75           -1.3992e-005    -1.0964e-008    2.3128e-009    
  -3.8            -1.4153e-005    -4.439e-009     2.8059e-009    
  -3.85           -1.4285e-005    -8.821e-009     2.2114e-009    
  -3.9            -1.4449e-005    -2.305e-009     2.774e-009     
  -3.95           -1.4582e-005    -5.93e-009      2.1183e-009    
  -4              -1.4693e-005    7.7e-009        -2.1093e-009   
  -4.05           -1.4826e-005    2.763e-008      3.694e-010     
  -4.1            -1.5005e-005    3.1697e-008     2.5808e-009    
  -4.15           -1.5141e-005    1.1442e-008     -8.753e-010    
  -4.2            -1.5261e-005    5.3726e-008     -1.4142e-009   
  -4.25           -1.5468e-005    4.1337e-008     2.7954e-009    
  -4.3            -1.5579e-005    2.4868e-008     -1.148e-009    
  -4.35           -1.5731e-005    6.7756e-008     -1.3594e-009   
  -4.4            -1.5948e-005    5.4213e-008     2.8902e-009    
  -4.45           -1.6039e-005    4.3853e-008     -1.4498e-009   
  -4.5            -1.6236e-005    8.224e-008      -1.6717e-009   
  -4.55           -1.6435e-005    8.3585e-008     2.4626e-009    
  -4.6            -1.6593e-005    7.0515e-008     -6.852e-010    
  -4.65           -1.6782e-005    9.223e-008      -1.4213e-009   
  -4.7            -1.6966e-005    1.1733e-007     2.7709e-009    
  -4.75           -1.7101e-005    1.0798e-007     -1.078e-009    
  -4.8            -1.7252e-005    1.6195e-007     -1.3595e-009   
  -4.85           -1.7493e-005    1.5911e-007     2.9032e-009    
  -4.9            -1.7607e-005    1.5964e-007     -1.3651e-009   
  -4.95           -1.7814e-005    2.1319e-007     -1.7207e-009   
  -5              -1.8045e-005    2.2669e-007     2.4528e-009    
END_DB

BEGIN_DB
 ICCAP_VAR VG         -2             
 ICCAP_VAR VS         0              
 ICCAP_VAR VB         0              

 #VD              ID              IB              IG             
  0               -8.498e-008     2.7744e-008     7.181e-010     
  -0.05           -5.4368e-006    1.0797e-008     2.6672e-009    
  -0.1            -1.05652e-005   -1.2375e-008    1.189e-010     
  -0.15           -1.5422e-005    -1.1177e-008    2.5442e-009    
  -0.2            -2.0053e-005    -2.6467e-008    2.2816e-009    
  -0.25           -2.4406e-005    -1.1559e-008    -7.264e-010    
  -0.3            -2.8477e-005    2.5424e-008     -1.4465e-009   
  -0.35           -3.2344e-005    1.0877e-008     1.3002e-009    
  -0.4            -3.5887e-005    -2.231e-008     1.9128e-009    
  -0.45           -3.9191e-005    -1.3634e-008    2.29e-010      
  -0.5            -4.2155e-005    9.754e-009      -2.4118e-009   
  -0.55           -4.4984e-005    1.0867e-008     2.0439e-009    
  -0.6            -4.7539e-005    -1.1506e-008    -5.18e-011     
  -0.65           -4.9782e-005    1.5447e-008     -1.9853e-009   
  -0.7            -5.1928e-005    1.135e-008      7.533e-010     
  -0.75           -5.388e-005     -2.5513e-008    1.3323e-009    
  -0.8            -5.5603e-005    -1.105e-008     -2.897e-010    
  -0.85           -5.7126e-005    1.9593e-008     -1.6955e-009   
  -0.9            -5.8627e-005    1.1443e-008     9.619e-010     
  -0.95           -5.9943e-005    -2.7346e-008    2.5041e-009    
  -1              -6.1134e-005    -1.1055e-008    -5.464e-010    
  -1.05           -6.2184e-005    2.3059e-008     -1.5116e-009   
  -1.1            -6.3313e-005    1.1054e-008     1.1574e-009    
  -1.15           -6.4289e-005    -1.32e-008      2.7835e-009    
  -1.2            -6.5158e-005    -1.1063e-008    -2.211e-010    
  -1.25           -6.5952e-005    1.8658e-008     -1.7633e-009   
  -1.3            -6.6815e-005    1.1586e-008     9.103e-010     
  -1.35           -6.7612e-005    -2.7094e-008    1.2774e-009    
  -1.4            -6.8304e-005    -1.0867e-008    -4.842e-010    
  -1.45           -6.8923e-005    2.2109e-008     -1.5465e-009   
  -1.5            -6.9694e-005    1.1231e-008     1.0995e-009    
  -1.55           -7.0324e-005    -2.626e-008     2.2635e-009    
  -1.6            -7.0905e-005    -1.1478e-008    -7.309e-010    
  -1.65           -7.1446e-005    2.5465e-008     -1.4407e-009   
  -1.7            -7.2184e-005    1.0969e-008     1.3096e-009    
  -1.75           -7.2717e-005    -2.2056e-008    1.8853e-009    
  -1.8            -7.3306e-005    -1.3484e-008    2.191e-010     
  -1.85           -7.3703e-005    9.925e-009      -2.4028e-009   
  -1.9            -7.4373e-005    1.0764e-008     2.0531e-009    
  -1.95           -7.4904e-005    -1.1502e-008    -6.2e-011      
  -2              -7.5298e-005    1.5633e-008     -1.9664e-009   
  -2.05           -7.5877e-005    1.1302e-008     7.623e-010     
  -2.1            -7.6436e-005    -2.5546e-008    1.3268e-009    
  -2.15           -7.69e-005      -1.1078e-008    -2.988e-010    
  -2.2            -7.7287e-005    1.973e-008      -1.6822e-009   
  -2.25           -7.7857e-005    1.1543e-008     9.64e-010      
  -2.3            -7.8359e-005    -2.7241e-008    2.4889e-009    
  -2.35           -7.8792e-005    -1.1045e-008    -5.57e-010     
  -2.4            -7.9171e-005    2.3221e-008     -1.5045e-009   
  -2.45           -7.9762e-005    1.1098e-008     1.1658e-009    
  -2.5            -8.019e-005     -2.5274e-008    2.1487e-009    
  -2.55           -8.0589e-005    -1.1592e-008    -8.117e-010    
  -2.6            -8.097e-005     2.6306e-008     -1.4235e-009   
  -2.65           -8.1589e-005    1.1344e-008     1.3794e-009    
  -2.7            -8.197e-005     -2.0137e-008    1.7875e-009    
  -2.75           -8.2437e-005    -1.2735e-008    1.708e-010     
  -2.8            -8.2708e-005    1.1196e-008     -2.3151e-009   
  -2.85           -8.3259e-005    1.0347e-008     2.1173e-009    
  -2.9            -8.3691e-005    -1.1111e-008    -1.29e-010     
  -2.95           -8.3994e-005    1.7275e-008     -1.8732e-009   
  -3              -8.4483e-005    1.1683e-008     8.277e-010     
  -3.05           -8.4951e-005    -2.5859e-008    1.3016e-009    
  -3.1            -8.5325e-005    -1.0515e-008    -3.792e-010    
  -3.15           -8.5643e-005    2.16e-008       -1.6159e-009   
  -3.2            -8.6156e-005    1.2016e-008     1.0299e-009    
  -3.25           -8.6608e-005    -1.0136e-008    2.8563e-009    
  -3.3            -8.6981e-005    -2.6074e-008    2.526e-009     
  -3.35           -8.7387e-005    -1.8916e-008    1.6815e-009    
  -3.4            -8.7804e-005    -1.5088e-008    2.4364e-009    
  -3.45           -8.818e-005     -1.8628e-008    1.5958e-009    
  -3.5            -8.8577e-005    -1.4434e-008    2.3353e-009    
  -3.55           -8.899e-005     -8.129e-009     2.829e-009     
  -3.6            -8.9354e-005    -1.3095e-008    2.2384e-009    
  -3.65           -8.9772e-005    -7.212e-009     2.7942e-009    
  -3.7            -9.0132e-005    -1.1126e-008    2.1244e-009    
  -3.75           -9.0543e-005    -5.231e-009     2.7478e-009    
  -3.8            -9.0905e-005    -8.429e-009     2.0203e-009    
  -3.85           -9.1314e-005    -1.78e-009      2.6959e-009    
  -3.9            -9.1645e-005    4.774e-009      -3.625e-010    
  -3.95           -9.1922e-005    3.9763e-008     -1.632e-009    
  -4              -9.2388e-005    3.4627e-008     2.4831e-009    
  -4.05           -9.2756e-005    1.6143e-008     -7.245e-010    
  -4.1            -9.3061e-005    5.8601e-008     -1.4475e-009   
  -4.15           -9.3532e-005    5.1309e-008     2.7031e-009    
