! VERSION = 6.00
BEGIN_HEADER
 ICCAP_INPUTS
  VG         V  B GROUND SMU4 0.001 LIN        2    0          -5         6    -1        
  VS         V  E GROUND SMU2 0.1 CON        0
  VD         V  S GROUND SMU1 0.1 LIN        1    0          -5         101  -0.05     
  VB         V  C GROUND SMU3 0.1 LIN        3    0          2.5        2    2.5       
 ICCAP_OUTPUTS
  ID         I  S GROUND SMU1 B
  IB         I  C GROUND SMU3 B
  IG         I  B GROUND SMU4 B
END_HEADER

BEGIN_DB
 ICCAP_VAR VG         0              
 ICCAP_VAR VS         0              
 ICCAP_VAR VB         0              

 #VD              ID              IB              IG             
  0               1.7734e-009     4.455e-009      1.5298e-009    
  -0.05           2.3902e-009     1.0379e-008     9.231e-010     
  -0.1            2.3312e-009     1.0585e-008     1.0668e-009    
  -0.15           2.2442e-009     1.1379e-008     1.2077e-009    
  -0.2            2.105e-009      1.1575e-008     1.3757e-009    
  -0.25           2.0533e-009     1.0666e-008     -5.38e-011     
  -0.3            2.1368e-009     1.0312e-008     1.208e-010     
  -0.35           2.2266e-009     1.0267e-008     3.066e-010     
  -0.4            2.322e-009      1.049e-008      4.581e-010     
  -0.45           2.3858e-009     1.0767e-008     6.251e-010     
  -0.5            1.5254e-009     2.2565e-008     -1.3291e-009   
  -0.55           1.643e-010      1.1902e-008     -2.7187e-009   
  -0.6            -1.381e-009     5.89e-010       -1.9316e-009   
  -0.65           -2.2974e-009    -1.1122e-008    -6.023e-010    
  -0.7            -2.3015e-009    -1.1285e-008    -7.858e-010    
  -0.75           -1.6323e-009    -1.7718e-008    1.2416e-009    
  -0.8            -2.493e-010     -1.416e-008     2.8342e-009    
  -0.85           2.1799e-009     1.0359e-008     1.807e-010     
  -0.9            2.2809e-009     1.0384e-008     3.502e-010     
  -0.95           2.3565e-009     1.0664e-008     5.165e-010     
  -1              1.4624e-009     2.4686e-008     -1.3459e-009   
  -1.05           8.6e-011        1.1302e-008     -1.3194e-009   
  -1.1            2.154e-010      1.2509e-008     -2.6788e-009   
  -1.15           -1.3311e-009    7.28e-010       -1.9745e-009   
  -1.2            -2.3083e-009    -1.1296e-008    -6.726e-010    
  -1.25           -1.5796e-009    -1.9921e-008    1.2575e-009    
  -1.3            -1.426e-010     -1.2563e-008    2.8772e-009    
  -1.35           2.1192e-009     1.0328e-008     8.74e-011      
  -1.4            2.2224e-009     1.0337e-008     2.494e-010     
  -1.45           2.3104e-009     1.0451e-008     4.11e-010      
  -1.5            2.3726e-009     1.0789e-008     5.79e-010      
  -1.55           1.5081e-009     2.3393e-008     -1.3343e-009   
  -1.6            1.311e-010      1.1359e-008     -1.3089e-009   
  -1.65           2.781e-010      1.3224e-008     -2.6467e-009   
  -1.7            -1.2912e-009    8.26e-010       -2.006e-009    
  -1.75           -2.314e-009     -1.1262e-008    -7.451e-010    
  -1.8            -1.6116e-009    -1.8548e-008    1.2484e-009    
  -1.85           -2.043e-010     -1.3529e-008    2.8587e-009    
  -1.9            2.1557e-009     1.0262e-008     1.372e-010     
  -1.95           2.2557e-009     1.0327e-008     3.059e-010     
  -2              2.3395e-009     1.046e-008      4.749e-010     
  -2.05           1.4271e-009     2.5595e-008     -1.3521e-009   
  -2.1            5.43e-011       1.1111e-008     -1.3238e-009   
  -2.15           1.84e-010       1.2032e-008     -2.7065e-009   
  -2.2            -1.3568e-009    6.44e-010       -1.9565e-009   
  -2.25           -2.2996e-009    -1.1184e-008    -6.24e-010     
  -2.3            -2.3077e-009    -1.1255e-008    -8.131e-010    
  -2.35           -1.6405e-009    -1.6951e-008    1.2396e-009    
  -2.4            -2.684e-010     -1.4383e-008    2.8291e-009    
  -2.45           2.1939e-009     1.0349e-008     2.091e-010     
  -2.5            2.2898e-009     1.0354e-008     3.748e-010     
  -2.55           2.3642e-009     1.0758e-008     5.432e-010     
  -2.6            1.48e-009       2.4028e-008     -1.3429e-009   
  -2.65           1.045e-010      1.1258e-008     -1.317e-009    
  -2.7            2.379e-010      1.2734e-008     -2.6673e-009   
  -2.75           -1.3102e-009    7.81e-010       -1.9879e-009   
  -2.8            -2.3097e-009    -1.1157e-008    -7.02e-010     
  -2.85           -1.5943e-009    -1.9281e-008    1.2545e-009    
  -2.9            -1.789e-010     -1.3348e-008    2.8739e-009    
  -2.95           2.1325e-009     1.0381e-008     1.112e-010     
  -3              2.2338e-009     1.0339e-008     2.76e-010      
  -3.05           2.3232e-009     1.053e-008      4.384e-010     
  -3.1            1.3982e-009     2.5876e-008     -1.3608e-009   
  -3.15           2.79e-011       1.125e-008      -1.3316e-009   
  -3.2            1.554e-010      1.1908e-008     -2.7237e-009   
  -3.25           -1.3772e-009    5.83e-010       -1.9409e-009   
  -3.3            -2.2993e-009    -1.1124e-008    -5.922e-010    
  -3.35           -2.3138e-009    -1.1246e-008    -7.794e-010    
  -3.4            -1.6266e-009    -1.7419e-008    1.2473e-009    
  -3.45           -2.4e-010       -1.4029e-008    2.8433e-009    
  -3.5            2.168e-009      1.0433e-008     1.733e-010     
  -3.55           2.269e-009      1.0354e-008     3.421e-010     
  -3.6            2.3483e-009     1.0535e-008     5.102e-010     
  -3.65           1.4545e-009     2.4432e-008     -1.3484e-009   
  -3.7            8.57e-011       1.1261e-008     -1.3183e-009   
  -3.75           2.143e-010      1.2324e-008     -2.6825e-009   
  -3.8            -1.3335e-009    7.57e-010       -1.9731e-009   
  -3.85           -2.3096e-009    -1.116e-008     -6.654e-010    
  -3.9            -1.5731e-009    -1.9476e-008    1.2578e-009    
  -3.95           -1.433e-010     -1.2452e-008    2.8924e-009    
  -4              2.3363e-009     1.0659e-008     1.051e-009     
  -4.05           1.8814e-009     1.2436e-008     -1.5358e-009   
  -4.1            -1.4239e-009    9.136e-009      -1.9036e-009   
  -4.15           -2.2887e-009    -1.093e-008     -5.229e-010    
  -4.2            -2.3123e-009    -1.1278e-008    -7.025e-010    
  -4.25           -1.5956e-009    -1.8747e-008    1.255e-009     
  -4.3            -1.831e-010     -1.3269e-008    2.8773e-009    
  -4.35           2.1304e-009     1.0389e-008     1.133e-010     
  -4.4            2.2302e-009     1.0445e-008     2.802e-010     
  -4.45           2.3202e-009     1.0486e-008     4.488e-010     
  -4.5            2.3767e-009     1.0669e-008     6.123e-010     
  -4.55           1.5355e-009     2.1999e-008     -1.3324e-009   
  -4.6            1.573e-010      1.1707e-008     -2.7216e-009   
  -4.65           -1.379e-009     6.64e-010       -1.9394e-009   
  -4.7            -2.3023e-009    -1.1079e-008    -5.931e-010    
  -4.75           -2.3183e-009    -1.1218e-008    -7.792e-010    
  -4.8            -1.6313e-009    -1.7258e-008    1.2438e-009    
  -4.85           -2.539e-010     -1.4112e-008    2.8402e-009    
  -4.9            2.1663e-009     1.0409e-008     1.775e-010     
  -4.95           2.2636e-009     1.0328e-008     3.438e-010     
  -5              2.3398e-009     1.0521e-008     5.133e-010     
END_DB

BEGIN_DB
 ICCAP_VAR VG         -1             
 ICCAP_VAR VS         0              
 ICCAP_VAR VB         0              

 #VD              ID              IB              IG             
  0               -8.931e-008     -1.1096e-008    9.69e-011      
  -0.05           -3.957e-006     9.169e-009      1.5006e-009    
  -0.1            -6.3199e-006    -2.4812e-008    1.267e-009     
  -0.15           -7.7682e-006    -1.1687e-008    -9.11e-011     
  -0.2            -8.6055e-006    1.1155e-008     -2.6087e-009   
  -0.25           -9.4071e-006    1.0717e-008     1.3058e-009    
  -0.3            -1.00022e-005   -2.5689e-008    1.3129e-009    
  -0.35           -1.02983e-005   -1.1207e-008    -1.0787e-009   
  -0.4            -1.07589e-005   2.3378e-008     -1.5242e-009   
  -0.45           -1.11457e-005   1.0345e-008     6.692e-010     
  -0.5            -1.1502e-005    -1.0869e-008    2.602e-009     
  -0.55           -1.1844e-005    -1.131e-008     -9.418e-010    
  -0.6            -1.221e-005     2.724e-008      -1.3843e-009   
  -0.65           -1.2518e-005    1.0308e-008     3.828e-010     
  -0.7            -1.3056e-005    -2.1483e-008    1.6787e-009    
  -0.75           -1.3376e-005    -1.217e-008     6.99e-011      
  -0.8            -1.3517e-005    1.4777e-008     -2.2446e-009   
  -0.85           -1.3888e-005    9.913e-009      2.1387e-009    
  -0.9            -1.4285e-005    -1.1208e-008    -2.255e-010    
  -0.95           -1.4486e-005    1.9442e-008     -1.8404e-009   
  -1              -1.4822e-005    1.068e-008      8.503e-010     
  -1.05           -1.5299e-005    -2.5758e-008    1.3163e-009    
  -1.1            -1.5292e-005    -1.1841e-008    -1.5607e-009   
  -1.15           -1.5775e-005    1.8732e-008     -1.6308e-009   
  -1.2            -1.608e-005     1.2217e-008     -8.47e-011     
  -1.25           -1.658e-005     -1.6071e-008    2.4222e-009    
  -1.3            -1.6716e-005    -1.0839e-008    -6.452e-010    
  -1.35           -1.6991e-005    2.4004e-008     -1.49e-009     
  -1.4            -1.7293e-005    1.1205e-008     9.08e-011      
  -1.45           -1.7815e-005    -1.8784e-008    2.1285e-009    
  -1.5            -1.7931e-005    -1.1112e-008    -8.458e-010    
  -1.55           -1.8233e-005    2.6383e-008     -1.4161e-009   
  -1.6            -1.8747e-005    1.0854e-008     1.3433e-009    
  -1.65           -1.9083e-005    -1.8537e-008    1.8354e-009    
  -1.7            -1.9446e-005    -1.271e-008     1.748e-010     
  -1.75           -1.9502e-005    1.336e-008      -2.3993e-009   
  -1.8            -1.983e-005     1.0388e-008     4.476e-010     
  -1.85           -2.0406e-005    -2.2077e-008    1.5905e-009    
  -1.9            -2.0726e-005    -1.1883e-008    8.2e-012       
  -1.95           -2.0801e-005    1.5878e-008     -2.1502e-009   
  -2              -2.1151e-005    1.0367e-008     6.41e-010      
  -2.05           -2.1723e-005    -2.3977e-008    1.4189e-009    
  -2.1            -2.1682e-005    -1.1097e-008    -1.3366e-009   
  -2.15           -2.2092e-005    1.1645e-008     -2.5543e-009   
  -2.2            -2.2426e-005    1.0451e-008     3.178e-010     
  -2.25           -2.3038e-005    -2.0737e-008    1.7677e-009    
  -2.3            -2.3087e-005    -1.1189e-008    -1.0363e-009   
  -2.35           -2.3443e-005    2.8038e-008     -1.3605e-009   
  -2.4            -2.4051e-005    1.1731e-008     1.5736e-009    
  -2.45           -2.4396e-005    -1.4184e-008    1.5365e-009    
  -2.5            -2.4723e-005    -1.1598e-008    -3.28e-011     
  -2.55           -2.4794e-005    1.6859e-008     -2.0789e-009   
  -2.6            -2.5184e-005    1.0572e-008     6.834e-010     
  -2.65           -2.5783e-005    -2.4272e-008    1.3916e-009    
  -2.7            -2.6028e-005    -1.0938e-008    -2.341e-010    
  -2.75           -2.619e-005     1.978e-008      -1.8254e-009   
  -2.8            -2.6614e-005    1.1176e-008     8.586e-010     
  -2.85           -2.717e-005     -2.5296e-008    1.3119e-009    
  -2.9            -2.7359e-005    -1.0123e-008    -4.462e-010    
  -2.95           -2.7596e-005    2.2589e-008     -1.6241e-009   
  -3              -2.8086e-005    1.1797e-008     1.0235e-009    
  -3.05           -2.8609e-005    -7.557e-009     2.8819e-009    
  -3.1            -2.8973e-005    -1.4758e-008    2.3862e-009    
  -3.15           -2.9097e-005    -8.745e-009     -6.755e-010    
  -3.2            -2.9375e-005    2.7154e-008     -1.4737e-009   
  -3.25           -2.998e-005     1.3819e-008     1.202e-009     
  -3.3            -3.0444e-005    -7.742e-009     2.7596e-009    
  -3.35           -3.0779e-005    -1.4097e-008    2.0637e-009    
  -3.4            -3.1194e-005    -6.52e-009      2.7315e-009    
  -3.45           -3.1529e-005    -1.2222e-008    1.9977e-009    
  -3.5            -3.1927e-005    -4.153e-009     2.695e-009     
  -3.55           -3.2112e-005    2.0446e-008     2.1756e-009    
  -3.6            -3.2689e-005    3.132e-009      2.8533e-009    
  -3.65           -3.2795e-005    2.388e-008      2.7463e-009    
  -3.7            -3.3205e-005    2.3162e-008     2.9166e-009    
  -3.75           -3.3347e-005    9.958e-009      -1.4808e-009   
  -3.8            -3.3949e-005    4.615e-008      -1.7111e-009   
  -3.85           -3.4372e-005    3.9291e-008     2.4164e-009    
  -3.9            -3.4783e-005    2.4067e-008     -6.716e-010    
  -3.95           -3.5071e-005    6.5645e-008     -1.4733e-009   
  -4              -3.5542e-005    5.5917e-008     2.62e-009      
  -4.05           -3.5895e-005    4.4673e-008     -9.626e-010    
  -4.1            -3.6268e-005    9.2949e-008     -1.3789e-009   
  -4.15           -3.6771e-005    8.341e-008      2.8302e-009    
  -4.2            -3.7023e-005    7.6268e-008     -1.2242e-009   
  -4.25           -3.7619e-005    1.04829e-007    -2.066e-009    
  -4.3            -3.8087e-005    1.2626e-007     2.2334e-009    
  -4.35           -3.861e-005     1.225e-007      -3.651e-010    
  -4.4            -3.8833e-005    1.7423e-007     -1.6912e-009   
  -4.45           -3.9354e-005    1.8489e-007     2.4343e-009    
  -4.5            -3.9801e-005    1.886e-007      -6.943e-010    
  -4.55           -4.0143e-005    2.5281e-007     -1.4597e-009   
  -4.6            -4.0695e-005    2.6668e-007     2.6481e-009    
  -4.65           -4.1109e-005    2.8078e-007     -9.609e-010    
  -4.7            -4.1558e-005    3.6063e-007     -1.3516e-009   
  -4.75           -4.2161e-005    3.8246e-007     2.8744e-009    
  -4.8            -4.248e-005     4.0928e-007     -1.1995e-009   
  -4.85           -4.3079e-005    5.0178e-007     -1.2719e-009   
  -4.9            -4.3759e-005    5.3821e-007     2.9901e-009    
  -4.95           -4.4017e-005    5.8165e-007     -1.4422e-009   
  -5              -4.4854e-005    6.867e-007      -1.5502e-009   
END_DB

BEGIN_DB
 ICCAP_VAR VG         -2             
 ICCAP_VAR VS         0              
 ICCAP_VAR VB         0              

 #VD              ID              IB              IG             
  0               -3.5303e-007    1.0658e-008     -6.103e-010    
  -0.05           -3.4973e-005    9.854e-009      1.6007e-009    
  -0.1            -6.7737e-005    -1.1932e-008    3.3e-012       
  -0.15           -9.8574e-005    1.6306e-008     -2.1437e-009   
  -0.2            -0.00012786     2.4981e-008     1.5033e-009    
  -0.25           -0.00015507     -1.3886e-008    2.688e-010     
  -0.3            -0.00018004     1.3448e-008     -2.3657e-009   
  -0.35           -0.00020333     1.0348e-008     5.965e-010     
  -0.4            -0.0002248      -2.385e-008     1.3734e-009    
  -0.45           -0.00024399     -1.0744e-008    -4.278e-010    
  -0.5            -0.00026114     2.278e-008      -1.5434e-009   
  -0.55           -0.00027717     1.045e-008      1.217e-009     
  -0.6            -0.00029113     -1.8951e-008    1.8487e-009    
  -0.65           -0.00030352     -1.214e-008     5.61e-011      
  -0.7            -0.00031399     1.7632e-008     -2.0503e-009   
  -0.75           -0.00032411     1.0715e-008     8.325e-010     
  -0.8            -0.00033289     -2.5257e-008    1.2801e-009    
  -0.85           -0.00034032     -1.0893e-008    -7.086e-010    
  -0.9            -0.0003468      2.5118e-008     -1.4143e-009   
  -0.95           -0.0003531      1.0199e-008     3.906e-010     
  -1              -0.00035929     -2.2514e-008    1.5327e-009    
  -1.05           -0.00036444     -1.1206e-008    -1.889e-010    
  -1.1            -0.0003686      2.1022e-008     -1.7392e-009   
  -1.15           -0.00037344     1.0439e-008     1.041e-009     
  -1.2            -0.00037779     -1.0822e-008    2.7561e-009    
  -1.25           -0.00038144     -1.0721e-008    -4.115e-010    
  -1.3            -0.00038448     2.2633e-008     -1.5543e-009   
  -1.35           -0.00038866     1.0431e-008     1.2069e-009    
  -1.4            -0.00039185     -1.9184e-008    1.8774e-009    
  -1.45           -0.00039455     -1.1157e-008    -1.0974e-009   
  -1.5            -0.00039762     2.6183e-008     -1.3219e-009   
  -1.55           -0.00040062     1.3416e-008     -1.643e-010    
  -1.6            -0.00040423     -1.7214e-008    2.3641e-009    
  -1.65           -0.00040644     -1.1033e-008    -8.257e-010    
  -1.7            -0.00040906     2.632e-008      -1.3844e-009   
  -1.75           -0.00041193     1.0363e-008     5.073e-010     
  -1.8            -0.00041518     -2.3451e-008    1.4324e-009    
  -1.85           -0.00041747     -1.0868e-008    -3.219e-010    
  -1.9            -0.0004194      2.2219e-008     -1.6163e-009   
  -1.95           -0.00042266     1.0585e-008     1.135e-009     
  -2              -0.00042522     -1.2571e-008    2.677e-009     
  -2.05           -0.00042719     -1.0804e-008    -5.366e-010    
  -2.1            -0.00042896     2.3927e-008     -1.4831e-009   
  -2.15           -0.00043239     1.0657e-008     1.3084e-009    
  -2.2            -0.00043458     -1.6842e-008    1.7155e-009    
  -2.25           -0.00043677     -1.1825e-008    -3.11e-011     
  -2.3            -0.00043833     1.8875e-008     -1.9287e-009   
  -2.35           -0.00044059     1.3724e-008     -1.81e-010     
  -2.4            -0.00044359     -1.6651e-008    2.3925e-009    
  -2.45           -0.00044513     -1.088e-008     -8.087e-010    
  -2.5            -0.00044683     2.6181e-008     -1.3916e-009   
  -2.55           -0.0004503      1.1642e-008     1.5576e-009    
  -2.6            -0.00045207     -1.3298e-008    2.208e-010     
  -2.65           -0.00045338     1.4389e-008     -2.2974e-009   
  -2.7            -0.00045574     1.0586e-008     6.525e-010     
  -2.75           -0.00045833     -2.4217e-008    1.3465e-009    
  -2.8            -0.00046003     -1.0317e-008    -4.923e-010    
  -2.85           -0.00046161     2.4122e-008     -1.5051e-009   
  -2.9            -0.00046459     1.137e-008      1.2771e-009    
  -2.95           -0.00046638     -1.6493e-008    1.7663e-009    
  -3              -0.00046859     -2.3693e-008    1.2778e-009    
  -3.05           -0.00047014     -8.833e-009     -7.269e-010    
  -3.1            -0.00047156     2.8105e-008     -1.4132e-009   
  -3.15           -0.00047467     1.484e-008      1.4797e-009    
  -3.2            -0.00047629     -1.365e-008     2.2327e-009    
  -3.25           -0.00047837     -6.931e-009     2.6797e-009    
  -3.3            -0.00048032     -1.224e-009     2.8818e-009    
  -3.35           -0.00048219     -7.846e-009     2.3266e-009    
  -3.4            -0.00048411     3.3e-010        2.7359e-009    
  -3.45           -0.00048558     2.1683e-008     2.8776e-009    
  -3.5            -0.00048745     2.7641e-008     2.4621e-009    
  -3.55           -0.00048905     1.2037e-008     -8.938e-010    
  -3.6            -0.00049056     5.5778e-008     -1.3658e-009   
  -3.65           -0.00049306     4.1842e-008     2.8943e-009    
  -3.7            -0.00049421     3.2627e-008     -1.5203e-009   
  -3.75           -0.00049632     7.1337e-008     -1.5658e-009   
  -3.8            -0.00049856     7.3594e-008     2.6144e-009    
  -3.85           -0.00050014     6.9247e-008     -1.0721e-009   
  -3.9            -0.00050209     7.748e-008      -5.554e-010    
  -3.95           -0.0005036      1.4403e-007     -1.3739e-009   
  -4              -0.00050595     1.48e-007       2.8758e-009    
  -4.05           -0.00050701     1.5852e-007     -1.4659e-009   
  -4.1            -0.00050936     2.2115e-007     -1.6106e-009   
  -4.15           -0.00051138     2.4925e-007     2.5744e-009    
