! VERSION = 6.00
BEGIN_HEADER
 ICCAP_INPUTS
  VG         V  B GROUND SMU4 0.001 LIN        2    0          -5         6    -1        
  VS         V  E GROUND SMU2 0.1 CON        0
  VD         V  S GROUND SMU1 0.1 LIN        1    0          -5         101  -0.05     
  VB         V  C GROUND SMU3 0.1 LIN        3    0          2.5        2    2.5       
 ICCAP_OUTPUTS
  ID         I  S GROUND SMU1 B
  IB         I  C GROUND SMU3 B
  IG         I  B GROUND SMU4 B
END_HEADER

BEGIN_DB
 ICCAP_VAR VG         0              
 ICCAP_VAR VS         0              
 ICCAP_VAR VB         0              

 #VD              ID              IB              IG             
  0               3.882e-010      1.1044e-008     1.744e-010     
  -0.05           -3.114e-010     -1.7152e-008    2.7932e-009    
  -0.1            2.198e-009      1.2227e-008     1.2161e-009    
  -0.15           2.0229e-009     1.2624e-008     1.4052e-009    
  -0.2            2.096e-009      1.0764e-008     -3e-012        
  -0.25           2.1969e-009     1.0481e-008     1.788e-010     
  -0.3            2.2942e-009     1.0583e-008     3.825e-010     
  -0.35           2.3583e-009     1.0857e-008     5.95e-010      
  -0.4            2.3893e-009     1.1178e-008     7.89e-010      
  -0.45           2.3736e-009     1.1116e-008     9.462e-010     
  -0.5            2.3094e-009     1.1467e-008     1.0737e-009    
  -0.55           2.1875e-009     1.2479e-008     1.229e-009     
  -0.6            2.0012e-009     1.2669e-008     1.4248e-009    
  -0.65           2.1048e-009     1.0683e-008     1.12e-011      
  -0.7            2.2056e-009     1.0488e-008     2.011e-010     
  -0.75           2.3019e-009     1.0611e-008     4.067e-010     
  -0.8            2.365e-009      1.0953e-008     6.116e-010     
  -0.85           2.3891e-009     1.1046e-008     8.092e-010     
  -0.9            2.3677e-009     1.1076e-008     9.574e-010     
  -0.95           2.3015e-009     1.1504e-008     1.0825e-009    
  -1              2.1727e-009     1.25e-008       1.2453e-009    
  -1.05           1.9831e-009     1.257e-008      1.4347e-009    
  -1.1            2.113e-009      1.0634e-008     2.7e-011       
  -1.15           2.2135e-009     1.0523e-008     2.179e-010     
  -1.2            2.3082e-009     1.0669e-008     4.243e-010     
  -1.25           2.3669e-009     1.1053e-008     6.275e-010     
  -1.3            2.3896e-009     1.103e-008      8.177e-010     
  -1.35           2.3645e-009     1.1153e-008     9.62e-010      
  -1.4            2.2917e-009     1.1585e-008     1.0926e-009    
  -1.45           2.1635e-009     1.2508e-008     1.2589e-009    
  -1.5            1.9681e-009     1.2631e-008     1.4556e-009    
  -1.55           2.1174e-009     1.0599e-008     3.76e-011      
  -1.6            2.2217e-009     1.0557e-008     2.342e-010     
  -1.65           2.314e-009      1.0627e-008     4.395e-010     
  -1.7            2.368e-009      1.102e-008      6.477e-010     
  -1.75           2.3852e-009     1.1085e-008     8.298e-010     
  -1.8            2.3599e-009     1.1125e-008     9.738e-010     
  -1.85           2.284e-009      1.1643e-008     1.1037e-009    
  -1.9            2.1494e-009     1.2607e-008     1.2649e-009    
  -1.95           1.9515e-009     1.259e-008      1.4728e-009    
  -2              2.1261e-009     1.06e-008       4.67e-011      
  -2.05           2.2293e-009     1.0499e-008     2.4e-010       
  -2.1            2.3176e-009     1.068e-008      4.525e-010     
  -2.15           2.3722e-009     1.1033e-008     6.585e-010     
  -2.2            2.3888e-009     1.1096e-008     8.362e-010     
  -2.25           2.358e-009      1.1081e-008     9.695e-010     
  -2.3            2.2823e-009     1.1687e-008     1.1122e-009    
  -2.35           2.1386e-009     1.2728e-008     1.2871e-009    
  -2.4            1.9359e-009     1.2724e-008     1.4943e-009    
  -2.45           2.1307e-009     1.0588e-008     6.09e-011      
  -2.5            2.2344e-009     1.0553e-008     2.671e-010     
  -2.55           2.324e-009      1.068e-008      4.658e-010     
  -2.6            2.3719e-009     1.1064e-008     6.764e-010     
  -2.65           2.3865e-009     1.0974e-008     8.401e-010     
  -2.7            2.3519e-009     1.1152e-008     9.68e-010      
  -2.75           2.2743e-009     1.1668e-008     1.1221e-009    
  -2.8            1.9619e-009     1.1546e-008     -1.4714e-009   
  -2.85           -1.3115e-009    9.374e-009      -1.9355e-009   
  -2.9            -1.7098e-009    -1.3928e-008    1.6886e-009    
  -2.95           1.5913e-009     -9.346e-009     1.8149e-009    
  -3              2.2872e-009     1.0549e-008     3.84e-010      
  -3.05           2.3562e-009     1.0927e-008     5.794e-010     
  -3.1            2.3828e-009     1.102e-008      7.644e-010     
  -3.15           2.3721e-009     1.0999e-008     9.053e-010     
  -3.2            2.3143e-009     1.1325e-008     1.0466e-009    
  -3.25           2.2055e-009     1.2438e-008     1.2163e-009    
  -3.3            2.013e-009      1.1236e-008     -1.734e-010    
  -3.35           2.0945e-009     1.0642e-008     2e-013         
  -3.4            2.1921e-009     1.055e-008      1.876e-010     
  -3.45           2.2954e-009     1.0603e-008     3.94e-010      
  -3.5            2.359e-009      1.0994e-008     5.907e-010     
  -3.55           2.3866e-009     1.1056e-008     7.688e-010     
  -3.6            2.3718e-009     1.1072e-008     9.039e-010     
  -3.65           2.3089e-009     1.1366e-008     1.0604e-009    
  -3.7            2.1959e-009     1.2395e-008     1.2271e-009    
  -3.75           2.0189e-009     1.126e-008      -1.612e-010    
  -3.8            2.1012e-009     1.0561e-008     1.62e-011      
  -3.85           2.1995e-009     1.0594e-008     2.092e-010     
  -3.9            2.3023e-009     1.0556e-008     4.069e-010     
  -3.95           2.3618e-009     1.0913e-008     6.048e-010     
  -4              2.388e-009      1.114e-008      7.841e-010     
  -4.05           2.3708e-009     1.1032e-008     9.133e-010     
  -4.1            2.3007e-009     1.1578e-008     1.0711e-009    
  -4.15           2.1811e-009     1.2497e-008     1.2473e-009    
  -4.2            1.9883e-009     1.2803e-008     1.4537e-009    
  -4.25           2.1083e-009     1.059e-008      2.81e-011      
  -4.3            2.2092e-009     1.0593e-008     2.194e-010     
  -4.35           2.3062e-009     1.0616e-008     4.286e-010     
  -4.4            2.3664e-009     1.0926e-008     6.2e-010       
  -4.45           2.3872e-009     1.1034e-008     7.897e-010     
  -4.5            2.3655e-009     1.1075e-008     9.265e-010     
  -4.55           2.2918e-009     1.1561e-008     1.0858e-009    
  -4.6            2.1641e-009     1.2579e-008     1.2644e-009    
  -4.65           1.9755e-009     1.2816e-008     1.4789e-009    
  -4.7            2.1137e-009     1.0527e-008     3.8e-011       
  -4.75           2.2164e-009     1.0572e-008     2.39e-010      
  -4.8            2.3112e-009     1.0614e-008     4.425e-010     
  -4.85           2.3677e-009     1.0976e-008     6.37e-010      
  -4.9            2.3891e-009     1.1043e-008     8.039e-010     
  -4.95           2.3588e-009     1.1096e-008     9.399e-010     
  -5              2.2836e-009     1.1664e-008     1.1006e-009    
END_DB

BEGIN_DB
 ICCAP_VAR VG         -1             
 ICCAP_VAR VS         0              
 ICCAP_VAR VB         0              

 #VD              ID              IB              IG             
  0               -4.2462e-009    1.1376e-008     -1.7808e-009   
  -0.05           -1.9328e-007    1.1231e-008     -2.544e-009    
  -0.1            -2.9238e-007    1.1242e-008     1.54e-011      
  -0.15           -3.4446e-007    -1.7148e-008    2.5661e-009    
  -0.2            -3.6425e-007    -1.1309e-008    -2.403e-010    
  -0.25           -3.679e-007     1.4121e-008     -2.1415e-009   
  -0.3            -3.7421e-007    1.2764e-008     2.0221e-009    
  -0.35           -3.8262e-007    -1.3299e-008    1.736e-010     
  -0.4            -3.7714e-007    8.889e-009      -2.6475e-009   
  -0.45           -3.8318e-007    1.2394e-008     1.5432e-009    
  -0.5            -3.8659e-007    -1.5585e-008    2.6937e-009    
  -0.55           -3.8915e-007    -1.169e-008     -1.154e-010    
  -0.6            -3.8435e-007    1.1968e-008     -2.2962e-009   
  -0.65           -3.8456e-007    1.0524e-008     2.609e-010     
  -0.7            -3.9263e-007    -1.9155e-008    2.2286e-009    
  -0.75           -3.9292e-007    -1.1059e-008    -4.893e-010    
  -0.8            -3.8945e-007    1.8536e-008     -1.819e-009    
  -0.85           -3.9095e-007    1.0611e-008     6.318e-010     
  -0.9            -3.9823e-007    -2.1295e-008    1.6896e-009    
  -0.95           -3.9611e-007    -1.1296e-008    -8.203e-010    
  -1              -3.9333e-007    2.3824e-008     -1.506e-009    
  -1.05           -3.9642e-007    1.1232e-008     9.165e-010     
  -1.1            -4.0286e-007    -2.5505e-008    1.3633e-009    
  -1.15           -4.0486e-007    -1.2065e-008    8.4e-012       
  -1.2            -3.9878e-007    9.641e-009      -2.4521e-009   
  -1.25           -4.0301e-007    1.2725e-008     1.7736e-009    
  -1.3            -4.0798e-007    -1.7732e-008    1.6355e-009    
  -1.35           -4.094e-007     -1.4824e-008    1.4594e-009    
  -1.4            -4.1024e-007    -1.2811e-008    1.128e-010     
  -1.45           -4.0312e-007    8.521e-009      -2.5888e-009   
  -1.5            -4.0336e-007    1.1356e-008     -1.4e-011      
  -1.55           -4.1121e-007    -1.6683e-008    2.6134e-009    
  -1.6            -4.123e-007     -1.1442e-008    -1.95e-010     
  -1.65           -4.0729e-007    1.3351e-008     -2.1888e-009   
  -1.7            -4.0704e-007    1.0439e-008     3.404e-010     
  -1.75           -4.1532e-007    -1.9602e-008    2.1097e-009    
  -1.8            -4.1441e-007    -1.1161e-008    -5.66e-010     
  -1.85           -4.1048e-007    1.9849e-008     -1.7316e-009   
  -1.9            -4.1236e-007    1.0694e-008     7.063e-010     
  -1.95           -4.1953e-007    -2.2083e-008    1.5924e-009    
  -2              -4.215e-007     -1.4273e-008    2.177e-010     
  -2.05           -4.1388e-007    9.202e-009      -1.3399e-009   
  -2.1            -4.1912e-007    1.2655e-008     1.7591e-009    
  -2.15           -4.236e-007     -1.7869e-008    1.656e-009     
  -2.2            -4.2429e-007    -1.5068e-008    1.4723e-009    
  -2.25           -4.2527e-007    -1.289e-008     1.275e-010     
  -2.3            -4.1814e-007    8.628e-009      -2.6002e-009   
  -2.35           -4.1801e-007    1.1465e-008     -2.93e-011     
  -2.4            -4.2614e-007    -1.6403e-008    2.6281e-009    
  -2.45           -4.2662e-007    -1.1492e-008    -1.832e-010    
  -2.5            -4.2166e-007    1.3143e-008     -2.2114e-009   
  -2.55           -4.2118e-007    1.0526e-008     3.32e-010      
  -2.6            -4.296e-007     -1.9473e-008    2.1374e-009    
  -2.65           -4.2808e-007    -1.1139e-008    -5.512e-010    
  -2.7            -4.2413e-007    1.9557e-008     -1.7443e-009   
  -2.75           -4.2514e-007    1.0724e-008     6.99e-010      
  -2.8            -4.334e-007     -2.1806e-008    1.6096e-009    
  -2.85           -4.3517e-007    -1.4445e-008    1.4508e-009    
  -2.9            -4.3522e-007    -1.2692e-008    1.015e-010     
  -2.95           -4.2821e-007    8.578e-009      -2.5731e-009   
  -3              -4.2766e-007    1.1374e-008     -3e-012        
  -3.05           -4.3616e-007    -1.6792e-008    2.5926e-009    
  -3.1            -4.3687e-007    -1.1376e-008    -2.081e-010    
  -3.15           -4.3144e-007    1.3692e-008     -2.1674e-009   
  -3.2            -4.3455e-007    1.2855e-008     1.9997e-009    
  -3.25           -4.4129e-007    -1.3767e-008    1.973e-010     
  -3.3            -4.3364e-007    9.06e-009       -2.6607e-009   
  -3.35           -4.386e-007     1.2393e-008     1.5121e-009    
  -3.4            -4.4203e-007    -1.5113e-008    2.715e-009     
  -3.45           -4.4307e-007    -1.1701e-008    -9.62e-011     
  -3.5            -4.3649e-007    1.15e-008       -2.3272e-009   
  -3.55           -4.3668e-007    1.0744e-008     2.355e-010     
  -3.6            -4.4433e-007    -1.8845e-008    2.2727e-009    
  -3.65           -4.43e-007      -1.0921e-008    -4.658e-010    
  -3.7            -4.3957e-007    1.8204e-008     -1.8483e-009   
  -3.75           -4.3929e-007    1.0813e-008     6.127e-010     
  -3.8            -4.4846e-007    -2.0936e-008    1.725e-009     
  -3.85           -4.4483e-007    -1.1124e-008    -8.011e-010    
  -3.9            -4.4168e-007    2.3914e-008     -1.5192e-009   
  -3.95           -4.4384e-007    1.1537e-008     9.087e-010     
  -4              -4.5005e-007    -2.47e-008      1.3802e-009    
  -4.05           -4.5166e-007    -1.1756e-008    2.81e-011      
  -4.1            -4.4468e-007    9.692e-009      -2.4758e-009   
  -4.15           -4.4936e-007    1.3219e-008     1.7412e-009    
  -4.2            -4.5431e-007    -1.7536e-008    1.6621e-009    
  -4.25           -4.5458e-007    -1.4498e-008    1.4873e-009    
  -4.3            -4.5613e-007    -1.213e-008     1.394e-010     
  -4.35           -4.4882e-007    9.591e-009      -2.6136e-009   
  -4.4            -4.5455e-007    1.3733e-008     1.589e-009     
  -4.45           -4.5636e-007    -1.4818e-008    2.6466e-009    
  -4.5            -4.5713e-007    -1.7261e-008    2.2464e-009    
  -4.55           -4.5791e-007    -1.8926e-008    1.7905e-009    
  -4.6            -4.5632e-007    -9.177e-009     -7.652e-010    
  -4.65           -4.5237e-007    2.532e-008      -1.5527e-009   
  -4.7            -4.5552e-007    1.3686e-008     8.792e-010     
  -4.75           -4.599e-007     -6.182e-009     1.2909e-009    
  -4.8            -4.622e-007     -1.6559e-008    2.0249e-009    
  -4.85           -4.6516e-007    -1.8193e-008    1.6009e-009    
  -4.9            -4.6549e-007    -1.1647e-008    2.6759e-009    
  -4.95           -4.6547e-007    -1.4188e-008    2.3034e-009    
  -5              -4.6769e-007    -1.5417e-008    1.8429e-009    
END_DB

BEGIN_DB
 ICCAP_VAR VG         -2             
 ICCAP_VAR VS         0              
 ICCAP_VAR VB         0              

 #VD              ID              IB              IG             
  0               -2.902e-008     8.789e-009      1.1905e-009    
  -0.05           -1.8996e-006    1.126e-008      2.6695e-009    
  -0.1            -3.675e-006     -1.2637e-008    9e-011         
  -0.15           -5.3329e-006    9.567e-009      -1.3462e-009   
  -0.2            -6.9074e-006    1.1606e-008     1.3581e-009    
  -0.25           -8.371e-006     -2.7695e-008    1.2817e-009    
  -0.3            -9.7354e-006    -1.2254e-008    3.18e-011      
  -0.35           -1.09714e-005   9.219e-009      -1.3373e-009   
  -0.4            -1.2124e-005    1.1116e-008     -2.789e-009    
  -0.45           -1.319e-005     1.1927e-008     1.4056e-009    
  -0.5            -1.4134e-005    -1.913e-008     1.7153e-009    
  -0.55           -1.4989e-005    -1.2527e-008    9.31e-011      
  -0.6            -1.5705e-005    1.2288e-008     -2.2595e-009   
  -0.65           -1.6372e-005    1.0545e-008     5.694e-010     
  -0.7            -1.6965e-005    -2.3241e-008    1.4738e-009    
  -0.75           -1.7444e-005    -1.172e-008     -9.28e-011     
  -0.8            -1.7817e-005    1.6279e-008     -1.9557e-009   
  -0.85           -1.8172e-005    1.0754e-008     7.9e-010       
  -0.9            -1.8475e-005    -2.6264e-008    1.3342e-009    
  -0.95           -1.8695e-005    -1.1137e-008    -3.282e-010    
  -1              -1.8861e-005    2.0471e-008     -1.6925e-009   
  -1.05           -1.9045e-005    1.1175e-008     9.549e-010     
  -1.1            -1.919e-005     -2.7757e-008    1.2713e-009    
  -1.15           -1.9286e-005    -1.1121e-008    -5.531e-010    
  -1.2            -1.936e-005     2.3631e-008     -1.5197e-009   
  -1.25           -1.9488e-005    1.1115e-008     1.1148e-009    
  -1.3            -1.9568e-005    -2.5793e-008    2.1936e-009    
  -1.35           -1.9624e-005    -1.1122e-008    -7.745e-010    
  -1.4            -1.966e-005     2.659e-008      -1.4336e-009   
  -1.45           -1.9783e-005    1.1491e-008     1.3169e-009    
  -1.5            -1.9824e-005    -2.1211e-008    1.8379e-009    
  -1.55           -1.9889e-005    -1.3236e-008    1.587e-010     
  -1.6            -1.9887e-005    1.0749e-008     -2.3707e-009   
  -1.65           -1.998e-005     1.2704e-008     2.108e-009     
  -1.7            -2.003e-005     -1.1693e-008    -1.124e-010    
  -1.75           -2.0038e-005    1.6779e-008     -1.9314e-009   
  -1.8            -2.0095e-005    1.0761e-008     8.091e-010     
  -1.85           -2.0163e-005    -2.6422e-008    1.3253e-009    
  -1.9            -2.0185e-005    -1.1117e-008    -3.467e-010    
  -1.95           -2.0196e-005    2.078e-008      -1.6717e-009   
  -2              -2.0264e-005    1.1127e-008     9.705e-010     
  -2.05           -2.0312e-005    -2.7635e-008    1.2684e-009    
  -2.1            -2.0333e-005    -1.1155e-008    -5.744e-010    
  -2.15           -2.0338e-005    2.3894e-008     -1.5055e-009   
  -2.2            -2.0416e-005    1.1081e-008     1.1301e-009    
  -2.25           -2.0447e-005    -2.5543e-008    2.1587e-009    
  -2.3            -2.0457e-005    -1.1209e-008    -7.908e-010    
  -2.35           -2.0462e-005    2.6931e-008     -1.4298e-009   
  -2.4            -2.0564e-005    1.1489e-008     1.3391e-009    
  -2.45           -2.058e-005     -2.0863e-008    1.807e-009     
  -2.5            -2.0616e-005    -1.3144e-008    1.417e-010     
  -2.55           -2.0586e-005    1.1115e-008     -2.3431e-009   
  -2.6            -2.0667e-005    1.2581e-008     2.1243e-009    
  -2.65           -2.0697e-005    -1.1622e-008    -1.392e-010    
  -2.7            -2.0687e-005    1.7043e-008     -1.9071e-009   
  -2.75           -2.0738e-005    1.0925e-008     8.191e-010     
  -2.8            -2.0793e-005    -2.6618e-008    1.32e-009      
  -2.85           -2.0798e-005    -1.1039e-008    -3.675e-010    
  -2.9            -2.0796e-005    2.1107e-008     -1.6508e-009   
  -2.95           -2.0856e-005    1.1183e-008     9.747e-010     
  -3              -2.0893e-005    -2.7483e-008    1.2622e-009    
  -3.05           -2.09e-005      -1.1051e-008    -5.929e-010    
  -3.1            -2.0893e-005    2.4348e-008     -1.4971e-009   
  -3.15           -2.0965e-005    1.1117e-008     1.1501e-009    
  -3.2            -2.0988e-005    -2.5224e-008    2.1306e-009    
  -3.25           -2.0988e-005    -1.1113e-008    -8.03e-010     
  -3.3            -2.0987e-005    2.6988e-008     -1.4261e-009   
  -3.35           -2.1084e-005    1.1719e-008     1.359e-009     
  -3.4            -2.1089e-005    -2.0115e-008    1.7793e-009    
  -3.45           -2.1122e-005    -1.2816e-008    1.294e-010     
  -3.5            -2.1086e-005    1.1626e-008     -2.3216e-009   
  -3.55           -2.1156e-005    1.2812e-008     2.1382e-009    
  -3.6            -2.1187e-005    -1.1277e-008    -1.543e-010    
  -3.65           -2.1166e-005    1.7939e-008     -1.8846e-009   
  -3.7            -2.1212e-005    1.1488e-008     8.354e-010     
  -3.75           -2.1264e-005    -2.6156e-008    1.313e-009     
  -3.8            -2.1271e-005    -1.0239e-008    -3.922e-010    
  -3.85           -2.1248e-005    2.256e-008      -1.6371e-009   
  -3.9            -2.1312e-005    1.2352e-008     9.877e-010     
  -3.95           -2.1343e-005    -2.5949e-008    1.2601e-009    
  -4              -2.1348e-005    -9.201e-009     -6.18e-010     
  -4.05           -2.1335e-005    2.6501e-008     -1.4908e-009   
  -4.1            -2.1411e-005    1.3864e-008     1.1653e-009    
  -4.15           -2.144e-005     -1.0555e-008    2.7706e-009    
