! VERSION = 6.00
BEGIN_HEADER
 ICCAP_INPUTS
  VG         V  B GROUND SMU4 0.001 LIN        1    0          -5         101  -0.05     
  VS         V  E GROUND SMU2 0.1 CON        0
  VB         V  C GROUND SMU3 0.1 LIN        3    0          5          3    2.5       
  VD         V  S GROUND SMU1 0.1 LIN        2    -0.1       -5         2    -4.9      
 ICCAP_OUTPUTS
  IG         I  B GROUND SMU4 B
  ID         I  S GROUND SMU1 B
  IB         I  C GROUND SMU3 B
END_HEADER

BEGIN_DB
 ICCAP_VAR VS         0              
 ICCAP_VAR VB         0              
 ICCAP_VAR VD         -0.1           

 #VG              IG              ID              IB             
  0               -2.296e-010     9.52e-011       -1.4032e-008   
  -0.05           2.3179e-009     -7.081e-010     -2.0519e-008   
  -0.1            1.4013e-009     2.1097e-009     -6.484e-009    
  -0.15           -2.44e-011      2.1302e-009     1.0661e-008    
  -0.2            1.605e-010      2.2249e-009     1.0461e-008    
  -0.25           3.696e-010      2.3257e-009     1.0675e-008    
  -0.3            5.744e-010      2.3789e-009     1.1126e-008    
  -0.35           7.625e-010      2.3605e-009     1.1226e-008    
  -0.4            -1.3916e-009    1.2078e-009     1.1156e-008    
  -0.45           -2.7803e-009    -1.7488e-009    8.91e-009      
  -0.5            -1.66e-011      -4.5815e-009    -1.1159e-008   
  -0.55           -2.117e-010     -1.03799e-008   -1.0988e-008   
  -0.6            2.9565e-009     -2.5287e-008    2.2307e-008    
  -0.65           2.8546e-009     -8.2482e-008    1.84e-010      
  -0.7            -4.918e-010     -2.5032e-007    9.173e-009     
  -0.75           2.126e-009      -6.8956e-007    -2.5249e-008   
  -0.8            2.7356e-009     -1.6596e-006    2.1177e-008    
  -0.85           6.057e-010      -3.6815e-006    1.0622e-008    
  -0.9            9.802e-010      -7.3407e-006    1.1148e-008    
  -0.95           -2.6124e-009    -1.2874e-005    1.1091e-008    
  -1              -2.0734e-009    -2.0497e-005    3.02e-010      
  -1.05           -2.7748e-009    -3.0014e-005    -5.876e-009    
  -1.1            1.742e-010      -4.0971e-005    -1.3733e-008   
  -1.15           -2.336e-010     -5.2387e-005    -1.1277e-008   
  -1.2            -7.194e-010     -6.4195e-005    -1.1191e-008   
  -1.25           1.7918e-009     -7.6354e-005    -2.0742e-008   
  -1.3            1.3478e-009     -8.831e-005     -9.744e-009    
  -1.35           2.9498e-009     -0.000100121    -1.032e-008    
  -1.4            2.6798e-009     -0.000111522    2.78e-010      
  -1.45           2.5478e-009     -0.00012274     1.3071e-008    
  -1.5            1.8497e-009     -0.00013364     -3.469e-009    
  -1.55           1.3705e-009     -0.00014424     -9.716e-009    
  -1.6            2.9581e-009     -0.00015453     -1.0288e-008   
  -1.65           2.7259e-009     -0.0001644      4.46e-010      
  -1.7            2.1099e-009     -0.00017406     -1.423e-009    
  -1.75           1.4873e-009     -0.00018343     -8.164e-009    
  -1.8            1.2783e-009     -0.00019269     -9.671e-009    
  -1.85           2.8654e-009     -0.00020151     -1.2514e-008   
  -1.9            1.4123e-009     -0.00021013     1.1856e-008    
  -1.95           2.65e-010       -0.00021817     1.0541e-008    
  -2              7.447e-010      -0.00022632     1.0967e-008    
  -2.05           1.0741e-009     -0.00023428     1.1186e-008    
  -2.1            1.5196e-009     -0.00024203     1.256e-008     
  -2.15           1.9996e-009     -0.00024943     1.2885e-008    
  -2.2            8.314e-010      -0.00025658     1.1135e-008    
  -2.25           1.1578e-009     -0.00026376     1.115e-008     
  -2.3            -7.9e-012       -0.00027052     1.1254e-008    
  -2.35           4.791e-010      -0.00027724     1.0591e-008    
  -2.4            9.046e-010      -0.0002839      1.1238e-008    
  -2.45           1.2428e-009     -0.00029043     1.1203e-008    
  -2.5            1.7426e-009     -0.00029675     1.293e-008     
  -2.55           5.784e-010      -0.00030268     1.0545e-008    
  -2.6            9.617e-010      -0.00030876     1.1213e-008    
  -2.65           1.343e-009      -0.00031471     1.1538e-008    
  -2.7            1.8326e-009     -0.00032052     1.3063e-008    
  -2.75           6.833e-010      -0.00032592     1.0806e-008    
  -2.8            1.022e-009      -0.00033153     1.1182e-008    
  -2.85           1.4497e-009     -0.00033702     1.2224e-008    
  -2.9            2.886e-010      -0.00034212     1.0451e-008    
  -2.95           7.744e-010      -0.00034736     1.1086e-008    
  -3              1.1012e-009     -0.00035254     1.1153e-008    
  -3.05           1.5543e-009     -0.00035757     1.2746e-008    
  -3.1            2.0332e-009     -0.00036242     1.2778e-008    
  -3.15           8.543e-010      -0.00036716     1.1185e-008    
  -3.2            1.1871e-009     -0.00037191     1.1025e-008    
  -3.25           2.55e-011       -0.00037648     1.1219e-008    
  -3.3            5.047e-010      -0.000381       1.0509e-008    
  -3.35           9.198e-010      -0.0003855      1.1349e-008    
  -3.4            1.2715e-009     -0.0003899      1.1241e-008    
  -3.45           1.7677e-009     -0.00039423     1.2932e-008    
  -3.5            6.12e-010       -0.00039829     1.0659e-008    
  -3.55           9.801e-010      -0.00040246     1.128e-008     
  -3.6            1.3748e-009     -0.00040664     1.1685e-008    
  -3.65           2.221e-010      -0.0004105      1.0669e-008    
  -3.7            7.128e-010      -0.00041454     1.0876e-008    
  -3.75           1.0485e-009     -0.00041845     1.1118e-008    
  -3.8            1.4814e-009     -0.00042234     1.2523e-008    
  -3.85           3.228e-010      -0.00042593     1.0374e-008    
  -3.9            8.013e-010      -0.00042966     1.1145e-008    
  -3.95           1.1257e-009     -0.00043327     1.1121e-008    
  -4              -4.24e-011      -0.00043688     1.1385e-008    
  -4.05           4.313e-010      -0.00044026     1.0505e-008    
  -4.1            8.728e-010      -0.00044373     1.1245e-008    
  -4.15           1.205e-009      -0.00044716     1.1014e-008    
  -4.2            4.46e-011       -0.00045043     1.1173e-008    
  -4.25           5.303e-010      -0.00045373     1.0619e-008    
  -4.3            9.4e-010        -0.00045692     1.1305e-008    
  -4.35           1.2932e-009     -0.0004602      1.1336e-008    
  -4.4            1.7951e-009     -0.0004633      1.2971e-008    
  -4.45           6.379e-010      -0.00046629     1.0762e-008    
  -4.5            1.0037e-009     -0.00046929     1.1253e-008    
  -4.55           1.3959e-009     -0.00047237     1.1802e-008    
  -4.6            2.444e-010      -0.0004752      1.058e-008     
  -4.65           7.337e-010      -0.00047809     1.095e-008     
  -4.7            1.0736e-009     -0.00048099     1.1148e-008    
  -4.75           1.5008e-009     -0.00048382     1.2573e-008    
  -4.8            1.9873e-009     -0.00048659     1.3032e-008    
  -4.85           8.265e-010      -0.0004892      1.1106e-008    
  -4.9            1.1424e-009     -0.00049195     1.111e-008     
  -4.95           -1.82e-011      -0.00049464     1.1344e-008    
  -5              4.613e-010      -0.00049709     1.0546e-008    
END_DB

BEGIN_DB
 ICCAP_VAR VS         0              
 ICCAP_VAR VB         0              
 ICCAP_VAR VD         -5             

 #VG              IG              ID              IB             
  0               -1.781e-010     -5.245e-010     -1.1512e-008   
  -0.05           2.3739e-009     -9.47e-010      -2.0138e-008   
  -0.1            4.195e-010      1.7186e-009     -5.546e-009    
  -0.15           -1.5687e-009    -2.1322e-009    1.1294e-008    
  -0.2            -1.4729e-009    -4.8475e-009    8.764e-009     
  -0.25           -2.5732e-009    -1.3734e-008    -1.7072e-008   
  -0.3            -5.59e-010      -3.6274e-008    -1.0144e-008   
  -0.35           2.0426e-009     -9.4831e-008    -1.739e-008    
  -0.4            1.4757e-009     -2.5175e-007    6.982e-009     
  -0.45           2.4846e-009     -6.2426e-007    2.7188e-008    
  -0.5            -1.3455e-009    -1.5137e-006    3.0695e-008    
  -0.55           -2.3529e-009    -3.4229e-006    9.0738e-008    
  -0.6            2.609e-009      -7.4649e-006    1.5421e-007    
  -0.65           -1.896e-009     -1.4419e-005    3.2366e-007    
  -0.7            -1.3713e-009    -2.5806e-005    5.3411e-007    
  -0.75           -2.5935e-009    -4.3098e-005    8.5692e-007    
  -0.8            -1.1632e-009    -6.6914e-005    1.2567e-006    
  -0.85           -1.4757e-009    -9.8503e-005    1.7671e-006    
  -0.9            -6.455e-010     -0.00013689     2.3328e-006    
  -0.95           -1.0182e-009    -0.00018215     3.007e-006     
  -1              -1.3312e-009    -0.00023531     3.7041e-006    
  -1.05           -1.5496e-009    -0.0002942      4.4264e-006    
  -1.1            -1.9391e-009    -0.00035841     5.1544e-006    
  -1.15           -2.1657e-009    -0.00042734     5.885e-006     
  -1.2            -1.1571e-009    -0.00050093     6.6146e-006    
  -1.25           -1.4297e-009    -0.00057899     7.3083e-006    
  -1.3            -1.8199e-009    -0.00066073     7.9804e-006    
  -1.35           -2.1991e-009    -0.00074567     8.6142e-006    
  -1.4            -1.126e-009     -0.00083364     9.2138e-006    
  -1.45           -1.4789e-009    -0.00092419     9.7667e-006    
  -1.5            -1.8109e-009    -0.00101816     1.02816e-005   
  -1.55           -2.2609e-009    -0.0011139      1.07428e-005   
  -1.6            2.6475e-009     -0.0012108      1.11786e-005   
  -1.65           1.5401e-009     -0.0013126      1.1539e-005    
  -1.7            2.7137e-009     -0.0014142      1.1843e-005    
  -1.75           1.9605e-009     -0.0015172      1.2124e-005    
  -1.8            1.5456e-009     -0.0016238      1.2342e-005    
  -1.85           1.425e-009      -0.0017307      1.2519e-005    
  -1.9            2.8135e-009     -0.0018378      1.2631e-005    
  -1.95           2.1121e-009     -0.0019457      1.2725e-005    
  -2              1.5401e-009     -0.0020551      1.2746e-005    
  -2.05           1.3584e-009     -0.0021658      1.2754e-005    
  -2.1            2.8967e-009     -0.0022779      1.2702e-005    
  -2.15           2.3346e-009     -0.0023889      1.2633e-005    
  -2.2            1.6332e-009     -0.002502       1.2511e-005    
  -2.25           1.3426e-009     -0.002616       1.2364e-005    
  -2.3            2.9473e-009     -0.0027302      1.2179e-005    
  -2.35           2.5485e-009     -0.0028439      1.1988e-005    
  -2.4            1.8446e-009     -0.0029596      1.1767e-005    
  -2.45           1.3819e-009     -0.003076       1.1514e-005    
  -2.5            2.9684e-009     -0.0031928      1.1245e-005    
  -2.55           2.7334e-009     -0.0033087      1.0968e-005    
  -2.6            2.109e-009      -0.0034259      1.067e-005     
  -2.65           1.4949e-009     -0.0035437      1.0361e-005    
  -2.7            1.2802e-009     -0.003662       1.0039e-005    
  -2.75           -1.6114e-009    -0.0037775      9.7331e-006    
  -2.8            -1.4199e-009    -0.003895       9.4047e-006    
  -2.85           -1.3606e-009    -0.0040141      9.0724e-006    
  -2.9            -2.3988e-009    -0.0041334      8.7333e-006    
  -2.95           -1.7833e-009    -0.004253       8.3887e-006    
  -3              -1.4625e-009    -0.0043724      8.0625e-006    
  -3.05           -1.3828e-009    -0.0044915      7.7283e-006    
  -3.1            -2.5872e-009    -0.0046116      7.3958e-006    
  -3.15           -2.0127e-009    -0.0047324      7.0666e-006    
  -3.2            -1.5374e-009    -0.004852       6.7488e-006    
  -3.25           -1.4073e-009    -0.0049725      6.4377e-006    
  -3.3            -1.355e-009     -0.0050921      6.134e-006     
  -3.35           -2.2725e-009    -0.0052133      5.8329e-006    
  -3.4            -1.6726e-009    -0.0053343      5.5392e-006    
  -3.45           -1.4384e-009    -0.0054548      5.2606e-006    
  -3.5            -1.3697e-009    -0.0055756      4.9867e-006    
  -3.55           -2.4873e-009    -0.0056967      4.7213e-006    
  -3.6            -1.8754e-009    -0.0058184      4.4625e-006    
  -3.65           -1.4859e-009    -0.0059392      4.2219e-006    
  -3.7            -1.3912e-009    -0.0060617      3.9856e-006    
  -3.75           -2.6458e-009    -0.0061821      3.7608e-006    
  -3.8            -2.1045e-009    -0.0063037      3.5396e-006    
  -3.85           -1.5851e-009    -0.0064244      3.3378e-006    
  -3.9            -1.4182e-009    -0.006545       3.1446e-006    
  -3.95           -1.3594e-009    -0.0066652      2.9581e-006    
  -4              -2.3672e-009    -0.006786       2.777e-006     
  -4.05           -1.7555e-009    -0.0069076      2.6032e-006    
  -4.1            -1.4562e-009    -0.0070284      2.4453e-006    
  -4.15           -1.3797e-009    -0.0071485      2.296e-006     
  -4.2            -2.5662e-009    -0.007269       2.1488e-006    
  -4.25           -1.9797e-009    -0.0073908      2.0045e-006    
  -4.3            -1.5287e-009    -0.0075108      1.8809e-006    
  -4.35           -1.4028e-009    -0.0076308      1.763e-006     
  -4.4            -1.3514e-009    -0.0077506      1.6483e-006    
  -4.45           -2.2453e-009    -0.0078713      1.5397e-006    
  -4.5            -1.6605e-009    -0.007992       1.4325e-006    
  -4.55           -1.4335e-009    -0.0081115      1.339e-006     
  -4.6            -1.3689e-009    -0.0082305      1.2535e-006    
  -4.65           -2.4703e-009    -0.0083497      1.1669e-006    
  -4.7            -1.8568e-009    -0.0084703      1.0803e-006    
  -4.75           -1.4846e-009    -0.0085897      1.0136e-006    
  -4.8            2.9057e-009     -0.0087101      9.373e-007     
  -4.85           2.5258e-009     -0.0088298      8.7107e-007    
  -4.9            1.8293e-009     -0.0089481      8.0701e-007    
  -4.95           1.3666e-009     -0.0090666      7.4567e-007    
  -5              2.9557e-009     -0.0091856      6.9274e-007    
END_DB

BEGIN_DB
 ICCAP_VAR VS         0              
 ICCAP_VAR VB         2.5            
 ICCAP_VAR VD         -0.1           

 #VG              IG              ID              IB             
  0               -8.338e-010     1.881e-010      1.1169e-008    
  -0.05           -1.9323e-009    -1.3893e-009    9.29e-009      
  -0.1            1.8485e-009     -1.7202e-009    -1.5494e-008   
  -0.15           1.7243e-009     1.7627e-009     -9.728e-009    
  -0.2            2.596e-010      2.28e-009       1.0674e-008    
  -0.25           4.595e-010      2.3693e-009     1.1e-008       
  -0.3            6.608e-010      2.4192e-009     1.1272e-008    
  -0.35           8.253e-010      2.4317e-009     1.1082e-008    
  -0.4            9.526e-010      2.4047e-009     1.1032e-008    
  -0.45           1.0794e-009     2.3411e-009     1.1258e-008    
  -0.5            1.2388e-009     2.2296e-009     1.2521e-008    
  -0.55           1.4338e-009     2.0513e-009     1.2869e-008    
  -0.6            -2.2e-012       2.1395e-009     1.0606e-008    
  -0.65           1.82e-010       2.2367e-009     1.0647e-008    
  -0.7            3.788e-010      2.328e-009      1.0799e-008    
  -0.75           5.798e-010      2.3617e-009     1.1127e-008    
  -0.8            7.727e-010      2.2718e-009     1.1146e-008    
  -0.85           -1.3947e-009    7.943e-010      1.1096e-008    
  -0.9            -1.3703e-009    -2.6147e-009    8.661e-009     
  -0.95           -2.8147e-009    -1.1953e-008    -2.2772e-008   
  -1              -1.616e-010     -4.2649e-008    -1.1495e-008   
  -1.05           -1.4359e-009    -1.4086e-007    1.2822e-008    
  -1.1            -1.3693e-009    -4.6918e-007    9.625e-009     
  -1.15           -2.3776e-009    -1.4524e-006    -1.7872e-008   
  -1.2            1.865e-010      -3.043e-006     -1.4015e-008   
  -1.25           -1.992e-010     -6.402e-006     -1.139e-008    
  -1.3            2.8959e-009     -1.1734e-005    -1.1205e-008   
  -1.35           8.66e-010       -1.9204e-005    1.1172e-008    
  -1.4            1.1896e-009     -2.8592e-005    1.0993e-008    
  -1.45           2.5e-011        -3.8743e-005    1.1228e-008    
  -1.5            5.14e-010       -5.1788e-005    1.0564e-008    
  -1.55           9.113e-010      -6.1434e-005    1.1225e-008    
  -1.6            1.2572e-009     -7.2949e-005    1.1175e-008    
  -1.65           1.7549e-009     -8.4116e-005    1.2854e-008    
  -1.7            5.812e-010      -9.4734e-005    1.0635e-008    
  -1.75           9.535e-010      -0.000105363    1.1164e-008    
  -1.8            2.9438e-009     -0.00011568     1.1134e-008    
  -1.85           2.1335e-009     -0.00012567     1.278e-008     
  -1.9            9.197e-010      -0.00013518     1.1268e-008    
  -1.95           1.2617e-009     -0.00014458     1.1159e-008    
  -2              1.7564e-009     -0.00015362     1.2922e-008    
  -2.05           5.858e-010      -0.00016208     1.0662e-008    
  -2.1            9.599e-010      -0.00017057     1.1215e-008    
  -2.15           1.3227e-009     -0.00017892     1.1365e-008    
  -2.2            1.8248e-009     -0.0001869      1.3037e-008    
  -2.25           6.592e-010      -0.00019444     1.0731e-008    
  -2.3            1.006e-009      -0.00020209     1.1203e-008    
  -2.35           1.3971e-009     -0.0002096      1.1766e-008    
  -2.4            2.375e-010      -0.00021645     1.0615e-008    
  -2.45           7.232e-010      -0.0002235      1.0905e-008    
  -2.5            1.0533e-009     -0.00023042     1.1176e-008    
  -2.55           1.4738e-009     -0.00023717     1.2215e-008    
  -2.6            3.05e-010       -0.00024346     1.0564e-008    
  -2.65           7.877e-010      -0.00024987     1.107e-008     
  -2.7            1.1029e-009     -0.00025617     1.0947e-008    
  -2.75           1.5446e-009     -0.0002623      1.2577e-008    
  -2.8            2.0335e-009     -0.0002682      1.2744e-008    
  -2.85           8.426e-010      -0.00027392     1.1202e-008    
  -2.9            1.155e-009      -0.00027969     1.1071e-008    
  -2.95           -1.45e-011      -0.00028524     1.1312e-008    
  -3              4.629e-010      -0.00029065     1.0603e-008    
  -3.05           8.938e-010      -0.00029606     1.1203e-008    
  -3.1            1.215e-009      -0.00030137     1.1072e-008    
  -3.15           1.7027e-009     -0.00030656     1.2763e-008    
  -3.2            5.334e-010      -0.00031145     1.061e-008     
  -3.25           9.422e-010      -0.00031646     1.1236e-008    
  -3.3            1.2802e-009     -0.0003214      1.1171e-008    
  -3.35           1.7764e-009     -0.00032617     1.2768e-008    
  -3.4            6.03e-010       -0.00033073     1.0709e-008    
  -3.45           9.804e-010      -0.00033539     1.1205e-008    
  -3.5            1.3386e-009     -0.00033996     1.1374e-008    
  -3.55           1.852e-010      -0.00034425     1.0862e-008    
  -3.6            6.677e-010      -0.00034863     1.0821e-008    
  -3.65           1.0204e-009     -0.00035298     1.1157e-008    
  -3.7            1.408e-009      -0.00035728     1.187e-008     
  -3.75           2.479e-010      -0.00036127     1.0621e-008    
  -3.8            7.27e-010       -0.00036536     1.0905e-008    
  -3.85           1.0587e-009     -0.00036941     1.112e-008     
  -3.9            1.472e-009      -0.00037338     1.2186e-008    
  -3.95           3.159e-010      -0.00037709     1.0566e-008    
  -4              7.859e-010      -0.00038093     1.1086e-008    
  -4.05           1.1062e-009     -0.00038468     1.1098e-008    
  -4.1            1.5465e-009     -0.00038835     1.2601e-008    
  -4.15           2.0279e-009     -0.00039199     1.2849e-008    
