! VERSION = 6.00
BEGIN_HEADER
 ICCAP_INPUTS
  VG         V  B GROUND SMU4 0.001 LIN        2    0          -5         6    -1        
  VS         V  E GROUND SMU2 0.1 CON        0
  VD         V  S GROUND SMU1 0.1 LIN        1    0          -5         101  -0.05     
  VB         V  C GROUND SMU3 0.1 LIN        3    0          2.5        2    2.5       
 ICCAP_OUTPUTS
  ID         I  S GROUND SMU1 B
  IB         I  C GROUND SMU3 B
  IG         I  B GROUND SMU4 B
END_HEADER

BEGIN_DB
 ICCAP_VAR VG         0              
 ICCAP_VAR VS         0              
 ICCAP_VAR VB         0              

 #VD              ID              IB              IG             
  0               3.23e-010       1.1104e-008     7.99e-011      
  -0.05           -4.213e-010     -1.8224e-008    2.7086e-009    
  -0.1            2.3079e-009     -2.539e-009     1.0978e-009    
  -0.15           2.1686e-009     1.2679e-008     1.2937e-009    
  -0.2            1.9673e-009     1.2819e-008     1.5101e-009    
  -0.25           2.1331e-009     1.043e-008      6.51e-011      
  -0.3            2.2473e-009     1.0459e-008     2.674e-010     
  -0.35           2.3352e-009     1.0772e-008     4.722e-010     
  -0.4            2.3874e-009     1.1116e-008     6.665e-010     
  -0.45           2.3935e-009     1.1114e-008     8.202e-010     
  -0.5            2.3597e-009     1.1138e-008     9.661e-010     
  -0.55           2.28e-009       1.1799e-008     1.1363e-009    
  -0.6            2.131e-009      1.2711e-008     1.3362e-009    
  -0.65           1.9201e-009     1.2863e-008     1.5549e-009    
  -0.7            2.1539e-009     1.0441e-008     1.027e-010     
  -0.75           2.2648e-009     1.0541e-008     3.088e-010     
  -0.8            2.3488e-009     1.0768e-008     5.167e-010     
  -0.85           2.3924e-009     1.1193e-008     7.032e-010     
  -0.9            2.3916e-009     1.1073e-008     8.57e-010      
  -0.95           2.3458e-009     1.12e-008       1.0029e-009    
  -1              2.2534e-009     1.2126e-008     1.1755e-009    
  -1.05           1.9913e-009     1.1188e-008     -2.121e-010    
  -1.1            2.0824e-009     1.0655e-008     -3.57e-011     
  -1.15           2.1795e-009     1.0314e-008     1.541e-010     
  -1.2            2.2889e-009     1.0591e-008     3.531e-010     
  -1.25           2.3617e-009     1.0881e-008     5.629e-010     
  -1.3            2.3974e-009     1.1225e-008     7.456e-010     
  -1.35           2.3838e-009     1.1135e-008     8.888e-010     
  -1.4            2.3292e-009     1.1333e-008     1.0399e-009    
  -1.45           2.2244e-009     1.2337e-008     1.2121e-009    
  -1.5            2.0126e-009     1.1125e-008     -1.808e-010    
  -1.55           2.1011e-009     1.0543e-008     0              
  -1.6            2.2017e-009     1.0418e-008     1.934e-010     
  -1.65           2.3073e-009     1.0565e-008     3.97e-010      
  -1.7            2.3739e-009     1.1025e-008     6.049e-010     
  -1.75           2.3981e-009     1.1126e-008     7.801e-010     
  -1.8            2.3776e-009     1.1056e-008     9.199e-010     
  -1.85           2.3124e-009     1.1414e-008     1.0739e-009    
  -1.9            2.1931e-009     1.2517e-008     1.2525e-009    
  -1.95           1.9998e-009     1.2682e-008     1.4574e-009    
  -2              2.1169e-009     1.0459e-008     2.99e-011      
  -2.05           2.2273e-009     1.0422e-008     2.282e-010     
  -2.1            2.3246e-009     1.0715e-008     4.444e-010     
  -2.15           2.3822e-009     1.1132e-008     6.415e-010     
  -2.2            2.3983e-009     1.1111e-008     8.172e-010     
  -2.25           2.3654e-009     1.1139e-008     9.523e-010     
  -2.3            2.2947e-009     1.1609e-008     1.1083e-009    
  -2.35           2.1592e-009     1.2589e-008     1.2932e-009    
  -2.4            1.9601e-009     1.2659e-008     1.5051e-009    
  -2.45           2.1402e-009     1.0427e-008     6.91e-011      
  -2.5            2.2488e-009     1.0455e-008     2.722e-010     
  -2.55           2.3386e-009     1.078e-008      4.842e-010     
  -2.6            2.3857e-009     1.1164e-008     6.848e-010     
  -2.65           2.3957e-009     1.0971e-008     8.482e-010     
  -2.7            2.3544e-009     1.1129e-008     9.833e-010     
  -2.75           2.2711e-009     1.1924e-008     1.1454e-009    
  -2.8            1.9729e-009     1.1292e-008     -2.475e-010    
  -2.85           2.0631e-009     1.07e-008       -7.26e-011     
  -2.9            2.1605e-009     1.0423e-008     1.065e-010     
  -2.95           2.274e-009      1.0532e-008     3.164e-010     
  -3              2.3539e-009     1.0903e-008     5.266e-010     
  -3.05           2.3913e-009     1.1104e-008     7.24e-010      
  -3.1            2.3884e-009     1.1032e-008     8.809e-010     
  -3.15           2.3389e-009     1.12e-008       1.0126e-009    
  -3.2            2.2443e-009     1.2045e-008     1.1834e-009    
  -3.25           1.9927e-009     1.1224e-008     -2.087e-010    
  -3.3            2.0842e-009     1.053e-008      -3.83e-011     
  -3.35           2.1801e-009     1.0501e-008     1.496e-010     
  -3.4            2.2924e-009     1.0486e-008     3.54e-010      
  -3.45           2.3639e-009     1.0958e-008     5.702e-010     
  -3.5            2.3951e-009     1.1142e-008     7.606e-010     
  -3.55           2.3765e-009     1.1113e-008     9.113e-010     
  -3.6            2.3235e-009     1.1337e-008     1.0484e-009    
  -3.65           2.2171e-009     1.2382e-008     1.219e-009     
  -3.7            2.016e-009      1.0977e-008     -1.783e-010    
  -3.75           2.1037e-009     1.0447e-008     -3e-012        
  -3.8            2.2069e-009     1.0378e-008     1.912e-010     
  -3.85           2.3136e-009     1.0634e-008     3.999e-010     
  -3.9            2.3718e-009     1.108e-008      6.134e-010     
  -3.95           2.3951e-009     1.1015e-008     8.014e-010     
  -4              2.3705e-009     1.1134e-008     9.46e-010      
  -4.05           2.3056e-009     1.146e-008      1.0859e-009    
  -4.1            2.1838e-009     1.2481e-008     1.2628e-009    
  -4.15           1.9909e-009     1.2649e-008     1.4667e-009    
  -4.2            2.1255e-009     1.0494e-008     3.53e-011      
  -4.25           2.2315e-009     1.0512e-008     2.424e-010     
  -4.3            2.3319e-009     1.0693e-008     4.509e-010     
  -4.35           2.3831e-009     1.1101e-008     6.593e-010     
  -4.4            2.3928e-009     1.103e-008      8.387e-010     
  -4.45           2.3637e-009     1.1146e-008     9.739e-010     
  -4.5            2.2845e-009     1.1728e-008     1.1199e-009    
  -4.55           1.9613e-009     1.1437e-008     -2.684e-010    
  -4.6            2.0547e-009     1.0806e-008     -9.3e-011      
  -4.65           2.1456e-009     1.0476e-008     8.2e-011       
  -4.7            2.2518e-009     1.0426e-008     2.867e-010     
  -4.75           2.3411e-009     1.0784e-008     5.023e-010     
  -4.8            2.3903e-009     1.1099e-008     7.044e-010     
  -4.85           2.3922e-009     1.1078e-008     8.732e-010     
  -4.9            2.3494e-009     1.1181e-008     1.0059e-009    
  -4.95           2.2555e-009     1.1961e-008     1.1573e-009    
  -5              1.984e-009      1.1383e-008     -2.301e-010    
END_DB

BEGIN_DB
 ICCAP_VAR VG         -1             
 ICCAP_VAR VS         0              
 ICCAP_VAR VB         0              

 #VD              ID              IB              IG             
  0               -1.4655e-009    -2.1217e-008    9.15e-011      
  -0.05           -6.9069e-008    -1.56e-010      1.0251e-009    
  -0.1            -1.06347e-007   -2.0362e-008    1.961e-009     
  -0.15           -1.1834e-007    1.049e-008      -2.7421e-009   
  -0.2            -1.1962e-007    1.1518e-008     1.3125e-009    
  -0.25           -1.2452e-007    -2.5684e-008    2.2765e-009    
  -0.3            -1.2534e-007    -1.09e-008      -4.563e-010    
  -0.35           -1.2286e-007    1.8219e-008     -1.8635e-009   
  -0.4            -1.2147e-007    1.0403e-008     6.12e-010      
  -0.45           -1.2545e-007    -2.1522e-008    1.7389e-009    
  -0.5            -1.2603e-007    -1.1206e-008    -8e-010        
  -0.55           -1.2322e-007    2.373e-008      -1.5388e-009   
  -0.6            -1.222e-007     1.1129e-008     9.098e-010     
  -0.65           -1.2608e-007    -2.4757e-008    1.3927e-009    
  -0.7            -1.2706e-007    -1.2367e-008    2.25e-011      
  -0.75           -1.246e-007     9.152e-009      -2.4569e-009   
  -0.8            -1.2333e-007    1.2529e-008     1.7545e-009    
  -0.85           -1.2774e-007    -1.8185e-008    1.678e-009     
  -0.9            -1.2779e-007    -1.5444e-008    1.5018e-009    
  -0.95           -1.281e-007     -1.3262e-008    1.352e-010     
  -1              -1.252e-007     8.638e-009      -2.5912e-009   
  -1.05           -1.2346e-007    1.1584e-008     -2.26e-011     
  -1.1            -1.2659e-007    -1.5756e-008    2.6217e-009    
  -1.15           -1.2791e-007    -1.1508e-008    -1.791e-010    
  -1.2            -1.2537e-007    1.3036e-008     -2.2107e-009   
  -1.25           -1.2373e-007    1.0346e-008     3.329e-010     
  -1.3            -1.2758e-007    -1.9329e-008    2.1418e-009    
  -1.35           -1.2849e-007    -1.0889e-008    -5.538e-010    
  -1.4            -1.256e-007     1.9963e-008     -1.7553e-009   
  -1.45           -1.241e-007     1.043e-008      7.057e-010     
  -1.5            -1.2808e-007    -2.2263e-008    1.6289e-009    
  -1.55           -1.2908e-007    -1.4711e-008    1.4687e-009    
  -1.6            -1.2914e-007    -1.3006e-008    9.86e-011      
  -1.65           -1.2633e-007    8.494e-009      -2.5574e-009   
  -1.7            -1.2462e-007    1.1407e-008     8.2e-012       
  -1.75           -1.2774e-007    -1.6256e-008    2.5726e-009    
  -1.8            -1.2918e-007    -1.1395e-008    -2.194e-010    
  -1.85           -1.2656e-007    1.3819e-008     -2.1556e-009   
  -1.9            -1.2551e-007    1.2622e-008     2.0067e-009    
  -1.95           -1.298e-007     -1.4091e-008    1.846e-010     
  -2              -1.2699e-007    8.862e-009      -2.644e-009    
  -2.05           -1.2571e-007    1.2366e-008     1.53e-009      
  -2.1            -1.2972e-007    -2.2891e-008    1.9841e-009    
  -2.15           -1.2959e-007    -1.0735e-008    -6.519e-010    
  -2.2            -1.2674e-007    2.1794e-008     -1.6655e-009   
  -2.25           -1.2533e-007    1.0836e-008     7.887e-010     
  -2.3            -1.2925e-007    -2.3088e-008    1.5232e-009    
  -2.35           -1.305e-007     -1.3544e-008    1.43e-010      
  -2.4            -1.279e-007     8.803e-009      -2.6091e-009   
  -2.45           -1.2619e-007    1.2496e-008     1.5906e-009    
  -2.5            -1.3025e-007    -2.1855e-008    1.916e-009     
  -2.55           -1.3007e-007    -1.0883e-008    -7.021e-010    
  -2.6            -1.2704e-007    2.2604e-008     -1.6201e-009   
  -2.65           -1.2583e-007    1.0939e-008     8.244e-010     
  -2.7            -1.2985e-007    -2.3481e-008    1.4793e-009    
  -2.75           -1.3085e-007    -1.2987e-008    1.058e-010     
  -2.8            -1.2793e-007    8.683e-009      -2.5699e-009   
  -2.85           -1.2632e-007    1.1475e-008     1.9e-012       
  -2.9            -1.2936e-007    -1.6162e-008    2.5905e-009    
  -2.95           -1.3073e-007    -1.155e-008     -2.065e-010    
  -3              -1.281e-007     1.3383e-008     -2.1775e-009   
  -3.05           -1.2628e-007    1.0394e-008     3.588e-010     
  -3.1            -1.2996e-007    -1.94e-008      2.1027e-009    
  -3.15           -1.3076e-007    -1.0922e-008    -5.729e-010    
  -3.2            -1.2787e-007    2.0346e-008     -1.7302e-009   
  -3.25           -1.2654e-007    1.0569e-008     7.196e-010     
  -3.3            -1.3031e-007    -2.2431e-008    1.5998e-009    
  -3.35           -1.3156e-007    -1.4309e-008    2.072e-010     
  -3.4            -1.2855e-007    9.188e-009      -2.6669e-009   
  -3.45           -1.2753e-007    1.2193e-008     1.5033e-009    
  -3.5            -1.3162e-007    -2.3255e-008    2.0314e-009    
  -3.55           -1.3113e-007    -1.0814e-008    -6.192e-010    
  -3.6            -1.283e-007     2.115e-008      -1.6871e-009   
  -3.65           -1.2705e-007    1.0645e-008     7.633e-010     
  -3.7            -1.3101e-007    -2.2849e-008    1.5536e-009    
  -3.75           -1.3204e-007    -1.3751e-008    1.741e-010     
  -3.8            -1.2907e-007    9.043e-009      -2.6412e-009   
  -3.85           -1.2805e-007    1.2489e-008     1.5606e-009    
  -3.9            -1.305e-007     -1.498e-008     2.6774e-009    
  -3.95           -1.3195e-007    -1.1688e-008    -1.269e-010    
  -4              -1.2931e-007    1.2127e-008     -2.2824e-009   
  -4.05           -1.2752e-007    1.072e-008      2.781e-010     
  -4.1            -1.311e-007     -1.8648e-008    2.2199e-009    
  -4.15           -1.32e-007      -1.079e-008     -4.931e-010    
  -4.2            -1.2931e-007    1.8925e-008     -1.817e-009    
  -4.25           -1.2783e-007    1.0605e-008     6.449e-010     
  -4.3            -1.317e-007     -2.1426e-008    1.6908e-009    
  -4.35           -1.3286e-007    -1.5129e-008    1.5099e-009    
  -4.4            -1.3303e-007    -1.3017e-008    1.499e-010     
  -4.45           -1.3014e-007    9.121e-009      -2.6225e-009   
  -4.5            -1.2927e-007    1.3082e-008     1.5954e-009    
  -4.55           -1.3184e-007    -1.5217e-008    2.6546e-009    
  -4.6            -1.3304e-007    -1.1133e-008    -1.588e-010    
  -4.65           -1.305e-007     1.325e-008      -2.2431e-009   
  -4.7            -1.2866e-007    1.1126e-008     3.174e-010     
  -4.75           -1.3238e-007    -1.8189e-008    2.1755e-009    
  -4.8            -1.3335e-007    -1.0099e-008    -5.288e-010    
  -4.85           -1.3053e-007    2.026e-008      -1.7834e-009   
  -4.9            -1.2918e-007    1.1534e-008     6.77e-010      
  -4.95           -1.3318e-007    -2.0607e-008    1.6466e-009    
  -5              -1.3378e-007    -2.3818e-008    1.3874e-009    
END_DB

BEGIN_DB
 ICCAP_VAR VG         -2             
 ICCAP_VAR VS         0              
 ICCAP_VAR VB         0              

 #VD              ID              IB              IG             
  0               -1.3295e-008    1.1323e-008     3.819e-010     
  -0.05           -9.2662e-007    -9.229e-009     -1.6144e-009   
  -0.1            -1.7873e-006    -1.094e-008     -1.4601e-009   
  -0.15           -2.5904e-006    1.0956e-008     7.916e-010     
  -0.2            -3.3466e-006    -2.0957e-008    1.7892e-009    
  -0.25           -4.0433e-006    -1.1023e-008    -5.122e-010    
  -0.3            -4.679e-006     1.3919e-008     -2.1467e-009   
  -0.35           -5.2739e-006    1.275e-008      1.7563e-009    
  -0.4            -5.8087e-006    -1.4214e-008    2.7502e-009    
  -0.45           -6.2917e-006    -1.3224e-008    1.494e-010     
  -0.5            -6.7053e-006    9.504e-009      -1.3617e-009   
  -0.55           -7.0929e-006    1.1273e-008     1.2981e-009    
  -0.6            -7.4178e-006    -2.6958e-008    1.3066e-009    
  -0.65           -7.6959e-006    -1.2401e-008    7.57e-011      
  -0.7            -7.905e-006     9.515e-009      -1.3543e-009   
  -0.75           -8.1108e-006    1.1744e-008     1.3991e-009    
  -0.8            -8.2574e-006    -2.7417e-008    1.286e-009     
  -0.85           -8.3762e-006    -1.2077e-008    2e-012         
  -0.9            -8.4405e-006    9.237e-009      -2.6837e-009   
  -0.95           -8.529e-006     1.1133e-008     1.2101e-009    
  -1              -8.5834e-006    -2.6264e-008    1.3364e-009    
  -1.05           -8.6269e-006    -1.3145e-008    1.458e-010     
  -1.1            -8.635e-006     9.47e-009       -1.359e-009    
  -1.15           -8.6835e-006    1.1383e-008     1.3081e-009    
  -1.2            -8.7063e-006    -2.7114e-008    1.3044e-009    
  -1.25           -8.7285e-006    -1.2377e-008    6.69e-011      
  -1.3            -8.7187e-006    9.511e-009      -1.3516e-009   
  -1.35           -8.765e-006     1.1768e-008     1.4119e-009    
  -1.4            -8.7704e-006    -2.7283e-008    1.2815e-009    
  -1.45           -8.7904e-006    -1.2073e-008    -4e-013        
  -1.5            -8.7734e-006    9.234e-009      -2.679e-009    
  -1.55           -8.811e-006     1.1189e-008     1.2225e-009    
  -1.6            -8.8242e-006    -2.6359e-008    1.3314e-009    
  -1.65           -8.8347e-006    -1.3046e-008    1.341e-010     
  -1.7            -8.8222e-006    9.539e-009      -1.3582e-009   
  -1.75           -8.8516e-006    1.1406e-008     1.3135e-009    
  -1.8            -8.8624e-006    -2.7181e-008    1.3041e-009    
  -1.85           -8.876e-006     -1.243e-008     6.06e-011      
  -1.9            -8.8556e-006    9.549e-009      -1.3512e-009   
  -1.95           -8.8902e-006    1.1802e-008     1.419e-009     
  -2              -8.8938e-006    -2.7425e-008    1.2794e-009    
  -2.05           -8.9041e-006    -1.2034e-008    -7.3e-012      
  -2.1            -8.8847e-006    9.238e-009      -2.6739e-009   
  -2.15           -8.9182e-006    1.1194e-008     1.2295e-009    
  -2.2            -8.9262e-006    -2.6314e-008    1.3285e-009    
  -2.25           -8.938e-006     -1.2843e-008    1.258e-010     
  -2.3            -8.919e-006     9.697e-009      -1.3591e-009   
  -2.35           -8.9475e-006    1.1367e-008     1.3248e-009    
  -2.4            -8.9562e-006    -2.718e-008     1.2996e-009    
  -2.45           -8.9645e-006    -1.2341e-008    5.54e-011      
  -2.5            -8.9402e-006    9.582e-009      -1.3503e-009   
  -2.55           -8.9803e-006    1.1847e-008     1.4274e-009    
  -2.6            -8.9806e-006    -2.7365e-008    1.2786e-009    
  -2.65           -8.9895e-006    -1.197e-008     -1.72e-011     
  -2.7            -8.9658e-006    9.103e-009      -2.6693e-009   
  -2.75           -8.9971e-006    1.1174e-008     1.2407e-009    
  -2.8            -9.0078e-006    -2.6478e-008    1.3243e-009    
  -2.85           -9.0139e-006    -1.2846e-008    1.193e-010     
  -2.9            -8.9931e-006    9.637e-009      -1.358e-009    
  -2.95           -9.0243e-006    1.1341e-008     1.339e-009     
  -3              -9.0282e-006    -2.7251e-008    1.298e-009     
  -3.05           -9.0376e-006    -1.2258e-008    5.18e-011      
  -3.1            -9.013e-006     9.466e-009      -1.3494e-009   
  -3.15           -9.0491e-006    1.2035e-008     1.4393e-009    
  -3.2            -9.0518e-006    -2.7446e-008    1.2772e-009    
  -3.25           -9.0614e-006    -1.1886e-008    -3.07e-011     
  -3.3            -9.0354e-006    8.986e-009      -2.6639e-009   
  -3.35           -9.0684e-006    1.1239e-008     1.2497e-009    
  -3.4            -9.0733e-006    -2.6787e-008    1.3207e-009    
  -3.45           -9.0799e-006    -1.271e-008     1.077e-010     
  -3.5            -9.0567e-006    9.708e-009      -1.3572e-009   
  -3.55           -9.0916e-006    1.1477e-008     1.3477e-009    
  -3.6            -9.0931e-006    -2.7404e-008    1.2944e-009    
  -3.65           -9.1019e-006    -1.2165e-008    3.81e-011      
  -3.7            -9.0761e-006    9.603e-009      -1.3473e-009   
  -3.75           -9.1106e-006    1.2269e-008     1.4567e-009    
  -3.8            -9.1104e-006    -2.7041e-008    1.2752e-009    
  -3.85           -9.1189e-006    -1.1687e-008    -3.8e-011      
  -3.9            -9.0937e-006    9.413e-009      -2.6536e-009   
  -3.95           -9.1252e-006    1.1732e-008     1.2613e-009    
  -4              -9.1303e-006    -2.6356e-008    1.3183e-009    
  -4.05           -9.1376e-006    -1.2065e-008    9.66e-011      
  -4.1            -9.1129e-006    1.0461e-008     -1.3544e-009   
  -4.15           -9.1455e-006    1.2544e-008     1.3659e-009    
