! VERSION = 6.00
BEGIN_HEADER
 ICCAP_INPUTS
  VG         V  B GROUND SMU4 0.001 LIN        2    0          -5         6    -1        
  VS         V  E GROUND SMU2 0.1 CON        0
  VD         V  S GROUND SMU1 0.1 LIN        1    0          -5         101  -0.05     
  VB         V  C GROUND SMU3 0.1 LIN        3    0          2.5        2    2.5       
 ICCAP_OUTPUTS
  ID         I  S GROUND SMU1 B
  IB         I  C GROUND SMU3 B
  IG         I  B GROUND SMU4 B
END_HEADER

BEGIN_DB
 ICCAP_VAR VG         0              
 ICCAP_VAR VS         0              
 ICCAP_VAR VB         0              

 #VD              ID              IB              IG             
  0               9.5e-011        1.0658e-008     7.22e-011      
  -0.05           -5.249e-009     -1.7369e-008    2.6417e-009    
  -0.1            -6.9297e-009    -2.96e-009      2.3971e-009    
  -0.15           -1.1414e-008    -1.1209e-008    -1.3935e-009   
  -0.2            -1.137e-008     1.0875e-008     6.34e-010      
  -0.25           -1.687e-008     -1.5874e-008    2.6032e-009    
  -0.3            -2.2921e-008    -1.7397e-008    1.6062e-009    
  -0.35           -2.8285e-008    -1.1068e-008    -1.892e-010    
  -0.4            -3.2891e-008    9.175e-009      -1.3451e-009   
  -0.45           -3.5868e-008    1.1029e-008     9.876e-010     
  -0.5            -4.5789e-008    -1.8724e-008    2.0479e-009    
  -0.55           -5.3685e-008    -2.5611e-008    1.3092e-009    
  -0.6            -6.2972e-008    -1.1128e-008    -6.104e-010    
  -0.65           -7.0073e-008    8.811e-009      -2.4738e-009   
  -0.7            -7.5899e-008    1.0763e-008     1.0927e-009    
  -0.75           -8.9172e-008    -1.9577e-008    1.8512e-009    
  -0.8            -1.00203e-007   -1.1577e-008    -1e-011        
  -0.85           -1.10588e-007   9.136e-009      -1.3639e-009   
  -0.9            -1.2019e-007    -1.5814e-008    2.4199e-009    
  -0.95           -1.3547e-007    -1.0818e-008    -3.358e-010    
  -1              -1.4581e-007    1.5507e-008     -1.9515e-009   
  -1.05           -1.5624e-007    1.1759e-008     2.098e-009     
  -1.1            -1.7439e-007    -1.2154e-008    1.04e-010      
  -1.15           -1.8774e-007    8.374e-009      -2.5292e-009   
  -1.2            -1.9947e-007    1.2107e-008     1.655e-009     
  -1.25           -2.2007e-007    -1.9592e-008    1.7414e-009    
  -1.3            -2.3536e-007    -1.1454e-008    -7.935e-010    
  -1.35           -2.4907e-007    2.2332e-008     -1.5253e-009   
  -1.4            -2.6418e-007    1.114e-008      8.959e-010     
  -1.45           -2.8534e-007    -2.4129e-008    1.3754e-009    
  -1.5            -3.0223e-007    -2.7077e-008    1.2668e-009    
  -1.55           -3.2011e-007    -1.1055e-008    -2.018e-010    
  -1.6            -3.3552e-007    1.3266e-008     -2.124e-009    
  -1.65           -3.5344e-007    1.034e-008      3.57e-010      
  -1.7            -3.757e-007     -1.8771e-008    2.0261e-009    
  -1.75           -3.9382e-007    -1.1076e-008    -5.898e-010    
  -1.8            -4.102e-007     1.9619e-008     -1.6725e-009   
  -1.85           -4.2866e-007    1.1118e-008     7.24e-010      
  -1.9            -4.5433e-007    -2.1357e-008    1.528e-009     
  -1.95           -4.7408e-007    -1.3494e-008    2.016e-010     
  -2              -4.9192e-007    8.283e-009      -2.6271e-009   
  -2.05           -5.1411e-007    1.1986e-008     1.5257e-009    
  -2.1            -5.3719e-007    -2.2764e-008    1.9477e-009    
  -2.15           -5.6065e-007    -1.1195e-008    -6.503e-010    
  -2.2            -5.7627e-007    2.0419e-008     -1.6276e-009   
  -2.25           -6.0156e-007    1.1095e-008     7.781e-010     
  -2.3            -6.3115e-007    -2.2155e-008    1.4832e-009    
  -2.35           -6.5526e-007    -1.2918e-008    1.657e-010     
  -2.4            -6.7632e-007    8.009e-009      -2.5949e-009   
  -2.45           -7.0255e-007    1.2021e-008     1.5773e-009    
  -2.5            -7.3262e-007    -1.5367e-008    2.6241e-009    
  -2.55           -7.5667e-007    -1.1302e-008    -1.252e-010    
  -2.6            -7.7958e-007    1.2142e-008     -2.2217e-009   
  -2.65           -8.0838e-007    1.0389e-008     2.8e-010       
  -2.7            -8.417e-007     -1.8056e-008    2.1317e-009    
  -2.75           -8.6998e-007    -1.0907e-008    -5.131e-010    
  -2.8            -8.9292e-007    1.8505e-008     -1.7478e-009   
  -2.85           -9.24e-007      1.0976e-008     6.568e-010     
  -2.9            -9.5999e-007    -2.0645e-008    1.6088e-009    
  -2.95           -9.9172e-007    -1.4455e-008    2.514e-010     
  -3              -1.01654e-006   8.59e-009       -1.3315e-009   
  -3.05           -1.05084e-006   1.0773e-008     6.147e-010     
  -3.1            -1.09207e-006   -2.0164e-008    1.658e-009     
  -3.15           -1.12375e-006   -1.1437e-008    -8.467e-010    
  -3.2            -1.1511e-006    -2.6552e-008    -2.6949e-009   
  -3.25           -1.1915e-006    1.069e-008      1.1352e-009    
  -3.3            -1.2319e-006    -2.4562e-008    1.3695e-009    
  -3.35           -1.2711e-006    -1.4251e-008    2.423e-010     
  -3.4            -1.3013e-006    9.247e-009      -1.359e-009    
  -3.45           -1.347e-006     1.0544e-008     1.2163e-009    
  -3.5            -1.3907e-006    -2.5573e-008    1.3231e-009    
  -3.55           -1.4315e-006    -1.319e-008     1.75e-010      
  -3.6            -1.4648e-006    9.236e-009      -1.3483e-009   
  -3.65           -1.5147e-006    1.0626e-008     1.2963e-009    
  -3.7            -1.562e-006     -2.6323e-008    1.2912e-009    
  -3.75           -1.604e-006     -1.2281e-008    1.085e-010     
  -3.8            -1.6405e-006    9.237e-009      -1.3399e-009   
  -3.85           -1.6973e-006    1.1334e-008     1.385e-009     
  -3.9            -1.7454e-006    -2.6963e-008    1.268e-009     
  -3.95           -1.7963e-006    -2.6842e-008    1.261e-009     
  -4              -1.8525e-006    -1.1589e-008    1.92e-011      
  -4.05           -1.8861e-006    8.698e-009      -2.6412e-009   
  -4.1            -1.9505e-006    1.0919e-008     1.2493e-009    
  -4.15           -2.0077e-006    -2.5427e-008    1.3088e-009    
  -4.2            -2.0639e-006    -2.5482e-008    1.2984e-009    
  -4.25           -2.1226e-006    -2.5776e-008    1.2895e-009    
  -4.3            -2.1853e-006    -2.5831e-008    1.2808e-009    
  -4.35           -2.2459e-006    -2.5816e-008    1.2721e-009    
  -4.4            -2.3159e-006    -2.59e-008      1.266e-009     
  -4.45           -2.3838e-006    -2.5688e-008    1.2607e-009    
  -4.5            -2.4539e-006    -1.5354e-008    2.2729e-009    
  -4.55           -2.5212e-006    -1.5335e-008    2.226e-009     
  -4.6            -2.5964e-006    -1.4948e-008    2.1763e-009    
  -4.65           -2.6721e-006    -1.4876e-008    2.1308e-009    
  -4.7            -2.7491e-006    -1.4514e-008    2.079e-009     
  -4.75           -2.8289e-006    -1.4099e-008    2.0359e-009    
  -4.8            -2.9155e-006    -1.3603e-008    1.982e-009     
  -4.85           -3.0014e-006    -1.3018e-008    1.943e-009     
  -4.9            -3.0918e-006    -1.2192e-008    1.896e-009     
  -4.95           -3.1874e-006    -1.0904e-008    1.8485e-009    
  -5              -3.2825e-006    4.97e-010       2.8753e-009    
END_DB

BEGIN_DB
 ICCAP_VAR VG         -1             
 ICCAP_VAR VS         0              
 ICCAP_VAR VB         0              

 #VD              ID              IB              IG             
  0               -1.6973e-007    1.1191e-008     -9.347e-010    
  -0.05           -9.6393e-006    8.188e-009      2.1773e-009    
  -0.1            -1.7241e-005    -2.3795e-008    1.1425e-009    
  -0.15           -2.332e-005     -2.5505e-008    2.1735e-009    
  -0.2            -2.8276e-005    -1.1456e-008    -7.766e-010    
  -0.25           -3.2424e-005    2.5736e-008     -1.4198e-009   
  -0.3            -3.6415e-005    1.0924e-008     1.348e-009     
  -0.35           -3.9682e-005    -2.1186e-008    1.8289e-009    
  -0.4            -4.2813e-005    -1.3269e-008    1.737e-010     
  -0.45           -4.5321e-005    1.036e-008      -2.3664e-009   
  -0.5            -4.8292e-005    1.2004e-008     2.0681e-009    
  -0.55           -5.0833e-005    -1.128e-008     -7.25e-011     
  -0.6            -5.2939e-005    1.6077e-008     -1.9387e-009   
  -0.65           -5.5385e-005    1.1145e-008     7.757e-010     
  -0.7            -5.774e-005     -2.5329e-008    1.3102e-009    
  -0.75           -5.9753e-005    -1.0747e-008    -3.055e-010    
  -0.8            -6.1514e-005    1.9902e-008     -1.6758e-009   
  -0.85           -6.3692e-005    1.1214e-008     9.681e-010     
  -0.9            -6.5642e-005    -2.7166e-008    2.4846e-009    
  -0.95           -6.7296e-005    -1.0894e-008    -5.474e-010    
  -1              -6.8811e-005    2.2973e-008     -1.503e-009    
  -1.05           -7.0902e-005    1.0777e-008     1.1528e-009    
  -1.1            -7.2468e-005    -2.5464e-008    2.1744e-009    
  -1.15           -7.3915e-005    -1.134e-008     -7.882e-010    
  -1.2            -7.5307e-005    2.5772e-008     -1.4178e-009   
  -1.25           -7.7378e-005    1.1049e-008     1.3504e-009    
  -1.3            -7.8841e-005    -1.5516e-008    2.5987e-009    
  -1.35           -8.0154e-005    -1.0639e-008    -4.398e-010    
  -1.4            -8.1359e-005    2.1668e-008     -1.5655e-009   
  -1.45           -8.32e-005      1.0908e-008     1.0711e-009    
  -1.5            -8.4644e-005    -2.6507e-008    2.3173e-009    
  -1.55           -8.5948e-005    -1.1258e-008    -6.811e-010    
  -1.6            -8.7162e-005    2.4747e-008     -1.4487e-009   
  -1.65           -8.9131e-005    1.06e-008       1.2637e-009    
  -1.7            -9.0577e-005    -1.4556e-008    2.6847e-009    
  -1.75           -9.1858e-005    -1.0734e-008    -3.382e-010    
  -1.8            -9.2985e-005    2.0314e-008     -1.6418e-009   
  -1.85           -9.4757e-005    1.1221e-008     9.908e-010     
  -1.9            -9.6296e-005    -2.7102e-008    2.4456e-009    
  -1.95           -9.7581e-005    -1.0895e-008    -5.783e-010    
  -2              -9.8741e-005    2.3497e-008     -1.4881e-009   
  -2.05           -0.000100712    1.0653e-008     1.1769e-009    
  -2.1            -0.000102058    -2.4864e-008    2.1113e-009    
  -2.15           -0.000103326    -1.1502e-008    -8.18e-010     
  -2.2            -0.000104596    2.6103e-008     -1.4117e-009   
  -2.25           -0.000106719    1.1252e-008     1.3823e-009    
  -2.3            -0.000107997    -2.0142e-008    1.7818e-009    
  -2.35           -0.000109581    -1.2775e-008    1.477e-010     
  -2.4            -0.000110475    1.1074e-008     -2.311e-009    
  -2.45           -0.00011246     1.1878e-008     2.0992e-009    
  -2.5            -0.00011398     -1.1154e-008    -1.072e-010    
  -2.55           -0.00011501     1.2534e-008     1.508e-010     
  -2.6            -0.000117       -2.0013e-008    1.7168e-009    
  -2.65           -0.00011854     -1.1527e-008    1.91e-011      
  -2.7            -0.00011946     1.6751e-008     -1.9093e-009   
  -2.75           -0.00012133     1.1509e-008     9.083e-010     
  -2.8            -0.00012302     -2.6539e-008    2.3987e-009    
  -2.85           -0.00012429     -1.0921e-008    -7.636e-010    
  -2.9            -0.00012561     2.7579e-008     -1.3947e-009   
  -2.95           -0.00012792     1.2849e-008     1.5863e-009    
  -3              -0.00012932     -1.2575e-008    2.056e-010     
  -3.05           -0.00013025     1.3163e-008     -2.2513e-009   
  -3.1            -0.00013206     1.2643e-008     6.776e-010     
  -3.15           -0.00013395     -6.974e-009     2.8774e-009    
  -3.2            -0.00013562     -1.3542e-008    2.5214e-009    
  -3.25           -0.00013718     -8.127e-009     2.8212e-009    
  -3.3            -0.00013869     -1.4223e-008    2.0492e-009    
  -3.35           -0.00014038     -1.0103e-008    2.5756e-009    
  -3.4            -0.00014202     -3.868e-009     2.8355e-009    
  -3.45           -0.00014354     -9.572e-009     2.1224e-009    
  -3.5            -0.00014531     -4.581e-009     2.6222e-009    
  -3.55           -0.00014663     2.475e-008      2.3252e-009    
  -3.6            -0.00014854     1.98e-010       2.5597e-009    
  -3.65           -0.00014972     1.1847e-008     -1.9758e-009   
  -3.7            -0.00015124     3.427e-008      3.074e-010     
  -3.75           -0.00015344     7.761e-009      1.5345e-009    
  -3.8            -0.00015481     2.8891e-008     -2.5606e-009   
  -3.85           -0.00015664     5.3587e-008     1.0141e-009    
  -3.9            -0.00015839     2.4907e-008     2.2205e-009    
  -3.95           -0.00015988     5.3405e-008     -2.1422e-009   
  -4              -0.00016153     8.317e-008      5.685e-010     
  -4.05           -0.00016367     6.1171e-008     1.3399e-009    
  -4.1            -0.00016526     1.2445e-007     -2.7482e-009   
  -4.15           -0.0001675      1.3122e-007     1.3867e-009    
  -4.2            -0.00016905     1.2403e-007     1.5942e-009    
  -4.25           -0.00017058     1.5881e-007     -2.5255e-009   
  -4.3            -0.00017253     2.0512e-007     9.68e-010      
  -4.35           -0.00017442     1.9931e-007     2.3091e-009    
  -4.4            -0.00017601     2.5505e-007     -2.1049e-009   
  -4.45           -0.00017783     3.1581e-007     5.1e-010       
  -4.5            -0.00018018     3.288e-007      1.3743e-009    
  -4.55           -0.00018176     4.0102e-007     -2.6797e-009   
  -4.6            -0.00018406     4.7966e-007     1.1778e-009    
  -4.65           -0.00018591     5.1498e-007     1.9171e-009    
  -4.7            -0.00018765     6.0877e-007     -2.3146e-009   
  -4.75           -0.00018977     7.1583e-007     7.733e-010     
  -4.8            -0.00019203     7.7567e-007     1.2763e-009    
  -4.85           -0.00019383     9.0657e-007     -2.7424e-009   
  -4.9            -0.0001965      1.04776e-006    1.4149e-009    
  -4.95           -0.00019886     1.1696e-006     -1.5586e-009   
  -5              -0.00020143     1.3095e-006     2.6106e-009    
END_DB

BEGIN_DB
 ICCAP_VAR VG         -2             
 ICCAP_VAR VS         0              
 ICCAP_VAR VB         0              

 #VD              ID              IB              IG             
  0               -4.5882e-007    -2.6485e-008    1.2706e-009    
  -0.05           -3.6777e-005    1.078e-008      -2.7011e-009   
  -0.1            -7.1652e-005    1.2163e-008     1.6177e-009    
  -0.15           -0.000105031    -1.4828e-008    1.475e-009     
  -0.2            -0.00013677     -1.2658e-008    -1.9218e-009   
  -0.25           -0.00016688     1.0334e-008     2.071e-010     
  -0.3            -0.00019549     -2.0546e-008    1.6414e-009    
  -0.35           -0.00022227     -1.1527e-008    -3.03e-011     
  -0.4            -0.00024704     1.7294e-008     -1.8385e-009   
  -0.45           -0.00027061     1.1095e-008     9.554e-010     
  -0.5            -0.00029237     -2.6623e-008    2.3113e-009    
  -0.55           -0.00031243     -1.1478e-008    -8.208e-010    
  -0.6            -0.00033094     2.7516e-008     -1.3911e-009   
  -0.65           -0.00034885     1.2111e-008     1.6418e-009    
  -0.7            -0.00036477     -1.2922e-008    1.653e-010     
  -0.75           -0.00037907     1.2645e-008     -2.1812e-009   
  -0.8            -0.00039318     1.1127e-008     7.315e-010     
  -0.85           -0.00040626     -2.6494e-008    1.2855e-009    
  -0.9            -0.00041804     -1.0909e-008    -5.461e-010    
  -0.95           -0.00042866     2.4939e-008     -1.4481e-009   
  -1              -0.00043982     1.1259e-008     1.3905e-009    
  -1.05           -0.0004494      -1.6831e-008    1.5778e-009    
  -1.1            -0.00045857     -1.1438e-008    -6.45e-011     
  -1.15           -0.00046662     1.8209e-008     -1.7766e-009   
  -1.2            -0.00047525     1.0981e-008     9.959e-010     
  -1.25           -0.00048296     -2.6069e-008    2.2415e-009    
  -1.3            -0.00049046     -1.4911e-008    1.4628e-009    
  -1.35           -0.00049724     -1.1137e-008    -1.875e-010    
  -1.4            -0.0005032      1.9915e-008     -1.6518e-009   
  -1.45           -0.00051006     1.0846e-008     1.0917e-009    
  -1.5            -0.00051593     -2.4315e-008    2.0676e-009    
  -1.55           -0.00052191     -1.3309e-008    1.849e-010     
  -1.6            -0.00052655     1.2294e-008     -2.2158e-009   
  -1.65           -0.00053218     1.1081e-008     7.025e-010     
  -1.7            -0.00053762     -2.6222e-008    1.2924e-009    
  -1.75           -0.00054228     -1.0967e-008    -5.212e-010    
  -1.8            -0.00054642     2.4524e-008     -1.4558e-009   
  -1.85           -0.00055196     1.1088e-008     1.3667e-009    
  -1.9            -0.00055612     -1.7209e-008    1.6125e-009    
  -1.95           -0.0005605      -1.1472e-008    -4.45e-011     
  -2              -0.00056396     1.7807e-008     -1.8047e-009   
  -2.05           -0.00056857     1.1098e-008     9.786e-010     
  -2.1            -0.00057272     -2.6382e-008    2.2804e-009    
  -2.15           -0.00057617     -1.1436e-008    -8.402e-010    
  -2.2            -0.0005796      2.7658e-008     -1.386e-009    
  -2.25           -0.00058456     1.2242e-008     1.6622e-009    
  -2.3            -0.00058797     -1.2625e-008    1.471e-010     
  -2.35           -0.0005906      1.3045e-008     -2.1435e-009   
  -2.4            -0.00059469     1.1158e-008     7.537e-010     
  -2.45           -0.00059861     -2.6709e-008    1.2771e-009    
  -2.5            -0.00060175     -1.1013e-008    -5.773e-010    
  -2.55           -0.00060465     2.5176e-008     -1.4388e-009   
  -2.6            -0.00060922     1.1482e-008     1.4196e-009    
  -2.65           -0.00061233     -1.6168e-008    1.5549e-009    
  -2.7            -0.00061555     -1.124e-008     -9.42e-011     
  -2.75           -0.00061801     1.8759e-008     -1.7408e-009   
  -2.8            -0.00062191     1.1056e-008     1.0212e-009    
  -2.85           -0.00062521     -2.5559e-008    2.1978e-009    
  -2.9            -0.00062858     -1.4107e-008    2.456e-010     
  -2.95           -0.00063085     1.1349e-008     -2.3237e-009   
  -3              -0.00063446     1.1358e-008     6.204e-010     
  -3.05           -0.00063814     -2.4683e-008    1.3237e-009    
  -3.1            -0.00064098     -1.0025e-008    -4.344e-010    
  -3.15           -0.00064352     2.4436e-008     -1.4922e-009   
  -3.2            -0.00064765     1.2072e-008     1.2841e-009    
  -3.25           -0.00065079     -1.4529e-008    2.5159e-009    
  -3.3            -0.00065372     -1.8808e-008    1.5225e-009    
  -3.35           -0.00065673     -1.5474e-008    2.0395e-009    
  -3.4            -0.00065999     -1.1792e-008    2.5708e-009    
  -3.45           -0.00066295     -5.614e-009     2.8347e-009    
  -3.5            -0.00066589     -1.0973e-008    2.1205e-009    
  -3.55           -0.00066901     -6.43e-009      2.6267e-009    
  -3.6            -0.00067203     8.66e-010       2.85e-009      
  -3.65           -0.00067484     -3.318e-009     2.1933e-009    
  -3.7            -0.00067746     1.0809e-008     -2.1653e-009   
  -3.75           -0.00068043     3.3422e-008     5.938e-010     
  -3.8            -0.00068399     2.924e-009      1.3356e-009    
  -3.85           -0.00068649     2.912e-008      -2.7044e-009   
  -3.9            -0.0006901      5.3882e-008     1.2416e-009    
  -3.95           -0.00069285     3.2886e-008     1.7964e-009    
  -4              -0.0006955      5.8794e-008     -2.3903e-009   
  -4.05           -0.00069859     9.116e-008      8.378e-010     
  -4.1            -0.00070196     7.0303e-008     1.2585e-009    
  -4.15           -0.00070522     1.3054e-007     1.9474e-009    
