! VERSION = 6.00
BEGIN_HEADER
 ICCAP_INPUTS
  VG         V  B GROUND SMU4 0.001 LIN        1    0          -5         101  -0.05     
  VS         V  E GROUND SMU2 0.1 CON        0
  VB         V  C GROUND SMU3 0.1 LIN        3    0          5          3    2.5       
  VD         V  S GROUND SMU1 0.1 LIN        2    -0.1       -5         2    -4.9      
 ICCAP_OUTPUTS
  IG         I  B GROUND SMU4 B
  ID         I  S GROUND SMU1 B
  IB         I  C GROUND SMU3 B
END_HEADER

BEGIN_DB
 ICCAP_VAR VS         0              
 ICCAP_VAR VB         0              
 ICCAP_VAR VD         -0.1           

 #VG              IG              ID              IB             
  0               2.6816e-009     2.3174e-009     -1.5965e-008   
  -0.05           1.7834e-009     1.5626e-009     1.3046e-008    
  -0.1            3.629e-010      2.2641e-009     1.2953e-008    
  -0.15           5.543e-010      2.2933e-009     1.2576e-008    
  -0.2            7.305e-010      2.3105e-009     1.0728e-008    
  -0.25           8.929e-010      2.3195e-009     9.419e-009     
  -0.3            1.044e-009      2.3152e-009     9.112e-009     
  -0.35           1.2041e-009     2.2585e-009     1.0241e-008    
  -0.4            1.3702e-009     2.1256e-009     1.2032e-008    
  -0.45           1.555e-009      1.9009e-009     1.3002e-008    
  -0.5            -1.4059e-009    1.377e-009      2.6938e-008    
  -0.55           -2.2233e-009    -1.3359e-009    1.0178e-008    
  -0.6            2.6852e-009     -1.9734e-009    -2.8728e-008   
  -0.65           2.4395e-009     -1.4886e-009    -2.914e-009    
  -0.7            2.1211e-009     -6.6562e-009    -5.388e-009    
  -0.75           -2.573e-009     -2.1222e-008    -2.8149e-008   
  -0.8            -2.0206e-009    -4.8842e-008    1.261e-009     
  -0.85           -1.473e-009     -9.3943e-008    4.932e-009     
  -0.9            -2.12e-011      -1.5559e-007    -8.343e-009    
  -0.95           4.635e-010      -2.3421e-007    1.2629e-008    
  -1              8.798e-010      -3.2576e-007    1.1649e-008    
  -1.05           -1.4424e-009    -4.2516e-007    1.258e-008     
  -1.1            -1.4043e-009    -5.3075e-007    7.969e-009     
  -1.15           -2.6438e-009    -6.3765e-007    1.0045e-008    
  -1.2            -2.1983e-009    -7.4768e-007    1.061e-009     
  -1.25           -9.573e-010     -8.5805e-007    -1.2114e-008   
  -1.3            2.727e-010      -9.681e-007     -1.3064e-008   
  -1.35           1.4765e-009     -1.07416e-006   -1.9145e-008   
  -1.4            2.7032e-009     -1.1773e-006    1.8539e-008    
  -1.45           1.6506e-009     -1.2821e-006    1.2097e-008    
  -1.5            2.0832e-009     -1.3842e-006    1.2291e-008    
  -1.55           9.08e-010       -1.4838e-006    1.1376e-008    
  -1.6            1.2926e-009     -1.5839e-006    9.215e-009     
  -1.65           1.7343e-009     -1.6817e-006    1.2652e-008    
  -1.7            5.824e-010      -1.7755e-006    1.2881e-008    
  -1.75           9.802e-010      -1.8699e-006    1.0586e-008    
  -1.8            -2.697e-010     -1.9624e-006    1.0293e-008    
  -1.85           -1.429e-009     -2.0532e-006    2.2441e-008    
  -1.9            -1.4064e-009    -2.1442e-006    7.96e-009      
  -1.95           -2.6226e-009    -2.2312e-006    9.979e-009     
  -2              -2.1369e-009    -2.319e-006     1.091e-009     
  -2.05           -9.87e-010      -2.405e-006     -1.1844e-008   
  -2.1            2.418e-010      -2.4897e-006    -1.2024e-008   
  -2.15           1.4324e-009     -2.5691e-006    -1.9723e-008   
  -2.2            2.8281e-009     -2.6489e-006    -8.419e-009    
  -2.25           2.1203e-009     -2.7275e-006    1.2201e-008    
  -2.3            9.451e-010      -2.8046e-006    1.1132e-008    
  -2.35           1.33e-009       -2.8835e-006    9.248e-009     
  -2.4            1.7637e-009     -2.9593e-006    1.2862e-008    
  -2.45           6.222e-010      -3.0336e-006    1.2838e-008    
  -2.5            1.0114e-009     -3.1079e-006    1.0192e-008    
  -2.55           1.4071e-009     -3.1822e-006    9.272e-009     
  -2.6            1.8437e-009     -3.2541e-006    1.297e-008     
  -2.65           7.019e-010      -3.3242e-006    1.2858e-008    
  -2.7            1.0837e-009     -3.3945e-006    9.71e-009      
  -2.75           1.4955e-009     -3.4654e-006    9.76e-009      
  -2.8            -1.3977e-009    -3.534e-006     2.8247e-008    
  -2.85           -2.4788e-009    -3.6024e-006    1.1412e-008    
  -2.9            -7.86e-010      -3.6722e-006    -1.3209e-008   
  -2.95           1.6496e-009     -3.7389e-006    -1.8974e-008   
  -3              2.8104e-009     -3.8008e-006    -9.036e-009    
  -3.05           8.674e-010      -3.8637e-006    1.2226e-008    
  -3.1            -1.4601e-009    -3.9294e-006    1.3456e-008    
  -3.15           -1.4018e-009    -3.9935e-006    7.992e-009     
  -3.2            -2.6403e-009    -4.0547e-006    9.873e-009     
  -3.25           -2.2299e-009    -4.1159e-006    1.099e-009     
  -3.3            -9.379e-010     -4.1784e-006    -1.1925e-008   
  -3.35           2.812e-010      -4.2404e-006    -1.3791e-008   
  -3.4            1.5059e-009     -4.296e-006     -1.9222e-008   
  -3.45           2.8302e-009     -4.3543e-006    -8.49e-009     
  -3.5            2.8341e-009     -4.411e-006     5.74e-010      
  -3.55           -1.3583e-009    -4.468e-006     2.2785e-008    
  -3.6            -2.2496e-009    -4.5261e-006    1.4235e-008    
  -3.65           2.6881e-009     -4.584e-006     -2.6391e-008   
  -3.7            1.9987e-009     -4.6379e-006    -2.425e-009    
  -3.75           1.3709e-009     -4.693e-006     -8.376e-009    
  -3.8            2.8433e-009     -4.7465e-006    -8.608e-009    
  -3.85           1.0745e-009     -4.7986e-006    9.915e-009     
  -3.9            1.4675e-009     -4.8515e-006    1.0445e-008    
  -3.95           1.8959e-009     -4.9067e-006    1.3326e-008    
  -4              7.571e-010      -4.9585e-006    1.2667e-008    
  -4.05           1.1307e-009     -5.011e-006     9.708e-009     
  -4.1            1.5486e-009     -5.0623e-006    9.973e-009     
  -4.15           1.988e-009      -5.1116e-006    1.332e-008     
  -4.2            8.3e-010        -5.1617e-006    1.2564e-008    
  -4.25           -1.5038e-009    -5.215e-006     1.4992e-008    
  -4.3            -1.3973e-009    -5.2651e-006    8.02e-009      
  -4.35           -1.3683e-009    -5.3129e-006    9.687e-009     
  -4.4            -2.3073e-009    -5.3607e-006    1.3306e-008    
  -4.45           1.601e-010      -5.4115e-006    -1.0775e-008   
  -4.5            1.3622e-009     -5.4566e-006    -2.1951e-008   
  -4.55           2.8515e-009     -5.501e-006     -8.895e-009    
  -4.6            1.0929e-009     -5.5458e-006    1.0021e-008    
  -4.65           1.5055e-009     -5.5898e-006    9.577e-009     
  -4.7            3.437e-010      -5.6368e-006    1.164e-008     
  -4.75           7.886e-010      -5.6794e-006    1.2706e-008    
  -4.8            -1.5407e-009    -5.7274e-006    1.6461e-008    
  -4.85           -1.3933e-009    -5.7721e-006    7.88e-009      
  -4.9            -1.3768e-009    -5.8166e-006    9.639e-009     
  -4.95           -2.3631e-009    -5.8583e-006    1.2671e-008    
  -5              1.94e-010       -5.9061e-006    -1.156e-008    
END_DB

BEGIN_DB
 ICCAP_VAR VS         0              
 ICCAP_VAR VB         0              
 ICCAP_VAR VD         -5             

 #VG              IG              ID              IB             
  0               2.3727e-009     2.2941e-009     -1.2423e-008   
  -0.05           4.033e-010      2.2782e-009     1.2642e-008    
  -0.1            5.997e-010      2.3141e-009     1.2309e-008    
  -0.15           7.765e-010      2.3274e-009     1.095e-008     
  -0.2            9.381e-010      2.3192e-009     9.657e-009     
  -0.25           1.0958e-009     2.2938e-009     9.084e-009     
  -0.3            1.2553e-009     2.2053e-009     1.0488e-008    
  -0.35           -2.081e-010     2.0231e-009     1.0453e-008    
  -0.4            -1.5837e-009    9.311e-010      2.3825e-008    
  -0.45           -1.8118e-009    -1.4986e-009    7.654e-009     
  -0.5            -4.354e-010     -2.3119e-009    -1.3e-008      
  -0.55           -6.437e-010     -2.5346e-009    -1.2394e-008   
  -0.6            2.3367e-009     -2.6713e-009    -2.3397e-008   
  -0.65           1.9964e-009     -3.3733e-009    -6.172e-009    
  -0.7            -2.5943e-009    -1.3206e-008    -1.2836e-008   
  -0.75           -2.0938e-009    -3.5404e-008    1.701e-009     
  -0.8            -1.532e-009     -8.1182e-008    5.492e-009     
  -0.85           2.3432e-009     -1.6044e-007    -1.9059e-008   
  -0.9            1.1552e-009     -2.866e-007     1.3008e-008    
  -0.95           1.5801e-009     -4.6364e-007    1.636e-008     
  -1              2.0211e-009     -6.9011e-007    2.0253e-008    
  -1.05           2.4127e-009     -9.7281e-007    2.1093e-008    
  -1.1            2.6793e-009     -1.3202e-006    2.353e-008     
  -1.15           2.653e-009      -1.7076e-006    2.5846e-008    
  -1.2            2.8343e-009     -2.1604e-006    2.6435e-008    
  -1.25           2.8393e-009     -2.6625e-006    2.1112e-008    
  -1.3            2.5695e-009     -3.2162e-006    2.2055e-008    
  -1.35           1.8472e-009     -3.8201e-006    2.1666e-008    
  -1.4            2.8441e-009     -4.4637e-006    3.519e-008     
  -1.45           2.8207e-009     -5.1567e-006    3.0532e-008    
  -1.5            2.4516e-009     -5.8929e-006    3.123e-008     
  -1.55           1.6954e-009     -6.6674e-006    2.9236e-008    
  -1.6            2.8099e-009     -7.4849e-006    2.6497e-008    
  -1.65           2.849e-009      -8.325e-006     3.9326e-008    
  -1.7            2.6491e-009     -9.2097e-006    3.782e-008     
  -1.75           1.9841e-009     -1.01345e-005   3.6696e-008    
  -1.8            1.3758e-009     -1.10845e-005   3.1428e-008    
  -1.85           2.8567e-009     -1.207e-005     2.9135e-008    
  -1.9            2.7246e-009     -1.308e-005     4.0737e-008    
  -1.95           2.1388e-009     -1.4122e-005    3.9191e-008    
  -2              1.4444e-009     -1.5191e-005    3.3414e-008    
  -2.05           2.8446e-009     -1.6286e-005    3.2186e-008    
  -2.1            2.8094e-009     -1.7394e-005    4.0584e-008    
  -2.15           2.4098e-009     -1.8541e-005    3.8765e-008    
  -2.2            1.657e-009      -1.971e-005     3.3463e-008    
  -2.25           2.8186e-009     -2.0894e-005    2.8756e-008    
  -2.3            2.8492e-009     -2.2095e-005    3.8668e-008    
  -2.35           2.6209e-009     -2.3325e-005    3.5408e-008    
  -2.4            1.9397e-009     -2.4576e-005    3.1835e-008    
  -2.45           1.3575e-009     -2.585e-005     2.4778e-008    
  -2.5            2.8515e-009     -2.7142e-005    2.3498e-008    
  -2.55           2.7618e-009     -2.8424e-005    3.1024e-008    
  -2.6            2.2363e-009     -2.9763e-005    2.8302e-008    
  -2.65           1.5134e-009     -3.1105e-005    2.1532e-008    
  -2.7            2.849e-009      -3.2455e-005    3.1079e-008    
  -2.75           2.6981e-009     -3.3823e-005    2.5321e-008    
  -2.8            2.0791e-009     -3.5221e-005    2.2219e-008    
  -2.85           2.8258e-009     -3.6611e-005    3.262e-008     
  -2.9            2.8417e-009     -3.8026e-005    2.3063e-008    
  -2.95           2.6056e-009     -3.9454e-005    1.9651e-008    
  -3              2.6817e-009     -4.0907e-005    2.9916e-008    
  -3.05           2.8405e-009     -4.2358e-005    2.5724e-008    
  -3.1            2.0677e-009     -4.3838e-005    2.9619e-008    
  -3.15           2.456e-009      -4.5307e-005    2.6791e-008    
  -3.2            2.7293e-009     -4.6796e-005    2.617e-008     
  -3.25           2.8516e-009     -4.8301e-005    1.9619e-008    
  -3.3            2.1584e-009     -4.9828e-005    2.5479e-008    
  -3.35           2.5295e-009     -5.1338e-005    2.2336e-008    
  -3.4            1.3619e-009     -5.2896e-005    1.9713e-008    
  -3.45           1.8165e-009     -5.445e-005     2.2039e-008    
  -3.5            2.2393e-009     -5.5981e-005    2.1342e-008    
  -3.55           1.0518e-009     -5.7546e-005    1.8746e-008    
  -3.6            1.4561e-009     -5.9142e-005    1.7766e-008    
  -3.65           1.8994e-009     -6.0727e-005    2.0024e-008    
  -3.7            7.492e-010      -6.2285e-005    1.8835e-008    
  -3.75           1.1317e-009     -6.3925e-005    1.5284e-008    
  -3.8            1.5534e-009     -6.5573e-005    1.6177e-008    
  -3.85           1.9982e-009     -6.717e-005     1.79e-008      
  -3.9            8.304e-010      -6.8757e-005    1.6481e-008    
  -3.95           1.2144e-009     -7.0421e-005    1.3068e-008    
  -4              1.6417e-009     -7.2076e-005    1.4089e-008    
  -4.05           2.0838e-009     -7.3712e-005    1.6304e-008    
  -4.1            9.098e-010      -7.5337e-005    1.4803e-008    
  -4.15           1.2919e-009     -7.7023e-005    1.1648e-008    
  -4.2            1.7337e-009     -7.8703e-005    1.3603e-008    
  -4.25           2.168e-009      -8.0328e-005    1.4942e-008    
  -4.3            9.846e-010      -8.2009e-005    1.2991e-008    
  -4.35           1.3768e-009     -8.3717e-005    1.0704e-008    
  -4.4            1.8237e-009     -8.5416e-005    1.3853e-008    
  -4.45           6.738e-010      -8.7061e-005    1.3977e-008    
  -4.5            1.0634e-009     -8.875e-005     1.1376e-008    
  -4.55           1.4692e-009     -9.048e-005     1.0423e-008    
  -4.6            3.023e-010      -9.2138e-005    1.2295e-008    
  -4.65           7.656e-010      -9.3877e-005    1.3432e-008    
  -4.7            1.1449e-009     -9.5609e-005    1.0406e-008    
  -4.75           1.5633e-009     -9.7373e-005    1.0656e-008    
  -4.8            2.0112e-009     -9.9069e-005    1.4009e-008    
  -4.85           8.442e-010      -0.000100769    1.2928e-008    
  -4.9            1.2265e-009     -0.000102527    9.731e-009     
  -4.95           1.6648e-009     -0.000104285    1.1143e-008    
  -5              2.1044e-009     -0.000105989    1.3325e-008    
END_DB

BEGIN_DB
 ICCAP_VAR VS         0              
 ICCAP_VAR VB         2.5            
 ICCAP_VAR VD         -0.1           

 #VG              IG              ID              IB             
  0               -7.133e-010     -7.444e-010     -2.7923e-008   
  -0.05           -1.2005e-009    -2.1431e-009    8.835e-009     
  -0.1            2.343e-010      -1.8472e-009    -1.0278e-008   
  -0.15           1.809e-009      -9.067e-010     -2.0593e-008   
  -0.2            1.7128e-009     1.7179e-009     -9.23e-009     
  -0.25           -1.27e-011      2.1208e-009     1.2958e-008    
  -0.3            -1.4427e-009    1.0786e-009     2.693e-008     
  -0.35           -1.0853e-009    -2.1826e-009    8.256e-009     
  -0.4            1.5163e-009     -1.7625e-009    -1.0722e-008   
  -0.45           9.209e-010      2.3205e-009     -8.571e-009    
  -0.5            1.0815e-009     2.2957e-009     9.036e-009     
  -0.55           1.2457e-009     2.2118e-009     9.681e-009     
  -0.6            -2.099e-010     2.0224e-009     1.0359e-008    
  -0.65           -1.5838e-009    9.426e-010      2.3711e-008    
  -0.7            -1.8061e-009    -1.4781e-009    7.646e-009     
  -0.75           2.0625e-009     -1.6146e-009    -1.8281e-008   
  -0.8            1.5724e-009     1.9224e-009     -8.416e-009    
  -0.85           1.7544e-009     1.6359e-009     1.316e-008     
  -0.9            3.249e-010      2.2591e-009     1.2641e-008    
  -0.95           5.297e-010      2.3034e-009     1.2661e-008    
  -1              7.21e-010       2.3216e-009     1.1528e-008    
  -1.05           8.895e-010      2.3137e-009     9.941e-009     
  -1.1            1.0493e-009     2.2711e-009     9.133e-009     
  -1.15           -1.3676e-009    1.5186e-009     9.391e-009     
  -1.2            -2.5264e-009    -1.6356e-009    1.3882e-008    
  -1.25           -2.3324e-009    -4.4006e-009    1.287e-009     
  -1.3            -2.5177e-009    -1.4683e-008    -2.7539e-008   
  -1.35           -1.9552e-009    -4.0132e-008    1.272e-009     
  -1.4            -1.4625e-009    -8.6848e-008    4.957e-009     
  -1.45           1.6871e-009     -1.5206e-007    -2.4937e-008   
  -1.5            2.1282e-009     -2.354e-007     1.2893e-008    
  -1.55           9.51e-010       -3.2768e-007    1.1631e-008    
  -1.6            1.3392e-009     -4.2791e-007    9.058e-009     
  -1.65           1.7875e-009     -5.2863e-007    1.2506e-008    
  -1.7            6.38e-010       -6.2919e-007    1.2607e-008    
  -1.75           1.039e-009      -7.311e-007     1.0288e-008    
  -1.8            1.4399e-009     -8.3113e-007    1.0002e-008    
  -1.85           2.648e-010      -9.2957e-007    1.1284e-008    
  -1.9            7.387e-010      -1.02501e-006   1.2714e-008    
  -1.95           1.1267e-009     -1.1206e-006    9.839e-009     
  -2              -1.863e-009     -1.2152e-006    -1.0395e-008   
  -2.05           -1.439e-009     -1.3057e-006    5.377e-009     
  -2.1            -1.4005e-009    -1.394e-006     8.506e-009     
  -2.15           -2.5918e-009    -1.4806e-006    9.714e-009     
  -2.2            -2.0827e-009    -1.5687e-006    1.236e-009     
  -2.25           3.13e-011       -1.6548e-006    -1.035e-008    
  -2.3            2.7409e-009     -1.7358e-006    -2.4873e-008   
  -2.35           2.6071e-009     -1.8153e-006    1.1348e-008    
  -2.4            1.4951e-009     -1.8943e-006    9.562e-009     
  -2.45           3.292e-010      -1.973e-006     1.1576e-008    
  -2.5            7.869e-010      -2.0495e-006    1.2644e-008    
  -2.55           1.1676e-009     -2.1272e-006    9.627e-009     
  -2.6            1.6087e-009     -2.2032e-006    1.0382e-008    
  -2.65           2.0513e-009     -2.277e-006     1.3065e-008    
  -2.7            8.783e-010      -2.3496e-006    1.2183e-008    
  -2.75           1.2705e-009     -2.4215e-006    9.171e-009     
  -2.8            1.7153e-009     -2.4928e-006    1.0903e-008    
  -2.85           2.158e-009      -2.5634e-006    1.2938e-008    
  -2.9            9.725e-010      -2.632e-006     1.1364e-008    
  -2.95           1.3661e-009     -2.7008e-006    9.515e-009     
  -3              1.8194e-009     -2.7682e-006    1.2722e-008    
  -3.05           6.702e-010      -2.8345e-006    1.2576e-008    
  -3.1            1.0593e-009     -2.9008e-006    1.0134e-008    
  -3.15           1.4702e-009     -2.9656e-006    1.0293e-008    
  -3.2            3.061e-010      -3.029e-006     1.146e-008     
  -3.25           7.674e-010      -3.0923e-006    1.2413e-008    
  -3.3            1.1544e-009     -3.1553e-006    9.477e-009     
  -3.35           1.589e-009      -3.2175e-006    1.1339e-008    
  -3.4            2.0336e-009     -3.279e-006     1.3165e-008    
  -3.45           8.619e-010      -3.3379e-006    1.2315e-008    
  -3.5            1.2453e-009     -3.3981e-006    9.216e-009     
  -3.55           4.43e-011       -3.4579e-006    1.0459e-008    
  -3.6            5.361e-010      -3.5156e-006    1.2393e-008    
  -3.65           9.529e-010      -3.5734e-006    1.1437e-008    
  -3.7            1.3417e-009     -3.6296e-006    9.354e-009     
  -3.75           1.7981e-009     -3.6876e-006    1.2634e-008    
  -3.8            6.474e-010      -3.7421e-006    1.2517e-008    
  -3.85           1.0468e-009     -3.7968e-006    1.0215e-008    
  -3.9            1.4493e-009     -3.8524e-006    1.0126e-008    
  -3.95           2.883e-010      -3.9069e-006    1.1256e-008    
  -4              7.498e-010      -3.9608e-006    1.2551e-008    
  -4.05           1.1346e-009     -4.0134e-006    9.586e-009     
  -4.1            1.5671e-009     -4.0653e-006    1.1085e-008    
  -4.15           2.0081e-009     -4.1178e-006    1.3303e-008    
