! VERSION = 6.00
BEGIN_HEADER
 ICCAP_INPUTS
  VG         V  B GROUND SMU4 0.001 LIN        1    0          -5         101  -0.05     
  VS         V  E GROUND SMU2 0.1 CON        0
  VB         V  C GROUND SMU3 0.1 LIN        3    0          5          3    2.5       
  VD         V  S GROUND SMU1 0.1 LIN        2    -0.1       -5         2    -4.9      
 ICCAP_OUTPUTS
  IG         I  B GROUND SMU4 B
  ID         I  S GROUND SMU1 B
  IB         I  C GROUND SMU3 B
END_HEADER

BEGIN_DB
 ICCAP_VAR VS         0              
 ICCAP_VAR VB         0              
 ICCAP_VAR VD         -0.1           

 #VG              IG              ID              IB             
  0               -9.052e-010     -8.94e-010      -1.145e-008    
  -0.05           -1.8039e-009    -1.4953e-009    8.1e-009       
  -0.1            -4.504e-010     -2.2651e-009    -1.1516e-008   
  -0.15           2.4786e-009     -1.469e-009     -2.4817e-008   
  -0.2            1.3126e-009     2.1683e-009     -5.004e-009    
  -0.25           -1.49e-010      2.0097e-009     1.0634e-008    
  -0.3            6.21e-011       2.0984e-009     1.0379e-008    
  -0.35           2.77e-010       2.172e-009      1.0728e-008    
  -0.4            5.011e-010      2.0995e-009     1.1384e-008    
  -0.45           -1.4101e-009    5.274e-010      1.1601e-008    
  -0.5            -1.3774e-009    -3.3082e-009    8.571e-009     
  -0.55           -1.3562e-009    -7.0132e-009    7.873e-009     
  -0.6            1.8573e-009     -1.9313e-008    7.326e-009     
  -0.65           2.2938e-009     -6.3051e-008    1.1154e-008    
  -0.7            2.8974e-009     -1.7605e-007    -1.1204e-008   
  -0.75           2.6327e-009     -4.4432e-007    -2.89e-010     
  -0.8            -1.4052e-009    -9.906e-007     -3.269e-009    
  -0.85           -2.7429e-009    -1.974e-006     -2.7341e-008   
  -0.9            -2.637e-010     -3.5118e-006    -1.0916e-008   
  -0.95           -7.951e-010     -6.1091e-006    -1.1587e-008   
  -1              1.6195e-009     -8.028e-006     -1.7649e-008   
  -1.05           1.2918e-009     -1.07711e-005   -9.028e-009    
  -1.1            -1.7321e-009    -1.3603e-005    -9.225e-009    
  -1.15           -1.4314e-009    -1.6577e-005    6.945e-009     
  -1.2            -1.3636e-009    -1.9553e-005    9.01e-009      
  -1.25           -2.4464e-009    -2.2481e-005    9.024e-009     
  -1.3            2.591e-010      -2.5488e-005    -1.4366e-008   
  -1.35           -1.407e-010     -2.8276e-005    -1.1097e-008   
  -1.4            -6.644e-010     -3.0988e-005    -1.1292e-008   
  -1.45           1.7843e-009     -3.3685e-005    -2.0452e-008   
  -1.5            1.3302e-009     -3.6265e-005    -9.226e-009    
  -1.55           2.9027e-009     -3.8777e-005    -1.0171e-008   
  -1.6            1.263e-009      -4.1211e-005    1.0968e-008    
  -1.65           6.19e-011       -4.3488e-005    1.0655e-008    
  -1.7            5.668e-010      -4.5796e-005    1.071e-008     
  -1.75           -1.7499e-009    -4.8016e-005    2.1295e-008    
  -1.8            -1.4357e-009    -5.0155e-005    6.844e-009     
  -1.85           -1.3639e-009    -5.228e-005     8.95e-009      
  -1.9            -2.4613e-009    -5.4295e-005    8.766e-009     
  -1.95           2.738e-010      -5.6383e-005    -1.4623e-008   
  -2              -1.214e-010     -5.8283e-005    -1.1187e-008   
  -2.05           -6.41e-010      -6.0142e-005    -1.116e-008    
  -2.1            1.8034e-009     -6.2008e-005    -2.0948e-008   
  -2.15           1.3363e-009     -6.3781e-005    -9.227e-009    
  -2.2            2.9013e-009     -6.5537e-005    -1.0012e-008   
  -2.25           1.2462e-009     -6.723e-005     1.1081e-008    
  -2.3            4.62e-011       -6.8845e-005    1.076e-008     
  -2.35           5.451e-010      -7.0477e-005    1.0723e-008    
  -2.4            9.932e-010      -7.2097e-005    1.1583e-008    
  -2.45           1.421e-009      -7.3676e-005    1.1652e-008    
  -2.5            1.8916e-009     -7.5193e-005    1.1817e-008    
  -2.55           7.221e-010      -7.6663e-005    1.1317e-008    
  -2.6            -1.5956e-009    -7.8137e-005    1.732e-008     
  -2.65           -1.4068e-009    -7.9528e-005    8.425e-009     
  -2.7            -2.6961e-009    -8.0928e-005    8.417e-009     
  -2.75           -2.2531e-009    -8.2317e-005    5.14e-010      
  -2.8            1.428e-010      -8.3737e-005    -1.2496e-008   
  -2.85           -3.046e-010     -8.5014e-005    -1.0859e-008   
  -2.9            2.2931e-009     -8.6317e-005    -2.6665e-008   
  -2.95           1.5629e-009     -8.759e-005     -6.86e-009     
  -3              1.2829e-009     -8.884e-005     -9.022e-009    
  -3.05           2.8525e-009     -9.007e-005     -1.1663e-008   
  -3.1            1.4074e-009     -9.1296e-005    1.1417e-008    
  -3.15           1.874e-009      -9.2473e-005    1.1586e-008    
  -3.2            7.122e-010      -9.3611e-005    1.1261e-008    
  -3.25           1.1235e-009     -9.477e-005     1.1196e-008    
  -3.3            1.5755e-009     -9.5915e-005    1.1694e-008    
  -3.35           3.936e-010      -9.6984e-005    1.0446e-008    
  -3.4            8.768e-010      -9.808e-005     1.1718e-008    
  -3.45           1.2862e-009     -9.9171e-005    1.1066e-008    
  -3.5            8.34e-011       -0.000100182    1.066e-008     
  -3.55           5.901e-010      -0.000101222    1.0886e-008    
  -3.6            -1.7215e-009    -0.000102255    2.0556e-008    
  -3.65           -1.4299e-009    -0.000103235    7.183e-009     
  -3.7            -1.3629e-009    -0.000104222    9.05e-009      
  -3.75           -2.434e-009     -0.000105181    9.332e-009     
  -3.8            2.47e-010       -0.000106225    -1.4165e-008   
  -3.85           -1.53e-010      -0.00010711     -1.1108e-008   
  -3.9            -6.839e-010     -0.000108028    -1.1344e-008   
  -3.95           1.752e-009      -0.000108979    -2.0041e-008   
  -4              1.3197e-009     -0.000109843    -9.166e-009    
  -4.05           2.8954e-009     -0.000110732    -1.0258e-008   
  -4.1            1.2802e-009     -0.000111605    1.0987e-008    
  -4.15           8.53e-011       -0.000112419    1.0715e-008    
  -4.2            5.824e-010      -0.000113271    1.0803e-008    
  -4.25           1.4687e-009     -0.00011415     2.0778e-008    
  -4.3            2.9006e-009     -0.000115       -9.45e-009     
  -4.35           2.7844e-009     -0.00011576     1.91e-010      
  -4.4            1.5216e-009     -0.00011657     1.1733e-008    
  -4.45           3.389e-010      -0.00011733     1.0426e-008    
  -4.5            8.27e-010       -0.0001181      1.1522e-008    
  -4.55           1.2362e-009     -0.00011888     1.1028e-008    
  -4.6            3.26e-011       -0.0001196      1.0758e-008    
  -4.65           5.267e-010      -0.00012036     1.0689e-008    
  -4.7            9.813e-010      -0.00012108     1.1488e-008    
  -4.75           1.4083e-009     -0.0001218      1.1535e-008    
  -4.8            1.8734e-009     -0.00012249     1.1752e-008    
  -4.85           7.166e-010      -0.00012319     1.1218e-008    
  -4.9            -1.6023e-009    -0.00012393     1.7615e-008    
  -4.95           -1.4083e-009    -0.00012453     8.255e-009     
  -5              -1.3531e-009    -0.00012522     8.536e-009     
END_DB

BEGIN_DB
 ICCAP_VAR VS         0              
 ICCAP_VAR VB         0              
 ICCAP_VAR VD         -5             

 #VG              IG              ID              IB             
  0               -1.2246e-009    -1.6976e-009    -1.7155e-008   
  -0.05           -3.146e-010     -3.7228e-009    -1.1061e-008   
  -0.1            1.2931e-009     -5.3855e-009    -2.6472e-008   
  -0.15           -1.4665e-009    -1.1389e-008    -1.1852e-008   
  -0.2            -1.3749e-009    -2.7667e-008    9.708e-009     
  -0.25           -2.5702e-009    -6.9255e-008    9.768e-009     
  -0.3            -2.134e-009     -1.7153e-007    1.5725e-008    
  -0.35           -1.5781e-009    -4.0917e-007    1.4509e-008    
  -0.4            -1.3949e-009    -9.0322e-007    3.1329e-008    
  -0.45           -2.2477e-009    -1.87e-006      2.7863e-008    
  -0.5            -2.631e-009     -3.557e-006     7.6597e-008    
  -0.55           2.9052e-009     -6.2906e-006    1.2818e-007    
  -0.6            2.965e-009      -1.03161e-005   2.2209e-007    
  -0.65           -2.4181e-009    -1.5707e-005    3.3449e-007    
  -0.7            -1.7963e-009    -2.2748e-005    4.4842e-007    
  -0.75           -1.3316e-009    -3.1451e-005    5.9889e-007    
  -0.8            -2.5961e-009    -4.1739e-005    7.6627e-007    
  -0.85           -2.3979e-009    -5.3689e-005    9.3237e-007    
  -0.9            -1.772e-010     -6.7119e-005    1.095e-006     
  -0.95           2.827e-010      -8.1608e-005    1.3179e-006    
  -1              7.823e-010      -9.7498e-005    1.5079e-006    
  -1.05           3.117e-009      -0.00011449     1.701e-006     
  -1.1            3.0779e-009     -0.0001324      1.8786e-006    
  -1.15           2.6135e-009     -0.00015128     2.0603e-006    
  -1.2            1.8722e-009     -0.00017096     2.2325e-006    
  -1.25           1.5112e-009     -0.0001915      2.3934e-006    
  -1.3            1.4175e-009     -0.00021276     2.556e-006     
  -1.35           2.7096e-009     -0.00023459     2.6962e-006    
  -1.4            1.9587e-009     -0.00025676     2.8511e-006    
  -1.45           1.489e-009      -0.00027981     2.9722e-006    
  -1.5            1.3739e-009     -0.00030329     3.0933e-006    
  -1.55           2.7599e-009     -0.00032727     3.1921e-006    
  -1.6            2.0396e-009     -0.00035141     3.2968e-006    
  -1.65           1.4843e-009     -0.00037625     3.3692e-006    
  -1.7            1.3351e-009     -0.00040133     3.4408e-006    
  -1.75           2.8012e-009     -0.00042712     3.4906e-006    
  -1.8            2.1471e-009     -0.0004525      3.552e-006     
  -1.85           1.5097e-009     -0.00047906     3.5786e-006    
  -1.9            1.3111e-009     -0.00050554     3.5979e-006    
  -1.95           2.8381e-009     -0.00053231     3.6089e-006    
  -2              2.2575e-009     -0.00055892     3.6219e-006    
  -2.05           1.5659e-009     -0.00058598     3.6104e-006    
  -2.1            1.3052e-009     -0.00061326     3.5882e-006    
  -2.15           2.863e-009      -0.00064083     3.564e-006     
  -2.2            2.3892e-009     -0.00066818     3.5399e-006    
  -2.25           1.6555e-009     -0.0006961      3.4959e-006    
  -2.3            1.314e-009      -0.00072408     3.4427e-006    
  -2.35           2.8909e-009     -0.00075233     3.386e-006     
  -2.4            2.4969e-009     -0.00078024     3.3347e-006    
  -2.45           1.7661e-009     -0.00080872     3.2648e-006    
  -2.5            1.3372e-009     -0.00083733     3.1883e-006    
  -2.55           2.8995e-009     -0.00086606     3.1142e-006    
  -2.6            2.6117e-009     -0.00089452     3.0444e-006    
  -2.65           1.9115e-009     -0.00092329     2.9622e-006    
  -2.7            1.3804e-009     -0.00095251     2.8712e-006    
  -2.75           2.9059e-009     -0.00098146     2.7831e-006    
  -2.8            2.6985e-009     -0.00101046     2.7043e-006    
  -2.85           2.0483e-009     -0.00103965     2.6149e-006    
  -2.9            1.4391e-009     -0.00106918     2.5183e-006    
  -2.95           2.9067e-009     -0.00109843     2.428e-006     
  -3              2.7775e-009     -0.00112763     2.3464e-006    
  -3.05           -1.4373e-009    -0.0011559      2.2522e-006    
  -3.1            -1.3665e-009    -0.0011854      2.1823e-006    
  -3.15           -2.4499e-009    -0.001215       2.0911e-006    
  -3.2            -1.8273e-009    -0.001245       1.9993e-006    
  -3.25           -1.4621e-009    -0.0012746      1.9167e-006    
  -3.3            -1.3774e-009    -0.0013042      1.837e-006     
  -3.35           -2.546e-009     -0.0013338      1.7549e-006    
  -3.4            -1.9429e-009    -0.0013638      1.6693e-006    
  -3.45           -1.499e-009     -0.0013936      1.5933e-006    
  -3.5            -1.3899e-009    -0.0014235      1.5229e-006    
  -3.55           -2.6149e-009    -0.0014532      1.4488e-006    
  -3.6            -2.0704e-009    -0.0014837      1.3693e-006    
  -3.65           -1.548e-009     -0.0015134      1.3047e-006    
  -3.7            -1.4021e-009    -0.0015432      1.2417e-006    
  -3.75           -2.6791e-009    -0.0015737      1.1782e-006    
  -3.8            -2.1976e-009    -0.0016038      1.107e-006     
  -3.85           -1.619e-009     -0.0016339      1.0507e-006    
  -3.9            -1.4148e-009    -0.0016638      9.985e-007     
  -3.95           2.719e-009      -0.0016945      9.3448e-007    
  -4              2.0877e-009     -0.0017244      8.7979e-007    
  -4.05           1.4579e-009     -0.0017546      8.2477e-007    
  -4.1            2.9011e-009     -0.0017847      7.7665e-007    
  -4.15           2.7914e-009     -0.0018146      7.4121e-007    
  -4.2            2.2472e-009     -0.0018446      6.9624e-007    
  -4.25           1.5452e-009     -0.0018748      6.5032e-007    
  -4.3            1.2818e-009     -0.0019049      6.098e-007     
  -4.35           2.8487e-009     -0.0019349      5.7074e-007    
  -4.4            2.3827e-009     -0.0019645      5.4656e-007    
  -4.45           1.6587e-009     -0.0019944      5.0862e-007    
  -4.5            1.3074e-009     -0.0020245      4.7438e-007    
  -4.55           2.884e-009      -0.0020544      4.4294e-007    
  -4.6            2.5164e-009     -0.0020839      4.2543e-007    
  -4.65           1.785e-009      -0.0021138      3.9546e-007    
  -4.7            1.3422e-009     -0.0021438      3.6624e-007    
  -4.75           2.9008e-009     -0.0021735      3.4195e-007    
  -4.8            2.6181e-009     -0.0022034      3.3013e-007    
  -4.85           1.9286e-009     -0.0022329      3.0602e-007    
  -4.9            1.3883e-009     -0.0022625      2.8108e-007    
  -4.95           2.9072e-009     -0.0022924      2.6205e-007    
  -5              2.7124e-009     -0.0023218      2.5437e-007    
END_DB

BEGIN_DB
 ICCAP_VAR VS         0              
 ICCAP_VAR VB         2.5            
 ICCAP_VAR VD         -0.1           

 #VG              IG              ID              IB             
  0               1.2935e-009     1.3678e-009     4.88e-008      
  -0.05           1.0781e-009     2.3338e-009     4.5932e-008    
  -0.1            1.2614e-009     2.2134e-009     4.377e-008     
  -0.15           1.4642e-009     2.0187e-009     4.3331e-008    
  -0.2            1.6684e-009     1.7614e-009     4.3201e-008    
  -0.25           1.8809e-009     1.5044e-009     4.3459e-008    
  -0.3            1.346e-010      2.1691e-009     4.4314e-008    
  -0.35           3.731e-010      2.2881e-009     4.3356e-008    
  -0.4            6.003e-010      2.364e-009      4.3476e-008    
  -0.45           8.031e-010      2.3836e-009     4.3782e-008    
  -0.5            9.837e-010      2.3649e-009     4.4002e-008    
  -0.55           1.1588e-009     2.2905e-009     4.3858e-008    
  -0.6            1.3523e-009     2.1323e-009     4.3725e-008    
  -0.65           1.5584e-009     1.9111e-009     4.3444e-008    
  -0.7            1.7615e-009     1.6388e-009     4.3244e-008    
  -0.75           9.4e-012        2.0681e-009     4.3679e-008    
  -0.8            2.48e-010       2.0999e-009     4.3388e-008    
  -0.85           4.745e-010      1.7914e-009     4.3549e-008    
  -0.9            -1.4886e-009    -2.4737e-009    4.3587e-008    
  -0.95           -1.4274e-009    -7.921e-009     4.124e-008     
  -1              2.5124e-009     -2.7359e-008    4.3742e-008    
  -1.05           1.7649e-009     -8.8074e-008    4.7453e-008    
  -1.1            -1.2865e-009    -2.5598e-007    3.9743e-008    
  -1.15           -1.6974e-009    -6.5815e-007    4.8852e-008    
  -1.2            -2.582e-010     -1.4826e-006    4.8524e-008    
  -1.25           -7.822e-010     -2.8133e-006    4.9043e-008    
  -1.3            -1.1757e-009    -4.6935e-006    4.93e-008      
  -1.35           -1.6039e-009    -7.0349e-006    4.9196e-008    
  -1.4            -1.8988e-009    -9.7412e-006    4.8247e-008    
  -1.45           1.3087e-009     -1.2608e-005    4.8427e-008    
  -1.5            2.8896e-009     -1.5498e-005    4.6673e-008    
  -1.55           2.5219e-009     -1.8304e-005    4.811e-008     
  -1.6            1.7985e-009     -2.1086e-005    4.7579e-008    
  -1.65           1.3461e-009     -2.3794e-005    4.5644e-008    
  -1.7            2.9051e-009     -2.6423e-005    4.5888e-008    
  -1.75           2.6401e-009     -2.8929e-005    4.8382e-008    
  -1.8            1.9431e-009     -3.1369e-005    4.7685e-008    
  -1.85           1.3989e-009     -3.3764e-005    4.6264e-008    
  -1.9            2.9163e-009     -3.6048e-005    4.5467e-008    
  -1.95           2.7301e-009     -3.8254e-005    4.8489e-008    
  -2              2.1087e-009     -4.0388e-005    4.7785e-008    
  -2.05           1.4726e-009     -4.2464e-005    4.6734e-008    
  -2.1            2.9069e-009     -4.4493e-005    4.5021e-008    
  -2.15           2.8022e-009     -4.6439e-005    4.8632e-008    
  -2.2            2.2759e-009     -4.8349e-005    4.789e-008     
  -2.25           1.5675e-009     -5.0201e-005    4.7036e-008    
  -2.3            1.2868e-009     -5.2021e-005    4.5087e-008    
  -2.35           2.8647e-009     -5.3792e-005    4.7003e-008    
  -2.4            2.4113e-009     -5.6114e-005    4.8094e-008    
  -2.45           1.6867e-009     -5.7173e-005    4.7337e-008    
  -2.5            1.3188e-009     -5.8816e-005    4.5251e-008    
  -2.55           2.8913e-009     -6.0471e-005    4.6465e-008    
  -2.6            2.5523e-009     -6.1992e-005    4.8285e-008    
  -2.65           1.8359e-009     -6.3527e-005    4.7579e-008    
  -2.7            1.3511e-009     -6.5022e-005    4.5739e-008    
  -2.75           2.9105e-009     -6.6506e-005    4.5832e-008    
  -2.8            2.6606e-009     -6.7933e-005    4.8401e-008    
  -2.85           1.9874e-009     -6.9407e-005    4.7695e-008    
  -2.9            1.4201e-009     -7.0727e-005    4.6378e-008    
  -2.95           2.9108e-009     -7.2089e-005    4.5424e-008    
  -3              2.7481e-009     -7.3424e-005    4.8674e-008    
  -3.05           2.1429e-009     -7.4714e-005    4.7809e-008    
  -3.1            1.4944e-009     -7.599e-005     4.6934e-008    
  -3.15           2.9025e-009     -7.7259e-005    4.5153e-008    
  -3.2            2.8174e-009     -7.8487e-005    4.8601e-008    
  -3.25           2.2985e-009     -7.9687e-005    4.7947e-008    
  -3.3            1.597e-009      -8.0944e-005    4.7098e-008    
  -3.35           1.2931e-009     -8.2046e-005    4.4943e-008    
  -3.4            2.869e-009      -8.3199e-005    4.6948e-008    
  -3.45           2.4495e-009     -8.4325e-005    4.8095e-008    
  -3.5            1.7309e-009     -8.5437e-005    4.7344e-008    
  -3.55           1.3258e-009     -8.6531e-005    4.5374e-008    
  -3.6            2.8967e-009     -8.7615e-005    4.617e-008     
  -3.65           2.5696e-009     -8.8654e-005    4.8252e-008    
  -3.7            1.8601e-009     -8.9689e-005    4.7588e-008    
  -3.75           1.3689e-009     -9.0725e-005    4.5904e-008    
  -3.8            2.9089e-009     -9.1734e-005    4.5624e-008    
  -3.85           2.6841e-009     -9.2715e-005    4.8398e-008    
  -3.9            2.0236e-009     -9.3673e-005    4.7761e-008    
  -3.95           1.4338e-009     -9.4634e-005    4.6561e-008    
  -4              2.9106e-009     -9.5577e-005    4.5317e-008    
  -4.05           2.7725e-009     -9.6496e-005    4.8595e-008    
  -4.1            2.1893e-009     -9.74e-005      4.7896e-008    
  -4.15           1.5168e-009     -9.8318e-005    4.6758e-008    
