! VERSION = 6.00
BEGIN_HEADER
 ICCAP_INPUTS
  VG         V  B GROUND SMU4 0.001 LIN        2    0          -5         6    -1        
  VS         V  E GROUND SMU2 0.1 CON        0
  VD         V  S GROUND SMU1 0.1 LIN        1    0          -5         101  -0.05     
  VB         V  C GROUND SMU3 0.1 LIN        3    0          2.5        2    2.5       
 ICCAP_OUTPUTS
  ID         I  S GROUND SMU1 B
  IB         I  C GROUND SMU3 B
  IG         I  B GROUND SMU4 B
END_HEADER

BEGIN_DB
 ICCAP_VAR VG         0              
 ICCAP_VAR VS         0              
 ICCAP_VAR VB         0              

 #VD              ID              IB              IG             
  0               1.2894e-009     -1.3085e-008    1.3018e-009    
  -0.05           2.1772e-009     1.0568e-008     1.3247e-009    
  -0.1            1.246e-009      2.8562e-008     -1.3921e-009   
  -0.15           -2.1436e-009    9.741e-009      -1.2603e-009   
  -0.2            -1.9222e-009    -1.0455e-008    2.385e-010     
  -0.25           -9.536e-010     -2.1341e-008    1.7044e-009    
  -0.3            1.6459e-009     -8.843e-009     1.7664e-009    
  -0.35           2.2923e-009     1.2664e-008     3.381e-010     
  -0.4            2.3267e-009     1.2367e-008     5.387e-010     
  -0.45           2.3382e-009     1.1051e-008     7.376e-010     
  -0.5            2.3327e-009     9.533e-009      9.1e-010       
  -0.55           1.7788e-009     1.2904e-008     -1.6785e-009   
  -0.6            -1.5853e-009    6.882e-009      -1.7752e-009   
  -0.65           -2.2632e-009    -1.3066e-008    -3.474e-010    
  -0.7            -2.2717e-009    -1.2873e-008    -5.715e-010    
  -0.75           -2.2523e-009    -1.159e-008     -7.894e-010    
  -0.8            -1.6253e-009    -1.8224e-008    2.1187e-009    
  -0.85           1.9594e-009     -7.581e-009     1.5516e-009    
  -0.9            2.2013e-009     1.1878e-008     8.33e-011      
  -0.95           2.2802e-009     1.2575e-008     2.976e-010     
  -1              2.322e-009      1.2525e-008     4.987e-010     
  -1.05           2.3398e-009     1.1383e-008     6.951e-010     
  -1.1            2.3353e-009     9.787e-009      8.744e-010     
  -1.15           1.7514e-009     1.4032e-008     -1.728e-009    
  -1.2            -1.6376e-009    6.227e-009      -1.7399e-009   
  -1.25           -2.2548e-009    -1.3016e-008    -2.972e-010    
  -1.3            -2.2735e-009    -1.2977e-008    -5.23e-010     
  -1.35           -1.4923e-009    -2.5014e-008    2.4732e-009    
  -1.4            2.1806e-009     -4.984e-009     1.327e-009     
  -1.45           1.2484e-009     2.8326e-008     -1.3935e-009   
  -1.5            -2.1403e-009    9.786e-009      -1.2636e-009   
  -1.55           -1.1922e-009    -2.63e-008      1.3562e-009    
  -1.6            2.3098e-009     -8.622e-009     1.1043e-009    
  -1.65           2.2078e-009     1.0367e-008     1.2654e-009    
  -1.7            2.0533e-009     1.0356e-008     -2.045e-010    
  -1.75           9.63e-010       2.3598e-008     -1.5821e-009   
  -1.8            -1.4843e-009    7.654e-009      -1.8362e-009   
  -1.85           -2.2725e-009    -1.3113e-008    -4.509e-010    
  -1.9            -2.2651e-009    -1.242e-008     -6.657e-010    
  -1.95           -1.5725e-009    -2.1351e-008    2.2884e-009    
  -2              2.0721e-009     -6.452e-009     1.4438e-009    
  -2.05           1.835e-009      1.1994e-008     1.6277e-009    
  -2.1            1.549e-009      1.1471e-008     1.8189e-009    
  -2.15           2.3032e-009     1.2506e-008     3.863e-010     
  -2.2            2.3316e-009     1.2148e-008     5.931e-010     
  -2.25           2.3423e-009     1.0883e-008     7.882e-010     
  -2.3            1.6732e-009     1.6828e-008     -1.8782e-009   
  -2.35           -1.7517e-009    5.49e-009       -1.6645e-009   
  -2.4            -1.5183e-009    -2.3997e-008    2.4085e-009    
  -2.45           2.1457e-009     -5.385e-009     1.3682e-009    
  -2.5            1.9303e-009     1.1629e-008     1.5554e-009    
  -2.55           1.434e-009      2.6909e-008     -1.3964e-009   
  -2.6            2.61e-011       1.103e-008      -1.3868e-009   
  -2.65           1.884e-010      1.2799e-008     -2.6593e-009   
  -2.7            -1.2852e-009    1.184e-009      -1.9795e-009   
  -2.75           -2.2646e-009    -1.239e-008     -7.184e-010    
  -2.8            -1.5888e-009    -2.0171e-008    2.2209e-009    
  -2.85           2.0246e-009     -7.032e-009     1.4796e-009    
  -2.9            1.3816e-009     2.7993e-008     -1.3953e-009   
  -2.95           -3.27e-011      1.0796e-008     -1.3932e-009   
  -3              1.268e-010      1.174e-008      -2.6854e-009   
  -3.05           -1.5589e-009    -2.1992e-008    2.3091e-009    
  -3.1            2.0882e-009     -6.283e-009     1.4292e-009    
  -3.15           1.8469e-009     1.1998e-008     1.617e-009     
  -3.2            1.5738e-009     1.1632e-008     1.7995e-009    
  -3.25           2.299e-009      1.2645e-008     3.74e-010      
  -3.3            2.3286e-009     1.2235e-008     5.796e-010     
  -3.35           2.3382e-009     1.0572e-008     7.675e-010     
  -3.4            1.6647e-009     1.7244e-008     -1.372e-009    
  -3.45           3.013e-010      1.4663e-008     -2.6032e-009   
  -3.5            -2.2034e-009    1.484e-009      -1.1069e-009   
  -3.55           -1.8045e-009    -1.0142e-008    1.5021e-009    
  -3.6            2.3333e-009     -8.231e-009     9.509e-010     
  -3.65           1.8177e-009     1.1918e-008     -1.6259e-009   
  -3.7            -1.5265e-009    7.465e-009      -1.8078e-009   
  -3.75           -2.2721e-009    -1.3133e-008    -4.134e-010    
  -3.8            -2.2695e-009    -1.303e-008     -6.36e-010     
  -3.85           -2.2496e-009    -1.1311e-008    -8.397e-010    
  -3.9            -1.6489e-009    -1.6686e-008    2.0171e-009    
  -3.95           1.8897e-009     -8.039e-009     1.6011e-009    
  -4              1.5907e-009     1.1689e-008     1.7853e-009    
  -4.05           2.2949e-009     1.2626e-008     3.563e-010     
  -4.1            2.3251e-009     1.2289e-008     5.635e-010     
  -4.15           2.3366e-009     1.077e-008      7.528e-010     
  -4.2            1.6525e-009     1.7606e-008     -1.3744e-009   
  -4.25           2.941e-010      1.4611e-008     -2.6133e-009   
  -4.3            -2.2044e-009    1.427e-009      -1.0969e-009   
  -4.35           -1.7912e-009    -1.0079e-008    1.5167e-009    
  -4.4            2.3317e-009     -8.136e-009     9.389e-010     
  -4.45           2.3064e-009     8.987e-009      1.1035e-009    
  -4.5            2.2172e-009     9.343e-009      1.2729e-009    
  -4.55           2.053e-009      1.0274e-008     -2.016e-010    
  -4.6            9.628e-010      2.3668e-008     -1.578e-009    
  -4.65           -1.4776e-009    7.783e-009      -1.838e-009    
  -4.7            -2.2725e-009    -1.3159e-008    -4.629e-010    
  -4.75           -2.2633e-009    -1.2475e-008    -6.791e-010    
  -4.8            -1.5705e-009    -2.1163e-008    2.285e-009     
  -4.85           2.0687e-009     -6.629e-009     1.4499e-009    
  -4.9            1.8226e-009     1.1947e-008     1.6392e-009    
  -4.95           1.5393e-009     1.1446e-008     1.8176e-009    
  -5              2.3033e-009     1.2663e-008     3.966e-010     
END_DB

BEGIN_DB
 ICCAP_VAR VG         -1             
 ICCAP_VAR VS         0              
 ICCAP_VAR VB         0              

 #VD              ID              IB              IG             
  0               2.226e-010      2.2116e-008     -1.736e-010    
  -0.05           -1.1761e-008    -1.8378e-008    -1.8758e-009   
  -0.1            -1.29e-008      1.0524e-008     1.5591e-009    
  -0.15           -1.8226e-008    -8.216e-009     2.8612e-009    
  -0.2            -2.2529e-008    -1.2917e-008    -5.597e-010    
  -0.25           -2.1163e-008    1.1339e-008     -2.5872e-009   
  -0.3            -1.7962e-008    1.0222e-008     1.04e-009      
  -0.35           -2.0793e-008    -1.9322e-008    1.9984e-009    
  -0.4            -2.1195e-008    -2.5478e-008    2.7052e-009    
  -0.45           -2.189e-008     -1.8453e-008    1.6866e-009    
  -0.5            -2.1491e-008    -2.6826e-008    2.4929e-009    
  -0.55           -2.1848e-008    -1.3751e-008    3.227e-010     
  -0.6            -2.1741e-008    5.832e-009      -1.411e-009    
  -0.65           -1.8707e-008    1.1811e-008     2.0694e-009    
  -0.7            -2.182e-008     -2.5901e-008    2.1589e-009    
  -0.75           -2.194e-008     -1.0306e-008    1.523e-010     
  -0.8            -2.1699e-008    8.078e-009      -1.3955e-009   
  -0.85           -1.8389e-008    1.2719e-008     6.916e-010     
  -0.9            -2.0219e-008    -1.8258e-008    2.5984e-009    
  -0.95           -2.1898e-008    -1.5738e-008    1.5372e-009    
  -1              -2.1688e-008    -2.6981e-008    2.3414e-009    
  -1.05           -2.1912e-008    -1.149e-008     2.434e-010     
  -1.1            -2.1732e-008    7.354e-009      -1.3975e-009   
  -1.15           -1.9071e-008    1.1498e-008     2.1719e-009    
  -1.2            -2.2001e-008    -2.342e-008     1.9607e-009    
  -1.25           -2.134e-008     -2.5685e-008    1.3069e-009    
  -1.3            -2.3129e-008    -1.3035e-008    -7.173e-010    
  -1.35           -2.1306e-008    1.309e-008      -2.4626e-009   
  -1.4            -1.9651e-008    1.7294e-008     -1.5686e-009   
  -1.45           -1.7799e-008    1.1648e-008     1.8032e-009    
  -1.5            -2.1528e-008    -2.6799e-008    2.5596e-009    
  -1.55           -2.1953e-008    -1.4871e-008    1.5029e-009    
  -1.6            -2.1789e-008    -2.6787e-008    2.2818e-009    
  -1.65           -2.199e-008     -1.1179e-008    2.196e-010     
  -1.7            -2.1762e-008    7.548e-009      -1.395e-009    
  -1.75           -1.9243e-008    1.0714e-008     2.1988e-009    
  -1.8            -2.2108e-008    -2.2409e-008    1.9054e-009    
  -1.85           -2.1439e-008    -2.5901e-008    1.306e-009     
  -1.9            -2.3183e-008    -1.3074e-008    -7.592e-010    
  -1.95           -2.1316e-008    1.3816e-008     -2.426e-009    
  -2              -1.9671e-008    1.6356e-008     -1.5379e-009   
  -2.05           -1.7971e-008    1.1714e-008     1.8334e-009    
  -2.1            -2.1617e-008    -2.6833e-008    2.5101e-009    
  -2.15           -2.1986e-008    -1.3936e-008    3.333e-010     
  -2.2            -2.1817e-008    5.768e-009      -1.4169e-009   
  -2.25           -1.8776e-008    1.1762e-008     2.0499e-009    
  -2.3            -2.1929e-008    -2.6183e-008    2.1818e-009    
  -2.35           -2.2057e-008    -1.0451e-008    1.661e-010     
  -2.4            -2.182e-008     8.01e-009       -1.3965e-009   
  -2.45           -1.8521e-008    1.2674e-008     6.777e-010     
  -2.5            -2.0338e-008    -1.8059e-008    2.6201e-009    
  -2.55           -2.2055e-008    -1.6225e-008    1.5664e-009    
  -2.6            -2.1828e-008    -2.7128e-008    2.3739e-009    
  -2.65           -2.2057e-008    -1.2039e-008    2.535e-010     
  -2.7            -2.1813e-008    7.175e-009      -1.3983e-009   
  -2.75           -1.9182e-008    1.1325e-008     2.1553e-009    
  -2.8            -2.2113e-008    -2.3777e-008    2.0041e-009    
  -2.85           -2.2237e-008    -1.0224e-008    7.75e-011      
  -2.9            -2.1786e-008    8.481e-009      -1.3986e-009   
  -2.95           -1.8474e-008    1.2695e-008     7.768e-010     
  -3              -2.0486e-008    -1.9091e-008    2.4916e-009    
  -3.05           -2.204e-008     -1.3631e-008    3.169e-010     
  -3.1            -2.1923e-008    5.906e-009      -1.4118e-009   
  -3.15           -1.8942e-008    1.1694e-008     2.0697e-009    
  -3.2            -2.2065e-008    -2.5735e-008    2.1501e-009    
  -3.25           -2.2146e-008    -1.0228e-008    1.487e-010     
  -3.3            -2.1865e-008    8.16e-009       -1.3953e-009   
  -3.35           -1.8548e-008    1.2639e-008     6.943e-010     
  -3.4            -2.0449e-008    -1.827e-008     2.5928e-009    
  -3.45           -2.2076e-008    -1.5708e-008    1.5352e-009    
  -3.5            -2.1889e-008    -2.6879e-008    2.3475e-009    
  -3.55           -2.2088e-008    -1.1723e-008    2.414e-010     
  -3.6            -2.1872e-008    7.245e-009      -1.3966e-009   
  -3.65           -1.9258e-008    1.1482e-008     2.1708e-009    
  -3.7            -2.2169e-008    -2.3328e-008    1.9741e-009    
  -3.75           -2.2284e-008    -1.0147e-008    6.09e-011      
  -3.8            -2.1839e-008    8.641e-009      -1.3982e-009   
  -3.85           -1.8516e-008    1.2601e-008     7.907e-010     
  -3.9            -2.0612e-008    -1.932e-008     2.4687e-009    
  -3.95           -2.2121e-008    -1.342e-008     3.075e-010     
  -4              -2.1959e-008    6.023e-009      -1.4067e-009   
  -4.05           -1.9018e-008    1.1604e-008     2.0904e-009    
  -4.1            -2.2158e-008    -2.5504e-008    2.1251e-009    
  -4.15           -2.2237e-008    -1.0122e-008    1.388e-010     
  -4.2            -2.191e-008     8.274e-009      -1.3968e-009   
  -4.25           -1.862e-008     1.2663e-008     7.093e-010     
  -4.3            -2.0524e-008    -1.8288e-008    2.5763e-009    
  -4.35           -2.2168e-008    -1.5219e-008    1.518e-009     
  -4.4            -2.1984e-008    -2.6737e-008    2.3144e-009    
  -4.45           -2.2209e-008    -1.1196e-008    2.321e-010     
  -4.5            -2.1972e-008    7.5e-009        -1.3961e-009   
  -4.55           -1.9408e-008    1.1449e-008     2.1847e-009    
  -4.6            -2.2307e-008    -2.2771e-008    1.9343e-009    
  -4.65           -2.2458e-008    -1.0225e-008    4.87e-011      
  -4.7            -2.196e-008     8.698e-009      -1.3976e-009   
  -4.75           -1.8662e-008    1.2648e-008     8.127e-010     
  -4.8            -2.0815e-008    -1.9088e-008    2.4448e-009    
  -4.85           -2.2315e-008    -1.2868e-008    2.923e-010     
  -4.9            -2.2132e-008    6.472e-009      -1.4041e-009   
  -4.95           -1.9306e-008    1.1673e-008     2.1069e-009    
  -5              -2.2386e-008    -2.4926e-008    2.084e-009     
END_DB

BEGIN_DB
 ICCAP_VAR VG         -2             
 ICCAP_VAR VS         0              
 ICCAP_VAR VB         0              

 #VD              ID              IB              IG             
  0               -3.0393e-009    -2.1783e-008    -2.7486e-009   
  -0.05           -1.0646e-007    1.9664e-008     -2.244e-009    
  -0.1            -2.0241e-007    2.1809e-008     -1.4661e-009   
  -0.15           -2.9136e-007    1.1518e-008     9.639e-010     
  -0.2            -3.7813e-007    -8.115e-009     2.8634e-009    
  -0.25           -4.5904e-007    -1.8246e-008    1.6659e-009    
  -0.3            -5.3235e-007    -1.3119e-008    -8.683e-010    
  -0.35           -5.9692e-007    7.017e-009      -1.3935e-009   
  -0.4            -6.5378e-007    9.608e-009      1.1758e-009    
  -0.45           -7.1121e-007    -2.6642e-008    2.5787e-009    
  -0.5            -7.5905e-007    -2.6879e-008    2.3647e-009    
  -0.55           -8.0087e-007    -2.5462e-008    2.099e-009     
  -0.6            -8.3674e-007    -2.1026e-008    1.8166e-009    
  -0.65           -8.6673e-007    -1.3141e-008    -7.821e-010    
  -0.7            -8.8734e-007    2.054e-008      -1.5456e-009   
  -0.75           -9.0501e-007    1.2119e-008     8.704e-010     
  -0.8            -9.2104e-007    -8.439e-009     2.8454e-009    
  -0.85           -9.3333e-007    -2.1508e-008    1.8376e-009    
  -0.9            -9.3995e-007    -1.3041e-008    -7.667e-010    
  -0.95           -9.4095e-007    2.0294e-008     -1.5551e-009   
  -1              -9.4301e-007    1.215e-008      8.577e-010     
  -1.05           -9.471e-007     -8.56e-009      2.8462e-009    
  -1.1            -9.5049e-007    -2.2081e-008    1.8654e-009    
  -1.15           -9.5147e-007    -1.3056e-008    -7.475e-010    
  -1.2            -9.487e-007     2.0169e-008     -1.5689e-009   
  -1.25           -9.4846e-007    1.2194e-008     8.454e-010     
  -1.3            -9.511e-007     -8.628e-009     1.3026e-009    
  -1.35           -9.5334e-007    -2.7069e-008    2.3504e-009    
  -1.4            -9.5388e-007    -2.5296e-008    2.0761e-009    
  -1.45           -9.545e-007     -1.2885e-008    -6.078e-010    
  -1.5            -9.5145e-007    1.9249e-008     -1.7071e-009   
  -1.55           -9.5058e-007    1.2475e-008     7.36e-010      
  -1.6            -9.5461e-007    -2.0072e-008    1.5256e-009    
  -1.65           -9.5538e-007    -1.2243e-008    -9.532e-010    
  -1.7            -9.5366e-007    8.132e-009      -1.392e-009    
  -1.75           -9.5226e-007    2.8248e-008     -1.3911e-009   
  -1.8            -9.531e-007     1.0358e-008     1.5474e-009    
  -1.85           -9.567e-007     -2.3095e-008    1.9584e-009    
  -1.9            -9.5688e-007    -1.3007e-008    -6.927e-010    
  -1.95           -9.5378e-007    1.9757e-008     -1.6238e-009   
  -2              -9.5301e-007    1.2413e-008     7.97e-010      
  -2.05           -9.5551e-007    -8.819e-009     1.3059e-009    
  -2.1            -9.5747e-007    -2.6998e-008    2.4175e-009    
  -2.15           -9.5772e-007    -2.6145e-008    2.1651e-009    
  -2.2            -9.5823e-007    -2.2394e-008    1.8807e-009    
  -2.25           -9.5846e-007    -1.3009e-008    -7.376e-010    
  -2.3            -9.5518e-007    2.027e-008      -1.5768e-009   
  -2.35           -9.5445e-007    1.2191e-008     8.382e-010     
  -2.4            -9.5693e-007    -8.66e-009      1.3042e-009    
  -2.45           -9.5877e-007    -2.7087e-008    2.3645e-009    
  -2.5            -9.5926e-007    -2.5397e-008    2.091e-009     
  -2.55           -9.5954e-007    -1.2929e-008    -6.034e-010    
  -2.6            -9.5638e-007    1.9103e-008     -1.7201e-009   
  -2.65           -9.5548e-007    1.2592e-008     7.232e-010     
  -2.7            -9.5936e-007    -1.9797e-008    1.5299e-009    
  -2.75           -9.5999e-007    -1.2315e-008    -9.41e-010     
  -2.8            -9.5807e-007    8.006e-009      -1.3927e-009   
  -2.85           -9.5658e-007    2.8336e-008     -1.391e-009    
  -2.9            -9.5716e-007    1.0315e-008     1.5285e-009    
  -2.95           -9.6089e-007    -2.3492e-008    1.9779e-009    
  -3              -9.61e-007      -1.3013e-008    -6.76e-010     
  -3.05           -9.5767e-007    1.9707e-008     -1.6356e-009   
  -3.1            -9.5689e-007    1.243e-008      7.86e-010      
  -3.15           -9.5929e-007    -8.782e-009     1.3109e-009    
  -3.2            -9.6114e-007    -2.6992e-008    2.4329e-009    
  -3.25           -9.6142e-007    -2.6244e-008    2.1855e-009    
  -3.3            -9.6192e-007    -2.2679e-008    1.9037e-009    
  -3.35           -9.6198e-007    -1.297e-008     -7.237e-010    
  -3.4            -9.5866e-007    2.0093e-008     -1.592e-009    
  -3.45           -9.5787e-007    1.2321e-008     8.247e-010     
  -3.5            -9.604e-007     -8.772e-009     1.3062e-009    
  -3.55           -9.6227e-007    -2.6991e-008    2.3833e-009    
  -3.6            -9.6243e-007    -2.5625e-008    2.1218e-009    
  -3.65           -9.6278e-007    -1.2801e-008    -5.871e-010    
  -3.7            -9.5954e-007    1.9132e-008     -1.7379e-009   
  -3.75           -9.5858e-007    1.2585e-008     7.11e-010      
  -3.8            -9.6236e-007    -1.9748e-008    1.5548e-009    
  -3.85           -9.6306e-007    -1.244e-008     -9.297e-010    
  -3.9            -9.6114e-007    7.921e-009      -1.3936e-009   
  -3.95           -9.5948e-007    2.8294e-008     -1.3921e-009   
  -4              -9.6028e-007    1.0166e-008     1.5199e-009    
  -4.05           -9.6378e-007    -2.379e-008     2.0032e-009    
  -4.1            -9.6393e-007    -1.2943e-008    -6.6e-010      
  -4.15           -9.6081e-007    1.9771e-008     -1.653e-009    
