! VERSION = 6.00
BEGIN_HEADER
 ICCAP_INPUTS
  VG         V  B GROUND SMU4 0.001 LIN        1    0          -5         101  -0.05     
  VS         V  E GROUND SMU2 0.1 CON        0
  VB         V  C GROUND SMU3 0.1 LIN        3    0          5          3    2.5       
  VD         V  S GROUND SMU1 0.1 LIN        2    -0.1       -5         2    -4.9      
 ICCAP_OUTPUTS
  IG         I  B GROUND SMU4 B
  ID         I  S GROUND SMU1 B
  IB         I  C GROUND SMU3 B
END_HEADER

BEGIN_DB
 ICCAP_VAR VS         0              
 ICCAP_VAR VB         0              
 ICCAP_VAR VD         -0.1           

 #VG              IG              ID              IB             
  0               7.21e-010       -2.066e-010     -2.0603e-008   
  -0.05           1.0146e-009     2.2814e-009     -8.088e-009    
  -0.1            -1.537e-009     1.8295e-009     1.0285e-008    
  -0.15           -1.8351e-009    -1.4343e-009    8.019e-009     
  -0.2            -4.602e-010     -2.2327e-009    -1.3366e-008   
  -0.25           -6.623e-010     -2.22e-009      -1.291e-008    
  -0.3            -8.457e-010     -2.2034e-009    -1.1233e-008   
  -0.35           1.9888e-009     -1.6233e-009    -1.6631e-008   
  -0.4            1.5763e-009     1.8612e-009     -8.342e-009    
  -0.45           1.7488e-009     1.5827e-009     1.1872e-008    
  -0.5            3.187e-010      2.162e-009      1.272e-008     
  -0.55           5.095e-010      1.9695e-009     1.2885e-008    
  -0.6            -1.3811e-009    9.17e-011       1.173e-008     
  -0.65           -1.3848e-009    -4.2306e-009    9.875e-009     
  -0.7            -1.4863e-009    -1.5189e-008    -1.0748e-008   
  -0.75           -1.3833e-009    -4.7403e-008    8.363e-009     
  -0.8            4.302e-010      -1.3644e-007    -1.2039e-008   
  -0.85           8.618e-010      -3.5362e-007    1.2372e-008    
  -0.9            -1.4788e-009    -7.5855e-007    1.4504e-008    
  -0.95           -1.6546e-009    -1.3754e-006    -8.067e-009    
  -1              1.9732e-009     -2.3583e-006    -2.4173e-008   
  -1.05           1.3728e-009     -3.2919e-006    -8.349e-009    
  -1.1            2.8295e-009     -4.4506e-006    -8.342e-009    
  -1.15           2.1631e-009     -5.6595e-006    1.0964e-008    
  -1.2            9.994e-010      -6.9074e-006    1.0692e-008    
  -1.25           -2.461e-010     -8.1414e-006    1.073e-008     
  -1.3            -1.4334e-009    -9.3707e-006    2.2247e-008    
  -1.35           -1.3873e-009    -1.0598e-005    8.474e-009     
  -1.4            1.4854e-009     -1.1822e-005    8.474e-009     
  -1.45           2.822e-009      -1.2976e-005    -8.224e-009    
  -1.5            2.8021e-009     -1.4099e-005    6.01e-010      
  -1.55           -1.7529e-009    -1.5187e-005    2.2947e-008    
  -1.6            -1.3961e-009    -1.6268e-005    5.855e-009     
  -1.65           -1.387e-009     -1.7306e-005    8.781e-009     
  -1.7            -2.559e-009     -1.832e-005     1.1584e-008    
  -1.75           -2.0321e-009    -1.9322e-005    1.422e-009     
  -1.8            -1.4928e-009    -2.0283e-005    5.043e-009     
  -1.85           -1.3819e-009    -2.1236e-005    8.392e-009     
  -1.9            -2.6505e-009    -2.2147e-005    1.0834e-008    
  -1.95           1.8458e-009     -2.3071e-005    -2.197e-008    
  -2              1.3354e-009     -2.3935e-005    -8.721e-009    
  -2.05           2.8348e-009     -2.4783e-005    -8.716e-009    
  -2.1            2.7192e-009     -2.5599e-005    -3.05e-010     
  -2.15           1.5378e-009     -2.6428e-005    9.499e-009     
  -2.2            3.605e-010      -2.7196e-005    1.199e-008     
  -2.25           8.072e-010      -2.7973e-005    1.2312e-008    
  -2.3            -1.5242e-009    -2.8726e-005    1.6178e-008    
  -2.35           -1.3826e-009    -2.9457e-005    8.162e-009     
  -2.4            -2.6595e-009    -3.0178e-005    1.0563e-008    
  -2.45           1.8962e-009     -3.0912e-005    -2.2796e-008   
  -2.5            1.3454e-009     -3.1602e-005    -8.777e-009    
  -2.55           2.8329e-009     -3.2283e-005    -8.456e-009    
  -2.6            -1.3853e-009    -3.2925e-005    2.8446e-008    
  -2.65           -2.5411e-009    -3.3572e-005    1.1759e-008    
  -2.7            -1.9981e-009    -3.4229e-005    1.445e-009     
  -2.75           -1.478e-009     -3.4857e-005    5.008e-009     
  -2.8            -1.3853e-009    -3.5466e-005    8.392e-009     
  -2.85           -2.645e-009     -3.6064e-005    1.079e-008     
  -2.9            1.8088e-009     -3.6695e-005    -2.1341e-008   
  -2.95           1.3204e-009     -3.727e-005     -8.904e-009    
  -3              2.8345e-009     -3.7848e-005    -8.936e-009    
  -3.05           -1.3817e-009    -3.8388e-005    2.8104e-008    
  -3.1            -2.4985e-009    -3.8943e-005    1.2304e-008    
  -3.15           -1.9227e-009    -3.9482e-005    1.638e-009     
  -3.2            -1.4495e-009    -4.002e-005     5.369e-009     
  -3.25           -1.3861e-009    -4.0546e-005    8.55e-009      
  -3.3            -2.6254e-009    -4.1048e-005    1.0974e-008    
  -3.35           -2.2344e-009    -4.1572e-005    1.103e-009     
  -3.4            -9.378e-010     -4.2066e-005    -1.274e-008    
  -3.45           3.187e-010      -4.259e-005     -1.3929e-008   
  -3.5            1.5357e-009     -4.3056e-005    -1.9791e-008   
  -3.55           2.8184e-009     -4.3533e-005    -8.425e-009    
  -3.6            9.34e-010       -4.3978e-005    1.1418e-008    
  -3.65           -1.4303e-009    -4.4455e-005    1.2218e-008    
  -3.7            -1.3882e-009    -4.4891e-005    8.5e-009       
  -3.75           -2.6045e-009    -4.5331e-005    1.1134e-008    
  -3.8            -2.1617e-009    -4.5794e-005    1.374e-009     
  -3.85           1.128e-010      -4.6247e-005    -1.0146e-008   
  -3.9            1.3255e-009     -4.6654e-005    -2.3646e-008   
  -3.95           2.8317e-009     -4.707e-005     -8.958e-009    
  -4              2.6938e-009     -4.7501e-005    -3.51e-010     
  -4.05           2.5847e-009     -4.7884e-005    1.0387e-008    
  -4.1            -1.7404e-009    -4.8283e-005    2.2541e-008    
  -4.15           -1.3962e-009    -4.8663e-005    6.154e-009     
  -4.2            -1.3847e-009    -4.9055e-005    9.008e-009     
  -4.25           -2.5456e-009    -4.9433e-005    1.1532e-008    
  -4.3            -2.0254e-009    -4.9824e-005    1.47e-009      
  -4.35           -1.4861e-009    -5.0193e-005    5.157e-009     
  -4.4            -1.3826e-009    -5.0548e-005    8.388e-009     
  -4.45           -2.6492e-009    -5.0913e-005    1.0717e-008    
  -4.5            1.8293e-009     -5.1289e-005    -2.1731e-008   
  -4.55           1.3297e-009     -5.1633e-005    -8.779e-009    
  -4.6            2.836e-009      -5.197e-005     -8.72e-009     
  -4.65           -1.3826e-009    -5.2301e-005    2.8294e-008    
  -4.7            -2.5103e-009    -5.2628e-005    1.2011e-008    
  -4.75           -1.9425e-009    -5.2957e-005    1.595e-009     
  -4.8            -1.4546e-009    -5.3292e-005    5.168e-009     
  -4.85           -1.387e-009     -5.3606e-005    8.569e-009     
  -4.9            -2.6319e-009    -5.3916e-005    1.0925e-008    
  -4.95           -2.2326e-009    -5.4233e-005    1.207e-009     
  -5              1.63e-010       -5.4575e-005    -1.0305e-008   
END_DB

BEGIN_DB
 ICCAP_VAR VS         0              
 ICCAP_VAR VB         0              
 ICCAP_VAR VD         -5             

 #VG              IG              ID              IB             
  0               1.2991e-009     1.3556e-009     6.519e-009     
  -0.05           -1.3946e-009    1.4668e-009     2.5091e-008    
  -0.1            -1.3754e-009    7.31e-011       1.17e-008      
  -0.15           -2.6329e-009    2.276e-010      1.3892e-008    
  -0.2            -1.0158e-009    -2.1812e-009    1.289e-009     
  -0.25           1.6142e-009     -1.7152e-009    -1.1411e-008   
  -0.3            8.198e-010      2.267e-009      -8.634e-009    
  -0.35           -1.8052e-009    1.5925e-009     1.5374e-008    
  -0.4            -2.5751e-009    -1.4358e-009    5.519e-009     
  -0.45           -1.759e-010     -3.1613e-009    -1.3187e-008   
  -0.5            -3.799e-010     -5.708e-009     -1.3276e-008   
  -0.55           -2.6466e-009    -1.3027e-008    -1.2958e-008   
  -0.6            -2.2768e-009    -4.0204e-008    2.019e-009     
  -0.65           1.5786e-009     -1.2199e-007    7.699e-009     
  -0.7            2.802e-009      -3.1215e-007    -1.75e-009     
  -0.75           1.9632e-009     -7.2408e-007    2.6821e-008    
  -0.8            -5.81e-011      -1.4902e-006    2.5724e-008    
  -0.85           4.147e-010      -2.7816e-006    6.4004e-008    
  -0.9            -1.4475e-009    -4.7263e-006    9.3169e-008    
  -0.95           1.6518e-009     -7.3921e-006    1.1209e-007    
  -1              1.3236e-009     -1.08493e-005   1.6073e-007    
  -1.05           1.886e-009      -1.4987e-005    2.2007e-007    
  -1.1            1.3675e-009     -1.9803e-005    2.6877e-007    
  -1.15           2.8721e-009     -2.5278e-005    3.2682e-007    
  -1.2            2.7809e-009     -3.1299e-005    3.9482e-007    
  -1.25           2.2492e-009     -3.7965e-005    4.5179e-007    
  -1.3            1.5431e-009     -4.5106e-005    5.029e-007     
  -1.35           2.8587e-009     -5.2706e-005    5.5526e-007    
  -1.4            2.852e-009      -6.0709e-005    6.1591e-007    
  -1.45           2.5663e-009     -6.9158e-005    6.6341e-007    
  -1.5            1.8597e-009     -7.8037e-005    7.0427e-007    
  -1.55           1.3586e-009     -8.7186e-005    7.4012e-007    
  -1.6            2.8614e-009     -9.6711e-005    7.7679e-007    
  -1.65           2.7615e-009     -0.000106426    8.176e-007     
  -1.7            2.7761e-009     -0.00011639     8.5542e-007    
  -1.75           2.306e-009      -0.00012676     8.6751e-007    
  -1.8            1.569e-009      -0.00013735     8.8207e-007    
  -1.85           2.823e-009      -0.00014829     8.9483e-007    
  -1.9            2.8313e-009     -0.0001592      9.1539e-007    
  -1.95           2.591e-009      -0.00017041     9.2042e-007    
  -2              1.9086e-009     -0.00018185     9.2126e-007    
  -2.05           1.3553e-009     -0.00019342     9.1457e-007    
  -2.1            2.8348e-009     -0.00020518     9.1053e-007    
  -2.15           2.7562e-009     -0.00021694     9.1227e-007    
  -2.2            2.2849e-009     -0.00022906     9.0127e-007    
  -2.25           1.5525e-009     -0.00024119     8.8339e-007    
  -2.3            2.8113e-009     -0.00025351     8.6629e-007    
  -2.35           2.8156e-009     -0.00026586     8.5918e-007    
  -2.4            2.5823e-009     -0.0002784      8.3778e-007    
  -2.45           1.9071e-009     -0.00029108     8.1396e-007    
  -2.5            1.3514e-009     -0.00030391     7.8643e-007    
  -2.55           2.8299e-009     -0.00031684     7.6218e-007    
  -2.6            2.7562e-009     -0.00032965     7.4618e-007    
  -2.65           2.2854e-009     -0.00034275     7.1931e-007    
  -2.7            1.5527e-009     -0.00035591     6.8844e-007    
  -2.75           2.807e-009      -0.00036921     6.5916e-007    
  -2.8            2.8186e-009     -0.00038235     6.4149e-007    
  -2.85           2.5788e-009     -0.00039563     6.1316e-007    
  -2.9            1.895e-009      -0.00040918     5.8244e-007    
  -2.95           1.3536e-009     -0.00042257     5.5078e-007    
  -3              2.8277e-009     -0.00043623     5.2382e-007    
  -3.05           2.754e-009      -0.00044961     5.0594e-007    
  -3.1            2.2828e-009     -0.00046329     4.7827e-007    
  -3.15           1.5549e-009     -0.00047712     4.4833e-007    
  -3.2            2.8127e-009     -0.00049104     4.2123e-007    
  -3.25           2.8198e-009     -0.00050482     4.0724e-007    
  -3.3            2.5799e-009     -0.00051867     3.819e-007     
  -3.35           1.9096e-009     -0.00053275     3.567e-007     
  -3.4            1.3537e-009     -0.00054673     3.299e-007     
  -3.45           2.829e-009      -0.00056089     3.0905e-007    
  -3.5            2.7588e-009     -0.00057476     2.9703e-007    
  -3.55           2.2898e-009     -0.00058897     2.767e-007     
  -3.6            1.5567e-009     -0.00060307     2.5355e-007    
  -3.65           2.8112e-009     -0.00061751     2.3382e-007    
  -3.7            2.8187e-009     -0.00063134     2.2712e-007    
  -3.75           2.5826e-009     -0.00064567     2.089e-007     
  -3.8            1.916e-009      -0.00066008     1.9168e-007    
  -3.85           1.3566e-009     -0.0006744      1.7238e-007    
  -3.9            2.827e-009      -0.00068877     1.5921e-007    
  -3.95           2.7629e-009     -0.000703       1.5523e-007    
  -4              2.2948e-009     -0.00071745     1.4206e-007    
  -4.05           1.5627e-009     -0.00073188     1.2657e-007    
  -4.1            2.812e-009      -0.00074635     1.137e-007     
  -4.15           2.8206e-009     -0.00076071     1.141e-007     
  -4.2            2.5628e-009     -0.00077503     1.0296e-007    
  -4.25           -2.317e-010     -0.00078948     7.328e-008     
  -4.3            -2.0838e-009    -0.000804       7.9557e-008    
  -4.35           -2.4733e-009    -0.00081845     7.3118e-008    
  -4.4            -2.7282e-009    -0.00083312     6.6782e-008    
  -4.45           -2.6981e-009    -0.00084742     6.4427e-008    
  -4.5            -2.5475e-009    -0.00086187     6.2145e-008    
  -4.55           -2.0313e-009    -0.00087656     5.8375e-008    
  -4.6            -1.4906e-009    -0.00089061     5.7199e-008    
  -4.65           -1.3861e-009    -0.00090517     5.5723e-008    
  -4.7            -2.6624e-009    -0.00091985     5.4185e-008    
  -4.75           -2.3368e-009    -0.00093436     4.0576e-008    
  -4.8            -1.7209e-009    -0.0009491      3.9112e-008    
  -4.85           -1.3974e-009    -0.00096367     3.8946e-008    
  -4.9            -1.3889e-009    -0.00097811     3.8845e-008    
  -4.95           -2.5577e-009    -0.0009928      3.8997e-008    
  -5              -2.0374e-009    -0.00100737     2.623e-008     
END_DB

BEGIN_DB
 ICCAP_VAR VS         0              
 ICCAP_VAR VB         2.5            
 ICCAP_VAR VD         -0.1           

 #VG              IG              ID              IB             
  0               -1.0536e-009    -1.0403e-009    -1.9413e-008   
  -0.05           -5.22e-010      -2.2314e-009    -1.3217e-008   
  -0.1            -7.208e-010     -2.2216e-009    -1.2479e-008   
  -0.15           -8.855e-010     -2.1995e-009    -1.0807e-008   
  -0.2            1.9183e-009     -1.6478e-009    -1.5568e-008   
  -0.25           1.6196e-009     1.818e-009      -8.451e-009    
  -0.3            1.7845e-009     1.549e-009      1.1806e-008    
  -0.35           3.522e-010      2.2566e-009     1.2759e-008    
  -0.4            5.375e-010      2.2894e-009     1.2665e-008    
  -0.45           7.139e-010      2.3013e-009     1.1534e-008    
  -0.5            8.755e-010      2.3016e-009     9.994e-009     
  -0.55           -1.731e-009     1.7252e-009     1.419e-008     
  -0.6            -1.7123e-009    -1.6358e-009    6.307e-009     
  -0.65           2.3048e-009     -1.5333e-009    -2.2018e-008   
  -0.7            1.3939e-009     2.0773e-009     -5.996e-009    
  -0.75           1.5639e-009     1.8756e-009     1.1058e-008    
  -0.8            9.39e-011       2.1663e-009     1.2035e-008    
  -0.85           -1.4047e-009    1.1477e-009     2.7653e-008    
  -0.9            -1.1439e-009    -2.1544e-009    8.927e-009     
  -0.95           1.4599e-009     -1.8118e-009    -1.0273e-008   
  -1              9.544e-010      2.2295e-009     -8.278e-009    
  -1.05           -1.3733e-009    1.2967e-009     9.255e-009     
  -1.1            -2.6172e-009    -2.135e-009     1.3517e-008    
  -1.15           -2.4998e-009    -6.337e-009     1.304e-009     
  -1.2            2.757e-009      -2.2355e-008    1.2351e-008    
  -1.25           1.4851e-009     -7.9074e-008    9.263e-009     
  -1.3            2.8346e-009     -2.3758e-007    -1.3164e-008   
  -1.35           -1.3792e-009    -5.7307e-007    2.7787e-008    
  -1.4            -2.4002e-009    -1.151e-006     -1.7325e-008   
  -1.45           -8.177e-010     -1.9672e-006    -1.3077e-008   
  -1.5            1.6284e-009     -2.9839e-006    -1.7595e-008   
  -1.55           2.8046e-009     -4.104e-006     -8.822e-009    
  -1.6            8.736e-010      -5.2749e-006    1.1973e-008    
  -1.65           -1.4786e-009    -6.4536e-006    1.4173e-008    
  -1.7            -1.3884e-009    -7.6312e-006    8.474e-009     
  -1.75           -2.643e-009     -8.7746e-006    1.0829e-008    
  -1.8            -2.2558e-009    -9.9099e-006    1.065e-009     
  -1.85           -9.107e-010     -1.1021e-005    -1.2573e-008   
  -1.9            2.8081e-009     -1.2073e-005    -1.308e-008    
  -1.95           8.657e-010      -1.309e-005     1.1952e-008    
  -2              -1.4768e-009    -1.4073e-005    1.4353e-008    
  -2.05           -1.3873e-009    -1.5033e-005    8.493e-009     
  -2.1            -2.6439e-009    -1.5966e-005    1.0885e-008    
  -2.15           -2.2824e-009    -1.6885e-005    1.065e-009     
  -2.2            -9.016e-010     -1.7778e-005    -1.2656e-008   
  -2.25           1.4832e-009     -1.8663e-005    -1.4718e-008   
  -2.3            2.8187e-009     -1.9493e-005    -8.335e-009    
  -2.35           2.0594e-009     -2.0312e-005    1.1574e-008    
  -2.4            8.888e-010      -2.111e-005     1.1805e-008    
  -2.45           -1.4576e-009    -2.1889e-005    1.3384e-008    
  -2.5            -1.3921e-009    -2.2652e-005    8.479e-009     
  -2.55           -2.6388e-009    -2.3393e-005    1.102e-008     
  -2.6            -2.2406e-009    -2.4138e-005    1.114e-009     
  -2.65           -1.6248e-009    -2.4851e-005    3.836e-009     
  -2.7            -1.3891e-009    -2.5557e-005    7.085e-009     
  -2.75           -1.3839e-009    -2.6241e-005    9.596e-009     
  -2.8            -2.5026e-009    -2.6916e-005    1.2596e-008    
  -2.85           -7.391e-010     -2.7592e-005    -1.329e-008    
  -2.9            1.7249e-009     -2.8258e-005    -1.9877e-008   
  -2.95           1.3103e-009     -2.8886e-005    -8.947e-009    
  -3              2.8307e-009     -2.9513e-005    -9.184e-009    
  -3.05           -1.3811e-009    -3.0103e-005    2.7882e-008    
  -3.1            -2.4783e-009    -3.0702e-005    1.31e-008      
  -3.15           -7.725e-010     -3.1309e-005    -1.3223e-008   
  -3.2            1.68e-009       -3.1909e-005    -1.8842e-008   
  -3.25           2.7876e-009     -3.247e-005     -8.737e-009    
  -3.3            8.294e-010      -3.3029e-005    1.2231e-008    
  -3.35           -1.4942e-009    -3.3583e-005    1.4835e-008    
  -3.4            -1.3909e-009    -3.4111e-005    8.166e-009     
  -3.45           -2.6657e-009    -3.4638e-005    1.0842e-008    
  -3.5            1.849e-009      -3.5183e-005    -2.2047e-008   
  -3.55           1.3332e-009     -3.5689e-005    -8.676e-009    
  -3.6            2.8262e-009     -3.6194e-005    -8.701e-009    
  -3.65           -1.3899e-009    -3.6683e-005    2.868e-008     
  -3.7            -2.5408e-009    -3.7168e-005    1.2176e-008    
  -3.75           -1.9847e-009    -3.7663e-005    1.498e-009     
  -3.8            -1.4686e-009    -3.8136e-005    5.17e-009      
  -3.85           -1.391e-009     -3.8596e-005    8.406e-009     
  -3.9            -2.6568e-009    -3.9061e-005    1.0807e-008    
  -3.95           1.7947e-009     -3.9522e-005    -2.0793e-008   
  -4              1.3258e-009     -3.9965e-005    -8.891e-009    
  -4.05           2.8293e-009     -4.0403e-005    -8.793e-009    
  -4.1            -1.387e-009     -4.081e-005     2.8428e-008    
  -4.15           -2.5157e-009    -4.1238e-005    1.2677e-008    
