! VERSION = 6.00
BEGIN_HEADER
 ICCAP_INPUTS
  VG         V  B GROUND SMU4 0.001 LIN        1    0          -5         101  -0.05     
  VS         V  E GROUND SMU2 0.1 CON        0
  VB         V  C GROUND SMU3 0.1 LIN        3    0          5          3    2.5       
  VD         V  S GROUND SMU1 0.1 LIN        2    -0.1       -5         2    -4.9      
 ICCAP_OUTPUTS
  IG         I  B GROUND SMU4 B
  ID         I  S GROUND SMU1 B
  IB         I  C GROUND SMU3 B
END_HEADER

BEGIN_DB
 ICCAP_VAR VS         0              
 ICCAP_VAR VB         0              
 ICCAP_VAR VD         -0.1           

 #VG              IG              ID              IB             
  0               1.0463e-009     9.927e-010      1.5089e-008    
  -0.05           1.1195e-009     2.2818e-009     -2.532e-009    
  -0.1            1.302e-009      2.1381e-009     1.2237e-008    
  -0.15           -1.484e-010     1.9955e-009     1.0884e-008    
  -0.2            3.29e-011       2.0821e-009     1.0568e-008    
  -0.25           2.27e-010       2.1877e-009     1.0682e-008    
  -0.3            4.328e-010      2.2555e-009     1.1091e-008    
  -0.35           6.419e-010      2.2669e-009     1.1341e-008    
  -0.4            -1.3959e-009    1.1052e-009     1.1004e-008    
  -0.45           -2.7405e-009    -1.8114e-009    8.353e-009     
  -0.5            2.91e-011       -4.6413e-009    -1.1335e-008   
  -0.55           -1.415e-010     -1.0423e-008    -1.102e-008    
  -0.6            2.8873e-009     -2.4257e-008    2.1236e-008    
  -0.65           2.8058e-009     -6.9766e-008    4.81e-010      
  -0.7            -6.426e-010     -1.7521e-007    8.191e-009     
  -0.75           1.8198e-009     -3.7595e-007    -2.0743e-008   
  -0.8            1.3567e-009     -6.8258e-007    -9.178e-009    
  -0.85           2.8912e-009     -1.12431e-006   -9.849e-009    
  -0.9            1.9338e-009     -1.6728e-006    9.136e-009     
  -0.95           7.692e-010      -2.3064e-006    1.1181e-008    
  -1              1.1672e-009     -3.0265e-006    1.0598e-008    
  -1.05           1.6081e-009     -3.7777e-006    1.2373e-008    
  -1.1            2.0637e-009     -4.5277e-006    1.1953e-008    
  -1.15           8.921e-010      -5.2821e-006    1.1104e-008    
  -1.2            1.2914e-009     -6.0515e-006    1.0864e-008    
  -1.25           9.18e-011       -6.7742e-006    1.0927e-008    
  -1.3            5.697e-010      -7.5096e-006    1.0797e-008    
  -1.35           1.0027e-009     -8.236e-006     1.0973e-008    
  -1.4            1.4191e-009     -8.9464e-006    1.1695e-008    
  -1.45           1.8796e-009     -9.6303e-006    1.2598e-008    
  -1.5            7.071e-010      -1.02839e-005   1.1146e-008    
  -1.55           1.1196e-009     -1.09449e-005   1.0852e-008    
  -1.6            -2.5324e-009    -1.1565e-005    1.1071e-008    
  -1.65           -6.482e-010     -1.219e-005     -1.121e-008    
  -1.7            1.799e-009      -1.2805e-005    -2.0425e-008   
  -1.75           1.35e-009       -1.3392e-005    -9.062e-009    
  -1.8            2.8961e-009     -1.3968e-005    -9.864e-009    
  -1.85           2.631e-009      -1.4536e-005    -2.45e-010     
  -1.9            1.9792e-009     -1.5087e-005    -2.889e-009    
  -1.95           1.4287e-009     -1.5626e-005    -8.822e-009    
  -2              2.8959e-009     -1.6154e-005    -9.356e-009    
  -2.05           2.7585e-009     -1.6665e-005    1.39e-010      
  -2.1            1.5203e-009     -1.7176e-005    1.2226e-008    
  -2.15           3.444e-010      -1.7652e-005    1.0534e-008    
  -2.2            8.106e-010      -1.8137e-005    1.1267e-008    
  -2.25           1.2076e-009     -1.8617e-005    1.0759e-008    
  -2.3            1.6507e-009     -1.9082e-005    1.1416e-008    
  -2.35           2.1045e-009     -1.9533e-005    1.219e-008     
  -2.4            9.304e-010      -1.9975e-005    1.1366e-008    
  -2.45           1.3315e-009     -2.0421e-005    1.1178e-008    
  -2.5            1.3e-010        -2.0836e-005    1.087e-008     
  -2.55           6.177e-010      -2.1258e-005    1.0966e-008    
  -2.6            1.0439e-009     -2.1675e-005    1.0972e-008    
  -2.65           1.4683e-009     -2.2087e-005    1.1925e-008    
  -2.7            2.722e-010      -2.247e-005     1.0532e-008    
  -2.75           7.564e-010      -2.2865e-005    1.1129e-008    
  -2.8            1.1593e-009     -2.3255e-005    1.0655e-008    
  -2.85           1.599e-009      -2.3635e-005    1.2362e-008    
  -2.9            2.045e-009      -2.4003e-005    1.2105e-008    
  -2.95           8.795e-010      -2.4363e-005    1.1335e-008    
  -3              1.2754e-009     -2.4725e-005    1.0679e-008    
  -3.05           7.34e-011       -2.5067e-005    1.1012e-008    
  -3.1            5.609e-010      -2.5419e-005    1.0824e-008    
  -3.15           9.935e-010      -2.5762e-005    1.1217e-008    
  -3.2            1.4077e-009     -2.6103e-005    1.113e-008     
  -3.25           1.8653e-009     -2.6431e-005    1.2401e-008    
  -3.3            6.927e-010      -2.6745e-005    1.1099e-008    
  -3.35           1.1042e-009     -2.7071e-005    1.1071e-008    
  -3.4            1.536e-009      -2.7384e-005    1.1313e-008    
  -3.45           3.506e-010      -2.7687e-005    1.057e-008     
  -3.5            8.256e-010      -2.7995e-005    1.1284e-008    
  -3.55           1.2244e-009     -2.8296e-005    1.0699e-008    
  -3.6            1.91e-011       -2.8584e-005    1.1245e-008    
  -3.65           4.97e-010       -2.8873e-005    1.062e-008     
  -3.7            9.466e-010      -2.9161e-005    1.1388e-008    
  -3.75           1.3471e-009     -2.9454e-005    1.0966e-008    
  -3.8            1.8028e-009     -2.9728e-005    1.2219e-008    
  -3.85           6.383e-010      -2.9995e-005    1.0956e-008    
  -3.9            1.0573e-009     -3.0268e-005    1.111e-008     
  -3.95           -1.54e-010      -3.0541e-005    1.1961e-008    
  -4              2.937e-010      -3.0792e-005    1.0568e-008    
  -4.05           7.711e-010      -3.1056e-005    1.1177e-008    
  -4.1            1.1714e-009     -3.1299e-005    1.0836e-008    
  -4.15           1.6173e-009     -3.1563e-005    1.1328e-008    
  -4.2            2.0672e-009     -3.1801e-005    1.2245e-008    
  -4.25           9.045e-010      -3.2043e-005    1.1402e-008    
  -4.3            1.3002e-009     -3.2284e-005    1.0792e-008    
  -4.35           9.75e-011       -3.2516e-005    1.0842e-008    
  -4.4            5.902e-010      -3.2749e-005    1.091e-008     
  -4.45           1.0168e-009     -3.2976e-005    1.1266e-008    
  -4.5            -1.929e-010     -3.3214e-005    1.2194e-008    
  -4.55           2.436e-010      -3.3421e-005    1.0714e-008    
  -4.6            7.254e-010      -3.3638e-005    1.1172e-008    
  -4.65           1.1312e-009     -3.3846e-005    1.0935e-008    
  -4.7            1.57e-009       -3.4071e-005    1.1294e-008    
  -4.75           3.901e-010      -3.4271e-005    1.0624e-008    
  -4.8            8.591e-010      -3.4477e-005    1.1056e-008    
  -4.85           1.259e-009      -3.469e-005     1.0733e-008    
  -4.9            5.66e-011       -3.4889e-005    1.1097e-008    
  -4.95           5.441e-010      -3.5083e-005    1.0812e-008    
  -5              9.788e-010      -3.5284e-005    1.096e-008     
END_DB

BEGIN_DB
 ICCAP_VAR VS         0              
 ICCAP_VAR VB         0              
 ICCAP_VAR VD         -5             

 #VG              IG              ID              IB             
  0               -1.454e-009     -1.6763e-009    -7.601e-009    
  -0.05           1.06e-011       -2.4035e-009    -1.124e-008    
  -0.1            -1.634e-010     -3.2186e-009    -1.0932e-008   
  -0.15           -3.886e-010     -5.1862e-009    -1.1288e-008   
  -0.2            1.2773e-009     -9.6781e-009    -2.4998e-008   
  -0.25           -1.5823e-009    -2.2657e-008    -1.3798e-008   
  -0.3            -1.4086e-009    -5.5788e-008    9.468e-009     
  -0.35           -1.5648e-009    -1.3329e-007    1.5592e-008    
  -0.4            -1.4041e-009    -2.9731e-007    1.4625e-008    
  -0.45           -1.338e-009     -6.0993e-007    2.1226e-008    
  -0.5            -2.2728e-009    -1.1537e-006    5.479e-009     
  -0.55           -1.6788e-009    -1.9953e-006    3.9851e-008    
  -0.6            -1.4176e-009    -3.1853e-006    6.3534e-008    
  -0.65           -1.3344e-009    -4.7594e-006    9.0307e-008    
  -0.7            1.274e-009      -6.7695e-006    1.0384e-007    
  -0.75           2.7256e-009     -9.212e-006     1.2771e-007    
  -0.8            -2.6335e-009    -1.1913e-005    1.887e-007     
  -0.85           -2.1892e-009    -1.5029e-005    2.1509e-007    
  -0.9            -1.6053e-009    -1.8521e-005    2.5626e-007    
  -0.95           -1.3813e-009    -2.2364e-005    3.0094e-007    
  -1              -1.3063e-009    -2.652e-005     3.4294e-007    
  -1.05           -2.3389e-009    -3.0915e-005    3.8369e-007    
  -1.1            -1.7252e-009    -3.5687e-005    4.1472e-007    
  -1.15           -1.4081e-009    -4.0646e-005    4.5705e-007    
  -1.2            -1.3247e-009    -4.5857e-005    4.987e-007     
  -1.25           -2.4636e-009    -5.1326e-005    5.326e-007     
  -1.3            -1.8608e-009    -5.7018e-005    5.5887e-007    
  -1.35           -1.462e-009     -6.2857e-005    5.9411e-007    
  -1.4            -1.3529e-009    -6.8893e-005    6.2755e-007    
  -1.45           -2.5774e-009    -7.5138e-005    6.5354e-007    
  -1.5            -2.0332e-009    -8.1552e-005    6.7166e-007    
  -1.55           -1.5301e-009    -8.8068e-005    6.9681e-007    
  -1.6            -1.38e-009      -9.4743e-005    7.2137e-007    
  -1.65           -2.6572e-009    -0.000101528    7.3868e-007    
  -1.7            -2.1923e-009    -0.000108511    7.4565e-007    
  -1.75           -1.3853e-009    -0.00011543     7.5137e-007    
  -1.8            -2.6496e-009    -0.00012257     7.7592e-007    
  -1.85           -2.1788e-009    -0.00013005     7.748e-007     
  -1.9            -1.6093e-009    -0.00013737     7.8369e-007    
  -1.95           -1.4105e-009    -0.00014478     7.9097e-007    
  -2              -1.3422e-009    -0.0001523      7.936e-007     
  -2.05           -2.3362e-009    -0.00015988     7.9368e-007    
  -2.1            -1.7217e-009    -0.00016763     7.8287e-007    
  -2.15           -1.44e-009      -0.00017539     7.8046e-007    
  -2.2            -1.3609e-009    -0.00018315     7.7581e-007    
  -2.25           -2.4717e-009    -0.00019101     7.6838e-007    
  -2.3            -1.8608e-009    -0.00019898     7.4899e-007    
  -2.35           -1.4807e-009    -0.00020696     7.4112e-007    
  -2.4            -1.3807e-009    -0.00021504     7.3106e-007    
  -2.45           -2.577e-009     -0.00022308     7.172e-007     
  -2.5            -2.0112e-009    -0.00023134     6.9471e-007    
  -2.55           -1.5314e-009    -0.00023951     6.8114e-007    
  -2.6            -1.3957e-009    -0.00024774     6.6835e-007    
  -2.65           -2.6603e-009    -0.00025601     6.4945e-007    
  -2.7            -2.1784e-009    -0.00026443     6.2349e-007    
  -2.75           -1.6136e-009    -0.00027279     6.082e-007     
  -2.8            -1.4177e-009    -0.00028112     5.9382e-007    
  -2.85           -1.349e-009     -0.00028963     5.7558e-007    
  -2.9            -2.3469e-009    -0.00029802     5.5743e-007    
  -2.95           -1.7263e-009    -0.00030661     5.3043e-007    
  -3              -1.4411e-009    -0.00031508     5.1505e-007    
  -3.05           -1.364e-009     -0.00032361     4.9815e-007    
  -3.1            -2.4769e-009    -0.0003322      4.7846e-007    
  -3.15           -1.8659e-009    -0.0003408      4.5282e-007    
  -3.2            -1.4795e-009    -0.00034943     4.372e-007     
  -3.25           -1.3788e-009    -0.00035807     4.2243e-007    
  -3.3            -2.5814e-009    -0.00036672     4.0343e-007    
  -3.35           -2.0147e-009    -0.0003755      3.7879e-007    
  -3.4            -1.5307e-009    -0.00038421     3.6455e-007    
  -3.45           -1.397e-009     -0.00039287     3.5193e-007    
  -3.5            -2.659e-009     -0.00040164     3.3485e-007    
  -3.55           -2.1801e-009    -0.00041038     3.1122e-007    
  -3.6            -1.6159e-009    -0.00041925     2.9865e-007    
  -3.65           -1.4141e-009    -0.00042803     2.8807e-007    
  -3.7            -1.3503e-009    -0.00043674     2.7469e-007    
  -3.75           -2.3478e-009    -0.0004456      2.6194e-007    
  -3.8            -1.7286e-009    -0.00045464     2.4107e-007    
  -3.85           -1.4397e-009    -0.00046335     2.3227e-007    
  -3.9            -1.362e-009     -0.00047227     2.2204e-007    
  -3.95           -2.465e-009     -0.00048099     2.0988e-007    
  -4              -1.8469e-009    -0.00048987     1.9192e-007    
  -4.05           -1.4738e-009    -0.00049874     1.8493e-007    
  -4.1            -1.3744e-009    -0.00050759     1.7781e-007    
  -4.15           -2.5737e-009    -0.00051641     1.6693e-007    
  -4.2            -2.0027e-009    -0.00052545     1.508e-007     
  -4.25           -1.52e-009      -0.0005342      1.4543e-007    
  -4.3            -1.3894e-009    -0.00054304     1.4146e-007    
  -4.35           -2.65e-009      -0.00055196     1.3303e-007    
  -4.4            -2.156e-009     -0.000561       1.178e-007     
  -4.45           -1.6041e-009    -0.00056981     1.1344e-007    
  -4.5            -1.4093e-009    -0.00057866     1.1152e-007    
  -4.55           -1.35e-009      -0.00058745     1.0602e-007    
  -4.6            -2.318e-009     -0.00059629     1.0175e-007    
  -4.65           1.609e-009      -0.00060551     6.4052e-008    
  -4.7            1.2879e-009     -0.00061445     7.055e-008     
  -4.75           2.8542e-009     -0.00062323     6.3281e-008    
  -4.8            2.4526e-009     -0.00063206     6.9156e-008    
  -4.85           1.7304e-009     -0.00064089     6.0696e-008    
  -4.9            1.3235e-009     -0.00064977     5.2154e-008    
  -4.95           2.8801e-009     -0.00065847     4.7362e-008    
  -5              2.5918e-009     -0.00066737     5.3265e-008    
END_DB

BEGIN_DB
 ICCAP_VAR VS         0              
 ICCAP_VAR VB         2.5            
 ICCAP_VAR VD         -0.1           

 #VG              IG              ID              IB             
  0               -9.038e-010     -9.022e-010     -1.1505e-008   
  -0.05           -1.8205e-009    -1.4541e-009    8.411e-009     
  -0.1            -4.824e-010     -2.2581e-009    -1.1429e-008   
  -0.15           2.4112e-009     -1.486e-009     -2.3877e-008   
  -0.2            1.343e-009      2.1247e-009     -5.436e-009    
  -0.25           -1.107e-010     2.0129e-009     1.0692e-008    
  -0.3            8.3e-011        2.1154e-009     1.0552e-008    
  -0.35           2.982e-010      2.2318e-009     1.0894e-008    
  -0.4            5.231e-010      2.3128e-009     1.1171e-008    
  -0.45           7.409e-010      2.3545e-009     1.1142e-008    
  -0.5            9.339e-010      2.3467e-009     1.0729e-008    
  -0.55           1.1042e-009     2.2856e-009     1.1185e-008    
  -0.6            1.2925e-009     2.1495e-009     1.2135e-008    
  -0.65           -1.546e-010     1.9909e-009     1.0879e-008    
  -0.7            4.2e-011        2.0836e-009     1.048e-008     
  -0.75           2.452e-010      2.1787e-009     1.0762e-008    
  -0.8            4.712e-010      2.1782e-009     1.1269e-008    
  -0.85           -1.4183e-009    7.226e-010      1.1564e-008    
  -0.9            -2.7641e-009    -3.1584e-009    9.004e-009     
  -0.95           1.286e-010      -9.1398e-009    -1.1585e-008   
  -1              2.7765e-009     -2.4138e-008    1.5817e-008    
  -1.05           1.8917e-009     -7.616e-008     1.2506e-008    
  -1.1            2.8017e-009     -1.9927e-007    -1.133e-008    
  -1.15           1.9326e-009     -4.3114e-007    1.2598e-008    
  -1.2            7.795e-010      -7.8901e-007    1.1269e-008    
  -1.25           -2.6018e-009    -1.2768e-006    -2.4416e-008   
  -1.3            -2.0532e-009    -1.8743e-006    1.093e-009     
  -1.35           -2.7108e-009    -2.5561e-006    -5.95e-009     
  -1.4            1.693e-010      -3.2902e-006    -1.3145e-008   
  -1.45           -2.446e-010     -4.0197e-006    -1.1072e-008   
  -1.5            -7.743e-010     -4.7454e-006    -1.1536e-008   
  -1.55           1.6383e-009     -5.4794e-006    -1.8082e-008   
  -1.6            1.2925e-009     -6.1814e-006    -9.049e-009    
  -1.65           2.8625e-009     -6.8745e-006    -1.0985e-008   
  -1.7            1.3493e-009     -7.5453e-006    1.0882e-008    
  -1.75           1.816e-009      -8.1959e-006    1.2353e-008    
  -1.8            6.572e-010      -8.8145e-006    1.1083e-008    
  -1.85           1.0789e-009     -9.4467e-006    1.1187e-008    
  -1.9            1.5202e-009     -1.00532e-005   1.1111e-008    
  -1.95           3.4e-010        -1.06185e-005   1.0405e-008    
  -2              8.266e-010      -1.11922e-005   1.1467e-008    
  -2.05           -2.7652e-009    -1.174e-005     1.1449e-008    
  -2.1            -2.74e-011      -1.2292e-005    -1.1625e-008   
  -2.15           -5.352e-010     -1.2814e-005    -1.0936e-008   
  -2.2            -9.917e-010     -1.3344e-005    -1.1677e-008   
  -2.25           1.908e-010      -1.3848e-005    -1.3572e-008   
  -2.3            -1.959e-010     -1.4329e-005    -1.0946e-008   
  -2.35           -7.314e-010     -1.4807e-005    -1.1522e-008   
  -2.4            1.6917e-009     -1.5291e-005    -1.9129e-008   
  -2.45           1.2999e-009     -1.5745e-005    -9.157e-009    
  -2.5            2.877e-009      -1.6201e-005    -1.0484e-008   
  -2.55           1.3137e-009     -1.6649e-005    1.0755e-008    
  -2.6            1.099e-010      -1.7069e-005    1.0618e-008    
  -2.65           6.14e-010       -1.7502e-005    1.0928e-008    
  -2.7            1.0525e-009     -1.7925e-005    1.1286e-008    
  -2.75           -1.58e-010      -1.8335e-005    1.1735e-008    
  -2.8            -1.4374e-009    -1.8727e-005    2.5537e-008    
  -2.85           -1.3609e-009    -1.9129e-005    9.133e-009     
  -2.9            -2.4582e-009    -1.9514e-005    9.14e-009      
  -2.95           -7.662e-010     -1.9908e-005    -1.1517e-008   
  -3              1.6394e-009     -2.0295e-005    -1.8167e-008   
  -3.05           1.2892e-009     -2.0655e-005    -9.118e-009    
  -3.1            2.8627e-009     -2.1018e-005    -1.0824e-008   
  -3.15           1.3479e-009     -2.1375e-005    1.112e-008     
  -3.2            1.442e-010      -2.1716e-005    1.0529e-008    
  -3.25           6.581e-010      -2.206e-005     1.1078e-008    
  -3.3            1.0782e-009     -2.2408e-005    1.112e-008     
  -3.35           1.5273e-009     -2.2743e-005    1.1156e-008    
  -3.4            3.331e-010      -2.3063e-005    1.0385e-008    
  -3.45           8.254e-010      -2.339e-005     1.145e-008     
  -3.5            1.235e-009      -2.3711e-005    1.0766e-008    
  -3.55           2.45e-011       -2.4015e-005    1.0819e-008    
  -3.6            5.197e-010      -2.4325e-005    1.0563e-008    
  -3.65           9.8e-010        -2.4622e-005    1.1228e-008    
  -3.7            1.4051e-009     -2.4922e-005    1.1594e-008    
  -3.75           1.862e-009      -2.522e-005     1.2424e-008    
  -3.8            7.077e-010      -2.5504e-005    1.1153e-008    
  -3.85           1.1267e-009     -2.579e-005     1.0899e-008    
  -3.9            1.5708e-009     -2.6068e-005    1.2188e-008    
  -3.95           3.884e-010      -2.6336e-005    1.0404e-008    
  -4              8.694e-010      -2.661e-005     1.1197e-008    
  -4.05           1.2867e-009     -2.6876e-005    1.0796e-008    
  -4.1            7.33e-011       -2.7137e-005    1.0652e-008    
  -4.15           5.78e-010       -2.7397e-005    1.0879e-008    
