! VERSION = 6.00
BEGIN_HEADER
 ICCAP_INPUTS
  VG         V  B GROUND SMU4 0.001 LIN        1    0          -5         101  -0.05     
  VS         V  E GROUND SMU2 0.1 CON        0
  VB         V  C GROUND SMU3 0.1 LIN        3    0          5          3    2.5       
  VD         V  S GROUND SMU1 0.1 LIN        2    -0.1       -5         2    -4.9      
 ICCAP_OUTPUTS
  IG         I  B GROUND SMU4 B
  ID         I  S GROUND SMU1 B
  IB         I  C GROUND SMU3 B
END_HEADER

BEGIN_DB
 ICCAP_VAR VS         0              
 ICCAP_VAR VB         0              
 ICCAP_VAR VD         -0.1           

 #VG              IG              ID              IB             
  0               2.8468e-009     -7.102e-010     -2.6155e-008   
  -0.05           1.4336e-009     2.0701e-009     1.1656e-008    
  -0.1            1.6103e-009     1.8652e-009     1.2358e-008    
  -0.15           1.779e-009      1.6317e-009     1.2558e-008    
  -0.2            1.9e-011        2.1551e-009     1.1731e-008    
  -0.25           2.057e-010      2.2382e-009     1.2448e-008    
  -0.3            4.001e-010      2.2906e-009     1.2661e-008    
  -0.35           5.946e-010      2.3089e-009     1.2268e-008    
  -0.4            7.585e-010      2.2958e-009     1.0913e-008    
  -0.45           9.232e-010      2.2027e-009     9.727e-009     
  -0.5            -1.4039e-009    1.122e-009      9.328e-009     
  -0.55           -2.6603e-009    -2.4376e-009    1.1062e-008    
  -0.6            2.2863e-009     -7.1628e-009    -2.2014e-008   
  -0.65           -1.4775e-009    -1.9307e-008    -1.0415e-008   
  -0.7            -1.4104e-009    -5.7504e-008    8.439e-009     
  -0.75           9.674e-010      -1.5868e-007    -1.9733e-008   
  -0.8            1.3498e-009     -4.0608e-007    9.109e-009     
  -0.85           1.7768e-009     -8.9915e-007    1.1085e-008    
  -0.9            -1.3933e-009    -1.7121e-006    -1.1714e-008   
  -0.95           -2.4295e-009    -2.9611e-006    1.2245e-008    
  -1              -8.094e-010     -4.6229e-006    -1.2975e-008   
  -1.05           1.6456e-009     -6.5935e-006    -1.8738e-008   
  -1.1            2.838e-009      -8.717e-006     -8.908e-009    
  -1.15           8.778e-010      -1.0922e-005    1.2112e-008    
  -1.2            -2.6735e-009    -1.3183e-005    9.702e-009     
  -1.25           1.9178e-009     -1.5487e-005    -2.3636e-008   
  -1.3            1.3575e-009     -1.7733e-005    -8.595e-009    
  -1.35           2.8611e-009     -1.9947e-005    -8.967e-009    
  -1.4            1.1132e-009     -2.2105e-005    1.0148e-008    
  -1.45           1.5185e-009     -2.4255e-005    9.479e-009     
  -1.5            2.97e-010       -2.6246e-005    1.1617e-008    
  -1.55           7.608e-010      -2.8257e-005    1.2778e-008    
  -1.6            1.1465e-009     -3.0232e-005    9.724e-009     
  -1.65           1.5497e-009     -3.2164e-005    1.0684e-008    
  -1.7            3.426e-010      -3.3952e-005    1.1802e-008    
  -1.75           7.97e-010       -3.5762e-005    1.2481e-008    
  -1.8            1.1795e-009     -3.7539e-005    9.591e-009     
  -1.85           1.5923e-009     -3.93e-005      1.0948e-008    
  -1.9            3.866e-010      -4.0913e-005    1.2172e-008    
  -1.95           8.345e-010      -4.2551e-005    1.2322e-008    
  -2              -1.5314e-009    -4.4136e-005    1.5756e-008    
  -2.05           -1.4065e-009    -4.5673e-005    8.065e-009     
  -2.1            -1.3857e-009    -4.7187e-005    9.843e-009     
  -2.15           -2.3907e-009    -4.8664e-005    1.3063e-008    
  -2.2            2.275e-010      -5.0197e-005    -1.215e-008    
  -2.25           1.4427e-009     -5.1591e-005    -2.0934e-008   
  -2.3            2.8613e-009     -5.2979e-005    -8.466e-009    
  -2.35           2.1452e-009     -5.4336e-005    1.2065e-008    
  -2.4            9.459e-010      -5.5659e-005    1.151e-008     
  -2.45           1.3349e-009     -5.6995e-005    9.352e-009     
  -2.5            1.7611e-009     -5.8284e-005    1.2049e-008    
  -2.55           2.1799e-009     -5.9516e-005    1.2039e-008    
  -2.6            9.817e-010      -6.0753e-005    1.1186e-008    
  -2.65           1.3658e-009     -6.1983e-005    9.518e-009     
  -2.7            1.7988e-009     -6.3185e-005    1.213e-008     
  -2.75           6.057e-010      -6.4324e-005    1.2703e-008    
  -2.8            1.0164e-009     -6.5477e-005    1.1178e-008    
  -2.85           1.4026e-009     -6.663e-005     9.05e-009      
  -2.9            1.8336e-009     -6.7741e-005    1.1835e-008    
  -2.95           6.495e-010      -6.8805e-005    1.2713e-008    
  -3              1.0477e-009     -6.9891e-005    1.0644e-008    
  -3.05           1.4409e-009     -7.0961e-005    9.185e-009     
  -3.1            1.8689e-009     -7.2002e-005    1.2266e-008    
  -3.15           6.883e-010      -7.3003e-005    1.2626e-008    
  -3.2            1.0815e-009     -7.402e-005     1.0119e-008    
  -3.25           1.4745e-009     -7.5028e-005    1.0018e-008    
  -3.3            1.8982e-009     -7.6e-005       1.268e-008     
  -3.35           7.229e-010      -7.6936e-005    1.2601e-008    
  -3.4            1.1104e-009     -7.7894e-005    9.912e-009     
  -3.45           1.5135e-009     -7.8836e-005    1.0433e-008    
  -3.5            3.018e-010      -7.9727e-005    1.1574e-008    
  -3.55           7.651e-010      -8.0641e-005    1.271e-008     
  -3.6            1.1489e-009     -8.1531e-005    9.902e-009     
  -3.65           1.5591e-009     -8.2433e-005    9.618e-009     
  -3.7            3.418e-010      -8.3265e-005    1.1801e-008    
  -3.75           7.983e-010      -8.4141e-005    1.2672e-008    
  -3.8            1.181e-009      -8.4986e-005    9.718e-009     
  -3.85           1.5959e-009     -8.5824e-005    9.882e-009     
  -3.9            3.872e-010      -8.6607e-005    1.2015e-008    
  -3.95           8.375e-010      -8.7415e-005    1.2593e-008    
  -4              -1.5252e-009    -8.8234e-005    1.5232e-008    
  -4.05           -1.4076e-009    -8.8991e-005    8.081e-009     
  -4.1            -1.3837e-009    -8.9749e-005    9.769e-009     
  -4.15           -2.3656e-009    -9.05e-005      1.3339e-008    
  -4.2            2.167e-010      -9.1332e-005    -1.168e-008    
  -4.25           1.4297e-009     -9.2023e-005    -2.1059e-008   
  -4.3            2.8614e-009     -9.2749e-005    -8.411e-009    
  -4.35           2.8077e-009     -9.3459e-005    1.87e-010      
  -4.4            1.4362e-009     -9.4187e-005    9.145e-009     
  -4.45           1.866e-009      -9.4883e-005    1.2209e-008    
  -4.5            6.88e-010       -9.5562e-005    1.2692e-008    
  -4.55           1.084e-009      -9.6249e-005    1.0443e-008    
  -4.6            1.4744e-009     -9.693e-005     9.369e-009     
  -4.65           1.9042e-009     -9.7588e-005    1.265e-008     
  -4.7            7.251e-010      -9.8225e-005    1.2575e-008    
  -4.75           1.1146e-009     -9.8882e-005    9.887e-009     
  -4.8            1.5205e-009     -9.9524e-005    1.0384e-008    
  -4.85           3.063e-010      -0.000100133    1.1547e-008    
  -4.9            7.63e-010       -0.000100757    1.2512e-008    
  -4.95           1.1482e-009     -0.000101371    9.664e-009     
  -5              1.5627e-009     -0.000101986    1.0903e-008    
END_DB

BEGIN_DB
 ICCAP_VAR VS         0              
 ICCAP_VAR VB         0              
 ICCAP_VAR VD         -5             

 #VG              IG              ID              IB             
  0               -1.4573e-009    -1.6039e-009    -7.335e-009    
  -0.05           2.6646e-009     -1.3784e-009    -2.7706e-008   
  -0.1            1.1795e-009     2.2772e-009     -2.645e-009    
  -0.15           1.3395e-009     2.1642e-009     9.785e-009     
  -0.2            1.5064e-009     1.9941e-009     1.1223e-008    
  -0.25           3e-013          2.1436e-009     1.1487e-008    
  -0.3            -1.4477e-009    1.0676e-009     2.7039e-008    
  -0.35           -1.9396e-009    -1.4502e-009    8.474e-009     
  -0.4            -6.419e-010     -2.7502e-009    -1.3029e-008   
  -0.45           -8.303e-010     -3.9634e-009    -1.1458e-008   
  -0.5            2.0666e-009     -7.7288e-009    -1.7874e-008   
  -0.55           -1.8843e-009    -2.0796e-008    -1.8952e-008   
  -0.6            -1.4502e-009    -6.1163e-008    6.412e-009     
  -0.65           7.719e-010      -1.6855e-007    -1.5674e-008   
  -0.7            1.1521e-009     -4.4595e-007    1.7033e-008    
  -0.75           1.5683e-009     -1.07247e-006   2.7342e-008    
  -0.8            -1.7018e-009    -2.2433e-006    2.7064e-008    
  -0.85           -1.3952e-009    -4.3272e-006    6.8427e-008    
  -0.9            -1.083e-010     -7.651e-006     1.01851e-007   
  -0.95           2.8841e-009     -1.2194e-005    1.6248e-007    
  -1              2.7789e-009     -1.8092e-005    2.2088e-007    
  -1.05           2.2342e-009     -2.5359e-005    2.9115e-007    
  -1.1            1.5348e-009     -3.386e-005     3.6292e-007    
  -1.15           1.3388e-009     -4.3543e-005    4.4254e-007    
  -1.2            2.8847e-009     -5.4411e-005    5.2083e-007    
  -1.25           2.5673e-009     -6.6036e-005    6.1274e-007    
  -1.3            1.8371e-009     -7.8786e-005    6.8924e-007    
  -1.35           1.3696e-009     -9.2362e-005    7.6123e-007    
  -1.4            2.9026e-009     -0.000106778    8.3418e-007    
  -1.45           2.8854e-009     -0.00012171     9.2444e-007    
  -1.5            2.8837e-009     -0.00013749     9.7646e-007    
  -1.55           2.6492e-009     -0.00015386     1.03183e-006   
  -1.6            1.9516e-009     -0.00017098     1.08181e-006   
  -1.65           2.8643e-009     -0.00018869     1.1228e-006    
  -1.7            2.5464e-009     -0.00020652     1.1717e-006    
  -1.75           1.8098e-009     -0.00022506     1.2023e-006    
  -1.8            1.3431e-009     -0.00024403     1.2234e-006    
  -1.85           2.869e-009      -0.00026367     1.2484e-006    
  -1.9            2.7529e-009     -0.00028321     1.2721e-006    
  -1.95           2.1909e-009     -0.00030338     1.2809e-006    
  -2              1.4829e-009     -0.00032375     1.2821e-006    
  -2.05           2.8558e-009     -0.00034449     1.2788e-006    
  -2.1            2.8368e-009     -0.0003653      1.2832e-006    
  -2.15           2.5167e-009     -0.0003866      1.2728e-006    
  -2.2            1.7675e-009     -0.00040817     1.2573e-006    
  -2.25           1.3196e-009     -0.00042996     1.2348e-006    
  -2.3            2.8577e-009     -0.00045196     1.2146e-006    
  -2.35           2.7292e-009     -0.0004739      1.1995e-006    
  -2.4            2.1581e-009     -0.00049637     1.1721e-006    
  -2.45           1.4595e-009     -0.00051897     1.1393e-006    
  -2.5            2.8502e-009     -0.00054177     1.1054e-006    
  -2.55           2.8237e-009     -0.00056444     1.0824e-006    
  -2.6            2.4921e-009     -0.00058763     1.0456e-006    
  -2.65           -2.6949e-009    -0.00061055     1.00428e-006   
  -2.7            -2.7307e-009    -0.00063393     9.694e-007     
  -2.75           -2.6343e-009    -0.00065752     9.3604e-007    
  -2.8            -2.2137e-009    -0.00068102     9.0056e-007    
  -2.85           -1.6067e-009    -0.0007047      8.6583e-007    
  -2.9            -1.404e-009     -0.00072862     8.3109e-007    
  -2.95           -1.4022e-009    -0.0007525      7.9522e-007    
  -3              -2.4837e-009    -0.00077652     7.6021e-007    
  -3.05           -1.8767e-009    -0.00080095     7.1442e-007    
  -3.1            -1.4422e-009    -0.00082517     6.815e-007     
  -3.15           -1.4117e-009    -0.0008495      6.4903e-007    
  -3.2            -2.6313e-009    -0.00087388     6.1588e-007    
  -3.25           -2.1972e-009    -0.00089867     5.7378e-007    
  -3.3            -1.5894e-009    -0.00092324     5.442e-007     
  -3.35           -1.4032e-009    -0.00094799     5.1597e-007    
  -3.4            -1.4008e-009    -0.00097267     4.8743e-007    
  -3.45           -2.4636e-009    -0.00099755     4.6022e-007    
  -3.5            -1.8571e-009    -0.00102263     4.2286e-007    
  -3.55           -1.4391e-009    -0.00104763     3.9938e-007    
  -3.6            -1.4121e-009    -0.00107253     3.7634e-007    
  -3.65           -2.6204e-009    -0.0010976      3.5348e-007    
  -3.7            -2.1618e-009    -0.00112303     3.2197e-007    
  -3.75           -1.9594e-009    -0.001148       3.0991e-007    
  -3.8            -2.2871e-009    -0.0011733      2.7018e-007    
  -3.85           -2.6683e-009    -0.0011982      2.5052e-007    
  -3.9            -2.7432e-009    -0.0012235      2.3375e-007    
  -3.95           -2.6553e-009    -0.0012491      2.1988e-007    
  -4              -2.2896e-009    -0.0012743      2.0589e-007    
  -4.05           -1.6804e-009    -0.0012997      1.9302e-007    
  -4.1            -1.4125e-009    -0.0013249      1.8178e-007    
  -4.15           -1.4075e-009    -0.0013502      1.7022e-007    
  -4.2            -2.5321e-009    -0.0013758      1.5952e-007    
  -4.25           -1.9641e-009    -0.0014013      1.3866e-007    
  -4.3            -1.4794e-009    -0.0014269      1.3133e-007    
  -4.35           -1.4112e-009    -0.0014525      1.2425e-007    
  -4.4            -2.6578e-009    -0.0014778      1.1647e-007    
  -4.45           -2.267e-009     -0.0015038      9.895e-008     
  -4.5            1.5255e-009     -0.0015297      6.9578e-008    
  -4.55           2.7773e-009     -0.0015554      6.6374e-008    
  -4.6            2.2741e-009     -0.0015806      7.3217e-008    
  -4.65           1.5442e-009     -0.0016064      6.1893e-008    
  -4.7            2.8462e-009     -0.0016319      5.3965e-008    
  -4.75           2.8385e-009     -0.0016574      5.7979e-008    
  -4.8            2.5703e-009     -0.001683       5.1283e-008    
  -4.85           1.8703e-009     -0.0017087      4.3908e-008    
  -4.9            1.3411e-009     -0.0017343      3.4557e-008    
  -4.95           2.8622e-009     -0.0017596      3.06e-008      
  -5              2.759e-009      -0.0017852      3.5766e-008    
END_DB

BEGIN_DB
 ICCAP_VAR VS         0              
 ICCAP_VAR VB         2.5            
 ICCAP_VAR VD         -0.1           

 #VG              IG              ID              IB             
  0               9.252e-010      8.592e-010      2.0824e-008    
  -0.05           1.4388e-009     2.0804e-009     -6.43e-009     
  -0.1            1.6226e-009     1.8555e-009     1.195e-008     
  -0.15           1.7974e-009     1.602e-009      1.2604e-008    
  -0.2            3.258e-010      2.2756e-009     1.2585e-008    
  -0.25           5.24e-010       2.3138e-009     1.274e-008     
  -0.3            7.064e-010      2.3313e-009     1.1714e-008    
  -0.35           8.758e-010      2.3281e-009     9.958e-009     
  -0.4            -1.3663e-009    1.7349e-009     1.4038e-008    
  -0.45           -2.5299e-009    3.744e-010      1.4684e-008    
  -0.5            -4.044e-010     -2.2537e-009    -1.3016e-008   
  -0.55           -6.114e-010     -2.2551e-009    -1.2789e-008   
  -0.6            2.3918e-009     -1.5281e-009    -2.4101e-008   
  -0.65           1.3782e-009     2.1328e-009     -5.73e-009     
  -0.7            1.5589e-009     1.9292e-009     1.2189e-008    
  -0.75           5.99e-011       2.1773e-009     1.1879e-008    
  -0.8            -1.43e-009      1.1421e-009     2.7652e-008    
  -0.85           -1.1288e-009    -2.1878e-009    8.27e-009      
  -0.9            1.4805e-009     -1.8191e-009    -1.0095e-008   
  -0.95           9.604e-010      2.2722e-009     -8.421e-009    
  -1              -1.3989e-009    1.3805e-009     9.13e-009      
  -1.05           -2.6304e-009    -1.8286e-009    1.2165e-008    
  -1.1            -2.5126e-009    -5.1213e-009    1.244e-009     
  -1.15           -1.4088e-009    -1.8552e-008    -1.2684e-008   
  -1.2            -2.5614e-009    -6.479e-008     1.0407e-008    
  -1.25           6.942e-010      -1.9978e-007    -1.7917e-008   
  -1.3            1.0934e-009     -5.3672e-007    1.0273e-008    
  -1.35           -2.3834e-009    -1.1836e-006    -1.7816e-008   
  -1.4            -8.441e-010     -2.2727e-006    -1.3158e-008   
  -1.45           1.5801e-009     -3.8244e-006    -1.7429e-008   
  -1.5            2.8448e-009     -5.6786e-006    -8.627e-009    
  -1.55           9.235e-010      -7.7264e-006    1.2146e-008    
  -1.6            1.3089e-009     -9.9227e-006    9.199e-009     
  -1.65           -2.7098e-009    -1.2041e-005    1.0939e-008    
  -1.7            2.1787e-009     -1.4213e-005    -2.7284e-008   
  -1.75           1.4639e-009     -1.6309e-005    -7.44e-009     
  -1.8            2.8546e-009     -1.8347e-005    -8.365e-009    
  -1.85           2.114e-009      -2.034e-005     1.2449e-008    
  -1.9            9.285e-010      -2.2231e-005    1.2076e-008    
  -1.95           1.3155e-009     -2.4113e-005    9.152e-009     
  -2              6.85e-011       -2.5859e-005    1.0494e-008    
  -2.05           5.588e-010      -2.7614e-005    1.2546e-008    
  -2.1            9.723e-010      -2.932e-005     1.1522e-008    
  -2.15           1.3648e-009     -3.1001e-005    9.084e-009     
  -2.2            1.794e-009      -3.2613e-005    1.2192e-008    
  -2.25           6.222e-010      -3.4141e-005    1.2668e-008    
  -2.3            1.0271e-009     -3.5682e-005    1.058e-008     
  -2.35           1.4209e-009     -3.7205e-005    9.669e-009     
  -2.4            1.8518e-009     -3.8664e-005    1.2375e-008    
  -2.45           6.807e-010      -4.0062e-005    1.2711e-008    
  -2.5            1.073e-009      -4.1474e-005    1.0175e-008    
  -2.55           1.4739e-009     -4.2868e-005    1.0101e-008    
  -2.6            1.9108e-009     -4.4201e-005    1.2593e-008    
  -2.65           7.337e-010      -4.549e-005     1.2826e-008    
  -2.7            1.1261e-009     -4.6798e-005    9.954e-009     
  -2.75           1.5384e-009     -4.8075e-005    9.607e-009     
  -2.8            3.35e-010       -4.928e-005     1.1693e-008    
  -2.85           7.884e-010      -5.0501e-005    1.2829e-008    
  -2.9            1.178e-009      -5.1713e-005    9.745e-009     
  -2.95           1.5921e-009     -5.291e-005     9.93e-009      
  -3              3.945e-010      -5.4024e-005    1.2031e-008    
  -3.05           8.459e-010      -5.5162e-005    1.269e-008     
  -3.1            -1.5172e-009    -5.628e-005     1.4983e-008    
  -3.15           -1.4065e-009    -5.7355e-005    8.205e-009     
  -3.2            -1.3803e-009    -5.8427e-005    9.917e-009     
  -3.25           -2.3373e-009    -5.9481e-005    1.3827e-008    
  -3.3            1.865e-010      -6.0595e-005    -1.1115e-008   
  -3.35           1.389e-009      -6.1594e-005    -2.1372e-008   
  -3.4            2.8591e-009     -6.2595e-005    -8.676e-009    
  -3.45           2.2008e-009     -6.3572e-005    1.2512e-008    
  -3.5            1.0115e-009     -6.4552e-005    1.1254e-008    
  -3.55           1.4048e-009     -6.5542e-005    9.108e-009     
  -3.6            1.8399e-009     -6.6487e-005    1.1941e-008    
  -3.65           6.621e-010      -6.7393e-005    1.2649e-008    
  -3.7            1.0627e-009     -6.8325e-005    1.0338e-008    
  -3.75           1.4614e-009     -6.9263e-005    1.0009e-008    
  -3.8            1.8906e-009     -7.0144e-005    1.2566e-008    
  -3.85           7.205e-010      -7.1e-005       1.2614e-008    
  -3.9            1.114e-009      -7.1878e-005    9.935e-009     
  -3.95           1.5248e-009     -7.2746e-005    1.0498e-008    
  -4              3.203e-010      -7.356e-005     1.1559e-008    
  -4.05           7.815e-010      -7.4386e-005    1.2458e-008    
  -4.1            1.1713e-009     -7.522e-005     9.813e-009     
  -4.15           1.584e-009      -7.6041e-005    9.912e-009     
