! VERSION = 6.00
BEGIN_HEADER
 ICCAP_INPUTS
  VG         V  B GROUND SMU4 0.001 LIN        1    0          -5         101  -0.05     
  VS         V  E GROUND SMU2 0.1 CON        0
  VB         V  C GROUND SMU3 0.1 LIN        3    0          5          3    2.5       
  VD         V  S GROUND SMU1 0.1 LIN        2    -0.1       -5         2    -4.9      
 ICCAP_OUTPUTS
  IG         I  B GROUND SMU4 B
  ID         I  S GROUND SMU1 B
  IB         I  C GROUND SMU3 B
END_HEADER

BEGIN_DB
 ICCAP_VAR VS         0              
 ICCAP_VAR VB         0              
 ICCAP_VAR VD         -0.1           

 #VG              IG              ID              IB             
  0               -1.368e-009     -1.3272e-009    1.0498e-008    
  -0.05           -2.222e-010     -2.177e-009     -1.0925e-008   
  -0.1            -4.455e-010     -2.2559e-009    -1.1088e-008   
  -0.15           -6.623e-010     -2.291e-009     -1.1477e-008   
  -0.2            1.2434e-009     -1.5735e-009    -1.9406e-008   
  -0.25           2.8466e-009     -1.856e-010     -1.3503e-008   
  -0.3            1.48e-010       2.1418e-009     1.0216e-008    
  -0.35           3.409e-010      2.2488e-009     1.0389e-008    
  -0.4            5.334e-010      2.3069e-009     1.0826e-008    
  -0.45           -1.3344e-009    1.3761e-009     2.373e-008     
  -0.5            -2.3205e-009    -1.5201e-009    1.1476e-008    
  -0.55           8e-012          -3.3105e-009    -1.1045e-008   
  -0.6            -1.812e-010     -6.424e-009     -1.081e-008    
  -0.65           2.9063e-009     -1.2106e-008    2.3154e-008    
  -0.7            2.6908e-009     -3.6673e-008    -1.23e-010     
  -0.75           2.5182e-009     -9.3232e-008    8.823e-009     
  -0.8            1.8004e-009     -2.1231e-007    3.132e-009     
  -0.85           1.3449e-009     -4.0075e-007    -9.263e-009    
  -0.9            2.8983e-009     -6.9299e-007    -8.454e-009    
  -0.95           2.6321e-009     -1.0745e-006    -3.46e-010     
  -1              2.2817e-009     -1.5456e-006    1.3928e-008    
  -1.05           1.1663e-009     -2.0851e-006    1.0637e-008    
  -1.1            1.5897e-009     -2.6627e-006    1.1509e-008    
  -1.15           4.541e-010      -3.2308e-006    1.0283e-008    
  -1.2            8.905e-010      -3.8333e-006    1.101e-008     
  -1.25           1.2808e-009     -4.4346e-006    1.0559e-008    
  -1.3            1.36e-010       -5.0041e-006    1.0875e-008    
  -1.35           5.893e-010      -5.5883e-006    1.0414e-008    
  -1.4            -1.7495e-009    -6.1538e-006    2.2389e-008    
  -1.45           -1.416e-009     -6.7115e-006    6.821e-009     
  -1.5            -1.3234e-009    -7.2539e-006    1.0922e-008    
  -1.55           -2.4945e-009    -7.7826e-006    1.2134e-008    
  -1.6            -1.8856e-009    -8.3078e-006    1.98e-009      
  -1.65           -1.4615e-009    -8.8127e-006    5.254e-009     
  -1.7            -1.3428e-009    -9.3066e-006    1.0348e-008    
  -1.75           -2.6082e-009    -9.7891e-006    1.1208e-008    
  -1.8            -2.0704e-009    -1.02729e-005   9.89e-010      
  -1.85           -1.5418e-009    -1.07341e-005   4.295e-009     
  -1.9            -1.3682e-009    -1.11826e-005   9.057e-009     
  -1.95           -6.489e-010     -1.1624e-005    2.4956e-008    
  -2              -1.5032e-009    -1.2056e-005    1.5431e-008    
  -2.05           -1.353e-009     -1.2475e-005    9.747e-009     
  -2.1            -2.652e-009     -1.2885e-005    1.1276e-008    
  -2.15           -2.1587e-009    -1.3296e-005    8.51e-010      
  -2.2            -1.5913e-009    -1.3693e-005    3.631e-009     
  -2.25           -1.3787e-009    -1.408e-005     8.399e-009     
  -2.3            -2.7162e-009    -1.4461e-005    1.1522e-008    
  -2.35           -2.3245e-009    -1.4837e-005    6.7e-010       
  -2.4            -1.7136e-009    -1.5206e-005    2.859e-009     
  -2.45           -1.4065e-009    -1.5569e-005    6.821e-009     
  -2.5            -1.324e-009     -1.5919e-005    1.1072e-008    
  -2.55           -2.4855e-009    -1.6264e-005    1.2376e-008    
  -2.6            -7.678e-010     -1.6618e-005    -1.116e-008    
  -2.65           1.6849e-009     -1.6962e-005    -1.7334e-008   
  -2.7            1.3146e-009     -1.7286e-005    -9.269e-009    
  -2.75           2.8822e-009     -1.7609e-005    -8.626e-009    
  -2.8            1.2614e-009     -1.7928e-005    1.0507e-008    
  -2.85           1.166e-010      -1.8235e-005    1.0901e-008    
  -2.9            5.63e-010       -1.8541e-005    1.0442e-008    
  -2.95           -1.7662e-009    -1.8844e-005    2.272e-008     
  -3              -1.4161e-009    -1.9146e-005    6.552e-009     
  -3.05           -1.3286e-009    -1.944e-005     1.0831e-008    
  -3.1            -2.518e-009     -1.9723e-005    1.2046e-008    
  -3.15           -1.9179e-009    -2.0013e-005    1.843e-009     
  -3.2            -1.469e-009     -2.029e-005     5.085e-009     
  -3.25           -1.348e-009     -2.057e-005     1.0224e-008    
  -3.3            -2.6216e-009    -2.0836e-005    1.1298e-008    
  -3.35           -2.0949e-009    -2.1108e-005    9.42e-010      
  -3.4            -1.5552e-009    -2.137e-005     4.027e-009     
  -3.45           -1.3696e-009    -2.1632e-005    8.868e-009     
  -3.5            -2.6991e-009    -2.1885e-005    1.1552e-008    
  -3.55           -2.2751e-009    -2.214e-005     6.99e-010      
  -3.6            -1.6741e-009    -2.2391e-005    2.946e-009     
  -3.65           -1.3994e-009    -2.2632e-005    7.438e-009     
  -3.7            -1.319e-009     -2.2879e-005    1.118e-008     
  -3.75           -2.4412e-009    -2.3109e-005    1.3007e-008    
  -3.8            -8.143e-010     -2.3352e-005    -1.1221e-008   
  -3.85           1.6319e-009     -2.3596e-005    -1.6208e-008   
  -3.9            1.3022e-009     -2.3814e-005    -8.888e-009    
  -3.95           2.8663e-009     -2.4042e-005    -9.051e-009    
  -4              3.526e-010      -2.4255e-005    1.0354e-008    
  -4.05           8.002e-010      -2.4477e-005    1.0887e-008    
  -4.1            -1.5336e-009    -2.4703e-005    1.655e-008     
  -4.15           -1.363e-009     -2.4904e-005    9.282e-009     
  -4.2            -2.6781e-009    -2.511e-005     1.1273e-008    
  -4.25           -2.2151e-009    -2.532e-005     8.21e-010      
  -4.3            -1.627e-009     -2.5526e-005    3.368e-009     
  -4.35           -1.3895e-009    -2.5726e-005    7.836e-009     
  -4.4            -1.3144e-009    -2.5927e-005    1.1472e-008    
  -4.45           -2.3991e-009    -2.6118e-005    1.3345e-008    
  -4.5            -1.7694e-009    -2.6315e-005    2.633e-009     
  -4.55           -1.4236e-009    -2.6508e-005    6.391e-009     
  -4.6            -1.3316e-009    -2.6693e-005    1.0781e-008    
  -4.65           -2.5328e-009    -2.6877e-005    1.1814e-008    
  -4.7            -1.9371e-009    -2.7064e-005    1.62e-009      
  -4.75           -1.4793e-009    -2.7244e-005    4.989e-009     
  -4.8            -1.3508e-009    -2.7422e-005    1.007e-008     
  -4.85           -2.6357e-009    -2.7595e-005    1.1077e-008    
  -4.9            -2.1216e-009    -2.7773e-005    8.98e-010      
  -4.95           -1.5701e-009    -2.7945e-005    3.847e-009     
  -5              -1.3734e-009    -2.8111e-005    8.729e-009     
END_DB

BEGIN_DB
 ICCAP_VAR VS         0              
 ICCAP_VAR VB         0              
 ICCAP_VAR VD         -5             

 #VG              IG              ID              IB             
  0               3.95e-011       3.032e-010      1.0487e-008    
  -0.05           2.5982e-009     -4.871e-010     -1.7554e-008   
  -0.1            1.175e-009      2.2406e-009     -3.365e-009    
  -0.15           -1.997e-010     1.9484e-009     1.1236e-008    
  -0.2            -2.94e-011      2.0297e-009     1.0617e-008    
  -0.25           1.503e-010      2.1112e-009     1.0336e-008    
  -0.3            3.486e-010      2.1466e-009     1.0465e-008    
  -0.35           5.447e-010      1.9608e-009     1.0903e-008    
  -0.4            -1.3328e-009    2.383e-010      2.3472e-008    
  -0.45           -2.7165e-009    -3.9244e-009    1.1878e-008    
  -0.5            -1.3457e-009    -1.3496e-008    -1.0675e-008   
  -0.55           -2.6158e-009    -3.7218e-008    1.2074e-008    
  -0.6            -2.0812e-009    -9.5778e-008    2.78e-009      
  -0.65           7.45e-010       -2.2229e-007    -1.053e-008    
  -0.7            1.1441e-009     -4.722e-007     1.9014e-008    
  -0.75           1.5733e-009     -9.0285e-007    2.6567e-008    
  -0.8            -1.4966e-009    -1.5541e-006    1.8372e-008    
  -0.85           -1.3467e-009    -2.5019e-006    4.7689e-008    
  -0.9            -2.6435e-009    -3.7773e-006    6.5585e-008    
  -0.95           -2.128e-009     -5.3964e-006    7.4584e-008    
  -1              -7.632e-010     -7.3802e-006    9.0694e-008    
  -1.05           6.478e-010      -9.6738e-006    1.2324e-007    
  -1.1            -2.7389e-009    -1.2259e-005    1.5409e-007    
  -1.15           -2.7354e-009    -1.5141e-005    1.6432e-007    
  -1.2            -2.4405e-009    -1.8316e-005    1.9322e-007    
  -1.25           -1.8383e-009    -2.1714e-005    2.2e-007       
  -1.3            -1.4333e-009    -2.5384e-005    2.4759e-007    
  -1.35           -1.3235e-009    -2.9278e-005    2.7585e-007    
  -1.4            -2.5719e-009    -3.338e-005     2.9812e-007    
  -1.45           -2.0156e-009    -3.7714e-005    3.0857e-007    
  -1.5            -1.5048e-009    -4.2187e-005    3.3068e-007    
  -1.55           -1.3496e-009    -4.6829e-005    3.5284e-007    
  -1.6            -2.6604e-009    -5.1638e-005    3.7e-007       
  -1.65           -2.1964e-009    -5.6645e-005    3.7331e-007    
  -1.7            -1.615e-009     -6.1747e-005    3.8717e-007    
  -1.75           -1.3778e-009    -6.6979e-005    4.0227e-007    
  -1.8            -2.7245e-009    -7.2433e-005    4.1384e-007    
  -1.85           -2.3536e-009    -7.7957e-005    4.0885e-007    
  -1.9            -1.7403e-009    -8.355e-005     4.1542e-007    
  -1.95           -1.4147e-009    -8.9261e-005    4.2176e-007    
  -2              -1.323e-009     -9.504e-005     4.2774e-007    
  -2.05           -2.5031e-009    -0.000100936    4.2815e-007    
  -2.1            -1.9017e-009    -0.000106952    4.1599e-007    
  -2.15           -1.4667e-009    -0.000113004    4.1631e-007    
  -2.2            -2.1906e-009    -0.00011907     4.0602e-007    
  -2.25           -1.6025e-009    -0.00012534     4.0517e-007    
  -2.3            -1.3786e-009    -0.00013161     4.032e-007     
  -2.35           -2.7166e-009    -0.00013795     3.9856e-007    
  -2.4            -2.3299e-009    -0.00014439     3.7967e-007    
  -2.45           -1.7224e-009    -0.00015088     3.7292e-007    
  -2.5            -1.4097e-009    -0.0001574      3.6707e-007    
  -2.55           -1.3228e-009    -0.00016399     3.6077e-007    
  -2.6            -2.4864e-009    -0.00017063     3.5131e-007    
  -2.65           -1.876e-009     -0.00017737     3.301e-007     
  -2.7            -1.4557e-009    -0.00018411     3.221e-007     
  -2.75           -1.3406e-009    -0.00019091     3.1539e-007    
  -2.8            -2.5899e-009    -0.00019773     3.0441e-007    
  -2.85           -2.0325e-009    -0.00020465     2.8252e-007    
  -2.9            -1.5231e-009    -0.00021157     2.7376e-007    
  -2.95           -1.3631e-009    -0.00021853     2.671e-007     
  -3              -2.6756e-009    -0.00022552     2.5717e-007    
  -3.05           -2.2105e-009    -0.00023258     2.3466e-007    
  -3.1            -1.619e-009     -0.00023967     2.2597e-007    
  -3.15           -1.3859e-009    -0.00024675     2.1945e-007    
  -3.2            -1.3131e-009    -0.00025383     2.1185e-007    
  -3.25           -2.3819e-009    -0.00026099     2.0301e-007    
  -3.3            -1.7541e-009    -0.00026824     1.8194e-007    
  -3.35           -1.4182e-009    -0.00027546     1.7569e-007    
  -3.4            -1.3275e-009    -0.00028271     1.7039e-007    
  -3.45           -2.5064e-009    -0.00028996     1.6166e-007    
  -3.5            -1.9048e-009    -0.00029736     1.4303e-007    
  -3.55           -1.4669e-009    -0.0003047      1.3788e-007    
  -3.6            -1.3458e-009    -0.00031191     1.3399e-007    
  -3.65           -2.6104e-009    -0.00031933     1.2734e-007    
  -3.7            -2.0692e-009    -0.00032685     1.094e-007     
  -3.75           -1.5392e-009    -0.0003343      1.0553e-007    
  -3.8            -1.3675e-009    -0.00034162     1.0353e-007    
  -3.85           -2.688e-009     -0.00034907     9.95e-008      
  -3.9            2.1923e-009     -0.00035675     6.3647e-008    
  -3.95           1.5143e-009     -0.00036416     6.8743e-008    
  -4              1.2777e-009     -0.00037168     6.1829e-008    
  -4.05           2.8262e-009     -0.0003792      5.5439e-008    
  -4.1            2.3579e-009     -0.00038668     5.9592e-008    
  -4.15           1.6581e-009     -0.00039419     5.0843e-008    
  -4.2            1.3088e-009     -0.00040182     4.2822e-008    
  -4.25           2.8734e-009     -0.00040932     3.9269e-008    
  -4.3            2.5224e-009     -0.00041677     4.3719e-008    
  -4.35           1.8207e-009     -0.00042441     3.6917e-008    
  -4.4            1.3584e-009     -0.00043195     2.8411e-008    
  -4.45           1.2463e-009     -0.00043956     2.6259e-008    
  -4.5            2.3417e-009     -0.00044705     3.0916e-008    
  -4.55           1.6398e-009     -0.0004547      2.361e-008     
  -4.6            2.898e-009      -0.00046227     3.2078e-008    
  -4.65           2.7182e-009     -0.00046985     2.4829e-008    
  -4.7            2.1217e-009     -0.00047751     2.0856e-008    
  -4.75           2.8234e-009     -0.00048502     2.8872e-008    
  -4.8            2.8847e-009     -0.00049256     2.1745e-008    
  -4.85           2.2916e-009     -0.0005002      2.7124e-008    
  -4.9            2.6014e-009     -0.00050778     2.4025e-008    
  -4.95           2.8781e-009     -0.00051542     2.1458e-008    
  -5              2.0525e-009     -0.00052313     2.3967e-008    
END_DB

BEGIN_DB
 ICCAP_VAR VS         0              
 ICCAP_VAR VB         2.5            
 ICCAP_VAR VD         -0.1           

 #VG              IG              ID              IB             
  0               2.781e-010      4.59e-010       2.1719e-008    
  -0.05           2.8195e-009     -2.344e-010     -1.4127e-008   
  -0.1            1.942e-010      2.1755e-009     1.0278e-008    
  -0.15           3.869e-010      2.2825e-009     1.0602e-008    
  -0.2            5.817e-010      2.3517e-009     1.0884e-008    
  -0.25           -1.3289e-009    1.5259e-009     2.2273e-008    
  -0.3            -2.6918e-009    1.665e-010      1.1994e-008    
  -0.35           -1.951e-009     -1.3223e-009    7.62e-010      
  -0.4            -6.898e-010     -2.2981e-009    -1.1416e-008   
  -0.45           1.2413e-009     -1.5778e-009    -1.8896e-008   
  -0.5            2.832e-009      -2.076e-010     -1.3592e-008   
  -0.55           1.699e-010      2.1605e-009     1.0236e-008    
  -0.6            3.596e-010      2.2691e-009     1.0483e-008    
  -0.65           5.571e-010      2.344e-009      1.0879e-008    
  -0.7            -2.1244e-009    6.367e-010      1.9782e-008    
  -0.75           -1.4969e-009    -1.9261e-009    4.053e-009     
  -0.8            -1.71e-011      -2.056e-009     -1.0904e-008   
  -0.85           -2.205e-010     -2.1868e-009    -1.0882e-008   
  -0.9            -4.442e-010     -2.274e-009     -1.1195e-008   
  -0.95           -6.622e-010     -2.3566e-009    -1.1553e-008   
  -1              1.2464e-009     -1.8458e-009    -1.9382e-008   
  -1.05           2.8421e-009     -1.4235e-009    -1.3372e-008   
  -1.1            1.507e-010      -2.7547e-009    1.0275e-008    
  -1.15           -2.7617e-009    -1.8847e-008    -1.9461e-008   
  -1.2            1.749e-010      -5.7339e-008    -1.2637e-008   
  -1.25           -2.7929e-009    -1.4133e-007    1.04e-008      
  -1.3            5.61e-011       -3.0853e-007    -1.1927e-008   
  -1.35           -4.251e-010     -5.6627e-007    -1.0832e-008   
  -1.4            -9.005e-010     -9.2916e-007    -1.1449e-008   
  -1.45           1.5443e-009     -1.3935e-006    1.0817e-008    
  -1.5            1.2859e-009     -1.9165e-006    -8.441e-009    
  -1.55           2.8357e-009     -2.4741e-006    -9.527e-009    
  -1.6            4.171e-010      -3.026e-006     1.033e-008     
  -1.65           -1.9555e-009    -3.5912e-006    1.7917e-008    
  -1.7            -1.4817e-009    -4.1527e-006    5.104e-009     
  -1.75           -1.3502e-009    -4.6989e-006    9.934e-009     
  -1.8            -2.6331e-009    -5.2367e-006    1.1323e-008    
  -1.85           -2.1119e-009    -5.7585e-006    1.036e-009     
  -1.9            -1.5662e-009    -6.2622e-006    3.689e-009     
  -1.95           -1.3721e-009    -6.7522e-006    8.92e-009      
  -2              -2.7064e-009    -7.2294e-006    1.1651e-008    
  -2.05           -2.2896e-009    -7.7005e-006    7.83e-010      
  -2.1            -1.6869e-009    -8.1543e-006    2.869e-009     
  -2.15           -1.403e-009     -8.5978e-006    7.298e-009     
  -2.2            -1.3202e-009    -9.0297e-006    1.1328e-008    
  -2.25           -2.4525e-009    -9.4513e-006    1.2638e-008    
  -2.3            -1.831e-009     -9.8701e-006    2.277e-009     
  -2.35           -1.4412e-009    -1.02741e-005   5.8e-009       
  -2.4            -1.3293e-009    -1.06698e-005   1.0439e-008    
  -2.45           -2.5749e-009    -1.10555e-005   1.1532e-008    
  -2.5            1.9193e-009     -1.1441e-005    1.425e-009     
  -2.55           1.3828e-009     -1.1815e-005    -9.172e-009    
  -2.6            1.2458e-009     -1.2184e-005    -8.24e-009     
  -2.65           2.7156e-009     -1.2545e-005    -1.2691e-008   
  -2.7            5.813e-010      -1.289e-005     1.044e-008     
  -2.75           9.842e-010      -1.3239e-005    1.0715e-008    
  -2.8            -1.326e-010     -1.3582e-005    1.2439e-008    
  -2.85           2.881e-010      -1.391e-005     1.0307e-008    
  -2.9            7.434e-010      -1.4237e-005    1.0707e-008    
  -2.95           -1.5862e-009    -1.4563e-005    1.8167e-008    
  -3              -1.3757e-009    -1.4881e-005    9.135e-009     
  -3.05           -2.708e-009     -1.5187e-005    1.1834e-008    
  -3.1            -2.2961e-009    -1.5498e-005    7.17e-010      
  -3.15           1.554e-010      -1.5812e-005    -1.2506e-008   
  -3.2            -3.011e-010     -1.6104e-005    -1.0955e-008   
  -3.25           -8.041e-010     -1.6396e-005    -1.1212e-008   
  -3.3            1.6479e-009     -1.6691e-005    -1.6575e-008   
  -3.35           1.3028e-009     -1.696e-005     -8.693e-009    
  -3.4            2.8673e-009     -1.7242e-005    -8.507e-009    
  -3.45           3.394e-010      -1.7511e-005    1.0338e-008    
  -3.5            7.876e-010      -1.7783e-005    1.0813e-008    
  -3.55           -1.5381e-009    -1.8054e-005    1.6861e-008    
  -3.6            -1.3636e-009    -1.8312e-005    9.229e-009     
  -3.65           -2.6795e-009    -1.8568e-005    1.1348e-008    
  -3.7            -2.2175e-009    -1.8833e-005    7.44e-010      
  -3.75           -1.6393e-009    -1.908e-005     3.122e-009     
  -3.8            -1.3907e-009    -1.9326e-005    7.915e-009     
  -3.85           -1.316e-009     -1.9568e-005    1.1374e-008    
  -3.9            -2.3961e-009    -1.9808e-005    1.3312e-008    
  -3.95           -8.531e-010     -2.0049e-005    -1.1306e-008   
  -4              1.5824e-009     -2.0293e-005    -1.5373e-008   
  -4.05           1.2908e-009     -2.0516e-005    -8.576e-009    
  -4.1            2.847e-009      -2.0744e-005    -9.05e-009     
  -4.15           4.011e-010      -2.0959e-005    1.0356e-008    
