! VERSION = 6.00
BEGIN_HEADER
 ICCAP_INPUTS
  VG         V  B GROUND SMU4 0.001 LIN        2    0          -5         6    -1        
  VS         V  E GROUND SMU2 0.1 CON        0
  VD         V  S GROUND SMU1 0.1 LIN        1    0          -5         101  -0.05     
  VB         V  C GROUND SMU3 0.1 LIN        3    0          2.5        2    2.5       
 ICCAP_OUTPUTS
  ID         I  S GROUND SMU1 B
  IB         I  C GROUND SMU3 B
  IG         I  B GROUND SMU4 B
END_HEADER

BEGIN_DB
 ICCAP_VAR VG         0              
 ICCAP_VAR VS         0              
 ICCAP_VAR VB         0              

 #VD              ID              IB              IG             
  0               2.3301e-009     -1.4919e-008    2.4888e-009    
  -0.05           2.2474e-009     1.0523e-008     3.031e-010     
  -0.1            2.3277e-009     1.0879e-008     4.985e-010     
  -0.15           2.371e-009      1.1346e-008     6.856e-010     
  -0.2            2.3771e-009     1.1183e-008     8.373e-010     
  -0.25           2.3377e-009     1.1207e-008     9.533e-010     
  -0.3            2.2724e-009     1.1788e-008     1.1057e-009    
  -0.35           2.1413e-009     1.2643e-008     1.2692e-009    
  -0.4            1.9648e-009     1.2874e-008     1.4686e-009    
  -0.45           2.1041e-009     1.0447e-008     3.67e-011      
  -0.5            2.2052e-009     1.0531e-008     2.234e-010     
  -0.55           2.3006e-009     1.0658e-008     4.187e-010     
  -0.6            2.3577e-009     1.1126e-008     6.107e-010     
  -0.65           2.3802e-009     1.1289e-008     7.798e-010     
  -0.7            2.3598e-009     1.1177e-008     9.101e-010     
  -0.75           2.3039e-009     1.1327e-008     1.0419e-009    
  -0.8            2.2013e-009     1.2411e-008     1.1964e-009    
  -0.85           1.9861e-009     1.1162e-008     -1.957e-010    
  -0.9            2.0703e-009     1.0594e-008     -3.06e-011     
  -0.95           2.1628e-009     1.04e-008       1.442e-010     
  -1              2.2673e-009     1.0556e-008     3.372e-010     
  -1.05           2.3396e-009     1.0892e-008     5.329e-010     
  -1.1            2.3761e-009     1.1284e-008     7.167e-010     
  -1.15           2.3748e-009     1.1138e-008     8.593e-010     
  -1.2            2.3338e-009     1.1182e-008     9.833e-010     
  -1.25           2.251e-009      1.1874e-008     1.1306e-009    
  -1.3            1.9464e-009     1.14e-008       -1.4652e-009   
  -1.35           -1.3162e-009    9.182e-009      -1.9345e-009   
  -1.4            -1.7006e-009    -1.4444e-008    1.7267e-009    
  -1.45           1.6321e-009     -9.644e-009     1.7763e-009    
  -1.5            2.2673e-009     1.0569e-008     3.359e-010     
  -1.55           2.3417e-009     1.0927e-008     5.29e-010      
  -1.6            2.375e-009      1.1412e-008     7.183e-010     
  -1.65           2.3718e-009     1.1135e-008     8.66e-010      
  -1.7            2.3315e-009     1.1227e-008     9.852e-010     
  -1.75           2.2519e-009     1.1838e-008     1.1268e-009    
  -1.8            1.9447e-009     1.1426e-008     -1.4678e-009   
  -1.85           -1.318e-009     9.157e-009      -1.9335e-009   
  -1.9            -1.6992e-009    -1.4536e-008    1.736e-009     
  -1.95           1.6417e-009     -9.675e-009     1.775e-009     
  -2              2.2596e-009     1.0587e-008     3.198e-010     
  -2.05           2.3364e-009     1.0863e-008     5.237e-010     
  -2.1            2.3763e-009     1.1296e-008     7.126e-010     
  -2.15           2.3731e-009     1.1169e-008     8.596e-010     
  -2.2            2.3378e-009     1.1163e-008     9.776e-010     
  -2.25           2.2586e-009     1.1797e-008     1.12e-009      
  -2.3            2.133e-009      1.2732e-008     1.2849e-009    
  -2.35           1.948e-009      1.2861e-008     1.477e-009     
  -2.4            2.1121e-009     1.0376e-008     4.32e-011      
  -2.45           2.2144e-009     1.0513e-008     2.317e-010     
  -2.5            2.3058e-009     1.0735e-008     4.228e-010     
  -2.55           2.3635e-009     1.1187e-008     6.226e-010     
  -2.6            2.3787e-009     1.1207e-008     7.946e-010     
  -2.65           2.3561e-009     1.1204e-008     9.233e-010     
  -2.7            2.2954e-009     1.1453e-008     1.0454e-009    
  -2.75           2.203e-009      1.2342e-008     1.2009e-009    
  -2.8            1.9821e-009     1.1159e-008     -1.92e-010     
  -2.85           2.0674e-009     1.0602e-008     -3.6e-011      
  -2.9            2.16e-009       1.0484e-008     1.411e-010     
  -2.95           2.2574e-009     1.048e-008      3.286e-010     
  -3              2.3341e-009     1.0975e-008     5.279e-010     
  -3.05           2.3718e-009     1.126e-008      7.132e-010     
  -3.1            2.3714e-009     1.1162e-008     8.66e-010      
  -3.15           2.3325e-009     1.1162e-008     9.83e-010      
  -3.2            2.2547e-009     1.1772e-008     1.1222e-009    
  -3.25           1.9368e-009     1.1546e-008     -1.4724e-009   
  -3.3            -1.3269e-009    9.159e-009      -1.924e-009    
  -3.35           -1.692e-009     -1.4774e-008    1.7464e-009    
  -3.4            1.652e-009      -9.71e-009      1.7615e-009    
  -3.45           2.2514e-009     1.0505e-008     3.096e-010     
  -3.5            2.3258e-009     1.0881e-008     5.086e-010     
  -3.55           2.3671e-009     1.1222e-008     6.905e-010     
  -3.6            2.3728e-009     1.1082e-008     8.4e-010       
  -3.65           2.3374e-009     1.1254e-008     9.594e-010     
  -3.7            2.2724e-009     1.1667e-008     1.1043e-009    
  -3.75           2.1471e-009     1.2642e-008     1.2671e-009    
  -3.8            1.9724e-009     1.2719e-008     1.4626e-009    
  -3.85           2.0975e-009     1.056e-008      2.87e-011      
  -3.9            2.1969e-009     1.0594e-008     2.105e-010     
  -3.95           2.2887e-009     1.0653e-008     4.062e-010     
  -4              2.3492e-009     1.1121e-008     5.978e-010     
  -4.05           2.3757e-009     1.1182e-008     7.682e-010     
  -4.1            2.3621e-009     1.1137e-008     8.94e-010      
  -4.15           2.3109e-009     1.1292e-008     1.022e-009     
  -4.2            2.2172e-009     1.2239e-008     1.177e-009     
  -4.25           1.9692e-009     1.125e-008      -2.16e-010     
  -4.3            2.0537e-009     1.0666e-008     -5.43e-011     
  -4.35           2.1426e-009     1.0435e-008     1.139e-010     
  -4.4            2.2423e-009     1.0626e-008     3.03e-010      
  -4.45           2.3219e-009     1.0852e-008     4.981e-010     
  -4.5            2.3671e-009     1.1265e-008     6.837e-010     
  -4.55           2.3717e-009     1.1075e-008     8.347e-010     
  -4.6            2.3411e-009     1.1222e-008     9.524e-010     
  -4.65           2.2705e-009     1.1637e-008     1.0966e-009    
  -4.7            2.1499e-009     1.268e-008      1.2629e-009    
  -4.75           1.9805e-009     1.2848e-008     1.4524e-009    
  -4.8            2.0936e-009     1.046e-008      2.3e-011       
  -4.85           2.1868e-009     1.0528e-008     2.038e-010     
  -4.9            2.2819e-009     1.0682e-008     3.887e-010     
  -4.95           2.3409e-009     1.1083e-008     5.881e-010     
  -5              2.3699e-009     1.129e-008      7.549e-010     
END_DB

BEGIN_DB
 ICCAP_VAR VG         -1             
 ICCAP_VAR VS         0              
 ICCAP_VAR VB         0              

 #VD              ID              IB              IG             
  0               2.3261e-009     -1.8285e-008    2.6871e-009    
  -0.05           -2.0981e-009    1.2781e-008     -1.4624e-009   
  -0.1            -3.861e-009     9.368e-009      -1.4142e-009   
  -0.15           -5.5603e-009    9.638e-009      -1.3852e-009   
  -0.2            -7.6286e-009    9.159e-009      -1.358e-009    
  -0.25           -1.1436e-008    -2.5567e-008    -2.2548e-009   
  -0.3            -1.0115e-008    1.1195e-008     1.2225e-009    
  -0.35           -1.6038e-008    -2.1887e-008    1.6295e-009    
  -0.4            -2.0181e-008    -1.1492e-008    -2.088e-010    
  -0.45           -2.1011e-008    9.664e-009      -1.3483e-009   
  -0.5            -1.8552e-008    1.1194e-008     9.323e-010     
  -0.55           -2.4645e-008    -1.9388e-008    2.1074e-009    
  -0.6            -2.4999e-008    -1.2676e-008    8.35e-011      
  -0.65           -3.03e-008      8.727e-009      -1.3945e-009   
  -0.7            -2.3529e-008    1.0715e-008     6.936e-010     
  -0.75           -3.1914e-008    -1.6695e-008    2.5853e-009    
  -0.8            -4.0042e-008    -1.7397e-008    1.5968e-009    
  -0.85           -5.0004e-008    -1.1442e-008    -2.442e-010    
  -0.9            -4.8982e-008    9.552e-009      -1.3455e-009   
  -0.95           -5.1071e-008    1.1146e-008     9.583e-010     
  -1              -4.7866e-008    -1.9425e-008    2.0654e-009    
  -1.05           -1.5383e-005    1.052e-008      -2.6624e-009   
  -1.1            -1.5184e-005    1.1201e-008     9.468e-010     
  -1.15           -1.65e-005      -2.7481e-008    1.267e-009     
  -1.2            -1.659e-005     -1.1099e-008    -5.654e-010    
  -1.25           -1.6751e-005    2.3981e-008     -1.5118e-009   
  -1.3            -1.7531e-005    1.1129e-008     1.1099e-009    
  -1.35           -1.8257e-005    -2.5728e-008    2.1917e-009    
  -1.4            -1.8369e-005    -1.1189e-008    -7.567e-010    
  -1.45           -1.8668e-005    2.6499e-008     -1.4363e-009   
  -1.5            -1.957e-005     1.1366e-008     1.2997e-009    
  -1.55           -1.9466e-005    -2.1702e-008    1.8704e-009    
  -1.6            -1.9819e-005    -1.3792e-008    1.789e-010     
  -1.65           -2.0103e-005    1.0079e-008     -2.4073e-009   
  -1.7            -2.1047e-005    1.264e-008      2.0553e-009    
  -1.75           -2.1515e-005    -1.1834e-008    -7.41e-011     
  -1.8            -2.139e-005     1.5829e-008     -1.9936e-009   
  -1.85           -2.1954e-005    1.0765e-008     7.505e-010     
  -1.9            -2.246e-005     -2.5854e-008    1.3534e-009    
  -1.95           -2.2504e-005    -1.131e-008     -2.777e-010    
  -2              -2.26e-005      1.9707e-008     -1.7432e-009   
  -2.05           -2.3111e-005    1.1197e-008     8.955e-010     
  -2.1            -2.3476e-005    -2.7437e-008    1.2841e-009    
  -2.15           -2.3427e-005    -1.1122e-008    -4.879e-010    
  -2.2            -2.361e-005     2.2932e-008     -1.5611e-009   
  -2.25           -2.4388e-005    1.1013e-008     1.0461e-009    
  -2.3            -2.4805e-005    -2.6836e-008    2.3082e-009    
  -2.35           -2.4777e-005    -1.1095e-008    -6.92e-010     
  -2.4            -2.4626e-005    2.5482e-008     -1.4576e-009   
  -2.45           -2.5404e-005    1.121e-008      1.2215e-009    
  -2.5            -2.5963e-005    -2.347e-008     1.9982e-009    
  -2.55           -2.5801e-005    -1.4796e-008    1.4609e-009    
  -2.6            -2.6502e-005    -1.174e-008     -1.044e-010    
  -2.65           -2.6476e-005    1.6442e-008     -1.9517e-009   
  -2.7            -2.6853e-005    1.0888e-008     7.765e-010     
  -2.75           -2.7406e-005    -2.6121e-008    1.3386e-009    
  -2.8            -2.7501e-005    -1.116e-008     -3.144e-010    
  -2.85           -2.7544e-005    2.0392e-008     -1.7067e-009   
  -2.9            -2.8042e-005    1.1284e-008     9.172e-010     
  -2.95           -2.8471e-005    -2.7429e-008    1.2757e-009    
  -3              -2.8612e-005    -1.0948e-008    -5.163e-010    
  -3.05           -2.868e-005     2.3577e-008     -1.5366e-009   
  -3.1            -2.9323e-005    1.1408e-008     1.0732e-009    
  -3.15           -2.9601e-005    -2.5958e-008    2.2577e-009    
  -3.2            -2.9705e-005    -1.0644e-008    -7.248e-010    
  -3.25           -2.988e-005     2.664e-008      -1.4485e-009   
  -3.3            -3.0582e-005    1.1903e-008     1.2532e-009    
  -3.35           -3.0883e-005    -1.449e-008     2.6858e-009    
  -3.4            -3.101e-005     -9.893e-009     -3.864e-010    
  -3.45           -3.0993e-005    2.2934e-008     -1.6405e-009   
  -3.5            -3.1479e-005    1.277e-008      9.619e-010     
  -3.55           -3.19e-005      -2.5185e-008    1.2613e-009    
  -3.6            -3.1961e-005    -8.679e-009     -5.883e-010    
  -3.65           -3.1975e-005    2.7453e-008     -1.4979e-009   
  -3.7            -3.2772e-005    1.4512e-008     1.1313e-009    
  -3.75           -3.3134e-005    -9.269e-009     2.7886e-009    
  -3.8            -3.3923e-005    -1.306e-008     2.1113e-009    
  -3.85           -3.4269e-005    -6.065e-009     2.7573e-009    
  -3.9            -3.459e-005     -9.802e-009     2.038e-009     
  -3.95           -3.6417e-005    1.9795e-008     -2.1629e-009   
  -4              -3.6726e-005    4.4161e-008     4.559e-010     
  -4.05           -3.7466e-005    1.8412e-008     1.5977e-009    
  -4.1            -3.7489e-005    3.9619e-008     -2.4416e-009   
  -4.15           -3.7872e-005    6.4727e-008     7.499e-010     
  -4.2            -3.8523e-005    3.6562e-008     1.3536e-009    
  -4.25           -3.8275e-005    5.9195e-008     -2.6882e-009   
  -4.3            -3.8861e-005    9.3245e-008     9.723e-010     
  -4.35           -3.937e-005     5.9281e-008     1.2614e-009    
  -4.4            -3.9941e-005    1.155e-007      1.7416e-009    
  -4.45           -4.0265e-005    1.0796e-007     1.899e-010     
  -4.5            -4.0002e-005    1.5015e-007     -2.4119e-009   
  -4.55           -4.0904e-005    1.7338e-007     2.0498e-009    
  -4.6            -4.1323e-005    1.708e-007      -5.68e-011     
  -4.65           -4.1181e-005    2.2109e-007     -1.9996e-009   
  -4.7            -4.182e-005     2.4686e-007     2.3169e-009    
  -4.75           -4.2275e-005    2.5266e-007     -3.689e-010    
  -4.8            -4.228e-005     3.1912e-007     -1.6261e-009   
  -4.85           -4.2917e-005    3.4641e-007     2.5344e-009    
  -4.9            -4.3266e-005    3.6277e-007     -6.634e-010    
  -4.95           -4.3372e-005    4.4701e-007     -1.418e-009    
  -5              -4.4127e-005    4.8429e-007     2.7654e-009    
END_DB

BEGIN_DB
 ICCAP_VAR VG         -2             
 ICCAP_VAR VS         0              
 ICCAP_VAR VB         0              

 #VD              ID              IB              IG             
  0               -3.7355e-009    1.1022e-008     -1.7263e-009   
  -0.05           -1.659e-007     1.0512e-008     -2.7815e-009   
  -0.1            -4.325e-007     1.1096e-008     9.924e-010     
  -0.15           -6.9516e-007    -2.6543e-008    1.3153e-009    
  -0.2            -9.448e-007     -1.1805e-008    -7.85e-011     
  -0.25           -1.4732e-006    -2.0294e-008    -2.5132e-009   
  -0.3            -1.3587e-006    1.0526e-008     2.995e-010     
  -0.35           -1.5595e-006    -1.6717e-008    2.5768e-009    
  -0.4            -2.0313e-006    -1.2126e-008    2.6718e-009    
  -0.45           -3.2623e-005    1.18e-010       2.6343e-009    
  -0.5            -3.8422e-005    -1.1057e-008    -4.333e-010    
  -0.55           -5.5538e-005    2.2066e-008     -1.6052e-009   
  -0.6            -0.00038137     9.124e-009      -1.3363e-009   
  -0.65           -0.00042602     1.2603e-008     2.1114e-009    
  -0.7            -0.00045697     -1.1195e-008    -2.712e-010    
  -0.75           -0.00051619     2.1638e-008     -1.6177e-009   
  -0.8            -0.00057496     1.1071e-008     1.0901e-009    
  -0.85           -0.00060601     -1.476e-008     2.7223e-009    
  -0.9            -0.00062886     -1.1097e-008    -4.799e-010    
  -0.95           -0.00067104     2.4237e-008     -1.4854e-009   
  -1              -0.00070197     1.1313e-008     1.2776e-009    
  -1.05           -0.00072893     -1.9216e-008    1.7166e-009    
  -1.1            -0.00075623     -1.2046e-008    -5.7e-012      
  -1.15           -0.00077314     1.713e-008      -1.9156e-009   
  -1.2            -0.00079526     1.116e-008      8.889e-010     
  -1.25           -0.00081418     -2.7397e-008    1.2562e-009    
  -1.3            -0.00083269     -1.4825e-008    1.468e-009     
  -1.35           -0.00084493     -1.1367e-008    -2.339e-010    
  -1.4            -0.0008544      2.0969e-008     -1.6591e-009   
  -1.45           -0.00086613     1.1058e-008     1.06e-009      
  -1.5            -0.00087541     -2.4727e-008    2.0857e-009    
  -1.55           -0.00088525     -1.3678e-008    1.792e-010     
  -1.6            -0.00089188     1.266e-008      -2.2432e-009   
  -1.65           -0.00090074     1.0694e-008     7.109e-010     
  -1.7            -0.00090963     -2.6607e-008    1.3117e-009    
  -1.75           -0.00091555     -1.1108e-008    -5.112e-010    
  -1.8            -0.00092203     2.469e-008      -1.474e-009    
  -1.85           -0.00093103     1.14e-008       1.3051e-009    
  -1.9            -0.00093604     -1.8553e-008    1.6727e-009    
  -1.95           -0.00094187     -1.1913e-008    -3.07e-011     
  -2              -0.00094561     1.7552e-008     -1.8771e-009   
  -2.05           -0.00095356     1.119e-008      9.106e-010     
  -2.1            -0.00095906     -2.7406e-008    2.39e-009      
  -2.15           -0.00096285     -1.1145e-008    -7.626e-010    
  -2.2            -0.00096681     2.7771e-008     -1.4012e-009   
  -2.25           -0.00097533     1.2721e-008     1.6062e-009    
  -2.3            -0.00097888     -1.3694e-008    1.897e-010     
  -2.35           -0.00098152     1.2382e-008     -2.2652e-009   
  -2.4            -0.00098726     1.0671e-008     6.998e-010     
  -2.45           -0.00099339     -2.6542e-008    1.3177e-009    
  -2.5            -0.0009968      -1.1066e-008    -4.923e-010    
  -2.55           -0.00100013     2.4401e-008     -1.4813e-009   
  -2.6            -0.00100664     1.1368e-008     1.2893e-009    
  -2.65           -0.00101055     -1.9061e-008    1.6979e-009    
  -2.7            -0.00101534     -1.1992e-008    -1.51e-011     
  -2.75           -0.00101787     1.7387e-008     -1.9024e-009   
  -2.8            -0.00102327     1.1221e-008     9.008e-010     
  -2.85           -0.00102758     -2.7306e-008    1.2526e-009    
  -2.9            -0.0010313      -1.4577e-008    1.4534e-009    
  -2.95           -0.00103499     -1.1148e-008    -2.377e-010    
  -3              -0.00103702     2.1541e-008     -1.6462e-009   
  -3.05           -0.00104257     1.1564e-008     1.0664e-009    
  -3.1            -0.0010463      -1.3536e-008    2.7553e-009    
  -3.15           -0.00104919     -9.979e-009     -4.5e-010      
  -3.2            -0.00105137     2.5085e-008     -1.5036e-009   
  -3.25           -0.00105768     1.2992e-008     1.2456e-009    
  -3.3            -0.00106098     -1.4671e-008    2.5541e-009    
  -3.35           -0.00106505     -1.8777e-008    1.5584e-009    
  -3.4            -0.00106836     -1.536e-008     2.0993e-009    
  -3.45           -0.00107225     -1.0912e-008    2.6254e-009    
  -3.5            -0.00107592     -3.564e-009     2.8796e-009    
  -3.55           -0.00107925     -9.268e-009     2.2044e-009    
  -3.6            -0.00108149     5.014e-009      -2.1913e-009   
  -3.65           -0.00108477     2.6194e-008     6.24e-010      
  -3.7            -0.00108897     2.0116e-008     2.5015e-009    
  -3.75           -0.00109136     1.7174e-008     -2.0364e-009   
  -3.8            -0.0010945      4.2404e-008     3.913e-010     
  -3.85           -0.0010995      1.7142e-008     1.5106e-009    
  -3.9            -0.00110144     4.4911e-008     -2.6273e-009   
  -3.95           -0.00110555     7.3439e-008     9.997e-010     
  -4              -0.00110914     5.138e-008      2.193e-009     
  -4.05           -0.00111142     8.7726e-008     -2.194e-009    
  -4.1            -0.0011142      1.0818e-007     1.67e-010      
  -4.15           -0.0011167      1.616e-007      -2.2151e-009   
