! VERSION = 6.00
BEGIN_HEADER
 ICCAP_INPUTS
  VG         V  B GROUND SMU4 0.001 LIN        2    0          -5         6    -1        
  VS         V  E GROUND SMU2 0.1 CON        0
  VD         V  S GROUND SMU1 0.1 LIN        1    0          -5         101  -0.05     
  VB         V  C GROUND SMU3 0.1 LIN        3    0          2.5        2    2.5       
 ICCAP_OUTPUTS
  ID         I  S GROUND SMU1 B
  IB         I  C GROUND SMU3 B
  IG         I  B GROUND SMU4 B
END_HEADER

BEGIN_DB
 ICCAP_VAR VG         0              
 ICCAP_VAR VS         0              
 ICCAP_VAR VB         0              

 #VD              ID              IB              IG             
  0               -2.13e-010      1.2506e-008     5.555e-010     
  -0.05           2.2661e-009     -9.996e-009     1.2124e-009    
  -0.1            1.9744e-009     1.0848e-008     -2.318e-010    
  -0.15           2.0634e-009     1.0408e-008     -5.76e-011     
  -0.2            2.172e-009      1.0454e-008     1.352e-010     
  -0.25           2.2792e-009     1.0971e-008     3.444e-010     
  -0.3            2.3578e-009     1.1403e-008     5.642e-010     
  -0.35           2.391e-009      1.1371e-008     7.696e-010     
  -0.4            2.374e-009      1.0799e-008     9.496e-010     
  -0.45           2.3161e-009     1.0991e-008     1.124e-009     
  -0.5            2.1877e-009     1.1207e-008     1.3017e-009    
  -0.55           2.015e-009      1.0647e-008     -1.488e-010    
  -0.6            2.1106e-009     1.0396e-008     2.93e-011      
  -0.65           2.2279e-009     1.0633e-008     2.349e-010     
  -0.7            2.3199e-009     1.1138e-008     4.544e-010     
  -0.75           2.3817e-009     1.1557e-008     6.683e-010     
  -0.8            2.3876e-009     1.116e-008      8.6e-010       
  -0.85           2.3548e-009     1.0857e-008     1.0298e-009    
  -0.9            1.8715e-009     1.2109e-008     -1.5486e-009   
  -0.95           -1.4265e-009    8.835e-009      -1.8549e-009   
  -1              -2.2854e-009    -1.1525e-008    -5.431e-010    
  -1.05           -1.5258e-009    -2.3428e-008    2.3963e-009    
  -1.1            2.1351e-009     -5.974e-009     1.3754e-009    
  -1.15           1.9001e-009     1.2099e-008     1.5776e-009    
  -1.2            2.1516e-009     1.0356e-008     1.027e-010     
  -1.25           2.2682e-009     1.0909e-008     3.125e-010     
  -1.3            2.3456e-009     1.1309e-008     5.352e-010     
  -1.35           2.388e-009      1.1415e-008     7.408e-010     
  -1.4            2.3778e-009     1.0985e-008     9.217e-010     
  -1.45           2.3286e-009     1.0919e-008     1.0956e-009    
  -1.5            2.2084e-009     1.1419e-008     1.2768e-009    
  -1.55           1.9998e-009     1.0726e-008     -1.775e-010    
  -1.6            2.0934e-009     1.0304e-008     3.2e-012       
  -1.65           2.2106e-009     1.0454e-008     2.013e-010     
  -1.7            2.3077e-009     1.1165e-008     4.175e-010     
  -1.75           2.3757e-009     1.1479e-008     6.318e-010     
  -1.8            2.3889e-009     1.1272e-008     8.304e-010     
  -1.85           2.3614e-009     1.0859e-008     1.0075e-009    
  -1.9            2.283e-009      1.1168e-008     1.1736e-009    
  -1.95           2.1303e-009     1.1532e-008     1.3691e-009    
  -2              1.9035e-009     1.1506e-008     1.5648e-009    
  -2.05           2.1413e-009     1.0348e-008     9.47e-011      
  -2.1            2.262e-009      1.0722e-008     3.024e-010     
  -2.15           2.3438e-009     1.1297e-008     5.228e-010     
  -2.2            2.3891e-009     1.1501e-008     7.279e-010     
  -2.25           2.3811e-009     1.1069e-008     9.109e-010     
  -2.3            2.3332e-009     1.0936e-008     1.0795e-009    
  -2.35           2.2197e-009     1.1514e-008     1.2555e-009    
  -2.4            1.9935e-009     1.0757e-008     -1.91e-010     
  -2.45           2.0851e-009     1.0364e-008     -9.7e-012      
  -2.5            2.2031e-009     1.0478e-008     1.872e-010     
  -2.55           2.3014e-009     1.1171e-008     3.996e-010     
  -2.6            1.4074e-009     2.5234e-008     -1.39e-009     
  -2.65           1.86e-011       8.08e-009       -1.366e-009    
  -2.7            1.684e-010      9.03e-009       -2.6706e-009   
  -2.75           -1.3295e-009    5.43e-010       -1.9187e-009   
  -2.8            -1.7194e-009    -1.3602e-008    1.6638e-009    
  -2.85           1.5677e-009     -8.957e-009     1.8362e-009    
  -2.9            2.2934e-009     1.0992e-008     3.85e-010      
  -2.95           1.397e-009      2.545e-008      -1.3916e-009   
  -3              6.8e-012        8.034e-009      -1.3659e-009   
  -3.05           1.573e-010      8.954e-009      -2.6791e-009   
  -3.1            -1.3406e-009    4.73e-010       -1.9106e-009   
  -3.15           -1.7097e-009    -1.3919e-008    1.6893e-009    
  -3.2            1.5864e-009     -9.14e-009      1.8263e-009    
  -3.25           2.2861e-009     1.0997e-008     3.662e-010     
  -3.3            2.3589e-009     1.147e-008      5.822e-010     
  -3.35           2.385e-009      1.1439e-008     7.834e-010     
  -3.4            2.3685e-009     1.0992e-008     9.623e-010     
  -3.45           2.2998e-009     1.1117e-008     1.1316e-009    
  -3.5            2.1674e-009     1.1569e-008     1.3155e-009    
  -3.55           2.0114e-009     1.0634e-008     -1.395e-010    
  -3.6            2.1088e-009     1.03e-008       3.96e-011      
  -3.65           2.2276e-009     1.0597e-008     2.423e-010     
  -3.7            2.3191e-009     1.1136e-008     4.576e-010     
  -3.75           2.3713e-009     1.1251e-008     6.73e-010      
  -3.8            2.3797e-009     1.0894e-008     8.634e-010     
  -3.85           2.3407e-009     1.0809e-008     1.0384e-009    
  -3.9            1.8615e-009     1.1948e-008     -1.5472e-009   
  -3.95           -1.4319e-009    8.691e-009      -1.8549e-009   
  -4              -2.3037e-009    -1.1621e-008    -5.418e-010    
  -4.05           -1.5348e-009    -2.3263e-008    2.3883e-009    
  -4.1            2.115e-009      -6.034e-009     1.3771e-009    
  -4.15           1.8776e-009     1.144e-008      1.5729e-009    
  -4.2            2.1364e-009     1.025e-008      1.025e-010     
  -4.25           2.2504e-009     1.0794e-008     3.124e-010     
  -4.3            2.3278e-009     1.1206e-008     5.274e-010     
  -4.35           2.3659e-009     1.1244e-008     7.335e-010     
  -4.4            2.3573e-009     1.0717e-008     9.201e-010     
  -4.45           2.3041e-009     1.0929e-008     1.0856e-009    
  -4.5            2.1898e-009     1.2051e-008     1.2628e-009    
  -4.55           1.968e-009      1.0761e-008     -1.851e-010    
  -4.6            2.0551e-009     1.0312e-008     -6.8e-012      
  -4.65           2.1703e-009     1.0514e-008     1.898e-010     
  -4.7            2.2655e-009     1.1109e-008     4.059e-010     
  -4.75           2.3258e-009     1.1317e-008     6.192e-010     
  -4.8            2.3382e-009     1.13e-008       8.134e-010     
  -4.85           2.3127e-009     1.0822e-008     9.87e-010      
  -4.9            2.2352e-009     1.1515e-008     1.1567e-009    
  -4.95           2.0658e-009     1.2306e-008     1.3444e-009    
  -5              1.9674e-009     1.0661e-008     -1.155e-010    
END_DB

BEGIN_DB
 ICCAP_VAR VG         -1             
 ICCAP_VAR VS         0              
 ICCAP_VAR VB         0              

 #VD              ID              IB              IG             
  0               -9.9537e-008    1.2207e-008     -4.531e-010    
  -0.05           -5.2845e-006    -1.0463e-008    -1.852e-009    
  -0.1            -8.5504e-006    1.9466e-008     -1.6911e-009   
  -0.15           -1.08341e-005   1.2414e-008     2.092e-009     
  -0.2            -1.2303e-005    -1.7242e-008    4.159e-010     
  -0.25           -1.372e-005     -2.1093e-008    1.5806e-009    
  -0.3            -1.4683e-005    -1.1828e-008    2.2e-011       
  -0.35           -1.5379e-005    1.3556e-008     -2.1161e-009   
  -0.4            -1.629e-005     1.1116e-008     6.619e-010     
  -0.45           -1.7213e-005    -2.4588e-008    1.3853e-009    
  -0.5            -1.7919e-005    -1.1173e-008    -1.843e-010    
  -0.55           -1.8472e-005    1.7927e-008     -1.8158e-009   
  -0.6            -1.9292e-005    1.1497e-008     8.819e-010     
  -0.65           -2.0091e-005    -2.6989e-008    1.2955e-009    
  -0.7            -2.0702e-005    -1.0913e-008    -4.421e-010    
  -0.75           -2.1229e-005    2.1584e-008     -1.5876e-009   
  -0.8            -2.2099e-005    1.117e-008      1.0733e-009    
  -0.85           -2.2793e-005    -2.6802e-008    2.3423e-009    
  -0.9            -2.3362e-005    -1.1415e-008    -6.883e-010    
  -0.95           -2.3893e-005    2.4911e-008     -1.4657e-009   
  -1              -2.4877e-005    1.0748e-008     1.2764e-009    
  -1.05           -2.5564e-005    -1.5e-008       2.7123e-009    
  -1.1            -2.6124e-005    -1.0942e-008    -3.548e-010    
  -1.15           -2.6609e-005    2.0477e-008     -1.6453e-009   
  -1.2            -2.7487e-005    1.1379e-008     1.0105e-009    
  -1.25           -2.8226e-005    -2.7275e-008    2.4451e-009    
  -1.3            -2.8802e-005    -1.1193e-008    -6.113e-010    
  -1.35           -2.9324e-005    2.3976e-008     -1.4939e-009   
  -1.4            -3.0346e-005    1.0809e-008     1.2058e-009    
  -1.45           -3.0983e-005    -2.474e-008     2.0922e-009    
  -1.5            -3.1767e-005    -1.5333e-008    1.4992e-009    
  -1.55           -3.2446e-005    -1.1572e-008    -4.25e-011     
  -1.6            -3.2828e-005    1.5115e-008     -2.004e-009    
  -1.65           -3.3699e-005    1.1373e-008     7.402e-010     
  -1.7            -3.4617e-005    -2.5254e-008    1.3471e-009    
  -1.75           -3.5233e-005    -1.1056e-008    -2.707e-010    
  -1.8            -3.5717e-005    1.9327e-008     -1.7235e-009   
  -1.85           -3.6626e-005    1.1465e-008     9.436e-010     
  -1.9            -3.7471e-005    -2.7463e-008    1.2777e-009    
  -1.95           -3.808e-005     -1.0931e-008    -5.267e-010    
  -2              -3.861e-005     2.2583e-008     -1.5362e-009   
  -2.05           -3.9685e-005    1.096e-008      1.141e-009     
  -2.1            -4.0391e-005    -2.5885e-008    2.222e-009     
  -2.15           -4.0984e-005    -1.1547e-008    -7.772e-010    
  -2.2            -4.1574e-005    2.6022e-008     -1.4411e-009   
  -2.25           -4.2814e-005    1.0919e-008     1.3498e-009    
  -2.3            -4.3432e-005    -2.1303e-008    1.8516e-009    
  -2.35           -4.434e-005     -1.3132e-008    1.759e-010     
  -2.4            -4.4601e-005    1.0398e-008     -2.3785e-009   
  -2.45           -4.5765e-005    1.265e-008      2.0857e-009    
  -2.5            -4.6574e-005    -1.1255e-008    -8.05e-011     
  -2.55           -4.701e-005     1.6444e-008     -1.9368e-009   
  -2.6            -4.7984e-005    1.174e-008      7.892e-010     
  -2.65           -4.8979e-005    -2.5374e-008    1.3262e-009    
  -2.7            -4.9775e-005    -1.938e-008     1.7653e-009    
  -2.75           -5.0644e-005    -1.174e-008     1.282e-010     
  -2.8            -5.0944e-005    1.2369e-008     -2.3076e-009   
  -2.85           -5.2191e-005    1.3646e-008     2.1409e-009    
  -2.9            -5.3057e-005    -2.0442e-008    1.4871e-009    
  -2.95           -5.384e-005     -1.6018e-008    2.1891e-009    
  -3              -5.4758e-005    -1.1033e-008    2.7915e-009    
  -3.05           -5.5512e-005    -1.5337e-008    2.087e-009     
  -3.1            -5.6432e-005    -1.0299e-008    2.7414e-009    
  -3.15           -5.7192e-005    -1.4067e-008    1.9829e-009    
  -3.2            -5.8105e-005    -9.076e-009     2.6874e-009    
  -3.25           -5.8922e-005    -1.1624e-008    1.8825e-009    
  -3.3            -5.9828e-005    -6.498e-009     2.6248e-009    
  -3.35           -6.0495e-005    2.4307e-008     2.2811e-009    
  -3.4            -6.1584e-005    7.65e-010       2.7976e-009    
  -3.45           -6.1914e-005    7.735e-009      -1.8209e-009   
  -3.5            -6.2916e-005    3.2497e-008     -1.602e-010    
  -3.55           -6.4053e-005    2.2396e-008     2.0244e-009    
  -3.6            -6.4764e-005    2.1835e-008     -2.1611e-009   
  -3.65           -6.5594e-005    4.6335e-008     4.263e-010     
  -3.7            -6.6885e-005    2.1215e-008     1.5751e-009    
  -3.75           -6.7511e-005    4.3961e-008     -2.4603e-009   
  -3.8            -6.847e-005     7.1074e-008     7.691e-010     
  -3.85           -6.9673e-005    4.4496e-008     1.3353e-009    
  -3.9            -7.0293e-005    7.6675e-008     -2.698e-009    
  -3.95           -7.133e-005     1.0222e-007     -2.0189e-009   
  -4              -7.2334e-005    8.948e-008      -5.259e-010    
  -4.05           -7.3647e-005    1.2066e-007     2.8589e-009    
  -4.1            -7.3949e-005    1.4301e-007     -1.7426e-009   
  -4.15           -7.5105e-005    1.9139e-007     -2.59e-010     
  -4.2            -7.6556e-005    1.9039e-007     2.6138e-009    
  -4.25           -7.7066e-005    2.292e-007      -1.916e-009    
  -4.3            -7.8013e-005    2.8542e-007     4.06e-011      
  -4.35           -7.9477e-005    2.9649e-007     2.1408e-009    
  -4.4            -8.0211e-005    3.5287e-007     -2.1109e-009   
  -4.45           -8.1191e-005    4.2375e-007     3.881e-010     
  -4.5            -8.2676e-005    4.4985e-007     1.6623e-009    
  -4.55           -8.3439e-005    5.2782e-007     -2.385e-009    
  -4.6            -8.4586e-005    6.2016e-007     7.518e-010     
  -4.65           -8.6006e-005    6.6213e-007     1.4051e-009    
  -4.7            -8.737e-005     7.7143e-007     -2.6052e-009   
  -4.75           -8.8141e-005    8.9019e-007     1.0931e-009    
  -4.8            -8.9387e-005    9.5765e-007     1.3729e-009    
  -4.85           -9.0315e-005    1.10115e-006    -2.6335e-009   
  -4.9            -9.153e-005     1.2743e-006     -1.8836e-009   
  -4.95           -9.3159e-005    1.403e-006      2.5024e-009    
  -5              -9.4526e-005    1.5384e-006     -7.28e-011     
END_DB

BEGIN_DB
 ICCAP_VAR VG         -2             
 ICCAP_VAR VS         0              
 ICCAP_VAR VB         0              

 #VD              ID              IB              IG             
  0               -4.7651e-007    -1.2137e-008    1.1496e-009    
  -0.05           -4.1335e-005    1.1392e-008     -2.7806e-009   
  -0.1            -8.0113e-005    1.0796e-008     1.3359e-009    
  -0.15           -0.00011676     -1.7177e-008    -1.748e-010    
  -0.2            -0.0001512      2.0027e-008     -1.6797e-009   
  -0.25           -0.00018359     1.1072e-008     1.0889e-009    
  -0.3            -0.00021354     -2.4741e-008    2.0922e-009    
  -0.35           -0.00024127     -1.3428e-008    1.909e-010     
  -0.4            -0.00026613     1.2187e-008     -2.2339e-009   
  -0.45           -0.00028939     1.1116e-008     7.084e-010     
  -0.5            -0.00031051     -2.646e-008     1.3077e-009    
  -0.55           -0.00032914     -1.0959e-008    -5.369e-010    
  -0.6            -0.00034578     2.4664e-008     -1.4702e-009   
  -0.65           -0.00036167     1.0976e-008     1.3843e-009    
  -0.7            -0.00037522     -1.7191e-008    1.6189e-009    
  -0.75           -0.00038747     -1.1597e-008    -5.83e-011     
  -0.8            -0.00039787     1.806e-008      -1.8073e-009   
  -0.85           -0.00040822     1.1301e-008     9.952e-010     
  -0.9            -0.00041729     -2.6282e-008    2.2788e-009    
  -0.95           -0.00042561     -1.4935e-008    2.737e-010     
  -1              -0.00043237     1.0351e-008     -2.3809e-009   
  -1.05           -0.00043971     1.0908e-008     5.934e-010     
  -1.1            -0.0004468      -2.5147e-008    1.3521e-009    
  -1.15           -0.0004526      -1.0934e-008    -4.037e-010    
  -1.2            -0.00045781     2.3066e-008     -1.5205e-009   
  -1.25           -0.00046424     1.0648e-008     1.273e-009     
  -1.3            -0.00046926     -1.9545e-008    1.7666e-009    
  -1.35           -0.00047442     -1.1908e-008    3.13e-011      
  -1.4            -0.00047817     1.5902e-008     -1.9429e-009   
  -1.45           -0.00048337     1.1481e-008     9e-010         
  -1.5            -0.00048838     -2.7202e-008    2.4406e-009    
  -1.55           -0.00049207     -1.1531e-008    -7.628e-010    
  -1.6            -0.00049578     2.7109e-008     -1.4184e-009   
  -1.65           -0.00050126     1.1334e-008     1.5969e-009    
  -1.7            -0.00050489     -1.3676e-008    2.109e-010     
  -1.75           -0.00050787     1.1725e-008     -2.2793e-009   
  -1.8            -0.00051222     1.1161e-008     6.768e-010     
  -1.85           -0.00051664     -2.6081e-008    1.3208e-009    
  -1.9            -0.00052011     -1.0945e-008    -5.018e-010    
  -1.95           -0.000523       2.4269e-008     -1.4829e-009   
  -2              -0.00052793     1.0918e-008     1.3607e-009    
  -2.05           -0.00053123     -1.7844e-008    1.6478e-009    
  -2.1            -0.00053479     -1.1607e-008    -3.26e-011     
  -2.15           -0.00053735     1.7472e-008     -1.8415e-009   
  -2.2            -0.00054154     1.1407e-008     9.749e-010     
  -2.25           -0.00054512     -2.6703e-008    2.3203e-009    
  -2.3            -0.00054858     -1.5265e-008    1.5069e-009    
  -2.35           -0.00055184     -1.1184e-008    -1.612e-010    
  -2.4            -0.00055436     1.9751e-008     -1.693e-009    
  -2.45           -0.0005584      1.1246e-008     1.0763e-009    
  -2.5            -0.00056202     -1.3753e-008    2.781e-009     
  -2.55           -0.00056484     -1.0744e-008    -4.091e-010    
  -2.6            -0.00056736     2.3364e-008     -1.516e-009    
  -2.65           -0.00057164     1.1053e-008     1.2812e-009    
  -2.7            -0.00057451     -1.9182e-008    1.7567e-009    
  -2.75           -0.00057779     -2.6748e-008    1.2739e-009    
  -2.8            -0.00058104     -1.4725e-008    1.5233e-009    
  -2.85           -0.00058412     -1.7744e-008    2.0273e-009    
  -2.9            -0.0005872      -2.4447e-008    1.3158e-009    
  -2.95           -0.00059022     -1.8984e-008    1.5592e-009    
  -3              -0.00059324     -1.5694e-008    2.0848e-009    
  -3.05           -0.00059639     -1.2244e-008    2.6156e-009    
  -3.1            -0.00059951     -6.421e-009     2.8722e-009    
  -3.15           -0.00060245     -1.1793e-008    2.1462e-009    
  -3.2            -0.00060547     -7.285e-009     2.649e-009     
  -3.25           -0.00060848     -1.28e-010      2.8826e-009    
  -3.3            -0.0006112      -4.185e-009     2.1985e-009    
  -3.35           -0.0006136      9.703e-009      -2.1952e-009   
  -3.4            -0.00061652     3.282e-008      6.127e-010     
  -3.45           -0.00062014     2.085e-009      1.3458e-009    
  -3.5            -0.00062239     2.8384e-008     -2.7361e-009   
  -3.55           -0.000626       5.3227e-008     1.2594e-009    
  -3.6            -0.00062854     3.2508e-008     1.7847e-009    
  -3.65           -0.00063103     5.8215e-008     -2.4319e-009   
  -3.7            -0.00063405     9.0854e-008     8.567e-010     
  -3.75           -0.00063735     6.9749e-008     1.6034e-009    
  -3.8            -0.00064033     1.04734e-007    -1.0578e-009   
  -3.85           -0.00064194     1.3403e-007     -1.4262e-009   
  -3.9            -0.00064546     1.8224e-007     2.8415e-009    
  -3.95           -0.00064752     1.9776e-007     -1.3403e-009   
  -4              -0.00065059     2.6869e-007     -1.6645e-009   
  -4.05           -0.00065406     3.0956e-007     2.5628e-009    
  -4.1            -0.00065658     3.4415e-007     -9.421e-010    
  -4.15           -0.00065903     4.4979e-007     -1.3881e-009   
