! VERSION = 6.00
BEGIN_HEADER
 ICCAP_INPUTS
  VG         V  B GROUND SMU4 0.001 LIN        2    0          -1.8       6    -0.36     
  VS         V  E GROUND SMU2 0.1 CON        0
  VD         V  S GROUND SMU1 0.1 LIN        1    0          -1.8       37   -0.05     
  VB         V  C GROUND SMU3 0.1 LIN        3    0          0.9        2    0.9       
 ICCAP_OUTPUTS
  ID         I  S GROUND SMU1 B
  IB         I  C GROUND SMU3 B
  IG         I  B GROUND SMU4 B
END_HEADER

BEGIN_DB
 ICCAP_VAR VG         0              
 ICCAP_VAR VS         0              
 ICCAP_VAR VB         0              

 #VD              ID              IB              IG             
  0               9.365e-010      -9.622e-009     1.0565e-009    
  -0.05           -2.1254e-009    1.1811e-008     8.583e-010     
  -0.1            -3.415e-009     1.3389e-008     1.0471e-009    
  -0.15           -4.3275e-009    1.4154e-008     1.2396e-009    
  -0.2            -4.4403e-009    8.255e-009      1.96e-011      
  -0.25           -5.0735e-009    8.924e-009      1.91e-010      
  -0.3            -5.7715e-009    8.78e-009       3.329e-010     
  -0.35           -6.5635e-009    8.515e-009      4.622e-010     
  -0.4            -7.4242e-009    9.035e-009      5.714e-010     
  -0.45           -1.1178e-008    -9.32e-009      -1.2896e-009   
  -0.5            -9.337e-009     1.5709e-008     1.675e-010     
  -0.55           -1.1279e-008    -1.1955e-008    1.1446e-009    
  -0.6            -1.1946e-008    -1.013e-008     1.1524e-009    
  -0.65           -1.5411e-008    -8.954e-009     -9.7e-012      
  -0.7            -1.562e-008     5.694e-009      -1.9195e-009   
  -0.75           -1.3818e-008    1.0439e-008     9.328e-010     
  -0.8            -1.637e-008     -4.632e-009     1.0973e-009    
  -0.85           -1.8607e-008    -1.2893e-008    1.6403e-009    
  -0.9            -1.9953e-008    -1.1914e-008    1.7657e-009    
  -0.95           -2.1165e-008    -1.1487e-008    1.1516e-009    
  -1              -2.4902e-008    -9.508e-009     -1.906e-010    
  -1.05           -2.5293e-008    8.598e-009      -1.7036e-009   
  -1.1            -2.4536e-008    1.1832e-008     1.1089e-009    
  -1.15           -2.7817e-008    -6.607e-009     1.1269e-009    
  -1.2            -3.0684e-008    -1.5006e-008    1.4147e-009    
  -1.25           -3.2797e-008    -1.3772e-008    1.5421e-009    
  -1.3            -3.5083e-008    -1.267e-008     1.6809e-009    
  -1.35           -3.7456e-008    -9.737e-009     1.8155e-009    
  -1.4            -3.9518e-008    -1.1223e-008    1.1521e-009    
  -1.45           -4.3792e-008    -9.494e-009     -1.622e-010    
  -1.5            -4.5328e-008    8.271e-009      -1.7359e-009   
  -1.55           -4.6053e-008    1.1708e-008     1.0802e-009    
  -1.6            -5.0757e-008    -5.974e-009     1.1221e-009    
  -1.65           -5.5045e-008    -1.4585e-008    1.4457e-009    
  -1.7            -5.839e-008     -1.3483e-008    1.5771e-009    
  -1.75           -6.2934e-008    -8.571e-009     1.0709e-009    
  -1.8            -6.5731e-008    -1.166e-008     1.1503e-009    
END_DB

BEGIN_DB
 ICCAP_VAR VG         -0.36          
 ICCAP_VAR VS         0              
 ICCAP_VAR VB         0              

 #VD              ID              IB              IG             
  0               -9.985e-010     1.0702e-008     1.1378e-009    
  -0.05           -1.6735e-006    -1.2361e-008    -1.8583e-009   
  -0.1            -2.6102e-006    2.414e-009      -1.24e-009     
  -0.15           -3.262e-006     1.1219e-008     1.0288e-009    
  -0.2            -3.6845e-006    -1.7668e-008    1.1131e-009    
  -0.25           -4.0041e-006    -6.586e-009     -2.3456e-009   
  -0.3            -4.3277e-006    8.787e-009      3.72e-010      
  -0.35           -4.6758e-006    -1.7355e-008    1.1936e-009    
  -0.4            -4.9042e-006    -9.621e-009     -2.479e-010    
  -0.45           -5.1535e-006    -1.82e-010      -1.2656e-009   
  -0.5            -5.4716e-006    8.764e-009      4.365e-010     
  -0.55           -5.762e-006     -3.298e-009     1.0536e-009    
  -0.6            -6.0421e-006    -1.3354e-008    1.1582e-009    
  -0.65           -6.3209e-006    -1.1853e-008    1.808e-009     
  -0.7            -6.5973e-006    -1.3166e-008    1.5842e-009    
  -0.75           -6.8756e-006    -1.5068e-008    1.3883e-009    
  -0.8            -7.146e-006     -1.5839e-008    1.1364e-009    
  -0.85           -7.3725e-006    -9.263e-009     -8.34e-011     
  -0.9            -7.6069e-006    1.2006e-008     -1.5153e-009   
  -0.95           -7.9388e-006    1.4491e-008     1.5229e-009    
  -1              -8.245e-006     -1.337e-008     1.575e-009     
  -1.05           -8.5391e-006    -1.5001e-008    1.3682e-009    
  -1.1            -8.8152e-006    -1.5597e-008    1.1395e-009    
  -1.15           -9.0434e-006    -9.315e-009     -1.022e-010    
  -1.2            -9.2853e-006    1.2284e-008     -1.5021e-009   
  -1.25           -9.6232e-006    1.4545e-008     1.5294e-009    
  -1.3            -9.9653e-006    -1.3508e-008    1.5585e-009    
  -1.35           -1.02291e-005   -8.708e-009     8.57e-011      
  -1.4            -1.04416e-005   8.727e-009      -1.699e-009    
  -1.45           -1.08431e-005   1.3798e-008     1.3688e-009    
  -1.5            -1.11777e-005   -1.1839e-008    1.1515e-009    
  -1.55           -1.1421e-005    5.547e-009      7.13e-011      
  -1.6            -1.1633e-005    4.74e-010       -1.2561e-009   
  -1.65           -1.2104e-005    8.615e-009      7.423e-010     
  -1.7            -1.2421e-005    -1.013e-008     1.1525e-009    
  -1.75           -1.2551e-005    -9.164e-009     -5.827e-010    
  -1.8            -1.2877e-005    2.327e-009      -1.2364e-009   
END_DB

BEGIN_DB
 ICCAP_VAR VG         -0.72          
 ICCAP_VAR VS         0              
 ICCAP_VAR VB         0              

 #VD              ID              IB              IG             
  0               -3.6659e-008    8.555e-009      -1.2404e-009   
  -0.05           -1.555e-005     -1.1795e-008    1.5668e-009    
  -0.1            -2.8051e-005    -1.921e-008     1.1305e-009    
  -0.15           -3.7783e-005    -1.2866e-008    1.6499e-009    
  -0.2            -4.5453e-005    -1.204e-008     1.1508e-009    
  -0.25           -5.1354e-005    -1.334e-008     1.5762e-009    
  -0.3            -5.6154e-005    -1.1169e-008    1.1515e-009    
  -0.35           -5.9952e-005    -1.4002e-008    1.5013e-009    
  -0.4            -6.3255e-005    -1.0041e-008    1.1518e-009    
  -0.45           -6.5619e-005    -9.011e-009     -5.553e-010    
  -0.5            -6.8114e-005    2.36e-009       -1.2386e-009   
  -0.55           -7.0772e-005    1.4355e-008     1.4478e-009    
  -0.6            -7.3025e-005    -1.5778e-008    1.2234e-009    
  -0.65           -7.4975e-005    -1.1768e-008    1.1496e-009    
  -0.7            -7.693e-005     -1.6261e-008    1.3025e-009    
  -0.75           -7.8777e-005    -1.1539e-008    1.1506e-009    
  -0.8            -8.0509e-005    -1.5367e-008    1.381e-009     
  -0.85           -8.2303e-005    -1.1072e-008    1.1531e-009    
  -0.9            -8.3868e-005    -1.4277e-008    1.4704e-009    
  -0.95           -8.5568e-005    -1.0264e-008    1.1526e-009    
  -1              -8.6539e-005    -8.893e-009     -5.606e-010    
  -1.05           -8.8078e-005    2.209e-009      -1.2379e-009   
  -1.1            -9.0054e-005    1.4148e-008     1.4607e-009    
  -1.15           -9.1729e-005    -1.7487e-008    1.2036e-009    
  -1.2            -9.3104e-005    -1.1626e-008    1.8103e-009    
  -1.25           -9.4348e-005    -9.361e-009     -1.443e-010    
  -1.3            -9.5483e-005    2.379e-009      -1.2447e-009   
  -1.35           -9.7619e-005    9.275e-009      9.315e-010     
  -1.4            -9.887e-005     -1.2873e-008    1.1466e-009    
  -1.45           -0.00010022     -1.2733e-008    1.6523e-009    
  -1.5            -0.00010168     -1.1926e-008    1.1519e-009    
  -1.55           -0.000102411    -9.076e-009     -5.758e-010    
  -1.6            -0.000103772    2.145e-009      -1.2385e-009   
  -1.65           -0.0001056      1.4501e-008     1.4617e-009    
  -1.7            -0.000107101    -1.7393e-008    1.2138e-009    
  -1.75           -0.000108329    -1.1769e-008    1.1401e-009    
  -1.8            -0.000109748    -1.6359e-008    1.2747e-009    
END_DB

BEGIN_DB
 ICCAP_VAR VG         -1.08          
 ICCAP_VAR VS         0              
 ICCAP_VAR VB         0              

 #VD              ID              IB              IG             
  0               -8.2991e-008    7.586e-009      1.1524e-009    
  -0.05           -4.0859e-005    8.44e-009       -2.296e-009    
  -0.1            -7.7519e-005    2.0548e-008     1.219e-009     
  -0.15           -0.000109745    -1.4051e-008    1.4877e-009    
  -0.2            -0.00013758     -8.88e-009      -2.0867e-009   
  -0.25           -0.0001615      7.569e-009      1.593e-010     
  -0.3            -0.00018218     -1.5665e-008    1.3435e-009    
  -0.35           -0.00019882     -9.597e-009     -2.268e-010    
  -0.4            -0.00021276     9.59e-010       -1.2532e-009   
  -0.45           -0.00022534     8.632e-009      5.714e-010     
  -0.5            -0.00023542     -4.397e-009     1.0902e-009    
  -0.55           -0.0002439      -8.69e-009      7.78e-011      
  -0.6            -0.00025087     1.1539e-008     -1.5486e-009   
  -0.65           -0.00025799     1.5048e-008     1.614e-009     
  -0.7            -0.00026428     -1.6113e-008    1.2922e-009    
  -0.75           -0.00026913     -9.658e-009     -2.621e-010    
  -0.8            -0.00027379     1.226e-009      -1.2509e-009   
  -0.85           -0.00027945     8.57e-009       6.078e-010     
  -0.9            -0.00028382     -4.506e-009     1.0967e-009    
  -0.95           -0.0002876      -8.824e-009     2.95e-011      
  -1              -0.00029103     1.2387e-008     -1.4999e-009   
  -1.05           -0.00029503     8.268e-009      2.392e-010     
  -1.1            -0.00029937     -1.6821e-008    1.2503e-009    
  -1.15           -0.00030341     -1.0988e-008    1.1531e-009    
  -1.2            -0.00030537     -9.62e-009      -4.122e-010    
  -1.25           -0.00030854     2.397e-009      -1.2432e-009   
  -1.3            -0.00031301     8.615e-009      7.627e-010     
  -1.35           -0.00031602     -7.087e-009     1.1307e-009    
  -1.4            -0.00031901     -1.125e-008     1.1492e-009    
  -1.45           -0.00032108     -9.54e-009      -4.052e-010    
  -1.5            -0.00032382     2.439e-009      -1.3448e-009   
  -1.55           -0.00032803     8.509e-009      7.481e-010     
  -1.6            -0.00033068     -6.869e-009     1.1285e-009    
  -1.65           -0.00033336     -1.1488e-008    1.1511e-009    
  -1.7            -0.0003352      -9.627e-009     -3.88e-010     
  -1.75           -0.00033764     2.413e-009      -1.3497e-009   
  -1.8            -0.0003416      8.793e-009      7.384e-010     
END_DB

BEGIN_DB
 ICCAP_VAR VG         -1.44          
 ICCAP_VAR VS         0              
 ICCAP_VAR VB         0              

 #VD              ID              IB              IG             
  0               -1.10567e-007   8.946e-009      1.1446e-009    
  -0.05           -6.4351e-005    1.2638e-008     -2.854e-010    
  -0.1            -0.00012532     2.587e-009      -1.2397e-009   
  -0.15           -0.00018289     1.2083e-008     1.1559e-009    
  -0.2            -0.00023645     -1.1523e-008    1.1493e-009    
  -0.25           -0.00028598     -1.2522e-008    1.6913e-009    
  -0.3            -0.00033159     -1.5624e-008    1.3222e-009    
  -0.35           -0.00037252     -9.647e-009     -2.428e-010    
  -0.4            -0.00040923     1.067e-009      -1.2506e-009   
  -0.45           -0.00044272     8.576e-009      5.837e-010     
  -0.5            -0.00047151     -4.409e-009     1.0931e-009    
  -0.55           -0.00049634     -8.754e-009     6.04e-011      
  -0.6            -0.00051736     1.1854e-008     -1.5312e-009   
  -0.65           -0.00053635     7.918e-009      2.208e-010     
  -0.7            -0.00055326     -1.6499e-008    1.2718e-009    
  -0.75           -0.00056663     -9.683e-009     -2.699e-010    
  -0.8            -0.00057866     1.461e-009      -1.2497e-009   
  -0.85           -0.00059099     8.648e-009      6.13e-010      
  -0.9            -0.00060101     -4.716e-009     1.101e-009     
  -0.95           -0.00061019     -1.7866e-008    1.1751e-009    
  -1              -0.00061854     -9.979e-009     1.149e-009     
  -1.05           -0.00062597     -1.2286e-008    1.7139e-009    
  -1.1            -0.00063338     -1.5517e-008    1.336e-009     
  -1.15           -0.00064039     -1.2313e-008    1.1496e-009    
  -1.2            -0.00064571     -9.907e-009     -3.421e-010    
  -1.25           -0.00065146     2.175e-009      -1.2475e-009   
  -1.3            -0.00065896     8.408e-009      6.839e-010     
  -1.35           -0.00066452     -5.615e-009     1.1162e-009    
  -1.4            -0.0006699      -8.104e-009     1.1404e-009    
  -1.45           -0.00067508     -1.0308e-008    1.15e-009      
  -1.5            -0.00067988     -1.1964e-008    1.7725e-009    
  -1.55           -0.00068491     -1.5019e-008    1.3824e-009    
  -1.6            -0.00068889     -9.652e-009     -1.981e-010    
  -1.65           -0.00069289     5.43e-010       -1.257e-009    
  -1.7            -0.00069871     8.653e-009      5.351e-010     
  -1.75           -0.00070304     -4.024e-009     1.0869e-009    
  -1.8            -0.00070768     -1.6509e-008    1.2583e-009    
END_DB

BEGIN_DB
 ICCAP_VAR VG         -1.8           
 ICCAP_VAR VS         0              
 ICCAP_VAR VB         0              

 #VD              ID              IB              IG             
  0               7.4663e-007     -9.56e-009      1.1503e-009    
  -0.05           -8.0847e-005    1.2794e-008     -1.6194e-009   
  -0.1            -0.00015928     1.5277e-008     1.4867e-009    
  -0.15           -0.00023501     -1.5185e-008    1.1466e-009    
  -0.2            -0.0003078      -1.0491e-008    1.1558e-009    
  -0.25           -0.00037739     -1.232e-008     1.7455e-009    
  -0.3            -0.00044411     -1.5343e-008    1.3756e-009    
  -0.35           -0.00050695     -9.607e-009     -2.136e-010    
  -0.4            -0.00056631     6.02e-010       -1.2574e-009   
  -0.45           -0.00062264     8.835e-009      5.64e-010      
  -0.5            -0.00067472     -2.981e-009     1.0934e-009    
  -0.55           -0.00072287     -1.6722e-008    1.1289e-009    
  -0.6            -0.00076735     -1.1083e-008    1.1502e-009    
  -0.65           -0.00080705     -9.663e-009     -4.098e-010    
  -0.7            -0.00084335     2.421e-009      -1.2476e-009   
  -0.75           -0.00087743     8.575e-009      7.549e-010     
  -0.8            -0.00090656     -7.116e-009     1.1318e-009    
  -0.85           -0.00093244     -1.1404e-008    1.1514e-009    
  -0.9            -0.00095419     -9.736e-009     -3.922e-010    
  -0.95           -0.00097433     2.601e-009      -1.2506e-009   
  -1              -0.00099393     8.552e-009      7.346e-010     
  -1.05           -0.00100973     -6.731e-009     1.1257e-009    
  -1.1            -0.00102413     -1.1532e-008    1.154e-009     
  -1.15           -0.00103617     -9.719e-009     -3.687e-010    
  -1.2            -0.00104794     2.3e-009        -1.2479e-009   
  -1.25           -0.00106092     8.498e-009      7.301e-010     
  -1.3            -0.00107101     -6.031e-009     1.1231e-009    
  -1.35           -0.00108062     -1.1985e-008    1.1544e-009    
  -1.4            -0.00108834     -9.89e-009      -3.622e-010    
  -1.45           -0.00109663     2.306e-009      -1.2489e-009   
  -1.5            -0.0011066      8.427e-009      7.101e-010     
  -1.55           -0.00111422     -5.878e-009     1.1299e-009    
  -1.6            -0.00112154     -1.2317e-008    1.1557e-009    
  -1.65           -0.00112739     -9.847e-009     -3.515e-010    
  -1.7            -0.00113385     2.212e-009      -1.2495e-009   
  -1.75           -0.0011405      8.513e-009      -2.39e-009     
  -1.8            -0.0011479      8.829e-009      5.316e-010     
END_DB

BEGIN_DB
 ICCAP_VAR VG         0              
 ICCAP_VAR VS         0              
 ICCAP_VAR VB         0.9            

 #VD              ID              IB              IG             
  0               8.995e-010      -9.559e-009     1.104e-009     
  -0.05           1.1746e-009     1.4144e-008     1.1768e-009    
  -0.1            1.007e-009      1.5661e-008     1.4067e-009    
  -0.15           1.7404e-009     9.023e-009      1.335e-010     
  -0.2            6.382e-010      9.05e-009       -1.2482e-009   
  -0.25           -1.7889e-009    3.017e-009      -7.138e-010    
  -0.3            9.469e-010      -1.1674e-008    2.0525e-009    
  -0.35           1.178e-009      1.0305e-008     -1.2375e-009   
  -0.4            -1.1712e-009    9.089e-009      -1.3927e-009   
  -0.45           -1.2107e-009    -1.11e-008      1.1323e-009    
  -0.5            1.362e-009      -1.1777e-008    -1.257e-009    
  -0.55           -1.1142e-009    2.86e-009       -1.4866e-009   
  -0.6            1.2909e-009     -1.1152e-008    -1.2711e-009   
  -0.65           -1.1527e-009    2.51e-009       -1.4396e-009   
  -0.7            1.738e-009      -1.0276e-008    2.241e-010     
  -0.75           6.802e-010      8.652e-009      -1.2483e-009   
  -0.8            -1.1209e-009    2.534e-009      -1.668e-009    
  -0.85           -2.4e-011       -1.2516e-008    1.1506e-009    
  -0.9            -1.976e-010     -1.4817e-008    1.7837e-009    
  -0.95           1.6251e-009     -3.91e-010      5.44e-011      
  -1              4.945e-010      9.154e-009      -1.2542e-009   
  -1.05           -1.175e-009     3.035e-009      -1.5249e-009   
  -1.1            -2.0373e-009    -9.442e-009     -2.509e-010    
  -1.15           -1.2564e-009    -1.2775e-008    1.117e-009     
  -1.2            1.1941e-009     -1.1184e-008    -1.2688e-009   
  -1.25           -1.1803e-009    2.487e-009      -2.3518e-009   
  -1.3            -2.0709e-009    -9.748e-009     -1.306e-010    
  -1.35           -3.396e-010     -1.5364e-008    1.6843e-009    
  -1.4            1.2174e-009     1.4217e-008     -1.2552e-009   
  -1.45           -1.227e-009     3.251e-009      -2.3949e-009   
  -1.5            -1.396e-010     -1.207e-008     1.1488e-009    
  -1.55           -3.229e-010     -1.4246e-008    1.1433e-009    
  -1.6            -5.164e-010     -1.6071e-008    1.613e-009     
  -1.65           1.1464e-009     1.4378e-008     -1.3117e-009   
  -1.7            -1.3211e-009    3.088e-009      -2.4093e-009   
  -1.75           -3.161e-010     -1.2577e-008    1.154e-009     
  -1.8            -5.116e-010     -1.4713e-008    1.7654e-009    
END_DB

BEGIN_DB
 ICCAP_VAR VG         -0.36          
 ICCAP_VAR VS         0              
 ICCAP_VAR VB         0.9            

 #VD              ID              IB              IG             
  0               -6.512e-010     2.64e-009       -1.245e-009    
  -0.05           -1.1629e-007    8.653e-009      -2.3459e-009   
  -0.1            -1.6048e-007    9.69e-009       8.412e-010     
  -0.15           -1.8912e-007    -8.527e-009     1.1421e-009    
  -0.2            -2.1197e-007    -1.0388e-008    1.1527e-009    
  -0.25           -2.3401e-007    -1.1527e-008    1.1524e-009    
  -0.3            -2.5755e-007    -1.2478e-008    1.6775e-009    
  -0.35           -2.8265e-007    -1.5794e-008    1.3078e-009    
  -0.4            -3.0953e-007    -1.1741e-008    1.1493e-009    
  -0.45           -3.2551e-007    -9.713e-009     -3.601e-010    
  -0.5            -3.5078e-007    2.625e-009      -1.2461e-009   
  -0.55           -3.8714e-007    8.48e-009       7.179e-010     
