! VERSION = 6.00
BEGIN_HEADER
 ICCAP_INPUTS
  VG         V  B GROUND SMU4 0.001 LIN        1    0          -1.8       37   -0.05     
  VS         V  E GROUND SMU2 0.1 CON        0
  VB         V  C GROUND SMU3 0.1 LIN        3    0          1.8        3    0.9       
  VD         V  S GROUND SMU1 0.1 LIN        2    -0.1       -1.8       2    -1.7      
 ICCAP_OUTPUTS
  IG         I  B GROUND SMU4 B
  ID         I  S GROUND SMU1 B
  IB         I  C GROUND SMU3 B
END_HEADER

BEGIN_DB
 ICCAP_VAR VS         0              
 ICCAP_VAR VB         0              
 ICCAP_VAR VD         -0.1           

 #VG              IG              ID              IB             
  0               -1.1532e-009    -1.1027e-009    1.0243e-008    
  -0.05           -1.9674e-009    -1.3017e-009    1.466e-009     
  -0.1            1.364e-009      -1.4781e-009    -2.7473e-008   
  -0.15           2.7571e-009     -9.961e-010     -9.487e-009    
  -0.2            5.87e-010       -1.4996e-009    1.0424e-008    
  -0.25           -2.2274e-009    -1.1246e-008    -2.5224e-008   
  -0.3            2.067e-010      -2.4089e-008    -1.2237e-008   
  -0.35           1.3949e-009     -4.4871e-008    -2.3421e-008   
  -0.4            2.839e-009      -7.579e-008     -9.179e-009    
  -0.45           -3.809e-010     -1.224e-007     9.17e-009      
  -0.5            2.125e-009      -1.7918e-007    -2.5294e-008   
  -0.55           1.487e-009      -2.4703e-007    -5.881e-009    
  -0.6            2.7975e-009     -3.3062e-007    -8.729e-009    
  -0.65           1.9971e-009     -4.2542e-007    1.2227e-008    
  -0.7            8.453e-010      -5.3439e-007    1.0286e-008    
  -0.75           1.2095e-009     -6.597e-007     9.2e-009       
  -0.8            5.6e-012        -7.9638e-007    1.086e-008     
  -0.85           4.586e-010      -9.5164e-007    1.0923e-008    
  -0.9            8.927e-010      -1.12432e-006   1.0121e-008    
  -0.95           -2.501e-009     -1.3106e-006    -2.0721e-008   
  -1              -1.9119e-009    -1.5041e-006    1.373e-009     
  -1.05           -2.6546e-009    -1.7051e-006    -6.027e-009    
  -1.1            2.066e-010      -1.9132e-006    -1.2251e-008   
  -1.15           1.3967e-009     -2.1142e-006    -2.3375e-008   
  -1.2            2.8371e-009     -2.3147e-006    -9.022e-009    
  -1.25           2.106e-009      -2.5108e-006    1.2688e-008    
  -1.3            9.447e-010      -2.7043e-006    9.949e-009     
  -1.35           1.308e-009      -2.8968e-006    9.777e-009     
  -1.4            1.7259e-009     -3.0805e-006    1.2137e-008    
  -1.45           5.825e-010      -3.2561e-006    1.0919e-008    
  -1.5            9.881e-010      -3.4312e-006    9.703e-009     
  -1.55           1.3544e-009     -3.601e-006     1.0103e-008    
  -1.6            1.7747e-009     -3.7639e-006    1.2211e-008    
  -1.65           6.369e-010      -3.9185e-006    1.0926e-008    
  -1.7            1.028e-009      -4.0729e-006    9.762e-009     
  -1.75           1.4056e-009     -4.2225e-006    9.668e-009     
  -1.8            1.8254e-009     -4.3656e-006    1.2326e-008    
END_DB

BEGIN_DB
 ICCAP_VAR VS         0              
 ICCAP_VAR VB         0              
 ICCAP_VAR VD         -1.8           

 #VG              IG              ID              IB             
  0               -2.4054e-009    -2.2666e-009    -3.78e-010     
  -0.05           2.1541e-009     -1.6276e-009    -1.9276e-008   
  -0.1            4.192e-010      1.7783e-009     -5.442e-009    
  -0.15           -2.6217e-009    -2.3844e-009    1.0465e-008    
  -0.2            -2.4663e-009    -5.5533e-009    1.169e-009     
  -0.25           -1.0449e-009    -1.2282e-008    1.9109e-008    
  -0.3            -1.3673e-009    -2.9543e-008    2.7697e-008    
  -0.35           -2.6164e-009    -6.1536e-008    8.853e-009     
  -0.4            -2.0861e-009    -1.11634e-007   1.251e-009     
  -0.45           4.016e-010      -1.8245e-007    -1.2931e-008   
  -0.5            8.465e-010      -2.8744e-007    1.0547e-008    
  -0.55           1.2078e-009     -4.3015e-007    9.267e-009     
  -0.6            1.605e-009      -6.1454e-007    1.0662e-008    
  -0.65           2.0459e-009     -8.455e-007     1.2356e-008    
  -0.7            8.85e-010       -1.13518e-006   1.0424e-008    
  -0.75           -1.3587e-009    -1.4823e-006    -1.1302e-008   
  -0.8            -2.5968e-009    -1.9044e-006    8.553e-009     
  -0.85           -2.0476e-009    -2.415e-006     1.245e-009     
  -0.9            1.123e-010      -3.0275e-006    -1.1963e-008   
  -0.95           1.3416e-009     -3.722e-006     -2.5722e-008   
  -1              2.8638e-009     -4.5145e-006    -9.863e-009    
  -1.05           2.6761e-009     -5.4053e-006    -2.88e-010     
  -1.1            1.4906e-009     -6.4307e-006    1.0164e-008    
  -1.15           3.262e-010      -7.4961e-006    1.104e-008     
  -1.2            7.812e-010      -8.7017e-006    1.0756e-008    
  -1.25           1.1481e-009     -1.00172e-005   9.528e-009     
  -1.3            1.5391e-009     -1.14101e-005   1.027e-008     
  -1.35           -2.0636e-009    -1.2828e-005    1.1723e-008    
  -1.4            2.3574e-009     -1.4396e-005    -2.7103e-008   
  -1.45           1.6771e-009     -1.6008e-005    -3.767e-009    
  -1.5            2.7222e-009     -1.77e-005      -8.647e-009    
  -1.55           1.8277e-009     -1.9462e-005    1.2196e-008    
  -1.6            6.875e-010      -2.1243e-005    1.0784e-008    
  -1.65           1.0726e-009     -2.3146e-005    9.459e-009     
  -1.7            1.4518e-009     -2.5097e-005    9.908e-009     
  -1.75           2.801e-010      -2.6993e-005    1.1033e-008    
  -1.8            7.328e-010      -2.9032e-005    1.0816e-008    
END_DB

BEGIN_DB
 ICCAP_VAR VS         0              
 ICCAP_VAR VB         0.9            
 ICCAP_VAR VD         -0.1           

 #VG              IG              ID              IB             
  0               6.58e-011       3.033e-010      9.351e-009     
  -0.05           2.3903e-009     -5.371e-010     -1.7049e-008   
  -0.1            1.2226e-009     2.1492e-009     -3.465e-009    
  -0.15           -2.144e-010     1.9599e-009     1.1222e-008    
  -0.2            -1.5479e-009    9.018e-010      2.6111e-008    
  -0.25           -1.7146e-009    -1.4323e-009    6.706e-009     
  -0.3            2.0089e-009     -1.5677e-009    -1.7011e-008   
  -0.35           4.995e-010      2.1664e-009     -6.679e-009    
  -0.4            -1.3929e-009    7.713e-010      1.0184e-008    
  -0.45           -2.7309e-009    -2.8129e-009    9.582e-009     
  -0.5            2.6656e-009     -8.31e-009      -2.6815e-008   
  -0.55           -1.7341e-009    -2.179e-008     -1.6585e-008   
  -0.6            -2.6986e-009    -5.0386e-008    -5.148e-009    
  -0.65           -9.296e-010     -9.987e-008     -1.0725e-008   
  -0.7            -2.1371e-009    -1.7064e-007    9.433e-009     
  -0.75           1.735e-010      -2.7105e-007    -1.244e-008    
  -0.8            1.3845e-009     -3.9308e-007    -2.4998e-008   
  -0.85           2.8573e-009     -5.3767e-007    -9.425e-009    
  -0.9            2.1438e-009     -7.0252e-007    1.1798e-008    
  -0.95           9.788e-010      -8.8819e-007    9.72e-009      
  -1              1.3408e-009     -1.0858e-006    1.0211e-008    
  -1.05           -1.7595e-009    -1.2875e-006    -1.2216e-008   
  -1.1            -2.6863e-009    -1.4955e-006    -5.356e-009    
  -1.15           -9.124e-010     -1.703e-006     -1.0822e-008   
  -1.2            1.4266e-009     -1.9119e-006    -1.3511e-008   
  -1.25           2.8337e-009     -2.1111e-006    -8.941e-009    
  -1.3            2.0788e-009     -2.3072e-006    1.2365e-008    
  -1.35           9.169e-010      -2.4998e-006    1.0239e-008    
  -1.4            1.2741e-009     -2.6893e-006    9.295e-009     
  -1.45           8.83e-011       -2.8671e-006    1.118e-008     
  -1.5            5.463e-010      -3.0431e-006    1.077e-008     
  -1.55           9.603e-010      -3.2161e-006    1.001e-008     
  -1.6            1.3176e-009     -3.3833e-006    9.387e-009     
  -1.65           1.7312e-009     -3.5425e-006    1.1624e-008    
  -1.7            5.941e-010      -3.6951e-006    1.0705e-008    
  -1.75           9.968e-010      -3.8462e-006    9.88e-009      
  -1.8            1.362e-009      -3.9919e-006    9.608e-009     
END_DB

BEGIN_DB
 ICCAP_VAR VS         0              
 ICCAP_VAR VB         0.9            
 ICCAP_VAR VD         -1.8           

 #VG              IG              ID              IB             
  0               -7.168e-010     -7.36e-010      -2.5129e-008   
  -0.05           -1.2318e-009    -2.0495e-009    9.314e-009     
  -0.1            1.3294e-009     -1.1563e-009    -2.7579e-008   
  -0.15           1.0682e-009     2.2777e-009     -9.771e-009    
  -0.2            1.2111e-009     2.1512e-009     1.1017e-008    
  -0.25           -2.301e-010     1.9464e-009     1.0843e-008    
  -0.3            -1.5639e-009    8.748e-010      2.5185e-008    
  -0.35           -1.7121e-009    -1.5614e-009    6.624e-009     
  -0.4            2.0555e-009     -2.0542e-009    -1.8022e-008   
  -0.45           1.7603e-009     -1.6764e-009    -6.557e-009    
  -0.5            1.5358e-009     -8.087e-009     -8.61e-009     
  -0.55           -1.4954e-009    -2.6889e-008    -1.2716e-008   
  -0.6            -1.3783e-009    -6.5257e-008    7.424e-009     
  -0.65           -2.193e-010     -1.3839e-007    9.24e-009      
  -0.7            -7.116e-010     -2.5309e-007    -1.1328e-008   
  -0.75           1.6695e-009     -4.2805e-007    -1.8276e-008   
  -0.8            2.7409e-009     -6.6882e-007    -8.716e-009    
  -0.85           1.8494e-009     -9.9492e-007    1.2477e-008    
  -0.9            -1.3884e-009    -1.4059e-006    -1.1496e-008   
  -0.95           -1.3229e-009    -1.9261e-006    9.22e-009      
  -1              -2.3971e-009    -2.5522e-006    8.879e-009     
  -1.05           -7.2e-010       -3.3058e-006    -1.1353e-008   
  -1.1            1.6517e-009     -4.1634e-006    -1.7875e-008   
  -1.15           2.7432e-009     -5.1173e-006    -8.709e-009    
  -1.2            1.8597e-009     -6.1807e-006    1.2431e-008    
  -1.25           7.196e-010      -7.317e-006     1.0798e-008    
  -1.3            1.0969e-009     -8.5893e-006    9.401e-009     
  -1.35           1.4784e-009     -9.9466e-006    1.1154e-008    
  -1.4            3.089e-010      -1.13229e-005   1.1006e-008    
  -1.45           -6.144e-010     -1.2835e-005    1.3596e-008    
  -1.5            1.7821e-009     -1.4425e-005    -2.0424e-008   
  -1.55           1.3348e-009     -1.6076e-005    -8.628e-009    
  -1.6            2.8555e-009     -1.7791e-005    -9.733e-009    
  -1.65           2.6997e-009     -1.9546e-005    -2.02e-010     
  -1.7            1.4675e-009     -2.1424e-005    1.1005e-008    
  -1.75           3.076e-010      -2.3239e-005    1.0909e-008    
  -1.8            7.592e-010      -2.5193e-005    1.0627e-008    
END_DB

BEGIN_DB
 ICCAP_VAR VS         0              
 ICCAP_VAR VB         1.8            
 ICCAP_VAR VD         -0.1           

 #VG              IG              ID              IB             
  0               7.926e-010      8.009e-010      -1.2298e-008   
  -0.05           9.014e-010      2.3439e-009     -8.735e-009    
  -0.1            1.048e-009      2.2921e-009     9.485e-009     
  -0.15           1.1882e-009     2.1724e-009     9.864e-009     
  -0.2            1.3487e-009     1.9933e-009     1.0589e-008    
  -0.25           1.5049e-009     1.7781e-009     1.1643e-008    
  -0.3            7.58e-011       2.0852e-009     1.1005e-008    
  -0.35           2.571e-010      2.1728e-009     1.0847e-008    
  -0.4            4.434e-010      2.2453e-009     1.0633e-008    
  -0.45           6.316e-010      2.3017e-009     1.0001e-008    
  -0.5            8.081e-010      2.2864e-009     9.48e-009      
  -0.55           -1.3418e-009    1.1538e-009     9.313e-009     
  -0.6            -2.6743e-009    -2.3088e-009    8.254e-009     
  -0.65           2.2463e-009     -7.9083e-009    -2.0879e-008   
  -0.7            -2.6297e-009    -2.3528e-008    -2.7239e-008   
  -0.75           -2.1345e-009    -6.2156e-008    1.213e-009     
  -0.8            1.0069e-009     -1.3148e-007    -1.7101e-008   
  -0.85           1.3753e-009     -2.4173e-007    1.0374e-008    
  -0.9            1.796e-009      -3.8596e-007    1.214e-008     
  -0.95           6.567e-010      -5.5638e-007    1.0858e-008    
  -1              1.05e-009       -7.505e-007     9.533e-009     
  -1.05           1.4242e-009     -9.5443e-007    1.0878e-008    
  -1.1            -1.379e-009     -1.1589e-006    -1.133e-008    
  -1.15           -1.3012e-009    -1.3684e-006    9.387e-009     
  -1.2            -2.2528e-009    -1.5769e-006    1.0175e-008    
  -1.25           2.135e-010      -1.7904e-006    -1.2505e-008   
  -1.3            1.407e-009      -1.9898e-006    -2.3649e-008   
  -1.35           2.8395e-009     -2.1848e-006    -9.171e-009    
  -1.4            2.099e-009      -2.3731e-006    1.23e-008      
  -1.45           9.363e-010      -2.5567e-006    1.0176e-008    
  -1.5            1.2971e-009     -2.7376e-006    9.246e-009     
  -1.55           1.7128e-009     -2.9102e-006    1.1294e-008    
  -1.6            5.707e-010      -3.0733e-006    1.0844e-008    
  -1.65           9.812e-010      -3.2365e-006    9.687e-009     
  -1.7            1.3528e-009     -3.3954e-006    1.02e-008      
  -1.75           1.7747e-009     -3.545e-006     1.2097e-008    
  -1.8            6.337e-010      -3.6901e-006    1.0777e-008    
END_DB

BEGIN_DB
 ICCAP_VAR VS         0              
 ICCAP_VAR VB         1.8            
 ICCAP_VAR VD         -1.8           

 #VG              IG              ID              IB             
  0               -1.0793e-009    5.102e-010      1.0087e-008    
  -0.05           -1.1011e-009    -2.1653e-009    -5.231e-009    
  -0.1            1.4244e-009     -1.0478e-009    -2.7098e-008   
  -0.15           9.462e-010      2.339e-009      -8.969e-009    
  -0.2            1.0932e-009     2.2665e-009     9.368e-009     
  -0.25           1.2398e-009     2.1232e-009     1.0073e-008    
  -0.3            1.3942e-009     1.9296e-009     1.1106e-008    
  -0.35           1.5518e-009     1.7052e-009     1.2641e-008    
  -0.4            -1.142e-010     1.9945e-009     1.2098e-008    
  -0.45           6.52e-011       2.064e-009      1.0972e-008    
  -0.5            2.507e-010      2.1025e-009     1.0857e-008    
  -0.55           4.389e-010      1.9177e-009     1.0683e-008    
  -0.6            -1.4565e-009    -2.0842e-009    1.0046e-008    
  -0.65           -1.41e-009      -7.7171e-009    8.212e-009     
  -0.7            2.2405e-009     -2.7437e-008    9.416e-009     
  -0.75           1.5724e-009     -7.675e-008     -4.658e-009    
  -0.8            -8.264e-010     -1.7843e-007    1.0102e-008    
  -0.85           1.5169e-009     -3.5048e-007    -1.5062e-008   
  -0.9            2.7952e-009     -6.0511e-007    -8.717e-009    
  -0.95           9.078e-010      -9.6168e-007    9.958e-009     
  -1              -1.3723e-009    -1.4192e-006    -1.1294e-008   
  -1.05           -1.2898e-009    -1.9947e-006    9.004e-009     
  -1.1            -2.1797e-009    -2.6886e-006    1.0738e-008    
  -1.15           1.734e-010      -3.5215e-006    -1.2291e-008   
  -1.2            1.38e-009       -4.4378e-006    -2.4692e-008   
  -1.25           2.8575e-009     -5.4559e-006    -9.571e-009    
  -1.3            2.1486e-009     -6.5679e-006    1.265e-008     
  -1.35           9.845e-010      -7.7895e-006    9.957e-009     
  -1.4            1.3507e-009     -9.1149e-006    9.436e-009     
  -1.45           1.7694e-009     -1.04955e-005   1.1981e-008    
  -1.5            6.65e-011       -1.1951e-005    9.491e-009     
  -1.55           1.3077e-009     -1.3492e-005    -2.6772e-008   
  -1.6            2.8693e-009     -1.5098e-005    -1.0411e-008   
  -1.65           2.5741e-009     -1.6758e-005    -6.25e-010     
  -1.7            1.8945e-009     -1.8507e-005    -2.303e-009    
  -1.75           1.3977e-009     -2.0298e-005    -7.589e-009    
  -1.8            2.847e-009      -2.2151e-005    -9.32e-009     
END_DB

