! VERSION = 6.00
BEGIN_HEADER
 ICCAP_INPUTS
  VG         V  B GROUND SMU4 0.001 LIN        2    0          -1.8       6    -0.36     
  VS         V  E GROUND SMU2 0.1 CON        0
  VD         V  S GROUND SMU1 0.1 LIN        1    0          -1.8       37   -0.05     
  VB         V  C GROUND SMU3 0.1 LIN        3    0          0.9        2    0.9       
 ICCAP_OUTPUTS
  ID         I  S GROUND SMU1 B
  IB         I  C GROUND SMU3 B
  IG         I  B GROUND SMU4 B
END_HEADER

BEGIN_DB
 ICCAP_VAR VG         0              
 ICCAP_VAR VS         0              
 ICCAP_VAR VB         0              

 #VD              ID              IB              IG             
  0               -5.956e-010     -1.7382e-008    2.066e-010     
  -0.05           -4.211e-010     -1.6355e-008    2.5722e-009    
  -0.1            2.217e-009      1.0972e-008     3.855e-010     
  -0.15           2.2777e-009     1.0786e-008     5.658e-010     
  -0.2            2.317e-009      9.952e-009      7.454e-010     
  -0.25           1.5953e-009     1.6481e-008     -1.7809e-009   
  -0.3            -1.6682e-009    4.674e-009      -1.5828e-009   
  -0.35           -1.4395e-009    -2.0772e-008    2.3343e-009    
  -0.4            2.0951e-009     -4.094e-009     1.2478e-009    
  -0.45           1.1621e-009     2.7972e-008     -1.37e-009     
  -0.5            -2.0974e-009    1.0929e-008     -1.1868e-009   
  -0.55           -1.1154e-009    -2.6267e-008    1.3711e-009    
  -0.6            2.2799e-009     -8.244e-009     9.931e-010     
  -0.65           1.7946e-009     1.1579e-008     -1.4864e-009   
  -0.7            -1.3656e-009    8.272e-009      -1.8182e-009   
  -0.75           -2.1968e-009    -1.165e-008     -4.678e-010    
  -0.8            -2.2249e-009    -1.1282e-008    -6.722e-010    
  -0.85           -2.2337e-009    -1.0428e-008    -8.443e-010    
  -0.9            -2.2007e-009    -9.856e-009     -9.785e-010    
  -0.95           -1.673e-009     -1.1836e-008    1.599e-009     
  -1              2.3152e-009     -8.522e-009     7.813e-010     
  -1.05           1.6253e-009     1.5426e-008     -1.7224e-009   
  -1.1            -1.6157e-009    5.248e-009      -1.6206e-009   
  -1.15           -2.1143e-009    -1.1394e-008    -1.703e-010    
  -1.2            -2.1772e-009    -1.1498e-008    -3.774e-010    
  -1.25           -2.2165e-009    -1.1173e-008    -5.803e-010    
  -1.3            -2.2322e-009    -1.053e-008     -7.801e-010    
  -1.35           -1.5718e-009    -1.5288e-008    1.973e-009     
  -1.4            1.8444e-009     -7.25e-009      1.4532e-009    
  -1.45           2.049e-009      1.0802e-008     5.27e-011      
  -1.5            1.0783e-009     2.7827e-008     -1.3967e-009   
  -1.55           -2.1638e-009    1.0006e-008     -1.0882e-009   
  -1.6            -1.7424e-009    -1.137e-008     1.4558e-009    
  -1.65           2.31e-009       -8.301e-009     8.958e-010     
  -1.7            2.2578e-009     9.151e-009      1.0434e-009    
  -1.75           9.913e-010      2.6885e-008     -1.4484e-009   
  -1.8            -2.206e-009     8.878e-009      -9.82e-010     
END_DB

BEGIN_DB
 ICCAP_VAR VG         -0.36          
 ICCAP_VAR VS         0              
 ICCAP_VAR VB         0              

 #VD              ID              IB              IG             
  0               -2.0988e-009    -2.86e-010      -2.3572e-009   
  -0.05           -1.8771e-008    2.4612e-008     2.8408e-009    
  -0.1            -2.8901e-008    -1.0492e-008    -9.793e-010    
  -0.15           -2.8498e-008    2.0121e-008     -1.5973e-009   
  -0.2            -2.7221e-008    1.0798e-008     3.135e-010     
  -0.25           -2.951e-008     -1.3558e-008    2.578e-009     
  -0.3            -3.1399e-008    -1.1602e-008    2.504e-010     
  -0.35           -3.0507e-008    9.513e-009      -1.3274e-009   
  -0.4            -2.7181e-008    9.773e-009      9.948e-010     
  -0.45           -3.0959e-008    -2.1235e-008    1.5261e-009    
  -0.5            -3.182e-008     -1.9582e-008    1.8468e-009    
  -0.55           -3.2019e-008    -1.1445e-008    -2.012e-010    
  -0.6            -3.083e-008     1.1453e-008     -2.5433e-009   
  -0.65           -2.921e-008     1.4377e-008     -1.4547e-009   
  -0.7            -2.8519e-008    1.045e-008      2.045e-009     
  -0.75           -3.2273e-008    -1.399e-008     1.5362e-009    
  -0.8            -3.2126e-008    -1.9853e-008    1.8639e-009    
  -0.85           -3.2178e-008    -1.1352e-008    -1.892e-010    
  -0.9            -3.1026e-008    1.1429e-008     -2.5533e-009   
  -0.95           -2.9318e-008    1.4585e-008     -1.4596e-009   
  -1              -2.8713e-008    1.0361e-008     2.0399e-009    
  -1.05           -3.2323e-008    -1.4319e-008    1.5549e-009    
  -1.1            -3.2196e-008    -2.0168e-008    1.8769e-009    
  -1.15           -3.206e-008     -2.5064e-008    2.2582e-009    
  -1.2            -3.2334e-008    -1.1268e-008    6.45e-011      
  -1.25           -3.1225e-008    1.1524e-008     -2.6945e-009   
  -1.3            -2.8013e-008    9.966e-009      9.717e-010     
  -1.35           -3.1514e-008    -2.0836e-008    1.5696e-009    
  -1.4            -3.2455e-008    -2.0553e-008    1.9026e-009    
  -1.45           -3.2685e-008    -1.1451e-008    -1.707e-010    
  -1.5            -3.1413e-008    1.1589e-008     -2.5735e-009   
  -1.55           -2.9792e-008    1.5231e-008     -1.4731e-009   
  -1.6            -2.8979e-008    1.0347e-008     2.0208e-009    
  -1.65           -3.2677e-008    -1.4733e-008    1.5748e-009    
  -1.7            -3.2672e-008    -2.0858e-008    1.9159e-009    
  -1.75           -3.2232e-008    -2.5311e-008    2.2979e-009    
  -1.8            -3.2618e-008    -1.1301e-008    8.51e-011      
END_DB

BEGIN_DB
 ICCAP_VAR VG         -0.72          
 ICCAP_VAR VS         0              
 ICCAP_VAR VB         0              

 #VD              ID              IB              IG             
  0               -4.622e-010     -1.1329e-008    -4.262e-010    
  -0.05           -3.0622e-007    1.0438e-008     -1.3566e-009   
  -0.1            -5.3975e-007    2.7306e-008     -1.3158e-009   
  -0.15           -7.1488e-007    2.1821e-008     -1.6916e-009   
  -0.2            -8.4033e-007    1.0903e-008     6.263e-010     
  -0.25           -9.3235e-007    -2.0867e-008    1.5557e-009    
  -0.3            -9.848e-007     -1.1522e-008    -8.663e-010    
  -0.35           -1.01781e-006   2.395e-008      -1.4248e-009   
  -0.4            -1.04695e-006   1.026e-008      9.313e-010     
  -0.45           -1.07086e-006   -2.5476e-008    1.3102e-009    
  -0.5            -1.07839e-006   -1.0163e-008    -1.1294e-009   
  -0.55           -1.08891e-006   2.7924e-008     -1.349e-009    
  -0.6            -1.09958e-006   2.6444e-008     -1.3028e-009   
  -0.65           -1.11014e-006   1.0806e-008     4.055e-010     
  -0.7            -1.12722e-006   -1.8423e-008    1.8491e-009    
  -0.75           -1.13123e-006   -1.1481e-008    -6.496e-010    
  -0.8            -1.13281e-006   2.0533e-008     -1.5682e-009   
  -0.85           -1.1418e-006    2.3391e-008     2.692e-009     
  -0.9            -1.1495e-006    -1.1433e-008    -7.898e-010    
  -0.95           -1.1496e-006    2.0484e-008     -1.5722e-009   
  -1              -1.1539e-006    1.0975e-008     6.106e-010     
  -1.05           -1.1668e-006    -1.9291e-008    1.7524e-009    
  -1.1            -1.1688e-006    -1.1451e-008    -5.812e-010    
  -1.15           -1.1662e-006    1.7672e-008     -1.7868e-009   
  -1.2            -1.1748e-006    1.0326e-008     1.9673e-009    
  -1.25           -1.1841e-006    -1.1813e-008    2.879e-010     
  -1.3            -1.1761e-006    1.1407e-008     -2.6939e-009   
  -1.35           -1.1799e-006    1.4596e-008     -1.4612e-009   
  -1.4            -1.1839e-006    1.0615e-008     7.577e-010     
  -1.45           -1.1946e-006    -2.092e-008     1.5507e-009    
  -1.5            -1.1935e-006    -1.1498e-008    -7.505e-010    
  -1.55           -1.1899e-006    1.9881e-008     -1.6109e-009   
  -1.6            -1.1925e-006    1.0937e-008     5.738e-010     
  -1.65           -1.2043e-006    -1.8941e-008    1.8006e-009    
  -1.7            -1.2065e-006    -1.842e-008     1.765e-009     
  -1.75           -1.2093e-006    -1.7752e-008    1.7291e-009    
  -1.8            -1.2079e-006    -1.1535e-008    -5.994e-010    
END_DB

BEGIN_DB
 ICCAP_VAR VG         -1.08          
 ICCAP_VAR VS         0              
 ICCAP_VAR VB         0              

 #VD              ID              IB              IG             
  0               -1.9272e-009    -1.139e-008     -2.5826e-009   
  -0.05           -9.2995e-007    2.6707e-008     -1.4242e-009   
  -0.1            -1.7433e-006    -1.1626e-008    -1.326e-009    
  -0.15           -2.4449e-006    2.6114e-008     -1.3015e-009   
  -0.2            -3.0451e-006    2.3e-008        -1.7545e-009   
  -0.25           -3.5569e-006    1.0513e-008     1.9885e-009    
  -0.3            -3.9784e-006    -1.1862e-008    2.753e-010     
  -0.35           -4.2958e-006    1.163e-008      -2.6884e-009   
  -0.4            -4.565e-006     1.4429e-008     -1.4517e-009   
  -0.45           -4.782e-006     1.0827e-008     7.789e-010     
  -0.5            -4.9584e-006    -2.1314e-008    1.5296e-009    
  -0.55           -5.0743e-006    -1.1587e-008    -7.729e-010    
  -0.6            -5.1615e-006    2.0378e-008     -1.5895e-009   
  -0.65           -5.2457e-006    1.0919e-008     5.935e-010     
  -0.7            -5.3272e-006    -1.9224e-008    1.7747e-009    
  -0.75           -5.3815e-006    -1.7958e-008    1.7368e-009    
  -0.8            -5.429e-006     -1.7233e-008    1.7007e-009    
  -0.85           -5.4626e-006    -1.1554e-008    -6.255e-010    
  -0.9            -5.4844e-006    1.8226e-008     -1.7363e-009   
  -0.95           -5.5379e-006    1.0558e-008     1.9993e-009    
  -1              -5.5801e-006    -1.1749e-008    2.648e-010     
  -1.05           -5.579e-006     1.1568e-008     -2.6843e-009   
  -1.1            -5.6109e-006    1.416e-008      -1.4452e-009   
  -1.15           -5.6462e-006    1.0887e-008     7.867e-010     
  -1.2            -5.6849e-006    -2.1352e-008    1.5176e-009    
  -1.25           -5.6938e-006    -1.1685e-008    -7.887e-010    
  -1.3            -5.7041e-006    2.0451e-008     -1.5804e-009   
  -1.35           -5.7315e-006    1.0909e-008     6.094e-010     
  -1.4            -5.7719e-006    -1.9258e-008    1.7582e-009    
  -1.45           -5.7818e-006    -1.1475e-008    -5.762e-010    
  -1.5            -5.7814e-006    1.757e-008      -1.793e-009    
  -1.55           -5.8212e-006    1.0626e-008     1.9633e-009    
  -1.6            -5.8463e-006    -1.2088e-008    2.919e-010     
  -1.65           -5.8322e-006    1.1217e-008     -2.698e-009    
  -1.7            -5.8512e-006    1.491e-008      -1.4658e-009   
  -1.75           -5.8762e-006    1.0897e-008     7.542e-010     
  -1.8            -5.9066e-006    -2.082e-008     1.5515e-009    
END_DB

BEGIN_DB
 ICCAP_VAR VG         -1.44          
 ICCAP_VAR VS         0              
 ICCAP_VAR VB         0              

 #VD              ID              IB              IG             
  0               -1.9664e-009    1.0814e-008     -2.6708e-009   
  -0.05           -1.6168e-006    1.0537e-008     2.8389e-009    
  -0.1            -3.1366e-006    -1.6051e-008    1.6452e-009    
  -0.15           -4.5449e-006    -1.1549e-008    -6.503e-010    
  -0.2            -5.8416e-006    1.8333e-008     -1.6911e-009   
  -0.25           -7.0469e-006    9.756e-009      2.0216e-009    
  -0.3            -8.1485e-006    -1.1497e-008    2.469e-010     
  -0.35           -9.1097e-006    1.1732e-008     -2.6779e-009   
  -0.4            -1.00061e-005   8.961e-009      1.2179e-009    
  -0.45           -1.07762e-005   -2.6445e-008    1.2603e-009    
  -0.5            -1.1444e-005    1.0279e-008     2.498e-010     
  -0.55           -1.1983e-005    1.2875e-008     -2.3528e-009   
  -0.6            -1.2492e-005    1.0318e-008     1.9428e-009    
  -0.65           -1.2903e-005    -2.133e-008     1.5151e-009    
  -0.7            -1.3239e-005    -2.6401e-008    1.257e-009     
  -0.75           -1.3502e-005    -1.1587e-008    -5.19e-010     
  -0.8            -1.3702e-005    2.3e-008        -1.4592e-009   
  -0.85           -1.393e-005     9.258e-009      1.0821e-009    
  -0.9            -1.4079e-005    -2.3088e-008    2.1114e-009    
  -0.95           -1.4202e-005    -1.1421e-008    -7.5e-010      
  -1              -1.4295e-005    2.6484e-008     -1.3896e-009   
  -1.05           -1.4454e-005    9.091e-009      1.2434e-009    
  -1.1            -1.4531e-005    -1.8112e-008    1.7942e-009    
  -1.15           -1.4625e-005    -1.1636e-008    2.658e-010     
  -1.2            -1.4653e-005    1.2611e-008     -2.364e-009    
  -1.25           -1.4725e-005    2.322e-008      -1.786e-009    
  -1.3            -1.4818e-005    1.032e-008      7.91e-010      
  -1.35           -1.4903e-005    -2.6617e-008    1.2877e-009    
  -1.4            -1.4907e-005    -1.0453e-008    -1.4495e-009   
  -1.45           -1.4973e-005    1.7382e-008     -1.5606e-009   
  -1.5            -1.5028e-005    2.8059e-008     -1.3555e-009   
  -1.55           -1.5084e-005    1.1059e-008     3.736e-010     
  -1.6            -1.5175e-005    -2.1116e-008    1.5356e-009    
  -1.65           -1.5221e-005    -2.6585e-008    1.2604e-009    
  -1.7            -1.5251e-005    -1.1391e-008    -4.96e-010     
  -1.75           -1.5266e-005    2.2521e-008     -1.4708e-009   
  -1.8            -1.535e-005     9.269e-009      1.0638e-009    
END_DB

BEGIN_DB
 ICCAP_VAR VG         -1.8           
 ICCAP_VAR VS         0              
 ICCAP_VAR VB         0              

 #VD              ID              IB              IG             
  0               -1.8064e-009    1.1124e-008     -2.568e-010    
  -0.05           -2.1753e-006    1.056e-008      1.305e-009     
  -0.1            -4.2683e-006    -2.5053e-008    1.2575e-009    
  -0.15           -6.2704e-006    -9.853e-009     -1.1683e-009   
  -0.2            -8.1819e-006    2.6115e-008     -1.36e-009     
  -0.25           -1.00142e-005   9.538e-009      1.0225e-009    
  -0.3            -1.1737e-005    -1.5205e-008    3.709e-010     
  -0.35           -1.339e-005     -2.1881e-008    1.574e-009     
  -0.4            -1.4934e-005    -2.5046e-008    1.2497e-009    
  -0.45           -1.6377e-005    -1.1189e-008    -4.967e-010    
  -0.5            -1.771e-005     2.2846e-008     -1.5e-009      
  -0.55           -1.8971e-005    9.615e-009      1.0558e-009    
  -0.6            -2.0115e-005    -2.2973e-008    2.1684e-009    
  -0.65           -2.1145e-005    -1.1555e-008    -7.35e-010     
  -0.7            -2.2065e-005    2.4997e-008     -1.4032e-009   
  -0.75           -2.2935e-005    8.803e-009      1.2177e-009    
  -0.8            -2.3661e-005    -1.9423e-008    1.8701e-009    
  -0.85           -2.4314e-005    -1.27e-008      2.77e-010      
  -0.9            -2.4817e-005    1.1944e-008     -2.3657e-009   
  -0.95           -2.5301e-005    2.4056e-008     -1.8522e-009   
  -1              -2.573e-005     1.0867e-008     7.725e-010     
  -1.05           -2.6098e-005    -2.4723e-008    1.2912e-009    
  -1.1            -2.6374e-005    -1.9755e-008    1.891e-009     
  -1.15           -2.6647e-005    -1.2737e-008    2.826e-010     
  -1.2            -2.6809e-005    1.1958e-008     -2.3756e-009   
  -1.25           -2.7007e-005    2.4164e-008     -1.8559e-009   
  -1.3            -2.7207e-005    1.0691e-008     7.629e-010     
  -1.35           -2.7387e-005    -2.4791e-008    1.2962e-009    
  -1.4            -2.7515e-005    -2.001e-008     1.9001e-009    
  -1.45           -2.7618e-005    -1.1052e-008    -8.849e-010    
  -1.5            -2.7715e-005    2.621e-008      -1.3533e-009   
  -1.55           -2.7824e-005    2.1763e-008     -1.7192e-009   
  -1.6            -2.7936e-005    2.5712e-008     -1.3707e-009   
  -1.65           -2.804e-005     2.3602e-008     -1.8167e-009   
  -1.7            -2.8161e-005    1.0554e-008     7.92e-010      
  -1.75           -2.8278e-005    -2.4865e-008    1.2804e-009    
  -1.8            -2.8344e-005    -1.9301e-008    1.8454e-009    
END_DB

BEGIN_DB
 ICCAP_VAR VG         0              
 ICCAP_VAR VS         0              
 ICCAP_VAR VB         0.9            

 #VD              ID              IB              IG             
  0               5.528e-010      -1.1268e-008    -1.618e-010    
  -0.05           4.378e-010      1.5575e-008     -2.3108e-009   
  -0.1            -2.0576e-009    2.315e-009      -1.2154e-009   
  -0.15           -1.1332e-009    -2.6187e-008    1.3613e-009    
  -0.2            2.2705e-009     -8.748e-009     1.0285e-009    
  -0.25           9.792e-010      2.6793e-008     -1.4699e-009   
  -0.3            -2.2087e-009    8.723e-009      -9.693e-010    
  -0.35           -1.6646e-009    -1.2064e-008    1.6215e-009    
  -0.4            2.3278e-009     -8.585e-009     7.722e-010     
  -0.45           1.6187e-009     1.5735e-008     -1.7332e-009   
  -0.5            -1.6103e-009    4.735e-009      -1.6063e-009   
  -0.55           -2.0883e-009    -1.1292e-008    -1.528e-010    
  -0.6            -2.1584e-009    -1.1386e-008    -3.6e-010      
  -0.65           -2.202e-009     -1.1059e-008    -5.622e-010    
  -0.7            -1.459e-009     -1.9307e-008    2.249e-009     
  -0.75           2.0399e-009     -4.569e-009     1.278e-009     
  -0.8            1.1977e-009     2.7093e-008     -1.3676e-009   
  -0.85           -2.0499e-009    1.1448e-008     -1.2209e-009   
  -0.9            -1.1379e-009    -2.6031e-008    1.3565e-009    
  -0.95           2.2634e-009     -8.47e-009      1.0303e-009    
  -1              1.8278e-009     1.1691e-008     -1.4631e-009   
  -1.05           -2.2063e-009    8.968e-009      -9.744e-010    
  -1.1            -1.6721e-009    -1.2278e-008    1.625e-009     
  -1.15           2.3286e-009     -8.618e-009     7.844e-010     
  -1.2            1.6248e-009     1.5765e-008     -1.7253e-009   
  -1.25           -1.5984e-009    5.101e-009      -1.6231e-009   
  -1.3            -2.0933e-009    -1.1149e-008    -1.694e-010    
  -1.35           -2.1652e-009    -1.1386e-008    -3.8e-010      
  -1.4            -2.2117e-009    -1.1147e-008    -5.89e-010     
  -1.45           -2.2315e-009    -1.0434e-008    -7.893e-010    
  -1.5            -2.2054e-009    -9.939e-009     -9.316e-010    
  -1.55           -1.646e-009     -1.2711e-008    1.6975e-009    
  -1.6            2.3184e-009     -8.645e-009     7.322e-010     
  -1.65           1.5813e-009     1.7104e-008     -1.8001e-009   
  -1.7            -1.6681e-009    4.731e-009      -1.5739e-009   
  -1.75           -1.4268e-009    -2.061e-008     2.3233e-009    
  -1.8            2.0803e-009     -3.907e-009     1.2243e-009    
END_DB

BEGIN_DB
 ICCAP_VAR VG         -0.36          
 ICCAP_VAR VS         0              
 ICCAP_VAR VB         0.9            

 #VD              ID              IB              IG             
  0               -8.627e-010     -2.4824e-008    -9.467e-010    
  -0.05           -1.4906e-009    6.619e-009      -1.7281e-009   
  -0.1            -2.177e-009     -1.139e-008     -3.178e-010    
  -0.15           -2.2228e-009    -1.1188e-008    -5.333e-010    
  -0.2            -1.4634e-009    -2.0055e-008    2.3087e-009    
  -0.25           2.0517e-009     -4.237e-009     1.2469e-009    
  -0.3            1.1412e-009     2.7321e-008     -1.3745e-009   
  -0.35           -2.1103e-009    1.1331e-008     -1.188e-009    
  -0.4            -1.8363e-009    -1.1573e-008    2.686e-010     
  -0.45           -9.094e-010     -2.3065e-008    1.7107e-009    
  -0.5            2.2826e-009     -8.678e-009     7.02e-010      
  -0.55           1.5301e-009     1.7235e-008     -1.8136e-009   
