! VERSION = 6.00
BEGIN_HEADER
 ICCAP_INPUTS
  VG         V  B GROUND SMU4 0.001 LIN        1    0          -1.8       37   -0.05     
  VS         V  E GROUND SMU2 0.1 CON        0
  VB         V  C GROUND SMU3 0.1 LIN        3    0          1.8        3    0.9       
  VD         V  S GROUND SMU1 0.1 LIN        2    -0.1       -1.8       2    -1.7      
 ICCAP_OUTPUTS
  IG         I  B GROUND SMU4 B
  ID         I  S GROUND SMU1 B
  IB         I  C GROUND SMU3 B
END_HEADER

BEGIN_DB
 ICCAP_VAR VS         0              
 ICCAP_VAR VB         0              
 ICCAP_VAR VD         -0.1           

 #VG              IG              ID              IB             
  0               -1.2667e-009    -1.6386e-009    8.339e-009     
  -0.05           2.425e-010      -3.3957e-009    -9.013e-009    
  -0.1            4.78e-011       -6.6137e-009    -9.5e-009      
  -0.15           1.5462e-009     -1.131e-008     2.708e-009     
  -0.2            4.42e-010       -2.6096e-008    9.187e-009     
  -0.25           7.625e-010      -5.1997e-008    8.632e-009     
  -0.3            1.1981e-009     -9.0515e-008    1.1944e-008    
  -0.35           2.0208e-009     -1.4258e-007    -9.149e-009    
  -0.4            1.1504e-009     -2.0934e-007    1.1233e-008    
  -0.45           1.5899e-009     -2.9331e-007    1.5564e-008    
  -0.5            4.738e-010      -3.95e-007      9.042e-009     
  -0.55           7.999e-010      -5.1525e-007    8.838e-009     
  -0.6            1.2378e-009     -6.521e-007     1.2395e-008    
  -0.65           2.343e-010      -8.0528e-007    8.12e-009      
  -0.7            5.333e-010      -9.7876e-007    8.898e-009     
  -0.75           -2.0213e-009    -1.169e-006     -1.3618e-008   
  -0.8            1.2781e-009     -1.3808e-006    -1.6666e-008   
  -0.85           1.0695e-009     -1.6096e-006    -3.264e-009    
  -0.9            1.1196e-009     -1.8642e-006    -5.152e-009    
  -0.95           1.1629e-009     -2.135e-006     -1.0842e-008   
  -1              1.4745e-009     -2.4194e-006    -1.4431e-008   
  -1.05           1.097e-009      -2.7109e-006    -3.236e-009    
  -1.1            1.0928e-009     -3.0085e-006    -4.057e-009    
  -1.15           1.1558e-009     -3.308e-006     -9.064e-009    
  -1.2            1.6907e-009     -3.603e-006     -1.2395e-008   
  -1.25           1.1808e-009     -3.8911e-006    -1.27e-009     
  -1.3            1.0722e-009     -4.1776e-006    -3.187e-009    
  -1.35           1.1334e-009     -4.4543e-006    -6.432e-009    
  -1.4            1.166e-009      -4.7219e-006    -1.1251e-008   
  -1.45           1.3571e-009     -4.9806e-006    -1.5569e-008   
  -1.5            1.0765e-009     -5.228e-006     -3.327e-009    
  -1.55           1.1062e-009     -5.4675e-006    -4.454e-009    
  -1.6            1.1598e-009     -5.6974e-006    -1.0281e-008   
  -1.65           1.574e-009      -5.9226e-006    -1.3519e-008   
  -1.7            1.1315e-009     -6.1346e-006    -2.625e-009    
  -1.75           1.0813e-009     -6.3411e-006    -3.536e-009    
  -1.8            1.1467e-009     -6.5426e-006    -7.935e-009    
END_DB

BEGIN_DB
 ICCAP_VAR VS         0              
 ICCAP_VAR VB         0              
 ICCAP_VAR VD         -1.8           

 #VG              IG              ID              IB             
  0               3.48e-010       -6.015e-010     -1.209e-008    
  -0.05           1.6113e-009     -4.371e-009     -1.6415e-008   
  -0.1            -2.119e-009     -1.2522e-008    -1.1073e-008   
  -0.15           3.04e-011       -3.0352e-008    -8.767e-009    
  -0.2            1.5574e-009     -6.2854e-008    -1.3635e-008   
  -0.25           3.833e-010      -1.182e-007     -1.1354e-008   
  -0.3            6.704e-010      -2.07e-007      8.479e-009     
  -0.35           1.0869e-009     -3.3418e-007    1.1515e-008    
  -0.4            1.5365e-009     -5.0551e-007    1.4237e-008    
  -0.45           4.477e-010      -7.359e-007     8.869e-009     
  -0.5            7.486e-010      -1.03601e-006   8.911e-009     
  -0.55           -1.9259e-009    -1.4041e-006    -1.2469e-008   
  -0.6            1.3862e-009     -1.8689e-006    -1.5282e-008   
  -0.65           1.0802e-009     -2.417e-006     -3.511e-009    
  -0.7            1.104e-009      -3.0684e-006    -4.298e-009    
  -0.75           1.1642e-009     -3.8289e-006    -1.0008e-008   
  -0.8            1.5948e-009     -4.6891e-006    -1.3376e-008   
  -0.85           1.1383e-009     -5.6677e-006    -2.414e-009    
  -0.9            1.0796e-009     -6.781e-006     -3.535e-009    
  -0.95           1.148e-009      -8.0332e-006    -7.776e-009    
  -1              1.1645e-009     -9.4112e-006    -1.1768e-008   
  -1.05           1.2726e-009     -1.09459e-005   -1.6939e-008   
  -1.1            -2.4142e-009    -1.2576e-005    8.586e-009     
  -1.15           1.1649e-009     -1.4397e-005    -1.1712e-008   
  -1.2            1.2799e-009     -1.6334e-005    -1.6519e-008   
  -1.25           1.0705e-009     -1.8355e-005    -3.242e-009    
  -1.3            1.119e-009      -2.0523e-005    -5.084e-009    
  -1.35           1.1685e-009     -2.2773e-005    -1.0783e-008   
  -1.4            1.5103e-009     -2.5105e-005    -1.4257e-008   
  -1.45           1.097e-009      -2.7525e-005    -3.466e-009    
  -1.5            1.0908e-009     -3.0022e-005    -4.1e-009      
  -1.55           1.1569e-009     -3.2615e-005    -9.132e-009    
  -1.6            1.7046e-009     -3.5242e-005    -1.2544e-008   
  -1.65           1.4209e-009     -3.7945e-005    1.4085e-008    
  -1.7            3.606e-010      -4.0687e-005    9.054e-009     
  -1.75           6.481e-010      -4.3538e-005    8.582e-009     
  -1.8            1.0519e-009     -4.6405e-005    1.1354e-008    
END_DB

BEGIN_DB
 ICCAP_VAR VS         0              
 ICCAP_VAR VB         0.9            
 ICCAP_VAR VD         -0.1           

 #VG              IG              ID              IB             
  0               1.0942e-009     9.196e-010      2.606e-009     
  -0.05           1.0835e-009     1.32e-009       1.3481e-008    
  -0.1            1.2776e-009     1.1388e-009     1.4793e-008    
  -0.15           3.17e-011       1.7215e-009     8.226e-009     
  -0.2            2.031e-010      1.7597e-009     8.827e-009     
  -0.25           -1.2619e-009    4.75e-010       8.73e-009      
  -0.3            -2.4276e-009    -2.0585e-009    2.787e-009     
  -0.35           -3.613e-010     -5.8981e-009    -8.98e-009     
  -0.4            1.8892e-009     -1.2145e-008    1.995e-009     
  -0.45           7.65e-010       -3.184e-008     8.915e-009     
  -0.5            1.2129e-009     -7.1252e-008    1.2219e-008    
  -0.55           5.464e-010      -1.3266e-007    -1.3668e-008   
  -0.6            9.051e-010      -2.2136e-007    1.0219e-008    
  -0.65           1.3585e-009     -3.3623e-007    1.3515e-008    
  -0.7            3.221e-010      -4.7937e-007    8.846e-009     
  -0.75           6.083e-010      -6.5182e-007    8.706e-009     
  -0.8            1.0024e-009     -8.488e-007     9.76e-009      
  -0.85           1.4505e-009     -1.07182e-006   1.4265e-008    
  -0.9            -1.2404e-009    -1.3179e-006    -8.621e-009    
  -0.95           -1.543e-009     -1.5905e-006    1.1975e-008    
  -1              -5.939e-010     -1.878e-006     -8.835e-009    
  -1.05           1.1671e-009     -2.1827e-006    -1.1093e-008   
  -1.1            1.4255e-009     -2.4853e-006    -1.5141e-008   
  -1.15           1.0841e-009     -2.7879e-006    -3.321e-009    
  -1.2            1.097e-009      -3.091e-006     -4.169e-009    
  -1.25           1.1643e-009     -3.3872e-006    -9.849e-009    
  -1.3            1.6623e-009     -3.6762e-006    -1.3114e-008   
  -1.35           1.1518e-009     -3.9562e-006    -1.914e-009    
  -1.4            1.073e-009      -4.2293e-006    -3.505e-009    
  -1.45           1.1449e-009     -4.4932e-006    -7.385e-009    
  -1.5            1.1579e-009     -4.7445e-006    -1.1842e-008   
  -1.55           1.3008e-009     -4.9902e-006    -1.6654e-008   
  -1.6            1.0679e-009     -5.2232e-006    -3.246e-009    
  -1.65           1.1154e-009     -5.4516e-006    -4.98e-009     
  -1.7            1.166e-009      -5.6674e-006    -1.07e-008     
  -1.75           1.4914e-009     -5.8781e-006    -1.4647e-008   
  -1.8            1.098e-009      -6.0782e-006    -2.987e-009    
END_DB

BEGIN_DB
 ICCAP_VAR VS         0              
 ICCAP_VAR VB         0.9            
 ICCAP_VAR VD         -1.8           

 #VG              IG              ID              IB             
  0               1.1605e-009     9.969e-010      3.516e-009     
  -0.05           -1.2552e-009    1.0862e-009     8.934e-009     
  -0.1            -1.257e-009     -1.3378e-009    5.037e-009     
  -0.15           1.1097e-009     -1.1661e-009    -1.5173e-008   
  -0.2            -1.2419e-009    1.0795e-009     -1.0487e-008   
  -0.25           -1.8602e-009    -1.8616e-009    1.1298e-008    
  -0.3            1.1416e-009     -3.4459e-009    -1.0451e-008   
  -0.35           -2.2487e-009    -1.3483e-008    -1.1766e-008   
  -0.4            -1.557e-010     -3.6954e-008    -9.272e-009    
  -0.45           1.367e-009      -8.328e-008     -1.5303e-008   
  -0.5            2.027e-010      -1.6538e-007    -9.367e-009    
  -0.55           5.137e-010      -3.017e-007     8.958e-009     
  -0.6            8.552e-010      -5.0689e-007    9e-009         
  -0.65           1.3067e-009     -7.9442e-007    1.2812e-008    
  -0.7            -1.2582e-009    -1.1779e-006    -9.847e-009    
  -0.75           -1.2485e-009    -1.6848e-006    2.574e-009     
  -0.8            -1.6379e-009    -2.3152e-006    9.708e-009     
  -0.85           1.1642e-009     -3.102e-006     -1.1645e-008   
  -0.9            1.2948e-009     -4.0182e-006    -1.6445e-008   
  -0.95           1.0685e-009     -5.0764e-006    -3.213e-009    
  -1              1.1148e-009     -6.304e-006     -4.865e-009    
  -1.05           1.1649e-009     -7.6738e-006    -1.0711e-008   
  -1.1            1.4874e-009     -9.1869e-006    -1.4338e-008   
  -1.15           1.1062e-009     -1.08408e-005   -3.271e-009    
  -1.2            1.1603e-009     -1.2643e-005    2.723e-009     
  -1.25           1.3499e-009     -1.4554e-005    -1.5753e-008   
  -1.3            1.0763e-009     -1.6581e-005    -3.396e-009    
  -1.35           1.1085e-009     -1.8724e-005    -4.413e-009    
  -1.4            1.1629e-009     -2.0971e-005    -1.0353e-008   
  -1.45           1.5729e-009     -2.3273e-005    -1.3591e-008   
  -1.5            1.1213e-009     -2.5687e-005    -2.668e-009    
  -1.55           1.0816e-009     -2.818e-005     -3.645e-009    
  -1.6            1.1499e-009     -3.0753e-005    -7.98e-009     
  -1.65           1.1551e-009     -3.3367e-005    -1.1918e-008   
  -1.7            1.2463e-009     -3.6072e-005    -1.7374e-008   
  -1.75           1.0672e-009     -3.8802e-005    -3.24e-009     
  -1.8            1.1236e-009     -4.1615e-005    -5.377e-009    
END_DB

BEGIN_DB
 ICCAP_VAR VS         0              
 ICCAP_VAR VB         1.8            
 ICCAP_VAR VD         -0.1           

 #VG              IG              ID              IB             
  0               -1.169e-009     -1.0177e-009    -1.6411e-008   
  -0.05           2.023e-009      9.661e-010      -1.1677e-008   
  -0.1            -1.2544e-009    1.1898e-009     1.0465e-008    
  -0.15           -1.3565e-009    -1.2334e-009    7.596e-009     
  -0.2            6.27e-011       -1.907e-009     -9.569e-009    
  -0.25           1.1678e-009     -1.63e-011      -1.3296e-008   
  -0.3            1.733e-009      -1.757e-010     -1.5673e-008   
  -0.35           1.9118e-009     8.9e-010        -5.22e-010     
  -0.4            -1.2555e-009    8.444e-010      9.092e-009     
  -0.45           -2.2696e-009    -1.9636e-009    4.525e-009     
  -0.5            1.116e-009      -5.4102e-009    -1.3936e-008   
  -0.55           -2.327e-009     -1.6162e-008    -1.3223e-008   
  -0.6            1.1628e-009     -4.4276e-008    -1.0492e-008   
  -0.65           1.4085e-009     -9.8038e-008    -1.5441e-008   
  -0.7            -7.646e-010     -1.8571e-007    1.5379e-008    
  -0.75           1.1566e-009     -3.1215e-007    -1.2029e-008   
  -0.8            1.266e-009      -4.7846e-007    -1.7198e-008   
  -0.85           1.0656e-009     -6.7888e-007    -3.15e-009     
  -0.9            1.1197e-009     -9.1787e-007    -5.222e-009    
  -0.95           1.3102e-009     -1.1816e-006    3.019e-009     
  -1              2.799e-010      -1.464e-006     8.588e-009     
  -1.05           5.693e-010      -1.7661e-006    8.805e-009     
  -1.1            9.312e-010      -2.0743e-006    9.358e-009     
  -1.15           1.38e-009       -2.3804e-006    1.4007e-008    
  -1.2            2.86e-010       -2.6838e-006    8.88e-009      
  -1.25           6.291e-010      -2.9886e-006    8.537e-009     
  -1.3            1.0068e-009     -3.2844e-006    9.797e-009     
  -1.35           1.4554e-009     -3.5671e-006    1.4246e-008    
  -1.4            3.863e-010      -3.842e-006     9.178e-009     
  -1.45           6.658e-010      -4.1111e-006    8.361e-009     
  -1.5            1.0822e-009     -4.3678e-006    1.0334e-008    
  -1.55           1.523e-009      -4.6107e-006    1.4877e-008    
  -1.6            4.167e-010      -4.8492e-006    9.231e-009     
  -1.65           7.228e-010      -5.0811e-006    8.457e-009     
  -1.7            1.1586e-009     -5.301e-006     1.1009e-008    
  -1.75           1.5803e-009     -5.5097e-006    1.5906e-008    
  -1.8            4.655e-010      -5.7145e-006    9.107e-009     
END_DB

BEGIN_DB
 ICCAP_VAR VS         0              
 ICCAP_VAR VB         1.8            
 ICCAP_VAR VD         -1.8           

 #VG              IG              ID              IB             
  0               4.333e-010      6.766e-010      -1.0913e-008   
  -0.05           1.7518e-009     -1.551e-010     -1.5381e-008   
  -0.1            1.904e-009      9.294e-010      -2.87e-010     
  -0.15           -1.2553e-009    1.0312e-009     8.998e-009     
  -0.2            -1.184e-009     -1.4118e-009    3.909e-009     
  -0.25           1.6375e-009     -2.088e-010     -1.6157e-008   
  -0.3            1.96e-009       9.089e-010      -1.838e-009    
  -0.35           -1.2559e-009    9.362e-010      9.599e-009     
  -0.4            -2.2339e-009    -1.7509e-009    5.412e-009     
  -0.45           1.866e-010      -5.1788e-009    -9.181e-009    
  -0.5            2.3552e-009     -1.1681e-008    1.5888e-008    
  -0.55           1.5559e-009     -3.8161e-008    1.4791e-008    
  -0.6            4.532e-010      -9.7399e-008    8.86e-009      
  -0.65           5.38e-010       -2.0998e-007    -1.3689e-008   
  -0.7            8.854e-010      -3.9925e-007    9.843e-009     
  -0.75           1.3347e-009     -6.8539e-007    1.3523e-008    
  -0.8            2.91e-010       -1.0916e-006    8.5e-009       
  -0.85           -1.2642e-009    -1.6373e-006    -9.003e-009    
  -0.9            -1.254e-009     -2.3432e-006    3.105e-009     
  -0.95           -1.2397e-009    -3.2129e-006    3.813e-009     
  -1              -1.5572e-009    -4.2516e-006    1.198e-008     
  -1.05           1.1524e-009     -5.4717e-006    -1.243e-008    
  -1.1            1.236e-009      -6.8378e-006    -1.8348e-008   
  -1.15           1.0649e-009     -8.3385e-006    -3.218e-009    
  -1.2            1.1241e-009     -1.00053e-005   -5.465e-009    
  -1.25           1.1625e-009     -1.1793e-005    3.18e-009      
  -1.3            1.2372e-009     -1.3684e-005    -1.7515e-008   
  -1.35           1.0639e-009     -1.5699e-005    -3.076e-009    
  -1.4            1.1218e-009     -1.7836e-005    -5.446e-009    
  -1.45           1.1665e-009     -2.0063e-005    -1.1131e-008   
  -1.5            1.4528e-009     -2.236e-005     -1.506e-008    
  -1.55           1.092e-009      -2.475e-005     -3.018e-009    
  -1.6            1.0876e-009     -2.7222e-005    -4.093e-009    
  -1.65           1.1565e-009     -2.9781e-005    -9.044e-009    
  -1.7            1.7165e-009     -3.238e-005     -1.2808e-008   
  -1.75           1.1957e-009     -3.5045e-005    -9.57e-010     
  -1.8            1.0649e-009     -3.7782e-005    -3.042e-009    
END_DB

