! VERSION = 6.00
BEGIN_HEADER
 ICCAP_INPUTS
  VG         V  B GROUND SMU4 0.001 LIN        2    0          -1.8       6    -0.36     
  VS         V  E GROUND SMU3 0.1 CON        0
  VD         V  S GROUND SMU2 0.1 LIN        1    0          -1.8       37   -0.05     
  VB         V  C GROUND SMU1 0.1 LIN        3    0          0.9        2    0.9       
 ICCAP_OUTPUTS
  ID         I  S GROUND SMU2 B
  IB         I  C GROUND SMU1 B
  IG         I  B GROUND SMU4 B
END_HEADER

BEGIN_DB
 ICCAP_VAR VG         0              
 ICCAP_VAR VS         0              
 ICCAP_VAR VB         0              

 #VD              ID              IB              IG             
  0               -2.1463e-009    -5.3648e-009    -1.8815e-009   
  -0.05           -2.5723e-009    -6.2322e-009    1.9055e-009    
  -0.1            -1.7001e-009    4.7187e-009     -2.0217e-009   
  -0.15           -4.7939e-009    -6.574e-010     -6.206e-010    
  -0.2            -3.6665e-009    -4.8219e-009    1.8449e-009    
  -0.25           -2.2281e-009    4.2558e-009     -2.0263e-009   
  -0.3            -5.4017e-009    -3.13e-011      -7.698e-010    
  -0.35           -4.5012e-009    -4.208e-009     1.6958e-009    
  -0.4            -1.6738e-009    -4.37e-010      1.3043e-009    
  -0.45           -2.4188e-009    4.9223e-009     -2.0183e-009   
  -0.5            -6.3109e-009    2.049e-010      -8.442e-010    
  -0.55           -5.5573e-009    -4.0494e-009    1.9319e-009    
  -0.6            -2.4304e-009    2.0664e-009     7.924e-010     
  -0.65           -3.9718e-009    5.1939e-009     -1.9799e-009   
  -0.7            -7.2924e-009    4.659e-010      -9.259e-010    
  -0.75           -6.7107e-009    -3.8908e-009    1.9082e-009    
  -0.8            -3.548e-009     1.6155e-009     8.825e-010     
  -0.85           -4.9881e-009    5.1546e-009     -1.9202e-009   
  -0.9            -6.0589e-009    -2.903e-009     1.8393e-009    
  -0.95           -4.4926e-009    6.172e-010      1.1083e-009    
  -1              -5.64e-009      5.1345e-009     -1.71e-009     
  -1.05           -9.448e-009     -3.6391e-009    -4.864e-010    
  -1.1            -9.826e-009     2.2254e-009     -8.383e-010    
  -1.15           -1.0349e-008    2.9403e-009     -1.353e-009    
  -1.2            -1.0728e-008    3.8419e-009     -1.1933e-009   
  -1.25           -1.105e-008     3.6187e-009     -1.0667e-009   
  -1.3            -1.0857e-008    3.4118e-009     -1.7143e-009   
  -1.35           -1.0968e-008    4.4961e-009     -2.0218e-009   
  -1.4            -1.1504e-008    -6.3958e-009    -2.0295e-009   
  -1.45           -1.1634e-008    5.1494e-009     -1.8741e-009   
  -1.5            -1.1226e-008    5.1436e-009     -2.0237e-009   
  -1.55           -1.0385e-008    5.1445e-009     -2.0127e-009   
  -1.6            -1.1824e-008    5.3084e-009     -1.8971e-009   
  -1.65           -1.085e-008     4.9915e-009     -2.024e-009    
  -1.7            -1.0872e-008    5.1559e-009     -1.8168e-009   
  -1.75           -1.1466e-008    4.8299e-009     -2.0268e-009   
  -1.8            -1.1455e-008    5.1451e-009     -1.7149e-009   
END_DB

BEGIN_DB
 ICCAP_VAR VG         -0.36          
 ICCAP_VAR VS         0              
 ICCAP_VAR VB         0              

 #VD              ID              IB              IG             
  0               1.2183e-009     5.135e-010      -4.369e-009    
  -0.05           -8.9846e-007    -3.3344e-009    1.7189e-009    
  -0.1            -1.4049e-006    4.8992e-009     1.3446e-009    
  -0.15           -1.7158e-006    -9.493e-010     1.9816e-009    
  -0.2            -1.8817e-006    -4.0517e-009    3.74e-011      
  -0.25           -1.9689e-006    -7.705e-010     -5.6267e-009   
  -0.3            -2.0461e-006    3.1472e-009     -2.0276e-009   
  -0.35           -2.1234e-006    5.3154e-009     -2.0287e-009   
  -0.4            -2.1922e-006    5.3214e-009     -2.0265e-009   
  -0.45           -2.2548e-006    5.31e-009       -2.0232e-009   
  -0.5            -2.3154e-006    5.2996e-009     -2.02e-009     
  -0.55           -2.37e-006      5.2867e-009     -2.0165e-009   
  -0.6            -2.424e-006     5.2745e-009     -2.0115e-009   
  -0.65           -2.4779e-006    5.2615e-009     -2.0054e-009   
  -0.7            -2.5297e-006    5.2441e-009     -1.9942e-009   
  -0.75           -2.5788e-006    5.2207e-009     -1.9866e-009   
  -0.8            -2.6262e-006    5.2079e-009     -1.9771e-009   
  -0.85           -2.6753e-006    5.187e-009      -1.9655e-009   
  -0.9            -2.7214e-006    5.1641e-009     -1.9511e-009   
  -0.95           -2.7676e-006    5.1429e-009     -1.9416e-009   
  -1              -2.8126e-006    5.1247e-009     -1.9263e-009   
  -1.05           -2.8569e-006    5.1014e-009     -1.9168e-009   
  -1.1            -2.9036e-006    5.0717e-009     -1.9018e-009   
  -1.15           -2.9478e-006    5.0457e-009     -1.8904e-009   
  -1.2            -2.9906e-006    5.0148e-009     -1.8738e-009   
  -1.25           -3.0363e-006    4.9883e-009     -1.8608e-009   
  -1.3            -3.0794e-006    4.9668e-009     -1.8441e-009   
  -1.35           -3.1221e-006    4.9356e-009     -1.8274e-009   
  -1.4            -3.1641e-006    4.9011e-009     -1.8092e-009   
  -1.45           -3.2069e-006    4.866e-009      -1.7954e-009   
  -1.5            -3.2485e-006    4.826e-009      -1.7754e-009   
  -1.55           -3.2923e-006    4.7951e-009     -2.0239e-009   
  -1.6            -3.3417e-006    5.3008e-009     -2.0268e-009   
  -1.65           -3.3828e-006    5.3055e-009     -2.0261e-009   
  -1.7            -3.4249e-006    5.3107e-009     -2.0291e-009   
  -1.75           -3.4667e-006    5.3206e-009     -2.0294e-009   
  -1.8            -3.5071e-006    5.3145e-009     -2.0286e-009   
END_DB

BEGIN_DB
 ICCAP_VAR VG         -0.72          
 ICCAP_VAR VS         0              
 ICCAP_VAR VB         0              

 #VD              ID              IB              IG             
  0               9.938e-009      -3.8803e-009    -8.596e-009    
  -0.05           -5.7053e-006    2.0427e-009     -3.511e-009    
  -0.1            -1.03417e-005   1.9881e-009     -9.8518e-009   
  -0.15           -1.41e-005      -3.929e-010     4.6e-010       
  -0.2            -1.7161e-005    2.0549e-009     1.8197e-009    
  -0.25           -1.9449e-005    -3.7935e-009    -2.0549e-009   
  -0.3            -2.1037e-005    1.7749e-009     -9.7837e-009   
  -0.35           -2.2413e-005    5.1506e-009     -2.099e-009    
  -0.4            -2.3445e-005    5.1751e-009     -2.0281e-009   
  -0.45           -2.4278e-005    4.9193e-009     -1.8808e-009   
  -0.5            -2.5002e-005    4.5355e-009     -2.0457e-009   
  -0.55           -2.558e-005     5.0502e-009     -1.9598e-009   
  -0.6            -2.6109e-005    4.7153e-009     -1.7721e-009   
  -0.65           -2.6646e-005    4.3318e-009     4.307e-010     
  -0.7            -2.7314e-005    2.0546e-009     1.8433e-009    
  -0.75           -2.7685e-005    -3.8614e-009    -1.8664e-009   
  -0.8            -2.7817e-005    1.6201e-009     -9.6989e-009   
  -0.85           -2.8215e-005    5.0751e-009     -2.2346e-009   
  -0.9            -2.8531e-005    5.2054e-009     -2.0393e-009   
  -0.95           -2.8834e-005    4.9799e-009     -1.9163e-009   
  -1              -2.9165e-005    4.6209e-009     -2.0471e-009   
  -1.05           -2.9458e-005    5.0979e-009     -1.986e-009    
  -1.1            -2.9751e-005    4.7972e-009     -1.8108e-009   
  -1.15           -3.0083e-005    4.4005e-009     -2.0337e-009   
  -1.2            -3.0311e-005    4.948e-009      -1.9024e-009   
  -1.25           -3.0602e-005    4.57e-009       -2.0445e-009   
  -1.3            -3.0847e-005    5.074e-009      -1.9706e-009   
  -1.35           -3.1106e-005    4.7557e-009     -1.7911e-009   
  -1.4            -3.1417e-005    4.3672e-009     4.15e-010      
  -1.45           -3.1937e-005    2.0656e-009     1.8527e-009    
  -1.5            -3.2141e-005    -3.8852e-009    -1.7706e-009   
  -1.55           -3.2095e-005    1.5281e-009     -9.623e-009    
  -1.6            -3.2374e-005    5.0264e-009     -2.3381e-009   
  -1.65           -3.2573e-005    5.2159e-009     -2.0409e-009   
  -1.7            -3.277e-005     5.0025e-009     -1.9322e-009   
  -1.75           -3.3008e-005    4.651e-009      -2.0465e-009   
  -1.8            -3.3227e-005    5.1176e-009     -1.9974e-009   
END_DB

BEGIN_DB
 ICCAP_VAR VG         -1.08          
 ICCAP_VAR VS         0              
 ICCAP_VAR VB         0              

 #VD              ID              IB              IG             
  0               2.1257e-008     5.2273e-009     -6.3174e-009   
  -0.05           -1.3577e-005    -6.599e-010     5.503e-010     
  -0.1            -2.5898e-005    2.3788e-009     1.4237e-009    
  -0.15           -3.6831e-005    1.4745e-009     5.572e-010     
  -0.2            -4.5681e-005    -8.154e-010     -7.4219e-009   
  -0.25           -5.4495e-005    4.0916e-009     -2.025e-009    
  -0.3            -6.1619e-005    4.8057e-009     -1.8927e-009   
  -0.35           -6.7685e-005    4.4295e-009     -2.1649e-009   
  -0.4            -7.2735e-005    4.9232e-009     -1.9622e-009   
  -0.45           -7.7e-005       4.6188e-009     -1.7828e-009   
  -0.5            -8.0622e-005    4.2269e-009     -2.0156e-009   
  -0.55           -8.3489e-005    4.7727e-009     -1.8747e-009   
  -0.6            -8.6028e-005    4.3905e-009     -2.1012e-009   
  -0.65           -8.8081e-005    4.9033e-009     -1.9463e-009   
  -0.7            -8.9929e-005    4.5668e-009     -2.5567e-009   
  -0.75           -9.1519e-005    5.0039e-009     -2.0064e-009   
  -0.8            -9.2928e-005    4.7325e-009     -1.8496e-009   
  -0.85           -9.4263e-005    4.344e-009      -2.0654e-009   
  -0.9            -9.5351e-005    4.8731e-009     -1.9324e-009   
  -0.95           -9.6457e-005    4.5224e-009     -2.3806e-009   
  -1              -9.745e-005     4.9764e-009     -1.9899e-009   
  -1.05           -9.8383e-005    4.7007e-009     -1.8323e-009   
  -1.1            -9.9351e-005    4.3042e-009     -2.0442e-009   
  -1.15           -0.0001001      4.8421e-009     -1.9142e-009   
  -1.2            -0.000100934    4.4813e-009     -2.2662e-009   
  -1.25           -0.000101671    4.9544e-009     -1.9784e-009   
  -1.3            -0.000102415    4.6607e-009     -1.8092e-009   
  -1.35           -0.00010319     2.2407e-009     -1.1259e-008   
  -1.4            -0.00010389     5.2661e-009     -8.388e-009    
  -1.45           -0.00010456     5.0219e-009     -6.881e-009    
  -1.5            -0.00010517     4.7089e-009     -1.0986e-008   
  -1.55           -0.00010585     5.2608e-009     -8.196e-009    
  -1.6            -0.00010643     4.9989e-009     -6.828e-009    
  -1.65           -0.000107       4.6981e-009     -1.0869e-008   
  -1.7            -0.00010762     5.2422e-009     -8.028e-009    
  -1.75           -0.0001082      4.9764e-009     -6.797e-009    
  -1.8            -0.00010874     4.6696e-009     -1.0522e-008   
END_DB

BEGIN_DB
 ICCAP_VAR VG         -1.44          
 ICCAP_VAR VS         0              
 ICCAP_VAR VB         0              

 #VD              ID              IB              IG             
  0               2.1644e-008     -3.2482e-009    -8.871e-009    
  -0.05           -2.1144e-005    1.2812e-009     -1.5261e-008   
  -0.1            -4.1212e-005    5.2501e-009     -1.3482e-008   
  -0.15           -6.0141e-005    5.3377e-009     -1.2248e-008   
  -0.2            -7.7869e-005    5.4036e-009     -1.1075e-008   
  -0.25           -9.4356e-005    5.4722e-009     -9.937e-009    
  -0.3            -0.000109621    5.5274e-009     -9.019e-009    
  -0.35           -0.00012352     4.6841e-009     -8.614e-009    
  -0.4            -0.00013618     5.5247e-009     -7.04e-009     
  -0.45           -0.00014762     5.3597e-009     -1.1733e-008   
  -0.5            -0.00015775     5.5644e-009     -8.472e-009    
  -0.55           -0.00016667     5.5188e-009     -7.002e-009    
  -0.6            -0.00017448     5.3522e-009     -1.1516e-008   
  -0.65           -0.00018127     5.5668e-009     -8.52e-009     
  -0.7            -0.00018711     5.5136e-009     -6.926e-009    
  -0.75           -0.00019213     5.3314e-009     -1.1157e-008   
  -0.8            -0.00019647     5.5666e-009     -8.337e-009    
  -0.85           -0.00020025     5.4929e-009     -1.5956e-008   
  -0.9            -0.00020358     5.4335e-009     -1.0876e-008   
  -0.95           -0.0002065      5.5684e-009     -8.137e-009    
  -1              -0.00020911     5.4782e-009     -1.5455e-008   
  -1.05           -0.00021149     5.4468e-009     -1.0544e-008   
  -1.1            -0.0002137      5.5698e-009     -8.079e-009    
  -1.15           -0.00021566     5.474e-009      -1.5076e-008   
  -1.2            -0.0002175      5.4672e-009     -1.0299e-008   
  -1.25           -0.00021923     5.5623e-009     -7.829e-009    
  -1.3            -0.00022084     5.4665e-009     -1.4521e-008   
  -1.35           -0.00022238     5.483e-009      -9.994e-009    
  -1.4            -0.00022384     5.5671e-009     -7.61e-009     
  -1.45           -0.00022518     5.4586e-009     -1.4048e-008   
  -1.5            -0.00022656     5.4961e-009     -9.903e-009    
  -1.55           -0.00022779     5.5556e-009     -7.418e-009    
  -1.6            -0.00022905     5.4513e-009     -1.3502e-008   
  -1.65           -0.00023023     5.5114e-009     -9.81e-009     
  -1.7            -0.00023135     5.5578e-009     -7.243e-009    
  -1.75           -0.00023244     5.4401e-009     -1.3286e-008   
  -1.8            -0.00023354     5.5171e-009     -9.348e-009    
END_DB

BEGIN_DB
 ICCAP_VAR VG         -1.8           
 ICCAP_VAR VS         0              
 ICCAP_VAR VB         0              

 #VD              ID              IB              IG             
  0               2.9675e-008     3.0568e-009     -1.0431e-008   
  -0.05           -2.6586e-005    1.7299e-009     -1.7575e-008   
  -0.1            -5.2397e-005    5.3072e-009     -1.5968e-008   
  -0.15           -7.7342e-005    5.4353e-009     -1.4027e-008   
  -0.2            -0.000101411    5.5748e-009     -1.2683e-008   
  -0.25           -0.00012442     4.3517e-009     -1.1687e-008   
  -0.3            -0.00014656     6.1384e-009     -8.498e-009    
  -0.35           -0.00016771     6.2738e-009     -1.6665e-008   
  -0.4            -0.00018782     5.749e-009      -1.1226e-008   
  -0.45           -0.00020683     6.1612e-009     -8.317e-009    
  -0.5            -0.00022471     6.263e-009      -1.6031e-008   
  -0.55           -0.00024142     5.7891e-009     -1.09e-008     
  -0.6            -0.00025703     6.1907e-009     -2.0166e-008   
  -0.65           -0.00027136     5.3447e-009     -1.5255e-008   
  -0.7            -0.00028456     5.8352e-009     -1.0631e-008   
  -0.75           -0.00029653     6.2037e-009     -1.9893e-008   
  -0.8            -0.00030729     5.3754e-009     -1.4735e-008   
  -0.85           -0.000317       5.8782e-009     -1.0314e-008   
  -0.9            -0.00032555     6.2199e-009     -1.9606e-008   
  -0.95           -0.00033314     5.4202e-009     -1.4204e-008   
  -1              -0.00033987     5.9275e-009     -9.898e-009    
  -1.05           -0.00034571     6.2361e-009     -1.9313e-008   
  -1.1            -0.0003509      5.4724e-009     -1.3708e-008   
  -1.15           -0.00035555     5.9639e-009     -9.661e-009    
  -1.2            -0.0003597      6.244e-009      -1.9046e-008   
  -1.25           -0.00036346     5.5004e-009     -1.3244e-008   
  -1.3            -0.00036679     6.0045e-009     -9.571e-009    
  -1.35           -0.00036995     6.2509e-009     -1.8693e-008   
  -1.4            -0.00037283     5.5499e-009     -1.2796e-008   
  -1.45           -0.00037557     6.0375e-009     -9.275e-009    
  -1.5            -0.00037809     6.2632e-009     -1.8299e-008   
  -1.55           -0.00038044     5.5985e-009     -1.2463e-008   
  -1.6            -0.00038265     6.0577e-009     -9.107e-009    
  -1.65           -0.00038481     6.2608e-009     -1.7837e-008   
  -1.7            -0.00038678     5.6363e-009     -1.2032e-008   
  -1.75           -0.00038867     6.093e-009      -8.793e-009    
  -1.8            -0.00039054     6.2663e-009     -1.7381e-008   
END_DB

BEGIN_DB
 ICCAP_VAR VG         0              
 ICCAP_VAR VS         0              
 ICCAP_VAR VB         0.9            

 #VD              ID              IB              IG             
  0               -1.8826e-009    1.667e-009      -8.361e-009    
  -0.05           2.111e-009      2.1908e-009     -7.291e-009    
  -0.1            2.2726e-009     2.0857e-009     -7.878e-009    
  -0.15           2.2508e-009     2.1016e-009     -8.644e-009    
  -0.2            2.0965e-009     1.8044e-009     -7.48e-009     
  -0.25           2.264e-009      2.089e-009      -8.328e-009    
  -0.3            2.2443e-009     2.1072e-009     -8.825e-009    
  -0.35           2.0259e-009     2.1853e-009     -8.76e-009     
  -0.4            2.0941e-009     1.7967e-009     -7.51e-009     
  -0.45           2.2621e-009     2.0858e-009     -8.287e-009    
  -0.5            2.1121e-009     1.834e-009      -7.233e-009    
  -0.55           2.2781e-009     2.0741e-009     -7.737e-009    
  -0.6            2.2525e-009     2.096e-009      -8.564e-009    
  -0.65           2.0994e-009     1.8102e-009     -7.276e-009    
  -0.7            2.2684e-009     2.0837e-009     -7.981e-009    
  -0.75           2.244e-009      2.1029e-009     -8.6e-009      
  -0.8            2.0847e-009     1.793e-009      -7.548e-009    
  -0.85           2.2572e-009     2.0911e-009     -8.304e-009    
  -0.9            2.1082e-009     1.828e-009      -7.2e-009      
  -0.95           2.2706e-009     2.0815e-009     -7.841e-009    
  -1              2.2497e-009     2.0964e-009     -8.563e-009    
  -1.05           2.095e-009      1.8013e-009     -7.458e-009    
  -1.1            2.2602e-009     2.0854e-009     -8.111e-009    
  -1.15           2.2416e-009     2.1089e-009     -8.843e-009    
  -1.2            2.0242e-009     2.1856e-009     -8.665e-009    
  -1.25           2.094e-009      1.799e-009      -7.448e-009    
  -1.3            2.2576e-009     2.0873e-009     -8.163e-009    
  -1.35           2.2397e-009     2.109e-009      -8.92e-009     
  -1.4            2.0216e-009     2.1921e-009     -8.59e-009     
  -1.45           2.0909e-009     1.8021e-009     -7.494e-009    
  -1.5            2.2601e-009     2.0865e-009     -8.212e-009    
  -1.55           2.2404e-009     2.1053e-009     -8.927e-009    
  -1.6            2.0226e-009     2.1824e-009     -8.691e-009    
  -1.65           2.0837e-009     1.7966e-009     -7.522e-009    
  -1.7            2.2571e-009     2.0897e-009     -8.244e-009    
  -1.75           2.1088e-009     1.833e-009      -7.163e-009    
  -1.8            2.2655e-009     2.0811e-009     -7.789e-009    
END_DB

BEGIN_DB
 ICCAP_VAR VG         -0.36          
 ICCAP_VAR VS         0              
 ICCAP_VAR VB         0.9            

 #VD              ID              IB              IG             
  0               7.894e-010      5.0587e-009     -6.7186e-009   
  -0.05           -3.3553e-008    -3.1021e-009    -2.0245e-009   
  -0.1            -4.4426e-008    3.4262e-009     -8.63e-009     
  -0.15           -4.7133e-008    5.0016e-009     -1.1281e-008   
  -0.2            -5.0323e-008    5.198e-009      -6.852e-009    
  -0.25           -5.4537e-008    4.6848e-009     -7.584e-009    
  -0.3            -5.7158e-008    4.877e-009      -9.594e-009    
  -0.35           -5.9838e-008    5.0989e-009     -1.2774e-008   
  -0.4            -6.2725e-008    5.2844e-009     -6.995e-009    
  -0.45           -6.6709e-008    4.7656e-009     -8.533e-009    
  -0.5            -6.9392e-008    4.9754e-009     -1.1077e-008   
  -0.55           -7.224e-008     5.1758e-009     -6.844e-009    
