! VERSION = 6.00
BEGIN_HEADER
 ICCAP_INPUTS
  VG         V  B GROUND SMU4 0.001 LIN        2    0          -1.8       6    -0.36     
  VS         V  E GROUND SMU2 0.1 CON        0
  VD         V  S GROUND SMU1 0.1 LIN        1    0          -1.8       37   -0.05     
  VB         V  C GROUND SMU3 0.1 LIN        3    0          0.9        2    0.9       
 ICCAP_OUTPUTS
  ID         I  S GROUND SMU1 B
  IB         I  C GROUND SMU3 B
  IG         I  B GROUND SMU4 B
END_HEADER

BEGIN_DB
 ICCAP_VAR VG         0              
 ICCAP_VAR VS         0              
 ICCAP_VAR VB         0              

 #VD              ID              IB              IG             
  0               1.0092e-009     1.0672e-008     1.1044e-009    
  -0.05           4.295e-010      1.1237e-008     -1.6802e-009   
  -0.1            -2.1441e-009    6.294e-009      -1.4841e-009   
  -0.15           -2.3614e-009    8.185e-009      -1.3896e-009   
  -0.2            -2.5556e-009    9.115e-009      -1.34e-009     
  -0.25           -2.7437e-009    9.232e-009      -1.3089e-009   
  -0.3            -2.9518e-009    8.716e-009      -1.2897e-009   
  -0.35           -3.157e-009     9.703e-009      -2.6331e-009   
  -0.4            -4.5338e-009    7.45e-010       -2.4555e-009   
  -0.45           -6.2688e-009    -1.0764e-008    -4.383e-010    
  -0.5            -6.0482e-009    -2.4246e-008    1.2229e-009    
  -0.55           -5.1865e-009    -1.1137e-008    2.8824e-009    
  -0.6            -4.6507e-009    -3.19e-010      2.8418e-009    
  -0.65           -3.8831e-009    9.599e-009      1.267e-010     
  -0.7            -4.3017e-009    1.0168e-008     3.258e-010     
  -0.75           -4.755e-009     1.0453e-008     5.231e-010     
  -0.8            -5.3141e-009    1.0358e-008     7.147e-010     
  -0.85           -5.947e-009     1.0003e-008     8.778e-010     
  -0.9            -6.6685e-009    1.0165e-008     1.0324e-009    
  -0.95           -1.0647e-008    -1.345e-008     -1.5368e-009   
  -1              -1.1193e-008    1.1609e-008     -1.2921e-009   
  -1.05           -1.1938e-008    9.903e-009      -2.6599e-009   
  -1.1            -8.919e-009     1.0151e-008     1.0564e-009    
  -1.15           -1.3192e-008    -2.1956e-008    1.467e-009     
  -1.2            -1.5752e-008    -1.0377e-008    -5.927e-010    
  -1.25           -1.5059e-008    1.1986e-008     -2.1766e-009   
  -1.3            -1.2309e-008    1.1706e-008     1.4962e-009    
  -1.35           -1.7708e-008    -2.6859e-008    1.2207e-009    
  -1.4            -1.872e-008     -2.6431e-008    1.2422e-009    
  -1.45           -2.0434e-008    -1.2419e-008    1.833e-010     
  -1.5            -2.0824e-008    8.928e-009      -1.3079e-009   
  -1.55           -1.8385e-008    1.0259e-008     1.0281e-009    
  -1.6            -2.325e-008     -2.1371e-008    1.5067e-009    
  -1.65           -2.5953e-008    -1.0269e-008    -5.454e-010    
  -1.7            -2.5795e-008    1.1528e-008     -2.2259e-009   
  -1.75           -2.373e-008     1.1501e-008     1.4628e-009    
  -1.8            -2.9663e-008    -2.6998e-008    1.2268e-009    
END_DB

BEGIN_DB
 ICCAP_VAR VG         -0.36          
 ICCAP_VAR VS         0              
 ICCAP_VAR VB         0              

 #VD              ID              IB              IG             
  0               -2.166e-010     9.616e-009      -1.3941e-009   
  -0.05           -1.9392e-007    1.0011e-008     -2.3234e-009   
  -0.1            -3.1893e-007    1.2003e-008     1.7575e-009    
  -0.15           -4.0644e-007    -1.475e-008     1.4942e-009    
  -0.2            -4.6621e-007    -1.274e-008     2.028e-010     
  -0.25           -5.0345e-007    8.977e-009      -2.6253e-009   
  -0.3            -5.4669e-007    1.1485e-008     1.472e-009     
  -0.35           -5.8503e-007    -2.1776e-008    1.9273e-009    
  -0.4            -6.1602e-007    -1.0624e-008    -6.706e-010    
  -0.45           -6.4368e-007    2.0062e-008     -1.5815e-009   
  -0.5            -6.7476e-007    1.0427e-008     7.644e-010     
  -0.55           -7.1313e-007    -2.2496e-008    1.4414e-009    
  -0.6            -7.4314e-007    -2.5791e-008    1.2611e-009    
  -0.65           -7.7145e-007    -1.0664e-008    -7.91e-011     
  -0.7            -7.9157e-007    1.1097e-008     -2.2681e-009   
  -0.75           -8.1913e-007    9.744e-009      2.35e-010      
  -0.8            -8.5742e-007    -1.7126e-008    2.206e-009     
  -0.85           -8.8193e-007    -1.015e-008     -4.775e-010    
  -0.9            -9.0536e-007    1.7141e-008     -1.7722e-009   
  -0.95           -9.3312e-007    1.0236e-008     5.995e-010     
  -1              -9.7135e-007    -2.0191e-008    1.6441e-009    
  -1.05           -9.9088e-007    -1.1206e-008    -8.371e-010    
  -1.1            -1.01632e-006   2.2979e-008     -1.4426e-009   
  -1.15           -1.04893e-006   1.0764e-008     9.149e-010     
  -1.2            -1.08378e-006   -2.4782e-008    1.309e-009     
  -1.25           -1.1132e-006    -1.0989e-008    2.43e-011      
  -1.3            -1.12852e-006   9.744e-009      -2.4001e-009   
  -1.35           -1.1577e-006    -1.3378e-008    -2.0412e-009   
  -1.4            -1.1851e-006    9.649e-009      2.565e-010     
  -1.45           -1.2269e-006    -1.6363e-008    2.3911e-009    
  -1.5            -1.2544e-006    -1.0363e-008    -2.025e-010    
  -1.55           -1.2717e-006    1.0812e-008     -2.3036e-009   
  -1.6            -1.3019e-006    9.988e-009      9.26e-011      
  -1.65           -1.3447e-006    -1.4755e-008    2.6098e-009    
  -1.7            -1.3747e-006    -2.6885e-008    1.2348e-009    
  -1.75           -1.4053e-006    -1.0742e-008    -4.95e-011     
  -1.8            -1.4186e-006    9.145e-009      -2.458e-009    
END_DB

BEGIN_DB
 ICCAP_VAR VG         -0.72          
 ICCAP_VAR VS         0              
 ICCAP_VAR VB         0              

 #VD              ID              IB              IG             
  0               9.926e-011      2.0796e-008     -1.642e-010    
  -0.05           -1.0072e-006    -2.6784e-008    -2.7319e-009   
  -0.1            -1.8434e-006    1.0008e-008     1.0479e-009    
  -0.15           -2.5368e-006    -2.5457e-008    1.2952e-009    
  -0.2            -3.0979e-006    -2.6768e-008    1.241e-009     
  -0.25           -3.5516e-006    -1.0804e-008    -4.69e-011     
  -0.3            -3.8939e-006    9.018e-009      -2.4784e-009   
  -0.35           -4.2264e-006    1.1691e-008     1.5122e-009    
  -0.4            -4.4772e-006    -1.2547e-008    2.7574e-009    
  -0.45           -4.6959e-006    -2.5262e-008    1.2863e-009    
  -0.5            -4.8966e-006    -1.1434e-008    7.62e-011      
  -0.55           -5.0389e-006    8.85e-009       -2.5987e-009   
  -0.6            -5.2122e-006    1.1634e-008     -1.815e-010    
  -0.65           -5.3919e-006    -1.0489e-008    2.838e-009     
  -0.7            -5.5384e-006    -1.2738e-008    2.052e-010     
  -0.75           -5.6406e-006    9.419e-009      -1.2872e-009   
  -0.8            -5.8128e-006    1.1293e-008     1.4599e-009    
  -0.85           -5.935e-006     -1.1802e-008    2.7909e-009    
  -0.9            -6.0609e-006    -1.1875e-008    1.374e-010     
  -0.95           -6.1405e-006    9.162e-009      -2.6476e-009   
  -1              -6.2992e-006    1.0382e-008     1.2947e-009    
  -1.05           -6.4043e-006    -2.6749e-008    1.2169e-009    
  -1.1            -6.518e-006     -1.8359e-008    1.9626e-009    
  -1.15           -6.6142e-006    -1.0254e-008    -4.948e-010    
  -1.2            -6.6985e-006    1.4804e-008     -1.9287e-009   
  -1.25           -6.808e-006     9.696e-009      3.51e-010      
  -1.3            -6.9381e-006    -1.6793e-008    2.2451e-009    
  -1.35           -7.0365e-006    -1.0346e-008    -3.07e-010     
  -1.4            -7.1047e-006    1.202e-008      -2.1748e-009   
  -1.45           -7.2493e-006    1.2064e-008     1.7485e-009    
  -1.5            -7.3357e-006    -1.7574e-008    1.6747e-009    
  -1.55           -7.4205e-006    -1.0866e-008    -6.924e-010    
  -1.6            -7.4942e-006    1.7966e-008     -1.6923e-009   
  -1.65           -7.6141e-006    1.1266e-008     2.0719e-009    
  -1.7            -7.7255e-006    -1.2127e-008    1.618e-010     
  -1.75           -7.7692e-006    9.448e-009      -2.6632e-009   
  -1.8            -7.9084e-006    1.0191e-008     1.2657e-009    
END_DB

BEGIN_DB
 ICCAP_VAR VG         -1.08          
 ICCAP_VAR VS         0              
 ICCAP_VAR VB         0              

 #VD              ID              IB              IG             
  0               -1.0764e-009    9.98e-009       -1.8969e-009   
  -0.05           -2.3487e-006    -2.585e-008     -2.7292e-009   
  -0.1            -4.4722e-006    1.0395e-008     9.694e-010     
  -0.15           -6.3783e-006    -2.4022e-008    1.3515e-009    
  -0.2            -8.0462e-006    -1.0956e-008    -9.635e-010    
  -0.25           -9.5044e-006    2.356e-008      -1.4317e-009   
  -0.3            -1.0788e-005    1.0729e-008     8.258e-010     
  -0.35           -1.1858e-005    -9.719e-009     -9.17e-011     
  -0.4            -1.2819e-005    -1.6523e-008    2.3496e-009    
  -0.45           -1.3596e-005    -1.0741e-008    -6.643e-010    
  -0.5            -1.4246e-005    2.4201e-008     -1.4093e-009   
  -0.55           -1.4891e-005    9.676e-009      1.1847e-009    
  -0.6            -1.5407e-005    -1.3167e-008    2.7233e-009    
  -0.65           -1.585e-005     -1.0292e-008    -3.254e-010    
  -0.7            -1.6221e-005    1.9123e-008     -1.6218e-009   
  -0.75           -1.6637e-005    1.0267e-008     9.402e-010     
  -0.8            -1.6997e-005    -2.6757e-008    1.2202e-009    
  -0.85           -1.7307e-005    -1.0411e-008    -5.626e-010    
  -0.9            -1.7572e-005    2.2994e-008     -1.4516e-009   
  -0.95           -1.7925e-005    9.739e-009      1.1144e-009    
  -1              -1.8211e-005    -1.1893e-008    2.7842e-009    
  -1.05           -1.8459e-005    -1.0393e-008    -2.38e-010     
  -1.1            -1.8658e-005    1.7697e-008     -1.7192e-009   
  -1.15           -1.8942e-005    1.037e-008      8.738e-010     
  -1.2            -1.9202e-005    -2.6956e-008    1.237e-009     
  -1.25           -1.9413e-005    -1.0232e-008    -4.8e-010      
  -1.3            -1.9588e-005    2.1413e-008     -1.5003e-009   
  -1.35           -1.9861e-005    1.0035e-008     1.048e-009     
  -1.4            -2.0074e-005    -2.5687e-008    2.2731e-009    
  -1.45           -2.0258e-005    -1.0872e-008    -7.197e-010    
  -1.5            -2.0421e-005    2.5099e-008     -1.3901e-009   
  -1.55           -2.0705e-005    9.655e-009      1.2308e-009    
  -1.6            -2.0895e-005    -1.3952e-008    2.6689e-009    
  -1.65           -2.1075e-005    -1.8852e-008    1.8586e-009    
  -1.7            -2.1272e-005    -1.2726e-008    2.056e-010     
  -1.75           -2.1374e-005    1.0176e-008     -2.3785e-009   
  -1.8            -2.1627e-005    1.2134e-008     1.9684e-009    
END_DB

BEGIN_DB
 ICCAP_VAR VG         -1.44          
 ICCAP_VAR VS         0              
 ICCAP_VAR VB         0              

 #VD              ID              IB              IG             
  0               -1.0878e-009    -1.7318e-008    1.4137e-009    
  -0.05           -3.6945e-006    -1.2346e-008    -1.9205e-009   
  -0.1            -7.1838e-006    9.667e-009      3.443e-010     
  -0.15           -1.04827e-005   -1.7082e-008    2.2576e-009    
  -0.2            -1.3557e-005    -1.0867e-008    2.3903e-009    
  -0.25           -1.642e-005     -1.0815e-008    -6.845e-010    
  -0.3            -1.9034e-005    2.4644e-008     -1.4042e-009   
  -0.35           -2.1482e-005    9.691e-009      1.1993e-009    
  -0.4            -2.366e-005     -1.3434e-008    2.7075e-009    
  -0.45           -2.562e-005     -1.8532e-008    1.9172e-009    
  -0.5            -2.7371e-005    -1.3123e-008    2.284e-010     
  -0.55           -2.8832e-005    9.645e-009      -2.4259e-009   
  -0.6            -3.0256e-005    1.1916e-008     1.9332e-009    
  -0.65           -3.1452e-005    -2.013e-008     1.588e-009     
  -0.7            -3.2498e-005    -2.6824e-008    1.2316e-009    
  -0.75           -3.3399e-005    -1.0283e-008    -5.09e-010     
  -0.8            -3.4166e-005    2.1917e-008     -1.4868e-009   
  -0.85           -3.4976e-005    9.91e-009       1.0675e-009    
  -0.9            -3.5657e-005    -1.0934e-008    2.8216e-009    
  -0.95           -3.6253e-005    -1.7206e-008    2.1884e-009    
  -1              -3.6777e-005    -1.096e-008     -7.733e-010    
  -1.05           -3.7262e-005    2.5832e-008     -1.3748e-009   
  -1.1            -3.7864e-005    9.726e-009      1.2835e-009    
  -1.15           -3.8286e-005    -2.0162e-008    1.8297e-009    
  -1.2            -3.8683e-005    -1.1117e-008    -9.428e-010    
  -1.25           -3.9067e-005    2.7997e-008     -1.3296e-009   
  -1.3            -3.9604e-005    1.0281e-008     1.4873e-009    
  -1.35           -3.9947e-005    -1.5232e-008    1.5264e-009    
  -1.4            -4.0331e-005    -1.1062e-008    1.7e-011       
  -1.45           -4.0585e-005    1.3274e-008     -2.0669e-009   
  -1.5            -4.097e-005     1.051e-008      6.523e-010     
  -1.55           -4.1369e-005    -2.4491e-008    1.3358e-009    
  -1.6            -4.1691e-005    -1.8599e-008    1.9229e-009    
  -1.65           -4.2013e-005    -1.3137e-008    2.288e-010     
  -1.7            -4.2216e-005    9.583e-009      -2.427e-009    
  -1.75           -4.2547e-005    9.671e-009      3.703e-010     
  -1.8            -4.2927e-005    -2.0338e-008    1.5959e-009    
END_DB

BEGIN_DB
 ICCAP_VAR VG         -1.8           
 ICCAP_VAR VS         0              
 ICCAP_VAR VB         0              

 #VD              ID              IB              IG             
  0               -1.1587e-009    1.9184e-008     -2.4542e-009   
  -0.05           -4.7304e-006    1.0247e-008     1.2449e-009    
  -0.1            -9.3036e-006    -1.0963e-008    -7.3e-012      
  -0.15           -1.3711e-005    8.843e-009      -9.01e-011     
  -0.2            -1.7934e-005    1.5295e-008     -1.9025e-009   
  -0.25           -2.2008e-005    1.0463e-008     7.523e-010     
  -0.3            -2.5887e-005    -2.556e-008     1.2799e-009    
  -0.35           -2.9556e-005    -1.0298e-008    -3.229e-010    
  -0.4            -3.3002e-005    1.9139e-008     -1.6279e-009   
  -0.45           -3.6278e-005    1.0257e-008     9.376e-010     
  -0.5            -3.9335e-005    -2.6902e-008    1.2224e-009    
  -0.55           -4.2154e-005    -1.0508e-008    -5.655e-010    
  -0.6            -4.4733e-005    2.2879e-008     -1.4525e-009   
  -0.65           -4.7192e-005    1.0004e-008     1.1081e-009    
  -0.7            -4.9392e-005    -1.1682e-008    2.7917e-009    
  -0.75           -5.1371e-005    -1.7497e-008    2.1084e-009    
  -0.8            -5.3133e-005    -1.1108e-008    -8.165e-010    
  -0.85           -5.4705e-005    2.6432e-008     -1.3622e-009   
  -0.9            -5.6163e-005    1.823e-008      -1.6679e-009   
  -0.95           -5.7526e-005    1.0626e-008     9.121e-010     
  -1              -5.8717e-005    -2.6916e-008    2.5292e-009    
  -1.05           -5.9747e-005    -2.1003e-008    1.8542e-009    
  -1.1            -6.0735e-005    -1.2679e-008    2.021e-010     
  -1.15           -6.1512e-005    9.98e-009       -2.3835e-009   
  -1.2            -6.2439e-005    1.2e-008        1.9636e-009    
  -1.25           -6.3212e-005    -2.0507e-008    1.5452e-009    
  -1.3            -6.3897e-005    -1.1172e-008    3.75e-011      
  -1.35           -6.446e-005     1.2822e-008     -2.0926e-009   
  -1.4            -6.5098e-005    1.042e-008      6.267e-010     
  -1.45           -6.576e-005     -2.4337e-008    1.35e-009      
  -1.5            -6.632e-005     -1.0489e-008    -1.784e-010    
  -1.55           -6.6734e-005    1.6736e-008     -1.7848e-009   
  -1.6            -6.7325e-005    1.0369e-008     8.286e-010     
  -1.65           -6.7836e-005    -2.647e-008     1.2525e-009    
  -1.7            -6.8277e-005    -1.0149e-008    -4.225e-010    
  -1.75           -6.8685e-005    2.0405e-008     -1.5512e-009   
  -1.8            -6.9218e-005    1.0166e-008     9.998e-010     
END_DB

BEGIN_DB
 ICCAP_VAR VG         0              
 ICCAP_VAR VS         0              
 ICCAP_VAR VB         0.9            

 #VD              ID              IB              IG             
  0               4.807e-010      1.7819e-008     3.045e-010     
  -0.05           -2.685e-010     -1.5689e-008    2.7923e-009    
  -0.1            2.229e-009      1.0188e-008     1.1719e-009    
  -0.15           1.9237e-009     1.0165e-008     -2.026e-010    
  -0.2            8.861e-010      2.4208e-008     -1.5733e-009   
  -0.25           -1.484e-009     7.24e-009       -1.7586e-009   
  -0.3            -2.2133e-009    -1.0913e-008    -4.074e-010    
  -0.35           -5.239e-010     -1.7173e-008    2.5547e-009    
  -0.4            2.2261e-009     -3.601e-009     1.177e-009     
  -0.45           1.9162e-009     1.016e-008      -2.017e-010    
  -0.5            8.76e-010       2.4134e-008     -1.5742e-009   
  -0.55           -1.496e-009     7.35e-009       -1.7554e-009   
  -0.6            -2.2228e-009    -1.0928e-008    -4.063e-010    
  -0.65           -5.377e-010     -1.7184e-008    2.5511e-009    
  -0.7            2.2102e-009     -3.692e-009     1.1781e-009    
  -0.75           1.8994e-009     1.0251e-008     -1.967e-010    
  -0.8            8.593e-010      2.4306e-008     -1.5753e-009   
  -0.85           -1.5151e-009    7.337e-009      -1.7566e-009   
  -0.9            -2.2427e-009    -1.0936e-008    -4.063e-010    
  -0.95           -5.695e-010     -1.7055e-008    2.5504e-009    
  -1              2.1871e-009     -3.467e-009     1.1818e-009    
  -1.05           1.8741e-009     1.0167e-008     -1.968e-010    
  -1.1            8.342e-010      2.423e-008      -1.5687e-009   
  -1.15           -1.543e-009     7.382e-009      -1.7591e-009   
  -1.2            -2.2731e-009    -1.0805e-008    -4.137e-010    
  -1.25           -1.4849e-009    -2.4718e-008    1.2316e-009    
  -1.3            -8.52e-011      -1.0842e-008    2.8738e-009    
  -1.35           2.2514e-009     -5.1e-011       6.871e-010     
  -1.4            2.2611e-009     9.995e-009      8.541e-010     
  -1.45           1.393e-009      9.783e-009      -1.2967e-009   
  -1.5            5.87e-011       9.54e-009       -2.6373e-009   
  -1.55           -1.4091e-009    7.14e-010       -1.8886e-009   
  -1.6            -1.8301e-009    -1.2809e-008    1.6441e-009    
  -1.65           2.1991e-009     -8.984e-009     8.083e-010     
  -1.7            1.2805e-009     9.66e-009       -1.3031e-009   
  -1.75           -1.32e-009      8.963e-009      -2.2397e-009   
  -1.8            -9.281e-010     -1.898e-008     2.2467e-009    
END_DB

BEGIN_DB
 ICCAP_VAR VG         -0.36          
 ICCAP_VAR VS         0              
 ICCAP_VAR VB         0.9            

 #VD              ID              IB              IG             
  0               9.79e-010       9.308e-009      1.178e-009     
  -0.05           -3.0217e-008    -2.6017e-008    -2.3802e-009   
  -0.1            -3.9007e-008    9.81e-009       1.3112e-009    
  -0.15           -5.0344e-008    -2.552e-008     1.2813e-009    
  -0.2            -5.7095e-008    -1.3775e-008    2.497e-010     
  -0.25           -6.0297e-008    8.792e-009      -1.3217e-009   
  -0.3            -6.279e-008     1.0568e-008     9.497e-010     
  -0.35           -7.2217e-008    -2.0494e-008    1.6427e-009    
  -0.4            -7.8537e-008    -2.2359e-008    1.9901e-009    
  -0.45           -8.2767e-008    -1.7125e-008    2.1379e-009    
  -0.5            -8.9373e-008    -1.0807e-008    -8.73e-011     
  -0.55           -9.2524e-008    9.11e-009       -2.6322e-009   
