! VERSION = 6.00
BEGIN_HEADER
 ICCAP_INPUTS
  VG         V  B GROUND SMU4 0.001 LIN        2    0          -1.8       6    -0.36     
  VS         V  E GROUND SMU3 0.1 CON        0
  VD         V  S GROUND SMU2 0.1 LIN        1    0          -1.8       37   -0.05     
  VB         V  C GROUND SMU1 0.1 LIN        3    0          0.9        2    0.9       
 ICCAP_OUTPUTS
  ID         I  S GROUND SMU2 B
  IB         I  C GROUND SMU1 B
  IG         I  B GROUND SMU4 B
END_HEADER

BEGIN_DB
 ICCAP_VAR VG         0              
 ICCAP_VAR VS         0              
 ICCAP_VAR VB         0              

 #VD              ID              IB              IG             
  0               -1.3724e-009    1.3349e-009     4.399e-010     
  -0.05           -8.9398e-009    2.5231e-009     -1.9557e-009   
  -0.1            -1.0406e-008    2.2088e-009     -1.8758e-009   
  -0.15           -1.0582e-008    1.9758e-009     1.9791e-009    
  -0.2            -1.2771e-008    -6.9919e-009    1.9412e-009    
  -0.25           -1.412e-008     -4.638e-009     1.7096e-009    
  -0.3            -1.5535e-008    -3.5103e-009    1.8056e-009    
  -0.35           -1.6561e-008    -3.8072e-009    1.8753e-009    
  -0.4            -1.7578e-008    -4.033e-009     1.9076e-009    
  -0.45           -1.86e-008      -4.2413e-009    1.9316e-009    
  -0.5            -1.9625e-008    -4.5905e-009    1.7036e-009    
  -0.55           -2.1175e-008    -3.4794e-009    1.7985e-009    
  -0.6            -2.2344e-008    -3.7863e-009    1.8689e-009    
  -0.65           -2.3532e-008    -4.016e-009     1.9068e-009    
  -0.7            -2.4757e-008    -4.2244e-009    1.9286e-009    
  -0.75           -2.599e-008     -4.5438e-009    1.6943e-009    
  -0.8            -2.7778e-008    -3.4533e-009    1.79e-009      
  -0.85           -2.9184e-008    -3.7587e-009    1.8694e-009    
  -0.9            -3.0618e-008    -4.0071e-009    1.9038e-009    
  -0.95           -3.2058e-008    -4.2021e-009    1.9308e-009    
  -1              -3.361e-008     -4.5135e-009    1.6843e-009    
  -1.05           -3.5593e-008    -3.4372e-009    1.7853e-009    
  -1.1            -3.7358e-008    -3.7466e-009    1.8634e-009    
  -1.15           -3.902e-008     -3.9938e-009    1.9016e-009    
  -1.2            -4.0828e-008    -4.1946e-009    1.9285e-009    
  -1.25           -4.2668e-008    -4.4835e-009    1.6777e-009    
  -1.3            -4.5085e-008    -3.4112e-009    1.7781e-009    
  -1.35           -4.7112e-008    -3.7295e-009    1.8593e-009    
  -1.4            -4.912e-008     -3.9698e-009    1.9016e-009    
  -1.45           -5.1261e-008    -4.1768e-009    1.9265e-009    
  -1.5            -5.3396e-008    -4.4535e-009    1.6704e-009    
  -1.55           -5.6243e-008    -3.3882e-009    1.7753e-009    
  -1.6            -5.8743e-008    -3.7072e-009    1.8576e-009    
  -1.65           -6.1058e-008    -3.9607e-009    1.9022e-009    
  -1.7            -6.3614e-008    -4.1548e-009    1.9218e-009    
  -1.75           -6.6297e-008    -4.4415e-009    1.6634e-009    
  -1.8            -6.9607e-008    -3.3621e-009    1.766e-009     
END_DB

BEGIN_DB
 ICCAP_VAR VG         -0.36          
 ICCAP_VAR VS         0              
 ICCAP_VAR VB         0              

 #VD              ID              IB              IG             
  0               4.616e-010      -2.3333e-009    -5.296e-009    
  -0.05           -6.1146e-007    -3.7657e-009    -5.831e-009    
  -0.1            -1.02259e-006   4.586e-009      -5.3e-009      
  -0.15           -1.2998e-006    -4.3896e-009    -3.1018e-009   
  -0.2            -1.4922e-006    1.9045e-009     -6.6061e-009   
  -0.25           -1.6431e-006    5.0233e-009     -2.0404e-009   
  -0.3            -1.7655e-006    5.2963e-009     -1.7624e-009   
  -0.35           -1.8713e-006    4.7576e-009     -2.0258e-009   
  -0.4            -1.9726e-006    5.3086e-009     -2.0265e-009   
  -0.45           -2.0641e-006    5.3108e-009     -2.027e-009    
  -0.5            -2.1531e-006    5.316e-009      -2.0282e-009   
  -0.55           -2.2393e-006    5.3134e-009     -2.0275e-009   
  -0.6            -2.3193e-006    5.3125e-009     -2.0275e-009   
  -0.65           -2.4014e-006    5.3123e-009     -2.0232e-009   
  -0.7            -2.4789e-006    5.306e-009      -2.022e-009    
  -0.75           -2.5574e-006    5.2992e-009     -2.0185e-009   
  -0.8            -2.6355e-006    5.2875e-009     -2.0167e-009   
  -0.85           -2.7128e-006    5.2803e-009     -2.0147e-009   
  -0.9            -2.7892e-006    5.2702e-009     -2.01e-009     
  -0.95           -2.8648e-006    5.2576e-009     -2.0041e-009   
  -1              -2.941e-006     5.2422e-009     -1.9959e-009   
  -1.05           -3.0174e-006    5.2246e-009     -1.9924e-009   
  -1.1            -3.0917e-006    5.2116e-009     -1.9831e-009   
  -1.15           -3.1664e-006    5.1901e-009     -1.9769e-009   
  -1.2            -3.244e-006     5.1836e-009     -1.9676e-009   
  -1.25           -3.3198e-006    5.16e-009       -1.9574e-009   
  -1.3            -3.3959e-006    5.152e-009      -1.9504e-009   
  -1.35           -3.4706e-006    5.1313e-009     -1.941e-009    
  -1.4            -3.5489e-006    5.1149e-009     -1.93e-009     
  -1.45           -3.6248e-006    5.09e-009       -1.9177e-009   
  -1.5            -3.7033e-006    5.0755e-009     -1.9106e-009   
  -1.55           -3.7783e-006    5.0532e-009     -1.8985e-009   
  -1.6            -3.8581e-006    5.0332e-009     -1.8887e-009   
  -1.65           -3.9394e-006    5.0111e-009     -1.8767e-009   
  -1.7            -4.0199e-006    4.9834e-009     -1.8634e-009   
  -1.75           -4.0981e-006    4.9578e-009     -1.8516e-009   
  -1.8            -4.177e-006     4.9357e-009     -1.8375e-009   
END_DB

BEGIN_DB
 ICCAP_VAR VG         -0.72          
 ICCAP_VAR VS         0              
 ICCAP_VAR VB         0              

 #VD              ID              IB              IG             
  0               1.1839e-008     5.32e-009       -5.1675e-009   
  -0.05           -3.3631e-006    5.1971e-009     1.9818e-009    
  -0.1            -6.1647e-006    -1.9944e-009    -1.69e-010     
  -0.15           -8.3559e-006    -6.254e-010     -7.4837e-009   
  -0.2            -1.01892e-005   3.4576e-009     -2.0449e-009   
  -0.25           -1.1733e-005    -8.98e-011      1.7918e-009    
  -0.3            -1.2918e-005    -3.6119e-009    -2.56e-009     
  -0.35           -1.3769e-005    2.1131e-009     -9.846e-009    
  -0.4            -1.4575e-005    5.2789e-009     -2.0491e-009   
  -0.45           -1.5234e-005    5.0884e-009     -1.9856e-009   
  -0.5            -1.5825e-005    4.792e-009      -1.8148e-009   
  -0.55           -1.6369e-005    4.3889e-009     -2.0318e-009   
  -0.6            -1.6832e-005    4.9522e-009     -1.9038e-009   
  -0.65           -1.7296e-005    4.5852e-009     -2.0482e-009   
  -0.7            -1.7707e-005    5.0721e-009     -1.9769e-009   
  -0.75           -1.8101e-005    4.7837e-009     -1.8078e-009   
  -0.8            -1.8512e-005    4.378e-009      4.038e-010     
  -0.85           -1.9018e-005    2.0532e-009     1.8785e-009    
  -0.9            -1.9351e-005    -3.9091e-009    -1.6861e-009   
  -0.95           -1.9542e-005    1.4803e-009     -9.5786e-009   
  -1              -1.9895e-005    4.9825e-009     -2.4969e-009   
  -1.05           -2.0217e-005    5.2049e-009     -2.0463e-009   
  -1.1            -2.0518e-005    5.0398e-009     -1.9539e-009   
  -1.15           -2.0842e-005    4.7088e-009     -1.7764e-009   
  -1.2            -2.1185e-005    4.3323e-009     4.271e-010     
  -1.25           -2.1632e-005    2.053e-009      1.857e-009     
  -1.3            -2.1909e-005    -3.8643e-009    -1.8403e-009   
  -1.35           -2.2044e-005    1.6257e-009     -9.6864e-009   
  -1.4            -2.2351e-005    5.0596e-009     -2.2871e-009   
  -1.45           -2.2612e-005    5.2037e-009     -2.0414e-009   
  -1.5            -2.2874e-005    4.998e-009      -1.9292e-009   
  -1.55           -2.3179e-005    4.6443e-009     -2.0528e-009   
  -1.6            -2.3449e-005    5.1053e-009     -1.9983e-009   
  -1.65           -2.3712e-005    4.8349e-009     -1.8388e-009   
  -1.7            -2.399e-005     4.44e-009       -2.0429e-009   
  -1.75           -2.4261e-005    4.9787e-009     -1.9248e-009   
  -1.8            -2.4532e-005    4.6287e-009     -2.0515e-009   
END_DB

BEGIN_DB
 ICCAP_VAR VG         -1.08          
 ICCAP_VAR VS         0              
 ICCAP_VAR VB         0              

 #VD              ID              IB              IG             
  0               1.4442e-008     5.289e-009      -6.795e-009    
  -0.05           -7.7266e-006    2.2092e-009     -1.5115e-009   
  -0.1            -1.4745e-005    2.3518e-009     -1.8122e-009   
  -0.15           -2.0997e-005    4.15e-009       -9.306e-009    
  -0.2            -2.6538e-005    5.306e-009      -8.683e-009    
  -0.25           -3.1374e-005    5.2775e-009     -7.939e-009    
  -0.3            -3.559e-005     5.2188e-009     -7.193e-009    
  -0.35           -3.9211e-005    5.156e-009      -6.83e-009     
  -0.4            -4.2283e-005    5.0722e-009     -6.742e-009    
  -0.45           -4.4851e-005    4.99e-009       -6.722e-009    
  -0.5            -4.7046e-005    4.9045e-009     -6.749e-009    
  -0.55           -4.8929e-005    4.8163e-009     -6.76e-009     
  -0.6            -5.0553e-005    4.7208e-009     -1.0774e-008   
  -0.65           -5.1999e-005    5.3166e-009     -9.559e-009    
  -0.7            -5.3253e-005    5.3243e-009     -8.757e-009    
  -0.75           -5.4436e-005    5.2981e-009     -7.975e-009    
  -0.8            -5.5448e-005    5.24e-009       -7.4e-009      
  -0.85           -5.6328e-005    5.1732e-009     -6.873e-009    
  -0.9            -5.7252e-005    5.1056e-009     -6.749e-009    
  -0.95           -5.8048e-005    5.0232e-009     -6.706e-009    
  -1              -5.8827e-005    4.9275e-009     -6.721e-009    
  -1.05           -5.9557e-005    4.8424e-009     -6.798e-009    
  -1.1            -6.0259e-005    4.7489e-009     -1.1087e-008   
  -1.15           -6.0985e-005    5.3184e-009     -9.979e-009    
  -1.2            -6.1497e-005    5.3177e-009     -8.97e-009     
  -1.25           -6.223e-005     5.2963e-009     -8.174e-009    
  -1.3            -6.2848e-005    5.2565e-009     -7.515e-009    
  -1.35           -6.3356e-005    5.1977e-009     -6.945e-009    
  -1.4            -6.3944e-005    5.1249e-009     -6.745e-009    
  -1.45           -6.4565e-005    5.0359e-009     -6.747e-009    
  -1.5            -6.5055e-005    4.9494e-009     -6.731e-009    
  -1.55           -6.5624e-005    4.868e-009      -6.808e-009    
  -1.6            -6.6206e-005    4.7743e-009     -1.1477e-008   
  -1.65           -6.6666e-005    5.3166e-009     -9.999e-009    
  -1.7            -6.7172e-005    5.3231e-009     -9.223e-009    
  -1.75           -6.7789e-005    5.3077e-009     -8.504e-009    
  -1.8            -6.8222e-005    5.2767e-009     -7.749e-009    
END_DB

BEGIN_DB
 ICCAP_VAR VG         -1.44          
 ICCAP_VAR VS         0              
 ICCAP_VAR VB         0              

 #VD              ID              IB              IG             
  0               1.4975e-008     -3.282e-009     -8.251e-009    
  -0.05           -1.1615e-005    9.345e-010      -1.2301e-008   
  -0.1            -2.2717e-005    5.4644e-009     -1.1083e-008   
  -0.15           -3.3218e-005    5.5267e-009     -9.927e-009    
  -0.2            -4.3047e-005    5.5736e-009     -9.145e-009    
  -0.25           -5.221e-005     5.6036e-009     -8.505e-009    
  -0.3            -6.0783e-005    5.6071e-009     -7.749e-009    
  -0.35           -6.8594e-005    5.6052e-009     -7.125e-009    
  -0.4            -7.5798e-005    5.5893e-009     -6.916e-009    
  -0.45           -8.2259e-005    5.5616e-009     -1.5247e-008   
  -0.5            -8.8072e-005    5.3013e-009     -1.3552e-008   
  -0.55           -9.3074e-005    5.3878e-009     -1.2252e-008   
  -0.6            -9.7679e-005    5.4538e-009     -1.1227e-008   
  -0.65           -0.000101497    5.5154e-009     -1.0074e-008   
  -0.7            -0.000104977    5.5676e-009     -9.261e-009    
  -0.75           -0.000108006    5.6007e-009     -8.657e-009    
  -0.8            -0.000110584    5.6137e-009     -7.809e-009    
  -0.85           -0.000112685    5.6067e-009     -7.245e-009    
  -0.9            -0.00011489     3.8933e-009     -8.849e-009    
  -0.95           -0.00011676     5.5997e-009     -6.949e-009    
  -1              -0.0001185      5.4439e-009     -1.1995e-008   
  -1.05           -0.00012018     5.5956e-009     -8.703e-009    
  -1.1            -0.00012152     5.58e-009       -6.852e-009    
  -1.15           -0.00012294     5.425e-009      -1.1426e-008   
  -1.2            -0.00012437     5.6132e-009     -8.255e-009    
  -1.25           -0.00012548     5.5711e-009     -1.5884e-008   
  -1.3            -0.00012677     5.4778e-009     -1.0745e-008   
  -1.35           -0.0001277      5.6174e-009     -8.029e-009    
  -1.4            -0.00012868     5.5511e-009     -1.4944e-008   
  -1.45           -0.00012907     5.5012e-009     -1.037e-008    
  -1.5            -0.00012987     5.6147e-009     -7.615e-009    
  -1.55           -0.00013085     5.5308e-009     -1.3973e-008   
  -1.6            -0.00013164     5.531e-009      -9.86e-009     
  -1.65           -0.0001326      5.6048e-009     -7.317e-009    
  -1.7            -0.00013354     5.5103e-009     -1.3357e-008   
  -1.75           -0.00013423     5.5511e-009     -9.476e-009    
  -1.8            -0.00013484     5.6011e-009     -7.128e-009    
END_DB

BEGIN_DB
 ICCAP_VAR VG         -1.8           
 ICCAP_VAR VS         0              
 ICCAP_VAR VB         0              

 #VD              ID              IB              IG             
  0               2.0526e-008     5.1364e-009     -6.2692e-009   
  -0.05           -1.4242e-005    -2.7868e-009    1.0663e-009    
  -0.1            -2.8189e-005    2.7486e-009     1.8727e-009    
  -0.15           -4.1576e-005    -2.796e-010     -2.0097e-008   
  -0.2            -5.4499e-005    5.1529e-009     -1.9397e-008   
  -0.25           -6.6968e-005    5.2211e-009     -1.8404e-008   
  -0.3            -7.9093e-005    5.3026e-009     -1.6911e-008   
  -0.35           -9.0581e-005    5.4309e-009     -1.517e-008    
  -0.4            -0.000101545    5.561e-009      -1.3462e-008   
  -0.45           -0.000112036    5.7096e-009     -1.2288e-008   
  -0.5            -0.00012184     4.5481e-009     -9.46e-009     
  -0.55           -0.00013094     6.3508e-009     -1.8262e-008   
  -0.6            -0.00013937     5.6364e-009     -1.2809e-008   
  -0.65           -0.00014782     6.1258e-009     -9.099e-009    
  -0.7            -0.00015485     6.3639e-009     -1.7558e-008   
  -0.75           -0.00016152     5.7133e-009     -1.2143e-008   
  -0.8            -0.0001676      6.1953e-009     -8.882e-009    
  -0.85           -0.00017307     6.3729e-009     -1.6966e-008   
  -0.9            -0.00017795     5.7798e-009     -1.1605e-008   
  -0.95           -0.00018211     6.237e-009      -8.406e-009    
  -1              -0.00018538     6.376e-009      -1.6039e-008   
  -1.05           -0.00018888     5.867e-009      -1.0935e-008   
  -1.1            -0.00019185     6.2822e-009     -1.979e-008    
  -1.15           -0.00019485     5.4337e-009     -1.4919e-008   
  -1.2            -0.00019693     5.9378e-009     -1.0482e-008   
  -1.25           -0.00019956     6.3236e-009     -1.9315e-008   
  -1.3            -0.00020161     5.4971e-009     -1.4084e-008   
  -1.35           -0.00020359     6.0211e-009     -9.822e-009    
  -1.4            -0.00020537     6.3384e-009     -1.89e-008     
  -1.45           -0.00020728     5.5791e-009     -1.3397e-008   
  -1.5            -0.00020896     6.0729e-009     -9.343e-009    
  -1.55           -0.00021051     6.3635e-009     -1.8314e-008   
  -1.6            -0.00021155     5.6533e-009     -1.2794e-008   
  -1.65           -0.00021288     6.1463e-009     -9.04e-009     
  -1.7            -0.00021428     6.3745e-009     -1.7554e-008   
  -1.75           -0.00021538     5.7295e-009     -1.2174e-008   
  -1.8            -0.00021692     6.193e-009      -8.779e-009    
END_DB

BEGIN_DB
 ICCAP_VAR VG         0              
 ICCAP_VAR VS         0              
 ICCAP_VAR VB         0.9            

 #VD              ID              IB              IG             
  0               -2.2284e-009    4.6276e-009     -9.466e-009    
  -0.05           2.0074e-009     2.1837e-009     -8.308e-009    
  -0.1            2.0671e-009     1.8161e-009     -7.176e-009    
  -0.15           2.2269e-009     2.0638e-009     -7.548e-009    
  -0.2            2.2095e-009     2.0757e-009     -8.16e-009     
  -0.25           2.1796e-009     2.0917e-009     -8.563e-009    
  -0.3            1.9639e-009     2.1794e-009     -8.26e-009     
  -0.35           1.9786e-009     2.1814e-009     -7.952e-009    
  -0.4            2.16e-009       2.0843e-009     -8.415e-009    
  -0.45           1.9468e-009     2.1825e-009     -8.102e-009    
  -0.5            1.96e-009       2.1764e-009     -7.67e-009     
  -0.55           1.9687e-009     2.1763e-009     -7.393e-009    
  -0.6            2.1348e-009     2.0673e-009     -7.881e-009    
  -0.65           1.9323e-009     2.1802e-009     -7.572e-009    
  -0.7            1.9406e-009     2.1798e-009     -7.278e-009    
  -0.75           1.9441e-009     2.1734e-009     -7.045e-009    
  -0.8            2.0962e-009     2.0598e-009     -7.422e-009    
  -0.85           -8.444e-010     2.191e-010      -6.836e-009    
  -0.9            2.0795e-009     2.0554e-009     -6.967e-009    
  -0.95           1.9037e-009     2.1816e-009     -6.873e-009    
  -1              -1.8241e-009    -3.075e-009     -4.5201e-009   
  -1.05           1.8981e-009     2.1775e-009     9.177e-010     
  -1.1            -2.4108e-009    4.3864e-009     -9.1351e-009   
  -1.15           1.9649e-009     2.1698e-009     4.52e-010      
  -1.2            -2.4037e-009    3.6234e-009     -9.3972e-009   
  -1.25           -1.8243e-009    -3.2994e-009    -2.3863e-009   
  -1.3            1.8805e-009     2.0612e-009     5.651e-010     
  -1.35           -2.3229e-009    3.8486e-009     -1.01021e-008  
  -1.4            -1.1225e-009    2.177e-010      5.496e-010     
  -1.45           1.7198e-009     2.1154e-009     7.035e-010     
  -1.5            -2.229e-009     4.0546e-009     -1.05327e-008  
  -1.55           -1.361e-009     -1.0998e-009    2.09e-010      
  -1.6            1.5597e-009     2.166e-009      8.641e-010     
  -1.65           -2.1862e-009    4.2956e-009     -1.02998e-008  
  -1.7            -1.6329e-009    -2.7173e-009    -2.708e-010    
  -1.75           1.5364e-009     2.187e-009      4.795e-010     
  -1.8            -2.3693e-009    5.2753e-009     -1.04346e-008  
END_DB

BEGIN_DB
 ICCAP_VAR VG         -0.36          
 ICCAP_VAR VS         0              
 ICCAP_VAR VB         0.9            

 #VD              ID              IB              IG             
  0               2.0082e-009     5.0396e-009     -1.0141e-009   
  -0.05           -1.1377e-007    3.6522e-009     -6.619e-009    
  -0.1            -1.6982e-007    4.9642e-009     -1.1255e-008   
  -0.15           -2.0248e-007    5.3614e-009     -7.726e-009    
  -0.2            -2.2599e-007    5.2048e-009     -6.685e-009    
  -0.25           -2.4597e-007    4.9376e-009     -1.0653e-008   
  -0.3            -2.6355e-007    5.3462e-009     -7.546e-009    
  -0.35           -2.8112e-007    5.1784e-009     -6.61e-009     
  -0.4            -2.9848e-007    4.9125e-009     -1.0112e-008   
  -0.45           -3.1532e-007    5.332e-009      -7.168e-009    
  -0.5            -3.3264e-007    5.1501e-009     -6.679e-009    
  -0.55           -3.5033e-007    4.8614e-009     -9.719e-009    
