! VERSION = 6.00
BEGIN_HEADER
 ICCAP_INPUTS
  VG         V  B GROUND SMU4 0.001 LIN        1    0          -1.8       37   -0.05     
  VS         V  E GROUND SMU3 0.1 CON        0
  VB         V  C GROUND SMU1 0.1 LIN        3    0          1.8        3    0.9       
  VD         V  S GROUND SMU2 0.1 LIN        2    -0.1       -1.8       2    -1.7      
 ICCAP_OUTPUTS
  IG         I  B GROUND SMU4 B
  ID         I  S GROUND SMU2 B
  IB         I  C GROUND SMU1 B
END_HEADER

BEGIN_DB
 ICCAP_VAR VS         0              
 ICCAP_VAR VB         0              
 ICCAP_VAR VD         -0.1           

 #VG              IG              ID              IB             
  0               -2.861e-010     -6.4515e-009    -4.489e-009    
  -0.05           -8.907e-010     -1.4379e-008    -4.449e-009    
  -0.1            1.6113e-009     -2.8882e-008    -4.333e-009    
  -0.15           1.5675e-009     -6.9013e-008    -4.442e-009    
  -0.2            -1.4856e-009    -1.4182e-007    -4.721e-009    
  -0.25           1.6082e-009     -2.6863e-007    -4.37e-009     
  -0.3            1.576e-009      -4.6041e-007    -4.219e-009    
  -0.35           -1.4645e-009    -7.2884e-007    6.1638e-009    
  -0.4            -8.324e-010     -1.09849e-006   2.037e-010     
  -0.45           -1.4299e-009    -1.5695e-006    -8.2309e-009   
  -0.5            1.5076e-009     -2.1751e-006    -6.1921e-009   
  -0.55           7.693e-010      -2.8691e-006    1.9963e-009    
  -0.6            -1.4536e-009    -3.682e-006     5.7472e-009    
  -0.65           -9.211e-010     -4.6053e-006    5.5e-010       
  -0.7            1.5222e-009     -5.6518e-006    -3.8621e-009   
  -0.75           7.431e-010      -6.7473e-006    2.1357e-009    
  -0.8            -1.4559e-009    -7.9403e-006    5.7462e-009    
  -0.85           -9.016e-010     -9.2265e-006    4.72e-010      
  -0.9            1.5406e-009     -1.06243e-005   -4.0097e-009   
  -0.95           1.6026e-009     -1.2052e-005    1.9617e-009    
  -1              -1.4595e-009    -1.3487e-005    5.7478e-009    
  -1.05           -8.741e-010     -1.4981e-005    3.625e-010     
  -1.1            1.5609e-009     -1.6502e-005    -4.1784e-009   
  -1.15           -1.5395e-009    -1.7949e-005    5.6133e-009    
  -1.2            -6.451e-010     -1.9409e-005    -7.848e-010    
  -1.25           1.4806e-009     -2.0845e-005    -5.3486e-009   
  -1.3            8.446e-010      -2.2201e-005    1.5479e-009    
  -1.35           -1.547e-009     -2.3504e-005    5.6477e-009    
  -1.4            -6.211e-010     -2.4772e-005    -9.098e-010    
  -1.45           1.4866e-009     -2.6003e-005    -5.558e-009    
  -1.5            8.226e-010      -2.7141e-005    1.6531e-009    
  -1.55           -1.5558e-009    -2.8233e-005    5.698e-009     
  -1.6            -5.977e-010     -2.9286e-005    -1.0501e-009   
  -1.65           1.4959e-009     -3.0319e-005    -5.8029e-009   
  -1.7            7.994e-010      -3.1264e-005    1.7948e-009    
  -1.75           -1.5607e-009    -3.2175e-005    5.7275e-009    
  -1.8            -5.759e-010     -3.3054e-005    -1.1802e-009   
END_DB

BEGIN_DB
 ICCAP_VAR VS         0              
 ICCAP_VAR VB         0              
 ICCAP_VAR VD         -1.8           

 #VG              IG              ID              IB             
  0               -1.199e-010     -6.8254e-008    -4.556e-009    
  -0.05           -1.4799e-009    -1.4357e-007    -4.692e-009    
  -0.1            1.6119e-009     -2.9548e-007    -4.348e-009    
  -0.15           1.5744e-009     -5.5144e-007    -4.374e-009    
  -0.2            -1.4595e-009    -9.4472e-007    6.1885e-009    
  -0.25           1.4638e-009     -1.5431e-006    1.7669e-009    
  -0.3            9.314e-010      -2.3632e-006    1.174e-009     
  -0.35           -1.5099e-009    -3.4451e-006    5.4052e-009    
  -0.4            -7.126e-010     -4.8832e-006    -3.989e-010    
  -0.45           1.4661e-009     -6.735e-006     -4.9009e-009   
  -0.5            9.091e-010      -8.9428e-006    1.2628e-009    
  -0.55           7.79e-010       -1.1572e-005    -5.0992e-009   
  -0.6            -1.5629e-009    -1.4666e-005    5.746e-009     
  -0.65           -5.559e-010     -1.822e-005     -1.2817e-009   
  -0.7            1.5189e-009     -2.2494e-005    -6.285e-009    
  -0.75           7.514e-010      -2.7105e-005    2.0607e-009    
  -0.8            -1.4531e-009    -3.2264e-005    5.7412e-009    
  -0.85           -9.12e-010      -3.8044e-005    4.949e-010     
  -0.9            1.5308e-009     -4.4594e-005    -3.928e-009    
  -0.95           7.302e-010      -5.1498e-005    2.203e-009     
  -1              -1.454e-009     -5.903e-005     5.7489e-009    
  -1.05           -8.908e-010     -6.7236e-005    4.262e-010     
  -1.1            1.5479e-009     -7.6255e-005    -4.0515e-009   
  -1.15           7.075e-010      -8.556e-005     2.3563e-009    
  -1.2            -1.456e-009     -9.5447e-005    5.7447e-009    
  -1.25           -8.745e-010     -0.000105927    3.68e-010      
  -1.3            1.5744e-009     -0.00011691     -9.0737e-009   
  -1.35           -1.5493e-009    -0.00012824     5.6488e-009    
  -1.4            -6.31e-010      -0.00014007     -8.361e-010    
  -1.45           1.4796e-009     -0.00015253     -5.3977e-009   
  -1.5            8.361e-010      -0.00016501     1.6075e-009    
  -1.55           -1.5594e-009    -0.00017777     5.6758e-009    
  -1.6            -6.068e-010     -0.00019092     -9.776e-010    
  -1.65           1.4867e-009     -0.00020459     -5.5951e-009   
  -1.7            8.135e-010      -0.0002182      1.7014e-009    
  -1.75           -1.5648e-009    -0.00023194     5.706e-009     
  -1.8            -5.871e-010     -0.00024596     -1.1048e-009   
END_DB

BEGIN_DB
 ICCAP_VAR VS         0              
 ICCAP_VAR VB         0.9            
 ICCAP_VAR VD         -0.1           

 #VG              IG              ID              IB             
  0               7.16e-010       -1.6417e-009    -9.425e-009    
  -0.05           6.476e-010      2.3577e-009     2.0368e-009    
  -0.1            -8.108e-010     -2.4688e-009    5.0737e-009    
  -0.15           1.4928e-009     -1.9363e-009    -4.8343e-009   
  -0.2            -1.5507e-009    -1.858e-009     5.4962e-009    
  -0.25           1.4973e-009     -1.0585e-008    -1.1527e-009   
  -0.3            1.4241e-009     -2.3825e-008    6.2026e-009    
  -0.35           -1.5523e-009    -7.0138e-008    4.0835e-009    
  -0.4            8.54e-010       -1.7013e-007    -5.7852e-009   
  -0.45           -1.5693e-009    -3.4763e-007    5.606e-009     
  -0.5            -6.312e-010     -6.3355e-007    -8.474e-010    
  -0.55           1.4854e-009     -1.05476e-006   -5.4331e-009   
  -0.6            -1.4804e-009    -1.6129e-006    -6.645e-010    
  -0.65           -7.958e-010     -2.3552e-006    5.99e-011      
  -0.7            1.6181e-009     -3.2673e-006    -4.5186e-009   
  -0.75           -1.5708e-009    -4.2997e-006    5.6806e-009    
  -0.8            -5.672e-010     -5.4764e-006    -1.23e-009     
  -0.85           1.5273e-009     -6.7994e-006    -6.2283e-009   
  -0.9            7.688e-010      -8.1813e-006    1.9674e-009    
  -0.95           -1.4371e-009    -9.6421e-006    5.6864e-009    
  -1              -9.285e-010     -1.11647e-005   5.619e-010     
  -1.05           -1.5707e-009    -1.2693e-005    -4.8851e-009   
  -1.1            -6.277e-010     -1.4244e-005    -8.84e-010     
  -1.15           1.4896e-009     -1.5798e-005    -5.4844e-009   
  -1.2            8.289e-010      -1.7285e-005    1.6164e-009    
  -1.25           -1.5722e-009    -1.8731e-005    5.6322e-009    
  -1.3            -6.088e-010     -2.0144e-005    -9.835e-010    
  -1.35           1.4987e-009     -2.1516e-005    -5.7048e-009   
  -1.4            8.11e-010       -2.2801e-005    1.6951e-009    
  -1.45           -1.5725e-009    -2.4032e-005    5.6571e-009    
  -1.5            -5.91e-010      -2.5214e-005    -1.0971e-009   
  -1.55           1.5102e-009     -2.6363e-005    -5.9052e-009   
  -1.6            7.935e-010      -2.7428e-005    1.8178e-009    
  -1.65           -1.5728e-009    -2.8452e-005    5.6721e-009    
  -1.7            -5.739e-010     -2.9433e-005    -1.1995e-009   
  -1.75           1.5233e-009     -3.039e-005     -6.1787e-009   
  -1.8            7.733e-010      -3.1269e-005    1.9467e-009    
END_DB

BEGIN_DB
 ICCAP_VAR VS         0              
 ICCAP_VAR VB         0.9            
 ICCAP_VAR VD         -1.8           

 #VG              IG              ID              IB             
  0               -1.994e-010     -2.6138e-009    -4.369e-009    
  -0.05           1.5981e-009     -1.8977e-009    -4.415e-009    
  -0.1            1.5266e-009     -5.8824e-009    -4.426e-009    
  -0.15           -9.128e-010     -2.1846e-008    -4.434e-009    
  -0.2            1.6186e-009     -5.5239e-008    -4.388e-009    
  -0.25           -1.5593e-009    -1.4009e-007    -6.273e-009    
  -0.3            1.4817e-009     -3.2298e-007    -9.5143e-009   
  -0.35           8.624e-010      -6.3936e-007    1.4661e-009    
  -0.4            -1.4696e-009    -1.1501e-006    -4.1106e-009   
  -0.45           -8.357e-010     -1.9351e-006    2.268e-010     
  -0.5            1.6046e-009     -3.0786e-006    -4.3247e-009   
  -0.55           -1.5671e-009    -4.5813e-006    5.6483e-009    
  -0.6            -6.132e-010     -6.5816e-006    -9.827e-010    
  -0.65           1.5072e-009     -9.2006e-006    -5.7406e-009   
  -0.7            1.4488e-009     -1.2338e-005    3.8585e-009    
  -0.75           9.711e-010      -1.6079e-005    1.0054e-009    
  -0.8            -1.5116e-009    -2.0378e-005    5.2937e-009    
  -0.85           -7.522e-010     -2.5452e-005    -1.752e-010    
  -0.9            1.6062e-009     -3.1256e-005    -4.7142e-009   
  -0.95           -1.4506e-009    -3.756e-005     5.7111e-009    
  -1              -9.022e-010     -4.4612e-005    4.631e-010     
  -1.05           1.5692e-009     -5.2493e-005    -3.9936e-009   
  -1.1            7.219e-010      -6.0797e-005    2.2734e-009    
  -1.15           -1.4537e-009    -6.9736e-005    5.7145e-009    
  -1.2            -8.827e-010     -7.9326e-005    4.018e-010     
  -1.25           1.5777e-009     -8.9637e-005    -4.0733e-009   
  -1.3            7.053e-010      -0.000100196    2.3877e-009    
  -1.35           -1.4579e-009    -0.000111228    5.7259e-009    
  -1.4            -1.4158e-009    -0.00012263     1.7752e-009    
  -1.45           1.5282e-009     -0.00013488     -6.2655e-009   
  -1.5            7.744e-010      -0.00014709     1.9283e-009    
  -1.55           -1.5698e-009    -0.00015964     5.6981e-009    
  -1.6            -5.637e-010     -0.00017256     -1.2757e-009   
  -1.65           1.54e-009       -0.00018603     -6.4978e-009   
  -1.7            7.576e-010      -0.00019941     2.037e-009     
  -1.75           -1.4397e-009    -0.00021297     5.7001e-009    
  -1.8            -9.174e-010     -0.00022681     5.201e-010     
END_DB

BEGIN_DB
 ICCAP_VAR VS         0              
 ICCAP_VAR VB         1.8            
 ICCAP_VAR VD         -0.1           

 #VG              IG              ID              IB             
  0               -3.539e-010     -2.2373e-009    -4.412e-009    
  -0.05           8.815e-010      2.2948e-009     -4.452e-009    
  -0.1            1.5458e-009     -2.5823e-009    -1.4643e-009   
  -0.15           -1.4513e-009    1.4614e-009     5.6447e-009    
  -0.2            -7.142e-010     -2.4072e-009    1.106e-010     
  -0.25           8.947e-010      2.052e-009      -4.8378e-009   
  -0.3            -1.5706e-009    -2.2768e-009    5.6895e-009    
  -0.35           1.5363e-009     -5.0562e-009    -5.3038e-009   
  -0.4            1.4913e-009     -1.2054e-008    6.2608e-009    
  -0.45           -1.5244e-009    -4.4648e-008    3.8455e-009    
  -0.5            8.608e-010      -1.2873e-007    -5.7932e-009   
  -0.55           -1.564e-009     -2.993e-007     5.5799e-009    
  -0.6            -6.451e-010     -6.0138e-007    -7.909e-010    
  -0.65           1.4921e-009     -1.0725e-006    -5.408e-009    
  -0.7            -1.4818e-009    -1.7256e-006    -5.992e-010    
  -0.75           -8.078e-010     -2.6078e-006    1.195e-010     
  -0.8            1.6135e-009     -3.6972e-006    -4.479e-009    
  -0.85           -1.5656e-009    -4.9204e-006    5.6782e-009    
  -0.9            -5.872e-010     -6.299e-006     -1.152e-009    
  -0.95           1.5224e-009     -7.8057e-006    -6.0657e-009   
  -1              7.891e-010      -9.3343e-006    1.8505e-009    
  -1.05           -1.5638e-009    -1.08979e-005   5.6866e-009    
  -1.1            -1.5252e-009    -1.247e-005     -7.7673e-009   
  -1.15           -7.313e-010     -1.4056e-005    -3.027e-010    
  -1.2            1.4598e-009     -1.5611e-005    -4.7991e-009   
  -1.25           9.296e-010      -1.7099e-005    1.1858e-009    
  -1.3            -1.5349e-009    -1.8519e-005    5.4099e-009    
  -1.35           -7.14e-010      -1.9913e-005    -3.909e-010    
  -1.4            1.4656e-009     -2.1253e-005    -4.8906e-009   
  -1.45           9.168e-010      -2.2511e-005    1.2467e-009    
  -1.5            -1.5433e-009    -2.3699e-005    5.455e-009     
  -1.55           -7.034e-010     -2.4863e-005    -4.643e-010    
  -1.6            1.4698e-009     -2.5974e-005    -4.9668e-009   
  -1.65           8.997e-010      -2.7016e-005    1.3177e-009    
  -1.7            -1.5505e-009    -2.8001e-005    5.4912e-009    
  -1.75           -6.884e-010     -2.896e-005     -5.476e-010    
  -1.8            1.4763e-009     -2.9882e-005    -5.0787e-009   
END_DB

BEGIN_DB
 ICCAP_VAR VS         0              
 ICCAP_VAR VB         1.8            
 ICCAP_VAR VD         -1.8           

 #VG              IG              ID              IB             
  0               7.5e-012        -1.9078e-009    -4.984e-009    
  -0.05           1.6109e-009     -4.092e-010     -6.016e-009    
  -0.1            1.6079e-009     -3.232e-010     -4.666e-009    
  -0.15           1.6018e-009     -6.262e-010     -4.447e-009    
  -0.2            1.6102e-009     -2.1094e-009    -4.701e-009    
  -0.25           1.5717e-009     -7.1338e-009    -4.336e-009    
  -0.3            -1.0126e-009    -2.7419e-008    -4.424e-009    
  -0.35           1.5922e-009     -7.6076e-008    -4.99e-009     
  -0.4            -1.452e-009     -1.9712e-007    -4.343e-009    
  -0.45           1.5804e-009     -4.5366e-007    -5.247e-009    
  -0.5            -1.4604e-009    -8.9976e-007    6.2005e-009    
  -0.55           1.4474e-009     -1.6428e-006    1.6275e-009    
  -0.6            9.617e-010      -2.7623e-006    1.0382e-009    
  -0.65           -1.5159e-009    -4.3351e-006    5.314e-009     
  -0.7            -7.481e-010     -6.5275e-006    -2.14e-010     
  -0.75           1.6069e-009     -9.3967e-006    -4.7384e-009   
  -0.8            1.6133e-009     -1.2923e-005    2.566e-009     
  -0.85           -1.5698e-009    -1.7098e-005    5.673e-009     
  -0.9            -5.841e-010     -2.2061e-005    -1.1719e-009   
  -0.95           1.525e-009      -2.7913e-005    -6.1578e-009   
  -1              7.832e-010      -3.4337e-005    1.8999e-009    
  -1.05           -1.5632e-009    -4.1455e-005    5.6895e-009    
  -1.1            -5.676e-010     -4.9318e-005    -1.2641e-009   
  -1.15           1.5347e-009     -5.8027e-005    -6.3546e-009   
  -1.2            7.652e-010      -6.7127e-005    2.0237e-009    
  -1.25           -1.4463e-009    -7.6763e-005    5.7018e-009    
  -1.3            -9.279e-010     -8.7054e-005    5.456e-010     
  -1.35           1.5473e-009     -9.8038e-005    -3.8802e-009   
  -1.4            7.46e-010       -0.000109179    2.1417e-009    
  -1.45           6.47e-010       -0.00012075     5.7542e-009    
  -1.5            -1.4757e-009    -0.00013269     5.7805e-009    
  -1.55           -8.228e-010     -0.00014513     1.703e-010     
  -1.6            1.6066e-009     -0.00015797     -4.4161e-009   
  -1.65           -1.5676e-009    -0.00017073     5.6615e-009    
  -1.7            -6.015e-010     -0.00018395     -1.0678e-009   
  -1.75           1.5126e-009     -0.00019762     -5.909e-009    
  -1.8            8.024e-010      -0.00021123     1.7884e-009    
END_DB

