! VERSION = 6.00
BEGIN_HEADER
 ICCAP_INPUTS
  VG         V  B GROUND SMU4 0.001 LIN        2    0          -1.8       6    -0.36     
  VS         V  E GROUND SMU2 0.1 CON        0
  VD         V  S GROUND SMU1 0.1 LIN        1    0          -1.8       37   -0.05     
  VB         V  C GROUND SMU3 0.1 LIN        3    0          0.9        2    0.9       
 ICCAP_OUTPUTS
  ID         I  S GROUND SMU1 B
  IB         I  C GROUND SMU3 B
  IG         I  B GROUND SMU4 B
END_HEADER

BEGIN_DB
 ICCAP_VAR VG         0              
 ICCAP_VAR VS         0              
 ICCAP_VAR VB         0              

 #VD              ID              IB              IG             
  0               1.0781e-009     9.106e-009      1.1805e-009    
  -0.05           2.2384e-009     1.0353e-008     5.813e-010     
  -0.1            2.2739e-009     1.0179e-008     7.445e-010     
  -0.15           2.2751e-009     9.81e-009       8.953e-010     
  -0.2            1.1852e-009     1.0172e-008     -1.2736e-009   
  -0.25           -1.1603e-009    9.95e-009       -2.3076e-009   
  -0.3            -2.0736e-009    -1.0316e-008    -8.44e-011     
  -0.35           -2.1576e-009    -1.0427e-008    -2.778e-010    
  -0.4            -2.2093e-009    -1.088e-008     -4.796e-010    
  -0.45           -1.0866e-009    -1.7685e-008    2.4476e-009    
  -0.5            2.0808e-009     -4.287e-009     2.746e-010     
  -0.55           2.1829e-009     1.068e-008      4.601e-010     
  -0.6            2.2523e-009     1.0663e-008     6.355e-010     
  -0.65           2.2767e-009     1.0329e-008     7.976e-010     
  -0.7            2.2645e-009     9.645e-009      9.427e-010     
  -0.75           1.5007e-009     1.2433e-008     -1.5144e-009   
  -0.8            -1.4554e-009    7.88e-009       -1.7571e-009   
  -0.85           -2.198e-009     -1.089e-008     -4.351e-010    
  -0.9            -1.0504e-009    -1.7336e-008    2.5046e-009    
  -0.95           2.054e-009      -3.77e-009      2.354e-010     
  -1              2.1644e-009     1.0523e-008     4.149e-010     
  -1.05           2.2382e-009     1.032e-008      5.998e-010     
  -1.1            2.2721e-009     1.0187e-008     7.646e-010     
  -1.15           2.2716e-009     9.759e-009      9.073e-010     
  -1.2            1.1932e-009     9.835e-009      -1.2726e-009   
  -1.25           -1.6316e-009    1.0248e-008     -1.6356e-009   
  -1.3            -1.8492e-009    -2.0847e-008    2.2645e-009    
  -1.35           2.1529e-009     -5.966e-009     4.062e-010     
  -1.4            2.2352e-009     1.0785e-008     5.874e-010     
  -1.45           2.2727e-009     1.045e-008      7.542e-010     
  -1.5            2.2704e-009     9.889e-009      9.015e-010     
  -1.55           1.1837e-009     9.754e-009      -1.2746e-009   
  -1.6            -1.1635e-009    1.0151e-008     -2.3127e-009   
  -1.65           -1.8433e-009    -2.1288e-008    2.2787e-009    
  -1.7            2.1491e-009     -5.88e-009      3.899e-010     
  -1.75           2.2372e-009     1.0704e-008     5.729e-010     
  -1.8            2.2744e-009     1.0535e-008     7.436e-010     
END_DB

BEGIN_DB
 ICCAP_VAR VG         -0.36          
 ICCAP_VAR VS         0              
 ICCAP_VAR VB         0              

 #VD              ID              IB              IG             
  0               -3.4671e-009    -1.1182e-008    -2.5677e-009   
  -0.05           -1.6616e-008    2.4549e-008     2.8376e-009    
  -0.1            -4.1003e-008    -1.091e-008     -9.859e-010    
  -0.15           -1.2422e-007    1.9685e-008     2.2381e-009    
  -0.2            -3.7355e-008    -2.2915e-008    2.3268e-009    
  -0.25           -2.4781e-008    1.0646e-008     -2.3611e-009   
  -0.3            -3.7007e-008    7.33e-010       2.1891e-009    
  -0.35           -2.5119e-008    9.928e-009      -2.1767e-009   
  -0.4            -5.15e-008      -1.0377e-008    1.3379e-009    
  -0.45           -1.3995e-007    -2.6809e-008    1.2238e-009    
  -0.5            -2.6362e-008    -1.0498e-008    -1.407e-009    
  -0.55           -2.3338e-008    1.9923e-008     2.8052e-009    
  -0.6            -4.628e-008     1.1883e-008     -1.4246e-009   
  -0.65           -2.4764e-008    1.0709e-008     -2.5479e-009   
  -0.7            -2.46e-008      -2.0669e-008    2.6368e-009    
  -0.75           -3.7163e-008    -2.6856e-008    2.1163e-009    
  -0.8            -2.6809e-008    1.1728e-008     -2.3322e-009   
  -0.85           -2.364e-008     8.87e-009       2.2884e-009    
  -0.9            -2.528e-008     1.0416e-008     -2.6854e-009   
  -0.95           -2.5125e-008    9.833e-009      -2.6977e-009   
  -1              -7.082e-008     -1.08e-008      2.7989e-009    
  -1.05           -3.785e-008     -1.8348e-008    1.757e-009     
  -1.1            -3.0563e-008    1.0412e-008     -2.0822e-009   
  -1.15           -2.3557e-008    -1.0712e-008    2.3307e-009    
  -1.2            -2.567e-008     9.954e-009      -2.6198e-009   
  -1.25           -3.4822e-008    1.1545e-008     -1.9023e-009   
  -1.3            -2.5027e-008    -1.0318e-008    -1.3487e-009   
  -1.35           -7.17e-008      -1.0821e-008    2.8057e-009    
  -1.4            -3.8054e-008    -1.8173e-008    1.6349e-009    
  -1.45           -2.5367e-008    1.1212e-008     -2.6902e-009   
  -1.5            -2.527e-008     -1.8195e-008    2.5375e-009    
  -1.55           -1.3755e-007    -1.7302e-008    2.1392e-009    
  -1.6            -3.8384e-008    -2.1615e-008    1.5089e-009    
  -1.65           -3.7362e-008    1.2712e-008     -1.9229e-009   
  -1.7            -1.3741e-007    -1.8953e-008    1.8965e-009    
  -1.75           -2.3608e-008    -1.0812e-008    2.3535e-009    
  -1.8            -2.553e-008     1.023e-008      -2.661e-009    
END_DB

BEGIN_DB
 ICCAP_VAR VG         -0.72          
 ICCAP_VAR VS         0              
 ICCAP_VAR VB         0              

 #VD              ID              IB              IG             
  0               -9.074e-009     -2.0927e-008    2.8278e-009    
  -0.05           -4.5367e-007    1.0101e-008     -2.5129e-009   
  -0.1            -8.0441e-007    1.0505e-008     6.508e-010     
  -0.15           -1.01688e-006   -2.0688e-008    3.431e-010     
  -0.2            -1.3574e-006    1.0222e-008     -8e-012        
  -0.25           -1.4692e-006    -1.3244e-008    2.6871e-009    
  -0.3            -1.6075e-006    -2.5782e-008    1.2509e-009    
  -0.35           -1.6339e-006    -1.1117e-008    4.07e-011      
  -0.4            -1.5527e-006    8.758e-009      -2.5302e-009   
  -0.45           -1.6975e-006    1.1205e-008     -1.369e-010    
  -0.5            -1.5805e-006    -1.105e-008     2.791e-009     
  -0.55           -1.744e-006     -1.2269e-008    1.752e-010     
  -0.6            -1.5206e-006    9.251e-009      -2.6433e-009   
  -0.65           -1.2927e-006    1.0092e-008     1.2308e-009    
  -0.7            -1.7247e-006    -2.6896e-008    1.2077e-009    
  -0.75           -1.715e-006     -1.7906e-008    2.0353e-009    
  -0.8            -1.4478e-006    -1.0197e-008    -4.257e-010    
  -0.85           -1.7016e-006    1.3613e-008     -1.9886e-009   
  -0.9            -1.5102e-006    9.684e-009      2.829e-010     
  -0.95           -1.7194e-006    -1.6384e-008    2.3127e-009    
  -1              -1.5623e-006    -1.0298e-008    -2.296e-010    
  -1.05           -1.6882e-006    1.1114e-008     -2.2335e-009   
  -1.1            -1.613e-006     9.907e-009      1.099e-010     
  -1.15           -1.6907e-006    -1.5021e-008    2.5524e-009    
  -1.2            -1.7295e-006    -2.686e-008     1.2131e-009    
  -1.25           -1.6515e-006    -1.0677e-008    -7.19e-011     
  -1.3            -1.6419e-006    9.167e-009      -2.4095e-009   
  -1.35           -1.3059e-006    1.1768e-008     1.5145e-009    
  -1.4            -1.6605e-006    -1.2759e-008    2.7047e-009    
  -1.45           -1.7382e-006    -2.5676e-008    1.2576e-009    
  -1.5            -1.7128e-006    -1.1169e-008    5.48e-011      
  -1.55           -1.5901e-006    8.685e-009      -2.5547e-009   
  -1.6            -1.7458e-006    1.145e-008      -1.531e-010    
  -1.65           -1.5951e-006    -1.0787e-008    2.7952e-009    
  -1.7            -1.7665e-006    -1.2656e-008    1.935e-010     
  -1.75           -1.5222e-006    9.367e-009      -1.269e-009    
  -1.8            -1.3115e-006    1.1458e-008     1.4517e-009    
END_DB

BEGIN_DB
 ICCAP_VAR VG         -1.08          
 ICCAP_VAR VS         0              
 ICCAP_VAR VB         0              

 #VD              ID              IB              IG             
  0               -6.892e-009     1.5314e-008     1.0635e-009    
  -0.05           -1.7e-006       9.721e-009      1.3178e-009    
  -0.1            -3.1962e-006    -2.5759e-008    1.2505e-009    
  -0.15           -4.4461e-006    -2.6805e-008    1.2094e-009    
  -0.2            -5.4924e-006    -1.7701e-008    2.0424e-009    
  -0.25           -6.3362e-006    -1.0211e-008    -4.153e-010    
  -0.3            -6.9711e-006    1.3564e-008     -1.9982e-009   
  -0.35           -7.5308e-006    9.773e-009      2.818e-010     
  -0.4            -7.9238e-006    -1.6157e-008    2.3293e-009    
  -0.45           -8.1912e-006    -1.7357e-008    2.0668e-009    
  -0.5            -8.2326e-006    -1.0249e-008    -3.977e-010    
  -0.55           -8.463e-006     1.3263e-008     -2.0266e-009   
  -0.6            -8.5009e-006    9.749e-009      2.61e-010      
  -0.65           -8.6757e-006    -1.6296e-008    2.3584e-009    
  -0.7            -8.6982e-006    -1.7186e-008    2.107e-009     
  -0.75           -8.715e-006     -1.8779e-008    1.8397e-009    
  -0.8            -8.3693e-006    -1.0338e-008    -5.492e-010    
  -0.85           -8.7062e-006    1.5904e-008     -1.8324e-009   
  -0.9            -8.2235e-006    1.1723e-008     1.9344e-009    
  -0.95           -8.847e-006     -1.3526e-008    1.4018e-009    
  -1              -8.8602e-006    -1.3209e-008    2.334e-010     
  -1.05           -8.3803e-006    9.359e-009      -1.2732e-009   
  -1.1            -8.5624e-006    9.687e-009      3.545e-010     
  -1.15           -8.7888e-006    -1.6732e-008    2.2113e-009    
  -1.2            -8.6227e-006    -1.0271e-008    -3.035e-010    
  -1.25           -8.7308e-006    1.1924e-008     -2.1465e-009   
  -1.3            -8.7017e-006    9.819e-009      1.769e-010     
  -1.35           -8.8087e-006    -1.5645e-008    2.47e-009      
  -1.4            -8.8272e-006    -2.6879e-008    2.4331e-009    
  -1.45           -8.747e-006     -1.0476e-008    -1.406e-010    
  -1.5            -8.6456e-006    9.968e-009      -2.335e-009    
  -1.55           -8.803e-006     1.0215e-008     3.73e-011      
  -1.6            -8.7498e-006    -1.4024e-008    2.6414e-009    
  -1.65           -8.8673e-006    -1.1056e-008    2.62e-011      
  -1.7            -8.5835e-006    8.843e-009      -2.5229e-009   
  -1.75           -8.3108e-006    1.0171e-008     1.4152e-009    
  -1.8            -8.6625e-006    -1.125e-008     2.7777e-009    
END_DB

BEGIN_DB
 ICCAP_VAR VG         -1.44          
 ICCAP_VAR VS         0              
 ICCAP_VAR VB         0              

 #VD              ID              IB              IG             
  0               -6.539e-009     1.5988e-008     1.0559e-009    
  -0.05           -3.1746e-006    9.801e-009      1.3079e-009    
  -0.1            -6.1259e-006    -2.5984e-008    1.2451e-009    
  -0.15           -8.8444e-006    -2.6938e-008    1.2095e-009    
  -0.2            -1.14217e-005   -1.0627e-008    -1.08e-010     
  -0.25           -1.3685e-005    8.973e-009      -5.93e-011     
  -0.3            -1.557e-005     1.4794e-008     -1.9011e-009   
  -0.35           -1.753e-005     1.0452e-008     7.258e-010     
  -0.4            -1.8955e-005    -2.5502e-008    1.2756e-009    
  -0.45           -2.0464e-005    -1.0349e-008    -2.932e-010    
  -0.5            -2.1327e-005    1.855e-008      -1.634e-009    
  -0.55           -2.2343e-005    1.0371e-008     9.06e-010      
  -0.6            -2.3011e-005    -2.6942e-008    1.2129e-009    
  -0.65           -2.3661e-005    -1.0369e-008    -5.217e-010    
  -0.7            -2.3962e-005    2.2435e-008     -1.4565e-009   
  -0.75           -2.4197e-005    9.915e-009      1.0699e-009    
  -0.8            -2.4415e-005    -1.1403e-008    2.7829e-009    
  -0.85           -2.4871e-005    -1.053e-008     -1.834e-010    
  -0.9            -2.4766e-005    1.6968e-008     -1.7548e-009   
  -0.95           -2.4683e-005    1.0366e-008     8.212e-010     
  -1              -2.5014e-005    -2.66e-008      1.2342e-009    
  -1.05           -2.4974e-005    -1.0285e-008    -4.085e-010    
  -1.1            -2.5002e-005    2.0437e-008     -1.5299e-009   
  -1.15           -2.4727e-005    1.0116e-008     9.882e-010     
  -1.2            -2.5104e-005    -2.6247e-008    2.3319e-009    
  -1.25           -2.4898e-005    -1.0679e-008    -6.39e-010     
  -1.3            -2.5065e-005    2.4428e-008     -1.3984e-009   
  -1.35           -2.4808e-005    9.758e-009      1.1569e-009    
  -1.4            -2.5066e-005    -1.3014e-008    2.7077e-009    
  -1.45           -2.5172e-005    -1.7972e-008    1.9452e-009    
  -1.5            -2.5286e-005    -1.3612e-008    1.3972e-009    
  -1.55           -2.5354e-005    -1.0771e-008    -7.88e-011     
  -1.6            -2.5126e-005    1.5033e-008     -1.8843e-009   
  -1.65           -2.4974e-005    1.0461e-008     7.367e-010     
  -1.7            -2.5235e-005    -2.557e-008     1.2685e-009    
  -1.75           -2.5233e-005    -2.245e-008     1.9522e-009    
  -1.8            -2.5381e-005    -1.3594e-008    1.3938e-009    
END_DB

BEGIN_DB
 ICCAP_VAR VG         -1.8           
 ICCAP_VAR VS         0              
 ICCAP_VAR VB         0              

 #VD              ID              IB              IG             
  0               -2.0093e-008    5.1e-011        -9.897e-010    
  -0.05           -4.3793e-006    -2.6839e-008    -2.7062e-009   
  -0.1            -8.5648e-006    1.0121e-008     1.0159e-009    
  -0.15           -1.2569e-005    -2.5178e-008    1.186e-009     
  -0.2            -1.6339e-005    -1.3293e-008    2.6841e-009    
  -0.25           -2.0043e-005    -1.0267e-008    -3.257e-010    
  -0.3            -2.3349e-005    1.9314e-008     -1.6098e-009   
  -0.35           -2.666e-005     1.0343e-008     9.304e-010     
  -0.4            -2.9585e-005    -2.6814e-008    2.455e-009     
  -0.45           -3.2506e-005    -1.0337e-008    -5.513e-010    
  -0.5            -3.4901e-005    2.293e-008      -1.4411e-009   
  -0.55           -3.7416e-005    9.992e-009      1.088e-009     
  -0.6            -3.9343e-005    -1.1701e-008    2.7672e-009    
  -0.65           -4.1555e-005    -1.0411e-008    -2.064e-010    
  -0.7            -4.2884e-005    1.7347e-008     -1.7318e-009   
  -0.75           -4.458e-005     1.0327e-008     8.428e-010     
  -0.8            -4.5589e-005    -2.6659e-008    1.23e-009      
  -0.85           -4.6904e-005    -1.0131e-008    -4.331e-010    
  -0.9            -4.7356e-005    2.081e-008      -1.5193e-009   
  -0.95           -4.8192e-005    1.0184e-008     1.0017e-009    
  -1              -4.8639e-005    -2.6173e-008    2.314e-009     
  -1.05           -4.911e-005     -1.0695e-008    -6.591e-010    
  -1.1            -4.9239e-005    2.4402e-008     -1.3959e-009   
  -1.15           -4.9452e-005    9.83e-009       1.1694e-009    
  -1.2            -4.9602e-005    -1.2986e-008    2.7024e-009    
  -1.25           -5.0022e-005    -1.0322e-008    -3.113e-010    
  -1.3            -4.9805e-005    1.8831e-008     -1.629e-009    
  -1.35           -4.9758e-005    1.0281e-008     9.116e-010     
  -1.4            -5.0073e-005    -2.6956e-008    1.2083e-009    
  -1.45           -5.0064e-005    -1.0293e-008    -5.321e-010    
  -1.5            -4.996e-005     2.243e-008      -1.4523e-009   
  -1.55           -4.9923e-005    1.0035e-008     1.0778e-009    
  -1.6            -4.9928e-005    -1.1366e-008    2.776e-009     
  -1.65           -5.048e-005     -1.0451e-008    -1.819e-010    
  -1.7            -5.0104e-005    1.7022e-008     -1.7551e-009   
  -1.75           -5.0074e-005    1.037e-008      8.224e-010     
  -1.8            -5.0301e-005    -2.6552e-008    1.2336e-009    
END_DB

BEGIN_DB
 ICCAP_VAR VG         0              
 ICCAP_VAR VS         0              
 ICCAP_VAR VB         0.9            

 #VD              ID              IB              IG             
  0               5.35e-011       1.0256e-008     -2.595e-010    
  -0.05           -8.135e-010     -2.0662e-008    1.9334e-009    
  -0.1            2.2729e-009     -8.591e-009     6.033e-010     
  -0.15           2.3101e-009     1.0183e-008     7.679e-010     
  -0.2            2.3075e-009     9.838e-009      9.187e-010     
  -0.25           2.2533e-009     1.0429e-008     1.0635e-009    
  -0.3            2.1363e-009     1.1558e-008     1.2179e-009    
  -0.35           1.9057e-009     1.0067e-008     -1.567e-010    
  -0.4            1.986e-009      9.785e-009      5.6e-012       
  -0.45           2.0829e-009     9.729e-009      1.797e-010     
  -0.5            2.1812e-009     1.0372e-008     3.586e-010     
  -0.55           2.2596e-009     1.0736e-008     5.41e-010      
  -0.6            2.3062e-009     1.0484e-008     7.165e-010     
  -0.65           2.3156e-009     1.0071e-008     8.697e-010     
  -0.7            2.2788e-009     9.77e-009       1.0132e-009    
  -0.75           2.1813e-009     1.0179e-008     1.1599e-009    
  -0.8            1.8798e-009     1.0358e-008     -2.064e-010    
  -0.85           1.9606e-009     9.826e-009      -4.55e-011     
  -0.9            2.0485e-009     9.714e-009      1.199e-010     
  -0.95           2.1482e-009     1.0133e-008     3.057e-010     
  -1              2.2295e-009     1.0401e-008     4.93e-010      
  -1.05           2.2931e-009     1.0317e-008     6.61e-010      
  -1.1            2.3173e-009     1.0076e-008     8.231e-010     
  -1.15           2.2973e-009     9.81e-009       9.685e-010     
  -1.2            1.7578e-009     1.2008e-008     -1.4901e-009   
  -1.25           -1.3813e-009    7.97e-009       -1.7746e-009   
  -1.3            -2.1791e-009    -1.0881e-008    -4.63e-010     
  -1.35           -1.4078e-009    -2.3634e-008    2.4487e-009    
  -1.4            2.1559e-009     -4.112e-009     1.2001e-009    
  -1.45           1.9009e-009     1.0276e-008     -1.669e-010    
  -1.5            1.9779e-009     9.833e-009      -7.6e-012      
  -1.55           2.0686e-009     9.755e-009      1.642e-010     
  -1.6            2.169e-009      1.0251e-008     3.464e-010     
  -1.65           2.2491e-009     1.0382e-008     5.294e-010     
  -1.7            2.304e-009      1.0244e-008     6.955e-010     
  -1.75           2.3197e-009     1.0016e-008     8.607e-010     
  -1.8            2.2827e-009     9.97e-009       9.983e-010     
END_DB

BEGIN_DB
 ICCAP_VAR VG         -0.36          
 ICCAP_VAR VS         0              
 ICCAP_VAR VB         0.9            

 #VD              ID              IB              IG             
  0               -1.1057e-009    -1.7465e-008    -1.0976e-009   
  -0.05           -3.0656e-009    -1.2195e-008    1.5126e-009    
  -0.1            -2.4258e-009    -8.7e-009       1.3425e-009    
  -0.15           -2.956e-009     -8.94e-009      2.7466e-009    
  -0.2            2.0232e-009     1.0314e-008     6.105e-010     
  -0.25           -1.9626e-009    1.0151e-008     -1.3096e-009   
  -0.3            -3.6315e-009    9.223e-009      -1.283e-009    
  -0.35           -3.7372e-009    8.554e-009      -1.2621e-009   
  -0.4            -3.8236e-009    1.0247e-008     -2.546e-009    
  -0.45           -2.2636e-009    6.85e-010       -2.3603e-009   
  -0.5            -2.4044e-009    -1.0711e-008    -4.614e-010    
  -0.55           -4.7443e-009    -1.7707e-008    2.4537e-009    
