! VERSION = 6.00
BEGIN_HEADER
 ICCAP_INPUTS
  VG         V  B GROUND SMU4 0.001 LIN        1    0          -1.8       37   -0.05     
  VS         V  E GROUND SMU3 0.1 CON        0
  VB         V  C GROUND SMU1 0.1 LIN        3    0          1.8        3    0.9       
  VD         V  S GROUND SMU2 0.1 LIN        2    -0.1       -1.8       2    -1.7      
 ICCAP_OUTPUTS
  IG         I  B GROUND SMU4 B
  ID         I  S GROUND SMU2 B
  IB         I  C GROUND SMU1 B
END_HEADER

BEGIN_DB
 ICCAP_VAR VS         0              
 ICCAP_VAR VB         0              
 ICCAP_VAR VD         -0.1           

 #VG              IG              ID              IB             
  0               3.796e-010      -1.2085e-008    -4.556e-010    
  -0.05           -2.0191e-009    -2.7438e-008    2.5606e-009    
  -0.1            -7.53e-010      -6.1885e-008    -5.528e-010    
  -0.15           4.422e-010      -1.217e-007     -6.6465e-009   
  -0.2            -2.0347e-009    -2.2971e-007    5.1892e-009    
  -0.25           -1.3667e-009    -3.9635e-007    2.927e-010     
  -0.3            -9.692e-010     -6.3608e-007    -3.3214e-009   
  -0.35           1.9327e-009     -9.5845e-007    -1.8918e-009   
  -0.4            -2.3004e-009    -1.3479e-006    -1.0344e-009   
  -0.45           -2.6365e-009    -1.8471e-006    -4.508e-010    
  -0.5            1.94e-009       -2.465e-006     9.588e-010     
  -0.55           6.986e-010      -3.1245e-006    3.902e-009     
  -0.6            -1.8451e-009    -3.8908e-006    5.2514e-009    
  -0.65           -6.44e-009      -4.7631e-006    -4.0744e-009   
  -0.7            -6.523e-009     -5.6993e-006    3.5545e-009    
  -0.75           -6.744e-009     -6.7076e-006    3.8175e-009    
  -0.8            -8.512e-009     -7.7824e-006    4.1129e-009    
  -0.85           -6.56e-009      -8.9265e-006    4.4647e-009    
  -0.9            -6.534e-009     -1.0115e-005    3.8688e-009    
  -0.95           -7.24e-009      -1.13439e-005   4.1363e-009    
  -1              -9.707e-009     -1.258e-005     -3.0562e-009   
  -1.05           -6.561e-009     -1.3823e-005    4.8014e-009    
  -1.1            -6.697e-009     -1.5053e-005    4.2517e-009    
  -1.15           -8.345e-009     -1.6244e-005    4.5364e-009    
  -1.2            -1.1286e-008    -1.741e-005     4.854e-009     
  -1.25           -6.533e-009     -1.8516e-005    5.1483e-009    
  -1.3            -7.098e-009     -1.9574e-005    4.6875e-009    
  -1.35           -9.354e-009     -2.0567e-005    4.9851e-009    
  -1.4            -1.2603e-008    -2.1544e-005    5.3028e-009    
  -1.45           -6.648e-009     -2.246e-005     5.5228e-009    
  -1.5            -7.944e-009     -2.3294e-005    5.1665e-009    
  -1.55           -1.0647e-008    -2.4076e-005    5.4973e-009    
  -1.6            -1.4075e-008    -2.4856e-005    5.7768e-009    
  -1.65           -1.8182e-008    -2.5578e-005    5.9117e-009    
  -1.7            -8.89e-009      -2.6247e-005    5.8464e-009    
  -1.75           -1.2072e-008    -2.6858e-005    6.0369e-009    
  -1.8            -1.6127e-008    -2.7469e-005    6.2644e-009    
END_DB

BEGIN_DB
 ICCAP_VAR VS         0              
 ICCAP_VAR VB         0              
 ICCAP_VAR VD         -1.8           

 #VG              IG              ID              IB             
  0               1.4622e-009     -6.7379e-008    -1.273e-009    
  -0.05           -4.83e-010      -1.52e-007      4.975e-009     
  -0.1            1.7943e-009     -3.1415e-007    -5.3211e-009   
  -0.15           1.4523e-009     -5.9525e-007    -3.234e-010    
  -0.2            -2.0297e-009    -1.04045e-006   4.4338e-009    
  -0.25           1.8992e-009     -1.7344e-006    1.7382e-009    
  -0.3            1.1714e-009     -2.6742e-006    1.4392e-009    
  -0.35           -1.9257e-009    -3.8881e-006    5.0771e-009    
  -0.4            -5.965e-009     -5.4922e-006    -4.311e-009    
  -0.45           -6.592e-009     -7.404e-006     3.2575e-009    
  -0.5            -6.551e-009     -9.6875e-006    3.5394e-009    
  -0.55           -7.434e-009     -1.2377e-005    -3.5569e-009   
  -0.6            -6.495e-009     -1.543e-005     4.1572e-009    
  -0.65           -6.707e-009     -1.8921e-005    3.4997e-009    
  -0.7            -6.771e-009     -2.2835e-005    3.7773e-009    
  -0.75           -8.227e-009     -2.7199e-005    4.0622e-009    
  -0.8            -6.667e-009     -3.2028e-005    4.3929e-009    
  -0.85           -6.73e-009      -3.7322e-005    3.8047e-009    
  -0.9            -7.127e-009     -4.3104e-005    4.0647e-009    
  -0.95           -8.945e-009     -4.9407e-005    4.3561e-009    
  -1              -6.759e-009     -5.6186e-005    4.6987e-009    
  -1.05           -6.822e-009     -6.3478e-005    4.166e-009     
  -1.1            -7.906e-009     -7.1292e-005    4.4284e-009    
  -1.15           -1.0031e-008    -7.9543e-005    4.7215e-009    
  -1.2            -6.799e-009     -8.8245e-005    5.0324e-009    
  -1.25           -6.984e-009     -9.7354e-005    4.5766e-009    
  -1.3            -8.49e-009      -0.000106854    4.851e-009     
  -1.35           -7.123e-009     -0.00011655     5.1442e-009    
  -1.4            -8.899e-009     -0.0001268      5.083e-009     
  -1.45           -1.1467e-008    -0.0001372      5.3768e-009    
  -1.5            -1.5624e-008    -0.0001481      5.6103e-009    
  -1.55           -7.813e-009     -0.00015942     5.7444e-009    
  -1.6            -9.581e-009     -0.00017066     5.5892e-009    
  -1.65           -1.2733e-008    -0.0001821      5.8824e-009    
  -1.7            -1.7693e-008    -0.00019378     6.0641e-009    
  -1.75           -8.467e-009     -0.00020577     6.0618e-009    
  -1.8            -1.0683e-008    -0.00021699     6.1199e-009    
END_DB

BEGIN_DB
 ICCAP_VAR VS         0              
 ICCAP_VAR VB         0.9            
 ICCAP_VAR VD         -0.1           

 #VG              IG              ID              IB             
  0               -7.348e-009     1.2461e-009     7.523e-010     
  -0.05           -6.72e-009      -2.37e-009      3.3474e-009    
  -0.1            -9.367e-009     -2.5964e-009    4.0036e-009    
  -0.15           -7.803e-009     -2.6037e-009    4.5472e-009    
  -0.2            -6.933e-009     -9.0026e-009    4.4409e-009    
  -0.25           -5.0423e-009    -2.5774e-008    4.0378e-009    
  -0.3            -1.1745e-008    -6.3508e-008    2.9357e-009    
  -0.35           -3.6456e-009    -1.498e-007     5.1851e-009    
  -0.4            -1.309e-008     -2.8832e-007    3.8905e-009    
  -0.45           -7.042e-009     -5.2027e-007    5.4091e-009    
  -0.5            -8.605e-009     -8.5729e-007    5.0466e-009    
  -0.55           -6.808e-009     -1.3124e-006    -1.4581e-009   
  -0.6            -6.933e-009     -1.8973e-006    5.0297e-009    
  -0.65           -8.309e-009     -2.6231e-006    5.3392e-009    
  -0.7            -1.0729e-008    -3.4835e-006    5.6552e-009    
  -0.75           -1.4129e-008    -4.4664e-006    5.9073e-009    
  -0.8            -1.8881e-008    -5.5605e-006    6.0507e-009    
  -0.85           -8.942e-009     -6.7457e-006    5.9684e-009    
  -0.9            -1.1895e-008    -7.9965e-006    6.1756e-009    
  -0.95           -1.6033e-008    -9.2907e-006    6.4034e-009    
  -1              -1.978e-008     -1.05968e-005   6.447e-009     
  -1.05           -8.795e-009     -1.1901e-005    1.7524e-009    
  -1.1            -1.1472e-008    -1.3193e-005    6.6133e-009    
  -1.15           -1.5391e-008    -1.4455e-005    6.8924e-009    
  -1.2            -1.9423e-008    -1.5669e-005    6.9703e-009    
  -1.25           -2.0797e-008    -1.6821e-005    6.744e-009     
  -1.3            -1.2592e-008    -1.7922e-005    6.2263e-009    
  -1.35           -1.7182e-008    -1.8977e-005    7.4036e-009    
  -1.4            -2.0221e-008    -1.9963e-005    7.3901e-009    
  -1.45           -2.0158e-008    -2.0855e-005    7.0239e-009    
  -1.5            -1.3754e-008    -2.177e-005     6.3919e-009    
  -1.55           -1.8572e-008    -2.258e-005     7.8847e-009    
  -1.6            -2.0813e-008    -2.3348e-005    7.7679e-009    
  -1.65           -1.9623e-008    -2.4126e-005    7.2748e-009    
  -1.7            -1.5601e-008    -2.4809e-005    6.5985e-009    
  -1.75           -1.9681e-008    -2.5471e-005    8.3241e-009    
  -1.8            -2.0922e-008    -2.6038e-005    8.0965e-009    
END_DB

BEGIN_DB
 ICCAP_VAR VS         0              
 ICCAP_VAR VB         0.9            
 ICCAP_VAR VD         -1.8           

 #VG              IG              ID              IB             
  0               -6.769e-009     -2.975e-009     1.9093e-009    
  -0.05           -6.817e-009     -4.1419e-009    3.0769e-009    
  -0.1            -1.0624e-008    -9.6167e-009    3.9198e-009    
  -0.15           -8.185e-009     -2.4212e-008    4.5511e-009    
  -0.2            -1.0545e-008    -7.3504e-008    4.703e-009     
  -0.25           -2.8946e-009    -1.831e-007     4.89e-009      
  -0.3            -9.002e-009     -3.9444e-007    4.1239e-009    
  -0.35           -1.2268e-008    -7.8565e-007    5.0473e-009    
  -0.4            -6.809e-009     -1.4172e-006    -3.1857e-009   
  -0.45           -7.834e-009     -2.3572e-006    4.8808e-009    
  -0.5            -1.0047e-008    -3.6558e-006    5.189e-009     
  -0.55           -1.3552e-008    -5.3564e-006    5.4778e-009    
  -0.6            -6.951e-009     -7.4885e-006    5.6723e-009    
  -0.65           -8.55e-009      -1.00823e-005   5.3578e-009    
  -0.7            -8.482e-009     -1.3193e-005    -3.0648e-009   
  -0.75           -1.1233e-008    -1.6771e-005    5.8013e-009    
  -0.8            -1.526e-008     -2.0919e-005    6.0499e-009    
  -0.85           -1.959e-008     -2.5632e-005    6.1545e-009    
  -0.9            -9.03e-009      -3.0893e-005    6.0299e-009    
  -0.95           -1.2332e-008    -3.6798e-005    6.3203e-009    
  -1              -1.6947e-008    -4.3152e-005    6.5509e-009    
  -1.05           -2.0226e-008    -5.0127e-005    6.5726e-009    
  -1.1            -9.955e-009     -5.7695e-005    6.2685e-009    
  -1.15           -1.3365e-008    -6.5802e-005    6.8619e-009    
  -1.2            -1.8433e-008    -7.4125e-005    7.0525e-009    
  -1.25           -2.0668e-008    -8.3065e-005    6.9487e-009    
  -1.3            -1.1048e-008    -9.2433e-005    6.5256e-009    
  -1.35           -1.4945e-008    -0.000102147    7.3838e-009    
  -1.4            -1.9589e-008    -0.000112251    7.542e-009     
  -1.45           -2.0392e-008    -0.0001225      5.8994e-009    
  -1.5            -2.0361e-008    -0.00013327     7.2065e-009    
  -1.55           -1.359e-008     -0.00014451     6.5739e-009    
  -1.6            -1.86e-008      -0.00015568     8.0436e-009    
  -1.65           -2.095e-008     -0.00016699     7.9787e-009    
  -1.7            -1.9685e-008    -0.00017843     7.4891e-009    
  -1.75           -1.8334e-008    -0.00018988     6.7846e-009    
  -1.8            -1.9718e-008    -0.00020134     6.1694e-009    
END_DB

BEGIN_DB
 ICCAP_VAR VS         0              
 ICCAP_VAR VB         1.8            
 ICCAP_VAR VD         -0.1           

 #VG              IG              ID              IB             
  0               -1.9686e-008    -2.2724e-009    5.017e-009     
  -0.05           -6.96e-009      -2.1849e-009    5.8295e-009    
  -0.1            -8.418e-009     -1.9096e-009    5.4121e-009    
  -0.15           -6.922e-009     -2.206e-009     6.1972e-009    
  -0.2            -9.635e-009     -2.0832e-009    5.7684e-009    
  -0.25           -1.9586e-008    -2.5623e-009    6.5897e-009    
  -0.3            -1.5857e-008    -3.7007e-009    6.9865e-009    
  -0.35           -1.8479e-008    -1.3741e-008    5.3346e-009    
  -0.4            -2.054e-008     -4.1908e-008    7.059e-009     
  -0.45           -1.0978e-008    -1.06551e-007   6.6029e-009    
  -0.5            -3.464e-009     -2.3691e-007    7.1962e-009    
  -0.55           -1.9889e-008    -4.5871e-007    4.127e-009     
  -0.6            -2.055e-008     -8.101e-007     7.3032e-009    
  -0.65           -1.1324e-008    -1.3158e-006    4.0446e-009    
  -0.7            -1.5446e-008    -1.9886e-006    7.9161e-009    
  -0.75           -1.9799e-008    -2.8402e-006    8.1077e-009    
  -0.8            -2.0803e-008    -3.8634e-006    7.8859e-009    
  -0.85           -1.8557e-008    -5.027e-006     7.2794e-009    
  -0.9            -1.7244e-008    -6.2994e-006    6.5807e-009    
  -0.95           -2.0436e-008    -7.6289e-006    8.5191e-009    
  -1              -2.0222e-008    -8.9951e-006    8.1877e-009    
  -1.05           -1.8259e-008    -1.03592e-005   7.5145e-009    
  -1.1            -2.1036e-008    -1.1693e-005    4.1196e-009    
  -1.15           -1.8862e-008    -1.3014e-005    8.0635e-009    
  -1.2            -1.8501e-008    -1.4286e-005    7.3614e-009    
  -1.25           -2.0394e-008    -1.5482e-005    6.7878e-009    
  -1.3            -2.0291e-008    -1.6634e-005    8.8949e-009    
  -1.35           -1.8394e-008    -1.7713e-005    8.2654e-009    
  -1.4            -1.8764e-008    -1.8735e-005    7.6116e-009    
  -1.45           -2.0999e-008    -1.9695e-005    7.0621e-009    
  -1.5            -1.9637e-008    -2.0598e-005    6.4903e-009    
  -1.55           -1.8415e-008    -2.1446e-005    8.4876e-009    
  -1.6            -1.9561e-008    -2.2244e-005    7.8996e-009    
  -1.65           -2.1519e-008    -2.3002e-005    7.3494e-009    
  -1.7            -1.9016e-008    -2.3694e-005    6.7041e-009    
  -1.75           -1.8539e-008    -2.4364e-005    8.6761e-009    
  -1.8            -2.0298e-008    -2.4987e-005    8.1405e-009    
END_DB

BEGIN_DB
 ICCAP_VAR VS         0              
 ICCAP_VAR VB         1.8            
 ICCAP_VAR VD         -1.8           

 #VG              IG              ID              IB             
  0               -9.859e-010     1.4287e-009     6.107e-009     
  -0.05           -1.5133e-008    -2.205e-009     4.6991e-009    
  -0.1            -6.93e-009      -2.4239e-009    4.5128e-009    
  -0.15           -8.35e-009      -2.8126e-009    5.4568e-009    
  -0.2            -2.0014e-008    -3.3739e-009    6.2687e-009    
  -0.25           -1.222e-008     -1.335e-008     -1.6637e-009   
  -0.3            -1.717e-008     -3.6431e-008    7.0285e-009    
  -0.35           -2.0256e-008    -1.04222e-007   7.0372e-009    
  -0.4            -3.005e-009     -2.6379e-007    5.5216e-009    
  -0.45           -1.9415e-008    -5.8084e-007    5.273e-009     
  -0.5            -8.4702e-009    -1.1463e-006    3.9946e-009    
  -0.55           -1.9109e-008    -2.0364e-006    4.7619e-009    
  -0.6            -1.5406e-008    -3.3266e-006    6.1357e-009    
  -0.65           -1.9826e-008    -5.0791e-006    7.8617e-009    
  -0.7            -2.0809e-008    -7.3403e-006    7.6147e-009    
  -0.75           -1.859e-008     -1.01543e-005   7.0047e-009    
  -0.8            -1.8524e-008    -1.3563e-005    -8.868e-010    
  -0.85           -1.7609e-008    -1.758e-005     6.4221e-009    
  -0.9            -2.0555e-008    -2.2258e-005    8.4007e-009    
  -0.95           -2.0041e-008    -2.7582e-005    8.0184e-009    
  -1              -1.8302e-008    -3.3513e-005    7.3266e-009    
  -1.05           -1.8971e-008    -4.0065e-005    6.6758e-009    
  -1.1            -2.102e-008     -4.7227e-005    8.7382e-009    
  -1.15           -1.9284e-008    -5.4857e-005    8.2629e-009    
  -1.2            -1.8118e-008    -6.3125e-005    7.5268e-009    
  -1.25           -1.9583e-008    -7.1907e-005    6.9332e-009    
  -1.3            -2.1064e-008    -8.0967e-005    6.4209e-009    
  -1.35           -1.8798e-008    -9.0525e-005    8.4653e-009    
  -1.4            -1.8247e-008    -0.000100381    7.7667e-009    
  -1.45           -2.0267e-008    -0.00011055     7.192e-009     
  -1.5            -2.0391e-008    -0.00012114     4.854e-009     
  -1.55           -2.0509e-008    -0.00013174     4.866e-009     
  -1.6            -2.0542e-008    -0.00014286     4.919e-009     
  -1.65           -2.0717e-008    -0.00015407     4.907e-009     
  -1.7            -2.0914e-008    -0.00016558     4.972e-009     
  -1.75           -2.1085e-008    -0.00017718     4.989e-009     
  -1.8            -2.1221e-008    -0.00018875     5.019e-009     
END_DB

