! VERSION = 6.00
BEGIN_HEADER
 ICCAP_INPUTS
  VG         V  B GROUND SMU4 0.001 LIN        2    0          -1.8       6    -0.36     
  VS         V  E GROUND SMU2 0.1 CON        0
  VD         V  S GROUND SMU1 0.1 LIN        1    0          -1.8       37   -0.05     
  VB         V  C GROUND SMU3 0.1 LIN        3    0          0.9        2    0.9       
 ICCAP_OUTPUTS
  ID         I  S GROUND SMU1 B
  IB         I  C GROUND SMU3 B
  IG         I  B GROUND SMU4 B
END_HEADER

BEGIN_DB
 ICCAP_VAR VG         0              
 ICCAP_VAR VS         0              
 ICCAP_VAR VB         0              

 #VD              ID              IB              IG             
  0               -1.5777e-009    -5.222e-009     -1.4376e-009   
  -0.05           -2.1993e-009    -2.4176e-008    2.4231e-009    
  -0.1            -4.224e-010     -3.731e-009     2.0947e-009    
  -0.15           -7.148e-010     -6.373e-009     1.7804e-009    
  -0.2            -1.0174e-009    -8.756e-009     1.5179e-009    
  -0.25           -1.3452e-009    -8.707e-009     1.3572e-009    
  -0.3            -1.6888e-009    -9.606e-009     2.7667e-009    
  -0.35           -2.5826e-009    1.0421e-008     -1.4545e-009   
  -0.4            -2.7292e-009    8.26e-009       -1.3942e-009   
  -0.45           -2.883e-009     9.016e-009      -1.3663e-009   
  -0.5            -3.0403e-009    9.138e-009      -1.3393e-009   
  -0.55           -3.2156e-009    8.316e-009      -1.3068e-009   
  -0.6            -3.4015e-009    9.932e-009      -2.5614e-009   
  -0.65           -4.749e-009     9.74e-010       -2.3559e-009   
  -0.7            -6.476e-009     -1.1444e-008    -4.605e-010    
  -0.75           -6.2387e-009    -2.3521e-008    2.3749e-009    
  -0.8            -4.623e-009     -4.244e-009     2.0454e-009    
  -0.85           -5.2066e-009    -7.032e-009     1.7292e-009    
  -0.9            -5.8017e-009    -8.841e-009     1.4869e-009    
  -0.95           -6.4322e-009    -8.796e-009     1.3373e-009    
  -1              -7.1315e-009    -9.582e-009     2.7782e-009    
  -1.05           -5.51e-009      1.0326e-008     6.418e-010     
  -1.1            -6.1315e-009    9.503e-009      8.253e-010     
  -1.15           -6.8317e-009    9.195e-009      9.977e-010     
  -1.2            -1.0664e-008    -1.1219e-008    -2.236e-009    
  -1.25           -1.119e-008     1.1213e-008     -1.3483e-009   
  -1.3            -1.1329e-008    1.0115e-008     -1.6436e-009   
  -1.35           -1.1626e-008    1.0742e-008     -1.3955e-009   
  -1.4            -1.0478e-008    1.1043e-008     7.066e-010     
  -1.45           -1.3812e-008    -1.7922e-008    2.0257e-009    
  -1.5            -1.5455e-008    -2.74e-008      2.3835e-009    
  -1.55           -1.686e-008     -1.1564e-008    1.045e-010     
  -1.6            -1.7146e-008    9.13e-009       -1.3185e-009   
  -1.65           -1.4593e-008    9.334e-009      1.1502e-009    
  -1.7            -1.9286e-008    -2.3934e-008    1.3695e-009    
  -1.75           -2.195e-008     -1.1411e-008    -6.737e-010    
  -1.8            -2.1247e-008    1.3566e-008     -1.978e-009    
END_DB

BEGIN_DB
 ICCAP_VAR VG         -0.36          
 ICCAP_VAR VS         0              
 ICCAP_VAR VB         0              

 #VD              ID              IB              IG             
  0               -1.5647e-009    -5.17e-009      1.98e-010      
  -0.05           -8.7247e-007    9.63e-010       1.4638e-009    
  -0.1            -1.3064e-006    9.878e-009      2.4239e-009    
  -0.15           -1.5718e-006    -2.7275e-008    2.37e-009      
  -0.2            -1.7786e-006    -2.7037e-008    2.3183e-009    
  -0.25           -1.9597e-006    -2.6778e-008    2.2715e-009    
  -0.3            -2.1316e-006    -2.6336e-008    2.222e-009     
  -0.35           -2.2981e-006    -2.5945e-008    2.1743e-009    
  -0.4            -2.4596e-006    -2.559e-008     2.1268e-009    
  -0.45           -2.6236e-006    -2.4795e-008    2.0749e-009    
  -0.5            -2.7871e-006    -2.4363e-008    2.0258e-009    
  -0.55           -2.9496e-006    -2.3569e-008    1.972e-009     
  -0.6            -3.1122e-006    -2.2848e-008    1.9218e-009    
  -0.65           -3.2784e-006    -2.2194e-008    1.8701e-009    
  -0.7            -3.445e-006     -2.1432e-008    1.8212e-009    
  -0.75           -3.6124e-006    -2.0579e-008    1.7691e-009    
  -0.8            -3.7865e-006    -1.9664e-008    1.7216e-009    
  -0.85           -3.9584e-006    -1.8839e-008    1.6744e-009    
  -0.9            -4.1389e-006    -1.7924e-008    1.6393e-009    
  -0.95           -4.27e-006      -1.135e-008     -6.644e-010    
  -1              -4.4143e-006    1.8732e-008     -1.652e-009    
  -1.05           -4.6386e-006    1.216e-008      2.1012e-009    
  -1.1            -4.8595e-006    -1.202e-008     1.871e-010     
  -1.15           -4.9384e-006    8.936e-009      -1.292e-009    
  -1.2            -5.2417e-006    1.1272e-008     1.5267e-009    
  -1.25           -5.3946e-006    -2.3601e-008    1.9917e-009    
  -1.3            -5.5937e-006    -2.3054e-008    1.9336e-009    
  -1.35           -5.754e-006     -1.1219e-008    -4.42e-010     
  -1.4            -5.8925e-006    1.4593e-008     -1.9084e-009   
  -1.45           -6.1007e-006    1.0663e-008     3.104e-010     
  -1.5            -6.3868e-006    -1.7148e-008    2.2051e-009    
  -1.55           -6.5824e-006    -2.5634e-008    2.1551e-009    
  -1.6            -6.7877e-006    -2.5295e-008    2.1032e-009    
  -1.65           -6.9954e-006    -2.4748e-008    2.0507e-009    
  -1.7            -7.2338e-006    -2.4053e-008    1.998e-009     
  -1.75           -7.4191e-006    -2.3301e-008    1.9464e-009    
  -1.8            -7.6376e-006    -2.262e-008     1.8995e-009    
END_DB

BEGIN_DB
 ICCAP_VAR VG         -0.72          
 ICCAP_VAR VS         0              
 ICCAP_VAR VB         0              

 #VD              ID              IB              IG             
  0               -3.8655e-008    9.439e-009      2.717e-010     
  -0.05           -1.3251e-005    -1.4621e-008    1.126e-010     
  -0.1            -2.3693e-005    -1.8702e-008    1.8513e-009    
  -0.15           -3.161e-005     -1.28e-008      2.508e-010     
  -0.2            -3.7284e-005    8.98e-009       -2.3753e-009   
  -0.25           -4.194e-005     1.0866e-008     3.611e-010     
  -0.3            -4.5779e-005    -2.0867e-008    1.5441e-009    
  -0.35           -4.8709e-005    -2.7451e-008    2.4705e-009    
  -0.4            -5.1119e-005    -2.1215e-008    1.813e-009     
  -0.45           -5.337e-005     -1.2504e-008    2.343e-010     
  -0.5            -5.4826e-005    9.219e-009      -2.3392e-009   
  -0.55           -5.7048e-005    1.2738e-008     1.9803e-009    
  -0.6            -5.8773e-005    -2.1022e-008    1.5197e-009    
  -0.65           -6.0363e-005    -2.7573e-008    2.4435e-009    
  -0.7            -6.1837e-005    -2.0524e-008    1.7822e-009    
  -0.75           -6.3417e-005    -1.2391e-008    2.189e-010     
  -0.8            -6.4302e-005    9.593e-009      -2.318e-009    
  -0.85           -6.6155e-005    1.2711e-008     2.0086e-009    
  -0.9            -6.7587e-005    -2.1173e-008    1.494e-009     
  -0.95           -6.8914e-005    -2.7404e-008    2.4073e-009    
  -1              -7.0033e-005    -1.1352e-008    -5.351e-010    
  -1.05           -7.1032e-005    2.3765e-008     -1.443e-009    
  -1.1            -7.2864e-005    9.317e-009      1.1325e-009    
  -1.15           -7.3987e-005    -2.4683e-008    2.0576e-009    
  -1.2            -7.4995e-005    -1.13e-008      -7.817e-010    
  -1.25           -7.6015e-005    2.6754e-008     -1.3869e-009   
  -1.3            -7.7941e-005    9.708e-009      1.328e-009     
  -1.35           -7.8903e-005    -1.9052e-008    1.7074e-009    
  -1.4            -8.0217e-005    -1.2039e-008    1.81e-010      
  -1.45           -8.0757e-005    1.0228e-008     -2.2497e-009   
  -1.5            -8.2439e-005    1.2238e-008     2.0439e-009    
  -1.55           -8.3729e-005    -2.2031e-008    1.4496e-009    
  -1.6            -8.4864e-005    -2.7279e-008    2.3352e-009    
  -1.65           -8.5794e-005    -1.1393e-008    -5.919e-010    
  -1.7            -8.6629e-005    2.4519e-008     -1.4249e-009   
  -1.75           -8.8427e-005    9.305e-009      1.1674e-009    
  -1.8            -8.9396e-005    -2.3497e-008    1.9804e-009    
END_DB

BEGIN_DB
 ICCAP_VAR VG         -1.08          
 ICCAP_VAR VS         0              
 ICCAP_VAR VB         0              

 #VD              ID              IB              IG             
  0               -8.746e-008     2.3015e-008     9.407e-010     
  -0.05           -3.7621e-005    -3.37e-009      -1.3609e-009   
  -0.1            -7.1551e-005    1.1086e-008     1.488e-009     
  -0.15           -0.000101153    -1.4964e-008    1.4931e-009    
  -0.2            -0.00012658     -1.2544e-008    -1.8795e-009   
  -0.25           -0.00014845     1.1457e-008     -2.457e-010    
  -0.3            -0.00016753     -1.3587e-008    2.7347e-009    
  -0.35           -0.00018298     -1.1463e-008    5.32e-011      
  -0.4            -0.00019494     8.873e-009      -2.383e-009    
  -0.45           -0.00020586     1.08e-008       7.55e-011      
  -0.5            -0.00021576     -1.6926e-008    2.3512e-009    
  -0.55           -0.00022322     -2.5208e-008    2.1012e-009    
  -0.6            -0.00022981     -2.1657e-008    1.8423e-009    
  -0.65           -0.00023537     -1.1309e-008    -6.473e-010    
  -0.7            -0.0002402      2.0942e-008     -1.5457e-009   
  -0.75           -0.00024543     1.0987e-008     7.679e-010     
  -0.8            -0.00025037     -2.276e-008     1.4143e-009    
  -0.85           -0.00025447     -1.2021e-008    1.782e-010     
  -0.9            -0.00025716     8.071e-009      -2.5426e-009   
  -0.95           -0.00026247     1.0279e-008     1.5367e-009    
  -1              -0.00026534     -2.0355e-008    1.7756e-009    
  -1.05           -0.00026828     -1.1398e-008    -7.01e-010     
  -1.1            -0.00027107     2.1676e-008     -1.5101e-009   
  -1.15           -0.0002748      1.0976e-008     8.131e-010     
  -1.2            -0.00027835     -2.3621e-008    1.3823e-009    
  -1.25           -0.00028035     -1.0623e-008    -9.962e-010    
  -1.3            -0.00028299     2.6613e-008     -1.3847e-009   
  -1.35           -0.00028703     9.587e-009      1.1035e-009    
  -1.4            -0.00028985     -2.7329e-008    2.5069e-009    
  -1.45           -0.00029246     -2.673e-008     2.2754e-009    
  -1.5            -0.00029498     -2.4323e-008    2.0267e-009    
  -1.55           -0.00029753     -2.0683e-008    1.7718e-009    
  -1.6            -0.00029972     -1.1427e-008    -6.987e-010    
  -1.65           -0.00030169     2.1887e-008     -1.5115e-009   
  -1.7            -0.00030483     1.0928e-008     8.094e-010     
  -1.75           -0.00030779     -2.3617e-008    1.3804e-009    
  -1.8            -0.0003092      -1.0566e-008    -9.986e-010    
END_DB

BEGIN_DB
 ICCAP_VAR VG         -1.44          
 ICCAP_VAR VS         0              
 ICCAP_VAR VB         0              

 #VD              ID              IB              IG             
  0               -1.14708e-007   1.0995e-008     1.4699e-009    
  -0.05           -6.0303e-005    7.078e-009      1.6296e-009    
  -0.1            -0.00011727     -2.3127e-008    -1.5054e-009   
  -0.15           -0.0001711      2.1523e-008     -1.2991e-009   
  -0.2            -0.00022161     1.1023e-008     5.791e-010     
  -0.25           -0.00026865     -2.0084e-008    1.611e-009     
  -0.3            -0.00031157     -1.1398e-008    -8.081e-010    
  -0.35           -0.0003505      2.3572e-008     -1.4439e-009   
  -0.4            -0.00038628     1.0428e-008     9.049e-010     
  -0.45           -0.00041798     -2.5475e-008    1.3195e-009    
  -0.5            -0.00044564     -2.7488e-008    2.4294e-009    
  -0.55           -0.00046972     -2.6073e-008    2.191e-009     
  -0.6            -0.00049061     -2.3109e-008    1.9292e-009    
  -0.65           -0.00050888     -1.8802e-008    1.6929e-009    
  -0.7            -0.00052401     -1.1548e-008    -7.582e-010    
  -0.75           -0.00053705     2.2582e-008     -1.4706e-009   
  -0.8            -0.00054979     1.0334e-008     8.558e-010     
  -0.85           -0.00056094     -2.4683e-008    1.3497e-009    
  -0.9            -0.00057033     -2.7483e-008    2.5051e-009    
  -0.95           -0.00057889     -2.6861e-008    2.2757e-009    
  -1              -0.00058662     -2.4211e-008    2.0263e-009    
  -1.05           -0.00059368     -1.1401e-008    -5.154e-010    
  -1.1            -0.0005996      1.8456e-008     -1.6526e-009   
  -1.15           -0.00060663     1.0911e-008     6.473e-010     
  -1.2            -0.00061351     -2.1045e-008    1.5265e-009    
  -1.25           -0.00061941     -1.3063e-008    1.3854e-009    
  -1.3            -0.00062477     -2.7193e-008    2.581e-009     
  -1.35           -0.00062994     -2.7473e-008    2.3745e-009    
  -1.4            -0.00063493     -2.5358e-008    2.1204e-009    
  -1.45           -0.00063977     -2.202e-008     1.8606e-009    
  -1.5            -0.00064406     -1.1346e-008    -6.278e-010    
  -1.55           -0.00064789     2.0595e-008     -1.5532e-009   
  -1.6            -0.00065313     1.0723e-008     7.496e-010     
  -1.65           -0.00065827     -2.2671e-008    1.4316e-009    
  -1.7            -0.00066256     -1.2183e-008    1.923e-010     
  -1.75           -0.00066481     8.374e-009      -2.5615e-009   
  -1.8            -0.00067148     1.0123e-008     1.5105e-009    
END_DB

BEGIN_DB
 ICCAP_VAR VG         -1.8           
 ICCAP_VAR VS         0              
 ICCAP_VAR VB         0              

 #VD              ID              IB              IG             
  0               -1.4279e-007    2.4424e-008     -7.663e-010    
  -0.05           -7.5802e-005    8.837e-009      3.91e-011      
  -0.1            -0.00014935     9.671e-009      2.8e-012       
  -0.15           -0.0002206      -1.6349e-008    2.4545e-009    
  -0.2            -0.00028921     -2.6382e-008    2.2247e-009    
  -0.25           -0.00035523     -2.3458e-008    1.9598e-009    
  -0.3            -0.00041848     -1.942e-008     1.7228e-009    
  -0.35           -0.00047844     -1.1469e-008    -7.458e-010    
  -0.4            -0.00053516     2.2282e-008     -1.4863e-009   
  -0.45           -0.00058919     1.0803e-008     8.448e-010     
  -0.5            -0.00063975     -2.4204e-008    1.3586e-009    
  -0.55           -0.00068595     -1.0369e-008    -1.0252e-009   
  -0.6            -0.00072903     2.7157e-008     -1.3817e-009   
  -0.65           -0.00076975     9.379e-009      1.1305e-009    
  -0.7            -0.0008059      -2.7451e-008    2.4637e-009    
  -0.75           -0.00083848     -2.6374e-008    2.2335e-009    
  -0.8            -0.00086764     -2.3641e-008    1.9733e-009    
  -0.85           -0.00089378     -1.9548e-008    1.7243e-009    
  -0.9            -0.00091654     -1.1501e-008    -7.353e-010    
  -0.95           -0.00093643     2.2167e-008     -1.4915e-009   
  -1              -0.00095539     1.0862e-008     8.361e-010     
  -1.05           -0.00097222     -2.423e-008     1.3614e-009    
  -1.1            -0.0009855      -1.0341e-008    -1.0187e-009   
  -1.15           -0.00099835     2.7136e-008     -1.3801e-009   
  -1.2            -0.00101209     9.449e-009      1.1226e-009    
  -1.25           -0.00102309     -2.7375e-008    2.4787e-009    
  -1.3            -0.0010331      -2.6559e-008    2.2436e-009    
  -1.35           -0.00104236     -2.3791e-008    1.9866e-009    
  -1.4            -0.00105138     -1.9805e-008    1.7484e-009    
  -1.45           -0.00105911     -1.1492e-008    -7.239e-010    
  -1.5            -0.00106629     2.2024e-008     -1.4976e-009   
  -1.55           -0.00107495     1.084e-008      8.314e-010     
  -1.6            -0.00108286     -2.4083e-008    1.3679e-009    
  -1.65           -0.0010882      -1.0386e-008    -1.0145e-009   
  -1.7            -0.00109461     2.6932e-008     -1.3832e-009   
  -1.75           -0.00110301     9.554e-009      1.1178e-009    
  -1.8            -0.00110896     -2.7373e-008    2.4872e-009    
END_DB

BEGIN_DB
 ICCAP_VAR VG         0              
 ICCAP_VAR VS         0              
 ICCAP_VAR VB         0.9            

 #VD              ID              IB              IG             
  0               7.939e-010      2.5477e-008     8.401e-010     
  -0.05           2.3124e-009     -8.928e-009     8.29e-010      
  -0.1            2.2794e-009     9.137e-009      9.846e-010     
  -0.15           2.1983e-009     9.249e-009      1.1375e-009    
  -0.2            2.0464e-009     1.0236e-008     1.2977e-009    
  -0.25           1.9776e-009     1.0789e-008     -1.46e-010     
  -0.3            9.537e-010      2.5984e-008     -1.4842e-009   
  -0.35           -1.3588e-009    8.284e-009      -1.8083e-009   
  -0.4            -2.1975e-009    -1.1332e-008    -4.757e-010    
  -0.45           -1.4275e-009    -2.3084e-008    2.3562e-009    
  -0.5            2.0856e-009     -3.85e-009      1.2623e-009    
  -0.55           1.9572e-009     1.0734e-008     -1.753e-010    
  -0.6            9.261e-010      2.5635e-008     -1.5078e-009   
  -0.65           -1.3895e-009    7.846e-009      -1.7845e-009   
  -0.7            -2.1985e-009    -1.1492e-008    -4.425e-010    
  -0.75           -1.4091e-009    -2.3838e-008    2.4122e-009    
  -0.8            2.1041e-009     -3.603e-009     1.2286e-009    
  -0.85           1.9328e-009     1.0788e-008     -2.096e-010    
  -0.9            8.979e-010      2.5216e-008     -1.5336e-009   
  -0.95           -1.4297e-009    7.406e-009      -1.7559e-009   
  -1              -2.1989e-009    -1.1422e-008    -3.962e-010    
  -1.05           -1.3905e-009    -2.4442e-008    2.4521e-009    
  -1.1            2.1173e-009     -3.23e-009      1.203e-009     
  -1.15           1.9023e-009     1.0787e-008     -2.406e-010    
  -1.2            8.574e-010      2.4828e-008     -1.5603e-009   
  -1.25           -1.4783e-009    7.027e-009      -1.7309e-009   
  -1.3            -2.205e-009     -1.1337e-008    -3.508e-010    
  -1.35           -1.3883e-009    -2.5143e-008    2.5031e-009    
  -1.4            2.1228e-009     -2.85e-009      1.1708e-009    
  -1.45           1.8624e-009     1.0854e-008     -2.712e-010    
  -1.5            8.09e-010       2.4259e-008     -1.592e-009    
  -1.55           -1.5425e-009    6.753e-009      -1.7057e-009   
  -1.6            -2.2248e-009    -1.1381e-008    -3.155e-010    
  -1.65           -2.2782e-009    -1.1204e-008    -5.249e-010    
  -1.7            -1.5279e-009    -2.2239e-008    2.3036e-009    
  -1.75           2.1089e-009     -4.4e-009       3.278e-010     
  -1.8            2.173e-009      1.0611e-008     5.258e-010     
END_DB

BEGIN_DB
 ICCAP_VAR VG         -0.36          
 ICCAP_VAR VS         0              
 ICCAP_VAR VB         0.9            

 #VD              ID              IB              IG             
  0               -1.2832e-009    -8.257e-009     -1.3968e-009   
  -0.05           -3.3743e-008    1.0037e-008     2.3663e-009    
  -0.1            -4.7955e-008    -1.1686e-008    1.081e-010     
  -0.15           -5.4625e-008    9.111e-009      -1.3244e-009   
  -0.2            -6.0087e-008    9.36e-009       1.1319e-009    
  -0.25           -7.2372e-008    -2.3797e-008    1.3872e-009    
  -0.3            -8.0711e-008    -1.1441e-008    -6.467e-010    
  -0.35           -8.7506e-008    1.3178e-008     -2.0106e-009   
  -0.4            -9.6649e-008    1.1431e-008     1.5748e-009    
  -0.45           -1.10618e-007   -2.633e-008     2.3154e-009    
  -0.5            -1.1815e-007    1.0586e-008     -2.56e-009     
  -0.55           -1.2943e-007    1.0798e-008     1.4738e-009    
