! VERSION = 6.00
BEGIN_HEADER
 ICCAP_INPUTS
  VG         V  B GROUND SMU4 0.001 LIN        1    0          -1.8       37   -0.05     
  VS         V  E GROUND SMU2 0.1 CON        0
  VB         V  C GROUND SMU3 0.1 LIN        3    0          1.8        3    0.9       
  VD         V  S GROUND SMU1 0.1 LIN        2    -0.1       -1.8       2    -1.7      
 ICCAP_OUTPUTS
  IG         I  B GROUND SMU4 B
  ID         I  S GROUND SMU1 B
  IB         I  C GROUND SMU3 B
END_HEADER

BEGIN_DB
 ICCAP_VAR VS         0              
 ICCAP_VAR VB         0              
 ICCAP_VAR VD         -0.1           

 #VG              IG              ID              IB             
  0               2.8042e-009     2.024e-009      -5.46e-009     
  -0.05           -1.4437e-009    1.1926e-009     1.1286e-008    
  -0.1            -1.3566e-009    -2.9935e-009    8.475e-009     
  -0.15           -1.3161e-009    -7.1495e-009    9.185e-009     
  -0.2            1.6803e-009     -2.0601e-008    -1.7862e-008   
  -0.25           1.2614e-009     -1.1393e-008    -8.975e-009    
  -0.3            2.8373e-009     -4.2202e-008    -9.225e-009    
  -0.35           2.5592e-009     -1.9522e-008    -2.53e-010     
  -0.4            2.8357e-009     -1.1425e-007    -1.1178e-008   
  -0.45           2.5384e-009     -8.223e-008     -2.38e-010     
  -0.5            1.842e-009      -1.5455e-007    -3.353e-009    
  -0.55           1.3211e-009     -2.7694e-007    -9.118e-009    
  -0.6            2.8399e-009     -4.4909e-007    -8.946e-009    
  -0.65           2.6803e-009     -5.0326e-007    7.7e-011       
  -0.7            5.894e-010      -7.255e-007     1.0176e-008    
  -0.75           9.776e-010      -9.2796e-007    1.0256e-008    
  -0.8            -1.4103e-009    -1.1609e-006    -1.0251e-008   
  -0.85           -1.2988e-009    -1.4685e-006    8.869e-009     
  -0.9            -2.5635e-009    -1.8171e-006    8.958e-009     
  -0.95           -2.0352e-009    -2.1142e-006    8.03e-010      
  -1              -9.647e-010     -2.5261e-006    -1.0978e-008   
  -1.05           2.018e-010      -2.9626e-006    -1.2819e-008   
  -1.1            1.3979e-009     -3.352e-006     -2.2482e-008   
  -1.15           2.8236e-009     -3.7525e-006    -8.77e-009     
  -1.2            2.75e-009       -4.2035e-006    4.01e-010      
  -1.25           1.4067e-009     -4.6321e-006    1.0233e-008    
  -1.3            2.972e-010      -5.0654e-006    9.736e-009     
  -1.35           7.404e-010      -5.4592e-006    1.0663e-008    
  -1.4            1.1085e-009     -5.844e-006     9.948e-009     
  -1.45           -2.09e-011      -6.2203e-006    1.0388e-008    
  -1.5            4.213e-010      -6.6147e-006    9.693e-009     
  -1.55           8.394e-010      -6.9573e-006    1.0731e-008    
  -1.6            1.2105e-009     -7.3016e-006    9.802e-009     
  -1.65           9.74e-011       -7.6373e-006    1.0008e-008    
  -1.7            5.42e-010       -7.9689e-006    1.0034e-008    
  -1.75           9.399e-010      -8.265e-006     1.0583e-008    
  -1.8            -2.02e-010      -8.5566e-006    1.2264e-008    
END_DB

BEGIN_DB
 ICCAP_VAR VS         0              
 ICCAP_VAR VB         0              
 ICCAP_VAR VD         -1.8           

 #VG              IG              ID              IB             
  0               2.641e-010      1.636e-010      -1.0597e-008   
  -0.05           2.7213e-009     -1.8764e-009    -1.5798e-008   
  -0.1            2.886e-010      1.6947e-009     1.0151e-008    
  -0.15           -1.3873e-009    -7.3162e-009    1.0694e-008    
  -0.2            1.5236e-009     -2.3659e-008    -1.8862e-008   
  -0.25           2.7808e-009     -1.5422e-008    -8.761e-009    
  -0.3            4.351e-010      -2.4158e-008    1.2128e-008    
  -0.35           -1.5422e-009    -2.5126e-008    8.437e-009     
  -0.4            -2.363e-009     -4.627e-008     1.0633e-008    
  -0.45           1.7391e-009     -3.0492e-007    -1.9427e-008   
  -0.5            1.2779e-009     -2.5339e-007    -9.046e-009    
  -0.55           2.8443e-009     -4.9784e-007    -9.078e-009    
  -0.6            2.6092e-009     -4.8009e-007    -2.01e-010     
  -0.65           1.1606e-009     -8.4e-007       -2.718e-009    
  -0.7            -1.086e-010     -1.5369e-006    1.0841e-008    
  -0.75           -1.3515e-009    -2.0293e-006    2.5595e-008    
  -0.8            -1.2782e-009    -2.3228e-006    9.103e-009     
  -0.85           -2.4165e-009    -3.273e-006     9.2e-009       
  -0.9            -7.244e-010     -3.7877e-006    -1.0794e-008   
  -0.95           1.6505e-009     -5.3311e-006    -1.7822e-008   
  -1              1.2526e-009     -5.9874e-006    -8.91e-009     
  -1.05           2.843e-009      -7.5985e-006    -9.344e-009    
  -1.1            1.201e-009      -8.9458e-006    9.894e-009     
  -1.15           8.295e-010      -1.1202e-005    -1.913e-008    
  -1.2            2.7191e-009     -1.308e-005     -1.2553e-008   
  -1.25           5.553e-010      -1.5115e-005    1.0045e-008    
  -1.3            9.508e-010      -1.7283e-005    1.0293e-008    
  -1.35           -1.904e-010     -2.0387e-005    1.2077e-008    
  -1.4            2.193e-010      -2.3061e-005    9.715e-009     
  -1.45           6.679e-010      -2.5644e-005    1.04e-008      
  -1.5            1.0458e-009     -2.8562e-005    1.0176e-008    
  -1.55           1.4506e-009     -3.1869e-005    1.1376e-008    
  -1.6            3.399e-010      -3.5514e-005    9.595e-009     
  -1.65           7.794e-010      -3.879e-005     1.05e-008      
  -1.7            1.1484e-009     -4.2386e-005    9.852e-009     
  -1.75           1.86e-011       -4.6631e-005    1.0304e-008    
  -1.8            4.582e-010      -5.0372e-005    9.702e-009     
END_DB

BEGIN_DB
 ICCAP_VAR VS         0              
 ICCAP_VAR VB         0.9            
 ICCAP_VAR VD         -0.1           

 #VG              IG              ID              IB             
  0               -7.2e-010       1.505e-010      1.1234e-008    
  -0.05           -1.1921e-009    -2.101e-009     9.338e-009     
  -0.1            1.3426e-009     -1.1397e-009    -2.6667e-008   
  -0.15           1.014e-009      2.2815e-009     -8.939e-009    
  -0.2            1.1728e-009     2.168e-009      1.1334e-008    
  -0.25           -1.837e-010     1.8247e-009     1.0114e-008    
  -0.3            -1.5468e-009    -1.65e-011      2.4558e-008    
  -0.35           -1.4079e-009    -2.3569e-009    7.361e-009     
  -0.4            -1.3423e-009    -6.3522e-009    8.745e-009     
  -0.45           1.2449e-009     -2.5147e-008    -1.2305e-008   
  -0.5            2.8406e-009     -3.1093e-008    -9.347e-009    
  -0.55           -1.4119e-009    -8.5559e-008    1.001e-008     
  -0.6            1.4506e-009     -2.6906e-008    -8.756e-009    
  -0.65           2.0747e-009     -6.594e-008     -1.2871e-008   
  -0.7            1.4211e-009     -1.6445e-007    -7.591e-009    
  -0.75           2.8174e-009     -3.389e-007     -8.702e-009    
  -0.8            2.0307e-009     -4.0604e-007    1.0848e-008    
  -0.85           9.182e-010      -6.4612e-007    1.0336e-008    
  -0.9            1.2927e-009     -9.2514e-007    1.0551e-008    
  -0.95           -1.97e-009      -1.2011e-006    -1.2994e-008   
  -1              -2.6491e-009    -1.5744e-006    -6.2e-009      
  -1.05           1.706e-010      -2.0283e-006    -1.24e-008     
  -1.1            -2.368e-010     -2.4249e-006    -1.0215e-008   
  -1.15           -7.336e-010     -2.8121e-006    -1.0805e-008   
  -1.2            1.6534e-009     -3.2222e-006    -1.795e-008    
  -1.25           1.2508e-009     -3.6246e-006    -8.973e-009    
  -1.3            2.8429e-009     -4.0317e-006    -9.216e-009    
  -1.35           2.5412e-009     -4.4674e-006    -3.03e-010     
  -1.4            1.8462e-009     -4.846e-006     -3.278e-009    
  -1.45           1.3254e-009     -5.2224e-006    -8.971e-009    
  -1.5            2.8433e-009     -5.5867e-006    -8.803e-009    
  -1.55           2.6905e-009     -5.9777e-006    9.6e-011       
  -1.6            5.702e-010      -6.3403e-006    1.0009e-008    
  -1.65           9.609e-010      -6.6584e-006    1.0232e-008    
  -1.7            -1.787e-010     -6.9733e-006    1.2021e-008    
  -1.75           2.282e-010      -7.3121e-006    9.693e-009     
  -1.8            6.568e-010      -7.6086e-006    1.0415e-008    
END_DB

BEGIN_DB
 ICCAP_VAR VS         0              
 ICCAP_VAR VB         0.9            
 ICCAP_VAR VD         -1.8           

 #VG              IG              ID              IB             
  0               -1.3369e-009    -1.3209e-009    1.0108e-008    
  -0.05           -2.411e-010     -2.1011e-009    -1.0284e-008   
  -0.1            -4.464e-010     -2.1756e-009    -1.094e-008    
  -0.15           2.482e-009      -5.586e-010     -1.7381e-008   
  -0.2            1.1883e-009     2.1676e-009     -3.853e-009    
  -0.25           -1.742e-010     1.8367e-009     1.0128e-008    
  -0.3            -6.3e-012       1.8246e-009     9.813e-009     
  -0.35           1.631e-010      1.7222e-009     9.652e-009     
  -0.4            -1.4587e-009    -7.4601e-009    1.0267e-008    
  -0.45           1.7461e-009     -2.5804e-008    -1.7672e-008   
  -0.5            1.2829e-009     -1.2634e-008    -9.13e-009     
  -0.55           2.8465e-009     -6.0425e-008    -9.007e-009    
  -0.6            2.6283e-009     -2.538e-008     -2.0702e-008   
  -0.65           -3.333e-010     -6.228e-008     1.0439e-008    
  -0.7            1.0558e-009     -1.864e-007     1.024e-008     
  -0.75           1.4503e-009     -3.4257e-007    1.1417e-008    
  -0.8            3.364e-010      -6.9909e-007    9.674e-009     
  -0.85           -1.1415e-009    -9.792e-007     7.393e-009     
  -0.9            1.2414e-009     -1.9361e-006    -2.6074e-008   
  -0.95           2.8319e-009     -2.3878e-006    -9.425e-009    
  -1              1.2259e-009     -2.912e-006     9.977e-009     
  -1.05           9.71e-011       -4.3531e-006    9.997e-009     
  -1.1            5.45e-010       -5.2734e-006    9.975e-009     
  -1.15           9.365e-010      -6.5331e-006    1.0568e-008    
  -1.2            -2.113e-010     -8.6977e-006    1.2427e-008    
  -1.25           -1.4035e-009    -1.03945e-005   2.3794e-008    
  -1.3            2.7011e-009     -1.1869e-005    -1.0461e-008   
  -1.35           7.535e-010      -1.4212e-005    1.0433e-008    
  -1.4            1.1141e-009     -1.6529e-005    9.894e-009     
  -1.45           -1.95e-011      -1.9517e-005    1.0417e-008    
  -1.5            4.111e-010      -2.2085e-005    9.675e-009     
  -1.55           8.319e-010      -2.4668e-005    1.0341e-008    
  -1.6            1.1948e-009     -2.7686e-005    9.844e-009     
  -1.65           6.39e-011       -3.1289e-005    1.0107e-008    
  -1.7            5.064e-010      -3.4418e-005    9.897e-009     
  -1.75           9.079e-010      -3.7606e-005    1.0619e-008    
  -1.8            1.2777e-009     -4.1215e-005    9.782e-009     
END_DB

BEGIN_DB
 ICCAP_VAR VS         0              
 ICCAP_VAR VB         1.8            
 ICCAP_VAR VD         -0.1           

 #VG              IG              ID              IB             
  0               7.612e-010      7.607e-010      -1.1515e-008   
  -0.05           9.677e-010      2.2947e-009     -8.65e-009     
  -0.1            -1.4847e-009    1.7581e-009     1.1901e-008    
  -0.15           -1.7816e-009    -1.3783e-009    8.15e-009      
  -0.2            -4.765e-010     -2.1763e-009    -1.0992e-008   
  -0.25           2.4424e-009     -5.743e-010     -1.7865e-008   
  -0.3            1.2189e-009     2.1465e-009     -4.361e-009    
  -0.35           -1.473e-010     1.8985e-009     1.0146e-008    
  -0.4            -1.5144e-009    6.634e-010      2.498e-008     
  -0.45           -2.5654e-009    -1.231e-009     7.821e-009     
  -0.5            -4.395e-010     -2.3631e-009    -1.097e-008    
  -0.55           2.823e-009      -8.16e-009      1.0414e-008    
  -0.6            -2.3788e-009    -3.0173e-008    2.1776e-008    
  -0.65           2.322e-009      -7.1123e-008    -1.1011e-008   
  -0.7            2.4467e-009     -9.461e-009     1.0104e-008    
  -0.75           2.7791e-009     -3.3081e-008    2.7111e-008    
  -0.8            -4.539e-010     -1.5972e-007    9.406e-009     
  -0.85           2.059e-009      -4.2859e-007    -1.725e-008    
  -0.9            1.4204e-009     -4.0879e-007    -7.674e-009    
  -0.95           2.8136e-009     -7.0132e-007    -8.772e-009    
  -1              2.0266e-009     -9.0721e-007    1.1857e-008    
  -1.05           6.429e-010      -1.2756e-006    7.53e-010      
  -1.1            1.017e-009      -1.6365e-006    1.0265e-008    
  -1.15           -1.277e-010     -2.0649e-006    1.1239e-008    
  -1.2            -1.3646e-009    -2.4391e-006    2.5512e-008    
  -1.25           -1.2875e-009    -2.8397e-006    9.129e-009     
  -1.3            -2.4647e-009    -3.2423e-006    8.874e-009     
  -1.35           -1.8659e-009    -3.6749e-006    1.59e-009      
  -1.4            -2.658e-009     -4.0911e-006    -5.858e-009    
  -1.45           -8.845e-010     -4.4672e-006    -1.114e-008    
  -1.5            1.4339e-009     -4.8268e-006    -1.4103e-008   
  -1.55           2.8098e-009     -5.1758e-006    -8.629e-009    
  -1.6            2.0241e-009     -5.5616e-006    1.203e-008     
  -1.65           9.071e-010      -5.8888e-006    1.0624e-008    
  -1.7            1.2811e-009     -6.2176e-006    1.0469e-008    
  -1.75           1.534e-010      -6.537e-006     9.988e-009     
  -1.8            5.989e-010      -6.8431e-006    1.0348e-008    
END_DB

BEGIN_DB
 ICCAP_VAR VS         0              
 ICCAP_VAR VB         1.8            
 ICCAP_VAR VD         -1.8           

 #VG              IG              ID              IB             
  0               -1.0122e-009    -9.461e-010     -2.0345e-008   
  -0.05           -1.6577e-009    -1.5611e-009    6.022e-009     
  -0.1            -2.749e-010     -2.1169e-009    -1.0389e-008   
  -0.15           -4.792e-010     -2.1803e-009    -1.0799e-008   
  -0.2            2.4177e-009     -1.4215e-009    -2.327e-008    
  -0.25           1.2246e-009     2.1373e-009     -4.512e-009    
  -0.3            -1.402e-010     1.9099e-009     1.0136e-008    
  -0.35           -1.5044e-009    8.64e-010       2.5304e-008    
  -0.4            -1.7686e-009    -1.4136e-009    7.762e-009     
  -0.45           -4.505e-010     -2.219e-009     -1.0944e-008   
  -0.5            2.4593e-009     -4.9652e-009    -1.7518e-008   
  -0.55           -2.1815e-009    -1.4099e-008    9.093e-009     
  -0.6            1.8504e-009     -3.6251e-008    -1.1825e-008   
  -0.65           1.3228e-009     -1.5543e-008    -9.046e-009    
  -0.7            -2.6723e-009    -1.1748e-008    -1.8813e-008   
  -0.75           -2.5254e-009    -3.4708e-008    -1.6155e-008   
  -0.8            5.177e-010      -1.7e-007       -1.2426e-008   
  -0.85           9.172e-010      -2.7239e-007    1.0512e-008    
  -0.9            -1.3838e-009    -9.2039e-007    1.2777e-008    
  -0.95           2.3622e-009     -1.3435e-006    1.1039e-008    
  -1              1.6369e-009     -1.3292e-006    -4.878e-009    
  -1.05           1.2617e-009     -2.1259e-006    -9.166e-009    
  -1.1            2.8424e-009     -3.1839e-006    -9.267e-009    
  -1.15           2.5612e-009     -3.9322e-006    -1.89e-010     
  -1.2            1.8828e-009     -5.1922e-006    -3.003e-009    
  -1.25           1.3494e-009     -6.7321e-006    -8.744e-009    
  -1.3            2.8325e-009     -8.5353e-006    -8.95e-009     
  -1.35           2.7243e-009     -1.02198e-005   4.4e-011       
  -1.4            -2.701e-009     -1.2235e-005    1.0242e-008    
  -1.45           -1.691e-010     -1.4968e-005    -1.0507e-008   
  -1.5            -6.583e-010     -1.705e-005     -1.0724e-008   
  -1.55           1.7519e-009     -1.9851e-005    -1.9679e-008   
  -1.6            1.2924e-009     -2.212e-005     -9.133e-009    
  -1.65           2.8455e-009     -2.503e-005     -9.21e-009     
  -1.7            2.641e-009      -2.8035e-005    -1.33e-010     
  -1.75           6.2e-010        -3.1435e-005    1.0428e-008    
  -1.8            1e-009          -3.4547e-005    1.011e-008     
END_DB

