! VERSION = 6.00
BEGIN_HEADER
 ICCAP_INPUTS
  VG         V  B GROUND SMU4 0.001 LIN        2    0          -1.8       6    -0.36     
  VS         V  E GROUND SMU3 0.1 CON        0
  VD         V  S GROUND SMU2 0.1 LIN        1    0          -1.8       37   -0.05     
  VB         V  C GROUND SMU1 0.1 LIN        3    0          0.9        2    0.9       
 ICCAP_OUTPUTS
  ID         I  S GROUND SMU2 B
  IB         I  C GROUND SMU1 B
  IG         I  B GROUND SMU4 B
END_HEADER

BEGIN_DB
 ICCAP_VAR VG         0              
 ICCAP_VAR VS         0              
 ICCAP_VAR VB         0              

 #VD              ID              IB              IG             
  0               -2.1832e-009    -4.648e-009     -3.342e-010    
  -0.05           -2.8743e-009    -4.528e-009     1.5014e-009    
  -0.1            -3.7948e-009    -4.637e-009     1.3885e-009    
  -0.15           -5.406e-009     -6.281e-009     1.591e-009     
  -0.2            -6.0003e-009    -4.773e-009     1.619e-009     
  -0.25           -6.5276e-009    -4.22e-009      1.6042e-009    
  -0.3            -7.1089e-009    -4.413e-009     1.5347e-009    
  -0.35           -7.7436e-009    -4.646e-009     1.429e-009     
  -0.4            -1.1731e-008    -5.863e-009     -1.1555e-009   
  -0.45           -1.2119e-008    -1.4942e-009    -6.272e-010    
  -0.5            -1.0865e-008    5.6909e-009     -1.481e-009    
  -0.55           -1.1653e-008    5.9782e-009     -1.5339e-009   
  -0.6            -1.287e-008     6.2063e-009     -1.5699e-009   
  -0.65           -1.412e-008     6.3098e-009     -1.4438e-009   
  -0.7            -1.4878e-008    5.7182e-009     -1.4556e-009   
  -0.75           -1.6442e-008    5.7937e-009     -1.4835e-009   
  -0.8            -1.8015e-008    6.0006e-009     -1.5411e-009   
  -0.85           -1.9549e-008    6.2264e-009     -1.572e-009    
  -0.9            -2.1152e-008    6.3197e-009     -1.4452e-009   
  -0.95           -2.2323e-008    5.7234e-009     -1.4561e-009   
  -1              -2.4217e-008    5.8093e-009     -1.4879e-009   
  -1.05           -2.6137e-008    6.023e-009      -1.5458e-009   
  -1.1            -2.8106e-008    6.2395e-009     -1.5727e-009   
  -1.15           -3.0109e-008    6.3156e-009     -1.4462e-009   
  -1.2            -3.176e-008     5.735e-009      -1.4595e-009   
  -1.25           -3.4092e-008    5.8174e-009     -1.4892e-009   
  -1.3            -3.6438e-008    6.0339e-009     -1.5465e-009   
  -1.35           -3.8886e-008    6.2465e-009     -1.5727e-009   
  -1.4            -4.1358e-008    6.3142e-009     -1.445e-009    
  -1.45           -4.356e-008     5.7391e-009     -1.46e-009     
  -1.5            -4.636e-008     5.8346e-009     -1.4958e-009   
  -1.55           -4.9221e-008    6.0512e-009     -1.5468e-009   
  -1.6            -5.2201e-008    6.2498e-009     -1.5718e-009   
  -1.65           -5.518e-008     6.309e-009      -1.4469e-009   
  -1.7            -5.795e-008     5.7345e-009     -1.4619e-009   
  -1.75           -6.1368e-008    5.8581e-009     -1.5017e-009   
  -1.8            -6.4767e-008    6.079e-009      -1.5532e-009   
END_DB

BEGIN_DB
 ICCAP_VAR VG         -0.36          
 ICCAP_VAR VS         0              
 ICCAP_VAR VB         0              

 #VD              ID              IB              IG             
  0               1.7753e-009     -4.616e-009     -1.306e-010    
  -0.05           -4.8799e-007    -4.598e-009     -1.449e-009    
  -0.1            -7.959e-007     1.7521e-009     -1.1839e-009   
  -0.15           -9.9633e-007    5.8658e-009     -1.5095e-009   
  -0.2            -1.1385e-006    2.1651e-009     -1.4496e-009   
  -0.25           -1.2516e-006    5.6987e-009     -1.4475e-009   
  -0.3            -1.3504e-006    5.7061e-009     -1.4469e-009   
  -0.35           -1.4392e-006    5.7043e-009     -1.447e-009    
  -0.4            -1.5233e-006    5.7059e-009     -1.4467e-009   
  -0.45           -1.6044e-006    5.7028e-009     -1.4437e-009   
  -0.5            -1.683e-006     5.7037e-009     -1.445e-009    
  -0.55           -1.7613e-006    5.6986e-009     -1.5713e-009   
  -0.6            -1.836e-006     6.2648e-009     -1.5734e-009   
  -0.65           -1.9111e-006    6.2437e-009     -1.575e-009    
  -0.7            -1.9873e-006    6.2225e-009     -1.5724e-009   
  -0.75           -2.0623e-006    6.2075e-009     -1.5716e-009   
  -0.8            -2.1374e-006    6.2021e-009     -1.5702e-009   
  -0.85           -2.2119e-006    6.1813e-009     -1.5692e-009   
  -0.9            -2.287e-006     6.1636e-009     -1.5701e-009   
  -0.95           -2.3624e-006    6.1422e-009     -1.565e-009    
  -1              -2.4373e-006    6.1141e-009     -1.5614e-009   
  -1.05           -2.5136e-006    6.0949e-009     -1.5561e-009   
  -1.1            -2.5899e-006    6.0703e-009     -1.553e-009    
  -1.15           -2.6667e-006    6.0444e-009     -1.551e-009    
  -1.2            -2.7436e-006    6.0209e-009     -1.5451e-009   
  -1.25           -2.8227e-006    5.9963e-009     -1.5426e-009   
  -1.3            -2.8971e-006    5.9708e-009     -1.5358e-009   
  -1.35           -2.9778e-006    5.9496e-009     -1.53e-009     
  -1.4            -3.0557e-006    5.9238e-009     -1.5241e-009   
  -1.45           -3.1339e-006    5.8972e-009     -1.5166e-009   
  -1.5            -3.2141e-006    5.871e-009      -1.5138e-009   
  -1.55           -3.2961e-006    5.8603e-009     -1.5085e-009   
  -1.6            -3.3763e-006    5.8394e-009     -1.5e-009      
  -1.65           -3.4577e-006    5.8282e-009     -1.4962e-009   
  -1.7            -3.5405e-006    5.8116e-009     -1.4899e-009   
  -1.75           -3.6238e-006    5.7973e-009     -1.4845e-009   
  -1.8            -3.7078e-006    5.7776e-009     -1.4812e-009   
END_DB

BEGIN_DB
 ICCAP_VAR VG         -0.72          
 ICCAP_VAR VS         0              
 ICCAP_VAR VB         0              

 #VD              ID              IB              IG             
  0               1.0665e-008     -4.071e-009     4.435e-010     
  -0.05           -3.3396e-006    4.108e-010      -1.57e-009     
  -0.1            -6.0587e-006    6.2086e-009     -1.5703e-009   
  -0.15           -8.2384e-006    6.1793e-009     -1.5677e-009   
  -0.2            -9.9659e-006    6.1589e-009     -1.5636e-009   
  -0.25           -1.13294e-005   6.1418e-009     -1.5659e-009   
  -0.3            -1.2444e-005    -5.592e-009     7.118e-010     
  -0.35           -1.3383e-005    -6.7714e-009    1.4668e-009    
  -0.4            -1.4109e-005    -9.283e-009     1.6183e-009    
  -0.45           -1.4758e-005    -6.9975e-009    1.5565e-009    
  -0.5            -1.5322e-005    -5.165e-009     1.4674e-009    
  -0.55           -1.5839e-005    -4.4952e-009    1.6076e-009    
  -0.6            -1.6321e-005    -5.8983e-009    1.4986e-009    
  -0.65           -1.6752e-005    -4.7923e-009    1.4542e-009    
  -0.7            -1.7185e-005    -4.109e-009     1.5604e-009    
  -0.75           -1.7579e-005    -5.1892e-009    1.4656e-009    
  -0.8            -1.7961e-005    -4.5197e-009    1.6106e-009    
  -0.85           -1.8342e-005    -6.0013e-009    1.5028e-009    
  -0.9            -1.8693e-005    -4.8059e-009    1.4545e-009    
  -0.95           -1.906e-005     -4.1417e-009    1.5629e-009    
  -1              -1.9392e-005    -5.2396e-009    1.4681e-009    
  -1.05           -1.9726e-005    -4.5392e-009    1.6123e-009    
  -1.1            -2.0066e-005    -6.0641e-009    1.5065e-009    
  -1.15           -2.0382e-005    -4.8477e-009    1.4567e-009    
  -1.2            -2.0718e-005    -4.1679e-009    1.5682e-009    
  -1.25           -2.102e-005     -5.29e-009      1.4689e-009    
  -1.3            -2.1332e-005    -4.5568e-009    1.6148e-009    
  -1.35           -2.165e-005     -6.1106e-009    1.5102e-009    
  -1.4            -2.1943e-005    -4.8595e-009    1.4575e-009    
  -1.45           -2.2252e-005    -4.2048e-009    1.5734e-009    
  -1.5            -2.2542e-005    -5.3492e-009    1.4738e-009    
  -1.55           -2.2834e-005    -4.595e-009     1.6138e-009    
  -1.6            -2.3141e-005    -6.1889e-009    1.5138e-009    
  -1.65           -2.3419e-005    -4.8892e-009    1.4567e-009    
  -1.7            -2.372e-005     -4.2315e-009    1.5763e-009    
  -1.75           -2.4e-005       -5.4048e-009    1.476e-009     
  -1.8            -2.4279e-005    -4.6084e-009    1.6153e-009    
END_DB

BEGIN_DB
 ICCAP_VAR VG         -1.08          
 ICCAP_VAR VS         0              
 ICCAP_VAR VB         0              

 #VD              ID              IB              IG             
  0               1.2115e-008     -4.639e-009     2.683e-010     
  -0.05           -8.3663e-006    -3.987e-009     -8.563e-010    
  -0.1            -1.5872e-005    -6.713e-009     -1.4574e-009   
  -0.15           -2.2605e-005    -4.414e-009     1.5986e-009    
  -0.2            -2.849e-005     -4.039e-009     1.6052e-009    
  -0.25           -3.3582e-005    -3.853e-009     1.5849e-009    
  -0.3            -3.7938e-005    -4.148e-009     1.5484e-009    
  -0.35           -4.1642e-005    -5.701e-009     1.5117e-009    
  -0.4            -4.4792e-005    5.45e-011       1.1171e-009    
  -0.45           -4.7432e-005    -9.342e-009     1.4927e-009    
  -0.5            -4.9687e-005    -4.8314e-009    1.4696e-009    
  -0.55           -5.1641e-005    -4.0676e-009    1.5371e-009    
  -0.6            -5.3268e-005    -5.2776e-009    1.4804e-009    
  -0.65           -5.4745e-005    -4.5098e-009    1.5835e-009    
  -0.7            -5.6058e-005    -5.9272e-009    1.4937e-009    
  -0.75           -5.7228e-005    -4.8738e-009    1.471e-009     
  -0.8            -5.8349e-005    -4.0985e-009    1.5395e-009    
  -0.85           -5.9333e-005    -5.3151e-009    1.4825e-009    
  -0.9            -6.0288e-005    -4.5318e-009    1.5806e-009    
  -0.95           -6.1188e-005    -5.9813e-009    1.4973e-009    
  -1              -6.2024e-005    -4.8947e-009    1.4745e-009    
  -1.05           -6.2878e-005    -4.118e-009     1.5405e-009    
  -1.1            -6.3626e-005    -5.3539e-009    1.484e-009     
  -1.15           -6.4389e-005    -4.5496e-009    1.5813e-009    
  -1.2            -6.5134e-005    -6.0691e-009    1.4983e-009    
  -1.25           -6.5811e-005    -4.9116e-009    1.4752e-009    
  -1.3            -6.6537e-005    -4.1326e-009    1.5389e-009    
  -1.35           -6.7169e-005    -5.3834e-009    1.4849e-009    
  -1.4            -6.7829e-005    -4.5663e-009    1.5818e-009    
  -1.45           -6.8479e-005    -6.1215e-009    1.5032e-009    
  -1.5            -6.9081e-005    -4.9412e-009    1.4781e-009    
  -1.55           -6.9739e-005    -4.1736e-009    1.5423e-009    
  -1.6            -7.0305e-005    -5.4174e-009    1.4852e-009    
  -1.65           -7.0902e-005    -4.6012e-009    1.5852e-009    
  -1.7            -7.1479e-005    -6.1429e-009    1.5029e-009    
  -1.75           -7.2034e-005    -4.9721e-009    1.4786e-009    
  -1.8            -7.2627e-005    -4.1985e-009    1.545e-009     
END_DB

BEGIN_DB
 ICCAP_VAR VG         -1.44          
 ICCAP_VAR VS         0              
 ICCAP_VAR VB         0              

 #VD              ID              IB              IG             
  0               1.1086e-008     -4.455e-009     -9.803e-010    
  -0.05           -1.3214e-005    -4.48e-009      -1.4616e-009   
  -0.1            -2.5741e-005    1.9181e-009     -1.2196e-009   
  -0.15           -3.7559e-005    6.2027e-009     -1.4532e-009   
  -0.2            -4.8626e-005    5.6392e-009     -1.5689e-009   
  -0.25           -5.8896e-005    5.792e-009      -1.4829e-009   
  -0.3            -6.835e-005     5.6982e-009     -1.4419e-009   
  -0.35           -7.6958e-005    5.4733e-009     -1.5349e-009   
  -0.4            -8.478e-005     5.7176e-009     -1.4547e-009   
  -0.45           -9.176e-005     5.6527e-009     -1.5716e-009   
  -0.5            -9.7943e-005    5.8087e-009     -1.4868e-009   
  -0.55           -0.000103392    5.7003e-009     -1.4436e-009   
  -0.6            -0.000108131    5.4842e-009     -1.5386e-009   
  -0.65           -0.000112293    5.7226e-009     -1.4574e-009   
  -0.7            -0.00011597     3.856e-009      1.4788e-009    
  -0.75           -0.00011911     -9.6966e-009    1.4594e-009    
  -0.8            -0.0001219      -4.684e-009     1.6167e-009    
  -0.85           -0.00012441     -8.3987e-009    1.6102e-009    
  -0.9            -0.00012665     -7.4777e-009    1.5796e-009    
  -0.95           -0.00012865     -6.4944e-009    1.5366e-009    
  -1              -0.00013051     -5.7544e-009    1.4964e-009    
  -1.05           -0.00013221     -5.2024e-009    1.47e-009      
  -1.1            -0.00013382     -4.848e-009     1.4549e-009    
  -1.15           -0.00013534     -4.6322e-009    1.6151e-009    
  -1.2            -0.00013675     -8.2285e-009    1.6033e-009    
  -1.25           -0.00013812     -7.2592e-009    1.5698e-009    
  -1.3            -0.00013941     -6.3024e-009    1.5249e-009    
  -1.35           -0.00014061     -5.5909e-009    1.4884e-009    
  -1.4            -0.00014182     -5.1054e-009    1.4657e-009    
  -1.45           -0.00014293     -4.7999e-009    1.4538e-009    
  -1.5            -0.00014403     -4.5903e-009    1.6142e-009    
  -1.55           -0.00014511     -8.0227e-009    1.5962e-009    
  -1.6            -0.00014617     -7.0229e-009    1.5604e-009    
  -1.65           -0.00014715     -6.1524e-009    1.5152e-009    
  -1.7            -0.00014815     -5.4629e-009    1.4809e-009    
  -1.75           -0.00014909     -5.0277e-009    1.4655e-009    
  -1.8            -0.00015002     -4.7532e-009    1.4528e-009    
END_DB

BEGIN_DB
 ICCAP_VAR VG         -1.8           
 ICCAP_VAR VS         0              
 ICCAP_VAR VB         0              

 #VD              ID              IB              IG             
  0               9.229e-009      -3.934e-009     -3.017e-010    
  -0.05           -1.6792e-005    -4.196e-009     -1.5053e-009   
  -0.1            -3.306e-005     -4.558e-009     1.5303e-009    
  -0.15           -4.8797e-005    -6.198e-009     1.5038e-009    
  -0.2            -6.3971e-005    -4.763e-009     1.4394e-009    
  -0.25           -7.8512e-005    -4.97e-009      1.524e-009     
  -0.3            -9.2418e-005    -4.473e-009     1.5765e-009    
  -0.35           -0.000105608    -4.005e-009     1.5966e-009    
  -0.4            -0.00011802     -3.822e-009     1.5651e-009    
  -0.45           -0.0001298      -3.814e-009     1.5823e-009    
  -0.5            -0.00014085     -3.963e-009     1.5899e-009    
  -0.55           -0.00015111     -4.222e-009     1.5928e-009    
  -0.6            -0.00016059     -4.549e-009     1.5738e-009    
  -0.65           -0.0001693      -4.9e-009       1.536e-009     
  -0.7            -0.00017721     -4.949e-009     1.486e-009     
  -0.75           -0.00018442     -4.66e-009      1.4258e-009    
  -0.8            -0.00019088     -4.113e-009     1.3569e-009    
  -0.85           -0.00019668     -3.672e-009     1.2809e-009    
  -0.9            -0.00020186     -3.004e-009     1.2078e-009    
  -0.95           -0.00020648     -2.229e-009     1.465e-009     
  -1              -0.00021068     -4.809e-009     1.5511e-009    
  -1.05           -0.00021444     -4.938e-009     1.5056e-009    
  -1.1            -0.00021775     -4.75e-009      1.4524e-009    
  -1.15           -0.00022079     -4.296e-009     1.3861e-009    
  -1.2            -0.00022356     -3.843e-009     1.3128e-009    
  -1.25           -0.00022611     -3.123e-009     1.2361e-009    
  -1.3            -0.00022845     -2.506e-009     1.4663e-009    
  -1.35           -0.00023078     -4.619e-009     1.5642e-009    
  -1.4            -0.00023285     -4.935e-009     1.5252e-009    
  -1.45           -0.00023475     -1.4052e-009    1.3504e-009    
  -1.5            -0.00023662     -9.5048e-009    1.4884e-009    
  -1.55           -0.00023839     -5.1436e-009    1.4836e-009    
  -1.6            -0.00024007     -4.8611e-009    1.4687e-009    
  -1.65           -0.0002417      -4.6116e-009    1.5852e-009    
  -1.7            -0.00024327     -7.6294e-009    1.5595e-009    
  -1.75           -0.00024479     -6.7418e-009    1.5231e-009    
  -1.8            -0.0002462      -6.0341e-009    1.4983e-009    
END_DB

BEGIN_DB
 ICCAP_VAR VG         0              
 ICCAP_VAR VS         0              
 ICCAP_VAR VB         0.9            

 #VD              ID              IB              IG             
  0               -2.2546e-009    -4.657e-009     -3.676e-010    
  -0.05           2.3016e-009     -4.631e-009     8.695e-010     
  -0.1            2.3338e-009     -4.681e-009     8.064e-010     
  -0.15           -4.213e-010     -5.752e-009     1.5809e-009    
  -0.2            -2.755e-010     -4.302e-009     1.6096e-009    
  -0.25           2.1341e-009     -3.959e-009     9.816e-010     
  -0.3            2.2369e-009     -4.349e-009     9.169e-010     
  -0.35           2.3038e-009     -4.717e-009     8.546e-010     
  -0.4            2.3278e-009     -4.725e-009     7.913e-010     
  -0.45           -2.3655e-009    2.84e-010       -7.691e-010    
  -0.5            2.1755e-009     -7.6273e-009    9.481e-010     
  -0.55           -1.9678e-009    4.8076e-009     -1.118e-009    
  -0.6            2.2765e-009     -7.1109e-009    8.564e-010     
  -0.65           -2.1439e-009    4.5284e-009     -9.961e-010    
  -0.7            2.2886e-009     -6.6763e-009    7.567e-010     
  -0.75           -2.3006e-009    5.264e-009      -9.044e-010    
  -0.8            1.9064e-009     -6.1254e-009    1.1201e-009    
  -0.85           -2.3849e-009    5.0695e-009     -8.112e-010    
  -0.9            2.0468e-009     -5.4923e-009    9.99e-010      
  -0.95           -1.9507e-009    4.9144e-009     -1.2038e-009   
  -1              2.0938e-009     -5.1719e-009    9.467e-010     
  -1.05           -2.0587e-009    4.8181e-009     -1.1299e-009   
  -1.1            2.1694e-009     -7.1353e-009    8.579e-010     
  -1.15           -2.2369e-009    4.5643e-009     -1.0043e-009   
  -1.2            2.18e-009       -6.6915e-009    7.616e-010     
  -1.25           -2.4116e-009    5.2773e-009     -9.083e-010    
  -1.3            2.1849e-009     -6.1828e-009    6.542e-010     
  -1.35           -2.5357e-009    5.0902e-009     -8.193e-010    
  -1.4            1.869e-009      -5.573e-009     1.0091e-009    
  -1.45           -2.1151e-009    4.9206e-009     -1.216e-009    
  -1.5            -1.0344e-009    -9.3845e-009    1.4635e-009    
  -1.55           2.0434e-009     1.8557e-009     6.816e-010     
  -1.6            -1.9986e-009    5.1359e-009     -1.4025e-009   
  -1.65           -1.2993e-009    -8.0173e-009    1.6131e-009    
  -1.7            -2.1516e-009    5.0577e-009     -1.3325e-009   
  -1.75           -1.3078e-009    -8.6588e-009    1.4445e-009    
  -1.8            1.8177e-009     1.4849e-009     7.655e-010     
END_DB

BEGIN_DB
 ICCAP_VAR VG         -0.36          
 ICCAP_VAR VS         0              
 ICCAP_VAR VB         0.9            

 #VD              ID              IB              IG             
  0               -1.5955e-009    -4.413e-009     -7.16e-011     
  -0.05           -5.9145e-008    2.0473e-009     -1.5595e-009   
  -0.1            -8.6173e-008    6.2647e-009     -1.57e-009     
  -0.15           -1.0382e-007    1.1256e-009     1.6158e-009    
  -0.2            -1.1621e-007    5.8055e-009     -1.5325e-009   
  -0.25           -1.2818e-007    5.8326e-009     -1.4978e-009   
  -0.3            -1.4078e-007    5.748e-009      -1.4689e-009   
  -0.35           -1.5369e-007    5.6987e-009     -1.453e-009    
  -0.4            -1.6672e-007    5.6747e-009     -1.5663e-009   
  -0.45           -1.808e-007     6.1896e-009     -1.5679e-009   
  -0.5            -1.9469e-007    6.0573e-009     -1.5513e-009   
  -0.55           -2.0895e-007    5.8981e-009     -1.5187e-009   
