! VERSION = 6.00
BEGIN_HEADER
 ICCAP_INPUTS
  VG         V  B GROUND SMU4 0.001 LIN        1    0          -1.8       37   -0.05     
  VS         V  E GROUND SMU2 0.1 CON        0
  VB         V  C GROUND SMU3 0.1 LIN        3    0          1.8        3    0.9       
  VD         V  S GROUND SMU1 0.1 LIN        2    -0.1       -1.8       2    -1.7      
 ICCAP_OUTPUTS
  IG         I  B GROUND SMU4 B
  ID         I  S GROUND SMU1 B
  IB         I  C GROUND SMU3 B
END_HEADER

BEGIN_DB
 ICCAP_VAR VS         0              
 ICCAP_VAR VB         0              
 ICCAP_VAR VD         -0.1           

 #VG              IG              ID              IB             
  0               -1.2652e-009    -1.2188e-009    -3.378e-009    
  -0.05           2.519e-010      -2.0446e-009    -9.02e-009     
  -0.1            5.75e-011       -2.6515e-009    -9.598e-009    
  -0.15           1.1711e-009     -2.5959e-009    -1.3511e-008   
  -0.2            1.7441e-009     -7.9624e-009    -1.5669e-008   
  -0.25           -2.1485e-009    -2.1089e-008    -1.1459e-008   
  -0.3            5.3e-012        -4.6733e-008    -8.907e-009    
  -0.35           1.565e-009      -8.7003e-008    -1.4122e-008   
  -0.4            -6.184e-010     -1.4846e-007    1.2918e-008    
  -0.45           1.1728e-009     -2.2832e-007    -1.134e-008    
  -0.5            1.4293e-009     -3.317e-007     -1.5307e-008   
  -0.55           1.0879e-009     -4.5515e-007    -3.554e-009    
  -0.6            1.0991e-009     -6.052e-007     -4.188e-009    
  -0.65           1.166e-009      -7.8025e-007    -9.405e-009    
  -0.7            1.6906e-009     -9.8109e-007    -1.309e-008    
  -0.75           1.6085e-009     -1.2034e-006    2.157e-009     
  -0.8            4.761e-010      -1.4574e-006    8.825e-009     
  -0.85           8.134e-010      -1.738e-006     9.331e-009     
  -0.9            1.2534e-009     -2.0402e-006    1.2642e-008    
  -0.95           2.308e-010      -2.3566e-006    8.052e-009     
  -1              5.273e-010      -2.6948e-006    8.669e-009     
  -1.05           8.714e-010      -3.0392e-006    9.874e-009     
  -1.1            1.3108e-009     -3.3811e-006    1.3196e-008    
  -1.15           2.728e-010      -3.7188e-006    8.605e-009     
  -1.2            5.586e-010      -4.0607e-006    8.886e-009     
  -1.25           9.224e-010      -4.3927e-006    9.209e-009     
  -1.3            1.3745e-009     -4.714e-006     1.3721e-008    
  -1.35           3.157e-010      -5.0231e-006    8.815e-009     
  -1.4            5.943e-010      -5.3283e-006    8.725e-009     
  -1.45           9.762e-010      -5.6221e-006    1.0591e-008    
  -1.5            1.4308e-009     -5.9e-006       1.3978e-008    
  -1.55           3.556e-010      -6.1681e-006    8.775e-009     
  -1.6            6.346e-010      -6.4318e-006    8.435e-009     
  -1.65           1.0346e-009     -6.6844e-006    1.1108e-008    
  -1.7            1.4842e-009     -6.9231e-006    1.4196e-008    
  -1.75           3.958e-010      -7.1525e-006    8.828e-009     
  -1.8            6.782e-010      -7.3786e-006    8.478e-009     
END_DB

BEGIN_DB
 ICCAP_VAR VS         0              
 ICCAP_VAR VB         0              
 ICCAP_VAR VD         -1.8           

 #VG              IG              ID              IB             
  0               -1.2239e-009    -1.2724e-009    -1.1151e-008   
  -0.05           2.224e-010      -2.5401e-009    -9.142e-009    
  -0.1            4.33e-011       -4.2889e-009    -9.646e-009    
  -0.15           -1.511e-010     -9.4059e-009    -9.754e-009    
  -0.2            1.1965e-009     -1.8883e-008    7.54e-010      
  -0.25           1.619e-009      -4.9553e-008    1.6049e-008    
  -0.3            5.024e-010      -1.05952e-007   8.896e-009     
  -0.35           5.722e-010      -2.0213e-007    -1.4294e-008   
  -0.4            9.38e-010       -3.499e-007     1.0494e-008    
  -0.45           1.3879e-009     -5.5693e-007    1.371e-008     
  -0.5            3.262e-010      -8.3457e-007    8.755e-009     
  -0.55           -1.8193e-009    -1.1925e-006    -1.095e-008    
  -0.6            -3.722e-010     -1.6426e-006    -9.711e-009    
  -0.65           1.1706e-009     -2.2051e-006    -1.0908e-008   
  -0.7            1.4554e-009     -2.8621e-006    -1.5073e-008   
  -0.75           1.0929e-009     -3.6367e-006    -3.493e-009    
  -0.8            1.0949e-009     -4.5449e-006    -4.086e-009    
  -0.85           1.1607e-009     -5.6048e-006    -9.128e-009    
  -0.9            1.7376e-009     -6.8011e-006    -1.2681e-008   
  -0.95           1.4015e-009     -8.1632e-006    1.4016e-008    
  -1              3.613e-010      -9.6682e-006    8.708e-009     
  -1.05           6.124e-010      -1.13819e-005   8.506e-009     
  -1.1            -2.36e-011      -1.3204e-005    7.155e-009     
  -1.15           1.516e-009      -1.5221e-005    -1.4401e-008   
  -1.2            1.1098e-009     -1.7352e-005    -3.166e-009    
  -1.25           1.085e-009      -1.9631e-005    -3.717e-009    
  -1.3            1.157e-009      -2.2049e-005    -8.266e-009    
  -1.35           1.1596e-009     -2.455e-005     -1.2291e-008   
  -1.4            1.2648e-009     -2.7191e-005    -1.7106e-008   
  -1.45           1.0683e-009     -2.9901e-005    -3.286e-009    
  -1.5            1.1222e-009     -3.2732e-005    -5.13e-009     
  -1.55           1.1687e-009     -3.5636e-005    -1.0906e-008   
  -1.6            1.504e-009      -3.8606e-005    -1.4662e-008   
  -1.65           1.1038e-009     -4.1646e-005    -3.358e-009    
  -1.7            1.0874e-009     -4.4764e-005    -3.841e-009    
  -1.75           1.1602e-009     -4.796e-005     -8.5e-009      
  -1.8            1.7839e-009     -5.1175e-005    -1.2371e-008   
END_DB

BEGIN_DB
 ICCAP_VAR VS         0              
 ICCAP_VAR VB         0.9            
 ICCAP_VAR VD         -0.1           

 #VG              IG              ID              IB             
  0               1.1699e-009     9.77e-010       -9.223e-009    
  -0.05           -1.2595e-009    9.709e-010      8.583e-009     
  -0.1            -1.9133e-009    -1.0824e-009    2.732e-009     
  -0.15           1.1617e-009     -1.463e-010     -1.5184e-008   
  -0.2            1.5336e-009     -2.591e-010     -1.765e-008    
  -0.25           2.176e-010      1.7713e-009     -3.166e-009    
  -0.3            -1.2632e-009    4.912e-010      8.969e-009     
  -0.35           -2.4386e-009    -2.1102e-009    2.709e-009     
  -0.4            1.1673e-009     -4.4978e-009    -1.3609e-008   
  -0.45           -1.4905e-009    -1.614e-008     -1.2706e-008   
  -0.5            1.7128e-009     -4.171e-008     -1.289e-008    
  -0.55           1.4288e-009     -9.1456e-008    1.4096e-008    
  -0.6            5.727e-010      -1.7189e-007    -1.4367e-008   
  -0.65           9.432e-010      -2.8477e-007    9.403e-009     
  -0.7            1.3819e-009     -4.3245e-007    1.3775e-008    
  -0.75           3.22e-010       -6.1911e-007    8.826e-009     
  -0.8            6.083e-010      -8.4906e-007    8.659e-009     
  -0.85           9.997e-010      -1.11651e-006   9.699e-009     
  -0.9            -1.7509e-009    -1.4141e-006    -1.159e-008    
  -0.95           1.6402e-009     -1.743e-006     -1.3479e-008   
  -1              1.4664e-009     -2.0824e-006    1.4172e-008    
  -1.05           4.162e-010      -2.431e-006     8.888e-009     
  -1.1            6.639e-010      -2.7871e-006    8.524e-009     
  -1.15           1.0822e-009     -3.1401e-006    1.1525e-008    
  -1.2            1.5159e-009     -3.4828e-006    1.4419e-008    
  -1.25           4.16e-010       -3.8206e-006    9.188e-009     
  -1.3            7.03e-010       -4.1545e-006    8.465e-009     
  -1.35           1.1246e-009     -4.4737e-006    1.1085e-008    
  -1.4            1.5568e-009     -4.7786e-006    1.5255e-008    
  -1.45           4.403e-010      -5.0751e-006    9.157e-009     
  -1.5            7.435e-010      -5.3637e-006    8.501e-009     
  -1.55           1.1673e-009     -5.6392e-006    1.2046e-008    
  -1.6            1.5918e-009     -5.9009e-006    1.5007e-008    
  -1.65           4.669e-010      -6.1561e-006    8.917e-009     
  -1.7            7.767e-010      -6.4018e-006    9.089e-009     
  -1.75           1.2153e-009     -6.6346e-006    1.2281e-008    
  -1.8            1.626e-009      -6.8621e-006    1.5453e-008    
END_DB

BEGIN_DB
 ICCAP_VAR VS         0              
 ICCAP_VAR VB         0.9            
 ICCAP_VAR VD         -1.8           

 #VG              IG              ID              IB             
  0               -1.2593e-009    -1.0801e-009    8.623e-009     
  -0.05           1.173e-009      -3.85e-011      -1.3696e-008   
  -0.1            1.7258e-009     -1.767e-010     -1.5659e-008   
  -0.15           1.1473e-009     1.2602e-009     1.3792e-008    
  -0.2            1.3175e-009     1.0624e-009     1.506e-008     
  -0.25           5.04e-011       1.5451e-009     8.403e-009     
  -0.3            -2.3513e-009    -1.9216e-009    8.792e-009     
  -0.35           -5.912e-010     -5.5719e-009    -9.011e-009    
  -0.4            -1.6103e-009    -1.4643e-008    -1.493e-008    
  -0.45           1.1708e-009     -4.0805e-008    -1.192e-008    
  -0.5            1.3146e-009     -1.03927e-007   -1.6599e-008   
  -0.55           5.718e-010      -2.1805e-007    -1.436e-008    
  -0.6            9.297e-010      -4.0734e-007    1.0326e-008    
  -0.65           1.3745e-009     -6.8249e-007    1.3704e-008    
  -0.7            3.072e-010      -1.06115e-006   8.64e-009      
  -0.75           -2.1617e-009    -1.5664e-006    -1.551e-008    
  -0.8            8.7e-012        -2.2138e-006    -8.925e-009    
  -0.85           1.5683e-009     -3.0215e-006    -1.4205e-008   
  -0.9            1.1296e-009     -3.9889e-006    -2.761e-009    
  -0.95           1.0791e-009     -5.1418e-006    -3.467e-009    
  -1              1.1479e-009     -6.4772e-006    -7.291e-009    
  -1.05           1.1695e-009     -7.9769e-006    -1.1783e-008   
  -1.1            1.325e-009      -9.6583e-006    -1.6725e-008   
  -1.15           1.1676e-009     -1.1459e-005    -3.791e-009    
  -1.2            1.6098e-009     -1.3475e-005    -1.3982e-008   
  -1.25           1.1459e-009     -1.56e-005      -2.267e-009    
  -1.3            1.0744e-009     -1.7875e-005    -3.32e-009     
  -1.35           1.1445e-009     -2.0281e-005    -6.867e-009    
  -1.4            1.1696e-009     -2.2784e-005    -1.1915e-008   
  -1.45           1.3564e-009     -2.54e-005      -1.6126e-008   
  -1.5            1.0745e-009     -2.8095e-005    -3.327e-009    
  -1.55           1.1044e-009     -3.0906e-005    -4.346e-009    
  -1.6            1.1684e-009     -3.3811e-005    -9.753e-009    
  -1.65           1.6445e-009     -3.6763e-005    -1.3508e-008   
  -1.7            1.1608e-009     -3.978e-005     -1.714e-009    
  -1.75           1.0726e-009     -4.2888e-005    -3.222e-009    
  -1.8            1.1394e-009     -4.6058e-005    -6.506e-009    
END_DB

BEGIN_DB
 ICCAP_VAR VS         0              
 ICCAP_VAR VB         1.8            
 ICCAP_VAR VD         -0.1           

 #VG              IG              ID              IB             
  0               -1.1968e-009    -1.0331e-009    -1.6516e-008   
  -0.05           2.001e-009      9.614e-010      -1.115e-008    
  -0.1            -1.2593e-009    1.1314e-009     1.0152e-008    
  -0.15           -1.2953e-009    -1.3047e-009    5.92e-009      
  -0.2            1.803e-010      -1.8687e-009    -9.362e-009    
  -0.25           1.1686e-009     9.73e-011       -1.2144e-008   
  -0.3            1.1696e-009     -7.39e-011      -1.398e-008    
  -0.35           1.6936e-009     -2.022e-010     -1.5885e-008   
  -0.4            -1.2739e-009    1.3695e-009     1.4038e-008    
  -0.45           -2.4271e-009    -1.4144e-009    2.825e-009     
  -0.5            1.1665e-009     -1.6196e-009    -1.181e-008    
  -0.55           1.1652e-009     -7.4591e-009    -1.3469e-008   
  -0.6            -1.6834e-009    -2.6572e-008    -5.718e-009    
  -0.65           1.7591e-009     -7.0239e-008    -1.2356e-008   
  -0.7            -4.621e-010     -1.5151e-007    9.342e-009     
  -0.75           -8.962e-010     -2.7448e-007    -9.187e-009    
  -0.8            1.6765e-009     -4.4857e-007    -1.3034e-008   
  -0.85           1.4345e-009     -6.6938e-007    1.3957e-008    
  -0.9            3.618e-010      -9.4271e-007    9.114e-009     
  -0.95           -2.0966e-009    -1.2567e-006    -1.4741e-008   
  -1              1.1508e-009     -1.6008e-006    -1.5971e-008   
  -1.05           1.1597e-009     -1.9523e-006    -1.2044e-008   
  -1.1            1.3003e-009     -2.3132e-006    -1.655e-008    
  -1.15           1.0709e-009     -2.6693e-006    -3.342e-009    
  -1.2            1.1172e-009     -3.025e-006     -4.672e-009    
  -1.25           1.17e-009       -3.3691e-006    -1.0435e-008   
  -1.3            1.5881e-009     -3.706e-006     -1.393e-008    
  -1.35           1.491e-009      -4.0294e-006    1.4043e-008    
  -1.4            4.016e-010      -4.3419e-006    8.939e-009     
  -1.45           6.751e-010      -4.6469e-006    8.528e-009     
  -1.5            1.0795e-009     -4.9373e-006    1.1641e-008    
  -1.55           1.5125e-009     -5.2123e-006    1.4631e-008    
  -1.6            4.114e-010      -5.4804e-006    9.196e-009     
  -1.65           6.961e-010      -5.741e-006     8.495e-009     
  -1.7            1.1033e-009     -5.9891e-006    1.092e-008     
  -1.75           1.5301e-009     -6.2252e-006    1.4835e-008    
  -1.8            4.285e-010      -6.4535e-006    9.19e-009      
END_DB

BEGIN_DB
 ICCAP_VAR VS         0              
 ICCAP_VAR VB         1.8            
 ICCAP_VAR VD         -1.8           

 #VG              IG              ID              IB             
  0               -1.2243e-009    -1.0744e-009    -1.1071e-008   
  -0.05           2.52e-010       -1.8413e-009    -9.078e-009    
  -0.1            7.78e-011       -1.9164e-009    -9.607e-009    
  -0.15           1.1749e-009     -4.4e-012       -1.3253e-008   
  -0.2            1.7754e-009     -1.562e-010     -1.4982e-008   
  -0.25           1.08e-009       1.3153e-009     1.3595e-008    
  -0.3            1.2541e-009     1.1477e-009     1.4798e-008    
  -0.35           5e-013          1.6813e-009     8.154e-009     
  -0.4            -1.2842e-009    2.73e-010       9.057e-009     
  -0.45           -2.4009e-009    -2.3024e-009    2.628e-009     
  -0.5            -1.347e-010     -7.3763e-009    -9.817e-009    
  -0.55           2.3293e-009     -1.9423e-008    1.4043e-008    
  -0.6            1.4418e-009     -6.2407e-008    1.3871e-008    
  -0.65           3.105e-010      -1.5919e-007    -1.1066e-008   
  -0.7            6.169e-010      -3.3722e-007    8.508e-009     
  -0.75           9.859e-010      -6.2041e-007    1.0758e-008    
  -0.8            1.4084e-009     -1.02433e-006   1.3908e-008    
  -0.85           -2.027e-009     -1.5814e-006    -1.2965e-008   
  -0.9            1.1705e-009     -2.3363e-006    -1.0113e-008   
  -0.95           1.4141e-009     -3.259e-006     -1.5334e-008   
  -1              1.0864e-009     -4.3699e-006    -3.509e-009    
  -1.05           1.098e-009      -5.6754e-006    -4.198e-009    
  -1.1            1.1633e-009     -7.1765e-006    -9.118e-009    
  -1.15           1.7242e-009     -8.8271e-006    -1.2694e-008   
  -1.2            1.3864e-009     -1.06576e-005   1.3685e-008    
  -1.25           -2.916e-010     -1.2571e-005    1.3419e-008    
  -1.3            1.1706e-009     -1.4748e-005    -1.2131e-008   
  -1.35           1.6335e-009     -1.7053e-005    -1.3571e-008   
  -1.4            1.1601e-009     -1.9376e-005    -1.784e-009    
  -1.45           1.0755e-009     -2.1877e-005    -3.425e-009    
  -1.5            1.1426e-009     -2.4466e-005    -6.508e-009    
  -1.55           1.1725e-009     -2.7135e-005    -1.1357e-008   
  -1.6            1.3887e-009     -2.9951e-005    -1.5606e-008   
  -1.65           1.0819e-009     -3.283e-005     -3.34e-009     
  -1.7            1.1015e-009     -3.5784e-005    -4.247e-009    
  -1.75           1.1671e-009     -3.879e-005     -9.4e-009      
  -1.8            1.7114e-009     -4.1901e-005    -1.2918e-008   
END_DB

