! VERSION = 6.00
BEGIN_HEADER
 ICCAP_INPUTS
  VG         V  B GROUND SMU4 0.001 LIN        1    0          -1.8       37   -0.05     
  VS         V  E GROUND SMU2 0.1 CON        0
  VB         V  C GROUND SMU3 0.1 LIN        3    0          1.8        3    0.9       
  VD         V  S GROUND SMU1 0.1 LIN        2    -0.1       -1.8       2    -1.7      
 ICCAP_OUTPUTS
  IG         I  B GROUND SMU4 B
  ID         I  S GROUND SMU1 B
  IB         I  C GROUND SMU3 B
END_HEADER

BEGIN_DB
 ICCAP_VAR VS         0              
 ICCAP_VAR VB         0              
 ICCAP_VAR VD         -0.1           

 #VG              IG              ID              IB             
  0               1.118e-009      -1.4616e-008    3.013e-009     
  -0.05           1.4013e-009     -4.3969e-008    1.4107e-008    
  -0.1            7.121e-010      -1.2432e-007    -1.5891e-008   
  -0.15           1.1411e-009     -3.1383e-007    1.2555e-008    
  -0.2            1.5988e-009     -7.034e-007     1.5183e-008    
  -0.25           -2.2663e-009    -1.4246e-006    -1.7126e-008   
  -0.3            1.1525e-009     -2.644e-006     -1.0506e-008   
  -0.35           1.3983e-009     -4.3965e-006    -1.5105e-008   
  -0.4            1.0912e-009     -6.7723e-006    -3.454e-009    
  -0.45           1.1293e-009     -9.7925e-006    -4.387e-009    
  -0.5            -1.2252e-009    -1.3311e-005    -3.595e-009    
  -0.55           -1.4917e-009    -1.7445e-005    1.2404e-008    
  -0.6            -6.278e-010     -2.2072e-005    -8.851e-009    
  -0.65           1.1541e-009     -2.7372e-005    -1.125e-008    
  -0.7            1.3197e-009     -3.3008e-005    -1.5738e-008   
  -0.75           1.0582e-009     -3.9099e-005    -2.999e-009    
  -0.8            1.0974e-009     -4.5741e-005    -4.579e-009    
  -0.85           1.1517e-009     -5.2856e-005    -1.0644e-008   
  -0.9            1.4539e-009     -6.0427e-005    -1.4296e-008   
  -0.95           1.0784e-009     -6.8385e-005    -3.368e-009    
  -1              1.0828e-009     -7.6582e-005    -3.912e-009    
  -1.05           1.1452e-009     -8.4879e-005    -9.537e-009    
  -1.1            1.6089e-009     -9.3083e-005    -1.3037e-008   
  -1.15           1.4684e-009     -0.000101151    1.4496e-008    
  -1.2            4.142e-010      -0.000109063    9.136e-009     
  -1.25           2.2476e-009     -0.00011672     9.184e-009     
  -1.3            1.3594e-009     -0.00012417     1.3535e-008    
  -1.35           3.346e-010      -0.00013114     8.571e-009     
  -1.4            6.285e-010      -0.00013796     8.445e-009     
  -1.45           1.0386e-009     -0.00014444     1.1419e-008    
  -1.5            1.4981e-009     -0.00015043     1.4135e-008    
  -1.55           4.26e-010       -0.00015623     9.444e-009     
  -1.6            7.474e-010      -0.00016184     8.918e-009     
  -1.65           1.1804e-009     -0.00016711     1.2473e-008    
  -1.7            1.6208e-009     -0.00017204     1.4933e-008    
  -1.75           5.223e-010      -0.00017685     8.836e-009     
  -1.8            8.793e-010      -0.00018148     9.114e-009     
END_DB

BEGIN_DB
 ICCAP_VAR VS         0              
 ICCAP_VAR VB         0              
 ICCAP_VAR VD         -1.8           

 #VG              IG              ID              IB             
  0               1.1453e-009     -3.0529e-007    -9.293e-009    
  -0.05           1.0955e-009     -7.0893e-007    -3.137e-009    
  -0.1            -1.8445e-009    -1.4866e-006    -1.1886e-008   
  -0.15           1.4165e-009     -2.941e-006     -1.4467e-008   
  -0.2            1.0745e-009     -5.2962e-006    -3.449e-009    
  -0.25           1.0861e-009     -8.9222e-006    -3.9e-009      
  -0.3            1.0716e-009     -1.4133e-005    2.106e-009     
  -0.35           1.1383e-009     -2.1195e-005    -8.439e-009    
  -0.4            1.7215e-009     -3.0179e-005    -1.2174e-008   
  -0.45           1.3858e-009     -4.1344e-005    1.3843e-008    
  -0.5            3.585e-010      -5.4622e-005    8.908e-009     
  -0.55           6.549e-010      -7.0589e-005    8.524e-009     
  -0.6            1.0739e-009     -8.8855e-005    1.0394e-008    
  -0.65           1.5066e-009     -0.00010917     1.4742e-008    
  -0.7            2.3545e-009     -0.00013213     8.465e-009     
  -0.75           6.885e-010      -0.00015849     8.396e-009     
  -0.8            1.1184e-009     -0.00018723     1.1911e-008    
  -0.85           1.5649e-009     -0.00021839     1.4628e-008    
  -0.9            4.94e-010       -0.00025322     8.698e-009     
  -0.95           8.099e-010      -0.00029161     9.454e-009     
  -1              1.2496e-009     -0.00033244     1.2891e-008    
  -1.05           2.549e-010      -0.00037575     8.58e-009      
  -1.1            5.559e-010      -0.00042367     8.604e-009     
  -1.15           9.302e-010      -0.00047436     1.0367e-008    
  -1.2            1.3878e-009     -0.00052676     1.3916e-008    
  -1.25           3.515e-010      -0.0005815      8.953e-009     
  -1.3            6.451e-010      -0.00064018     8.674e-009     
  -1.35           1.0579e-009     -0.00070048     1.0447e-008    
  -1.4            1.5092e-009     -0.0007614      1.5062e-008    
  -1.45           4.394e-010      -0.0008248      9.076e-009     
  -1.5            7.462e-010      -0.00089062     8.475e-009     
  -1.55           1.1948e-009     -0.00095689     1.1929e-008    
  -1.6            1.6203e-009     -0.00102326     1.5573e-008    
  -1.65           5.12e-010       -0.00109219     8.861e-009     
  -1.7            -1.0038e-009    -0.0011586      8.451e-009     
  -1.75           1.4634e-009     -0.0012309      -1.4135e-008   
  -1.8            1.0841e-009     -0.0013013      -3.392e-009    
END_DB

BEGIN_DB
 ICCAP_VAR VS         0              
 ICCAP_VAR VB         0.9            
 ICCAP_VAR VD         -0.1           

 #VG              IG              ID              IB             
  0               1.142e-009      9.763e-010      5.603e-009     
  -0.05           -1.2515e-009    1.0088e-009     1.0088e-008    
  -0.1            -2.0184e-009    -1.6608e-009    8.524e-009     
  -0.15           1.1637e-009     -3.9855e-009    -9.981e-009    
  -0.2            -1.3213e-009    -1.1282e-008    -9.804e-009    
  -0.25           -1.252e-009     -3.6508e-008    2.31e-009      
  -0.3            5.394e-010      -1.1745e-007    -1.3135e-008   
  -0.35           8.888e-010      -3.5342e-007    9.99e-009      
  -0.4            1.3471e-009     -8.9013e-007    1.3999e-008    
  -0.45           -2.0131e-009    -1.9497e-006    -1.3936e-008   
  -0.5            1.143e-010      -3.7704e-006    -8.729e-009    
  -0.55           1.6494e-009     -6.4633e-006    -1.2921e-008   
  -0.6            1.1459e-009     -1.00379e-005   -2.034e-009    
  -0.65           -1.2546e-009    -1.4379e-005    -3.078e-009    
  -0.7            -1.6687e-009    -1.9568e-005    9.136e-009     
  -0.75           1.1604e-009     -2.5627e-005    -1.1524e-008   
  -0.8            1.3061e-009     -3.2209e-005    -1.6012e-008   
  -0.85           1.0738e-009     -3.9369e-005    -3.392e-009    
  -0.9            1.1267e-009     -4.7159e-005    -4.905e-009    
  -0.95           1.1684e-009     -5.5312e-005    -1.0804e-008   
  -1              1.4683e-009     -6.3708e-005    -1.4537e-008   
  -1.05           1.0912e-009     -7.22e-005      -3.335e-009    
  -1.1            1.1007e-009     -8.0667e-005    -3.739e-009    
  -1.15           1.1624e-009     -8.902e-005     -9.204e-009    
  -1.2            1.6759e-009     -9.7107e-005    -1.2899e-008   
  -1.25           1.4297e-009     -0.000104939    1.4546e-008    
  -1.3            3.701e-010      -0.000112477    9.408e-009     
  -1.35           -1.257e-009     -0.00011968     2.129e-009     
  -1.4            -1.2528e-009    -0.00012653     2.861e-009     
  -1.45           -2.0161e-009    -0.00013303     4.062e-009     
  -1.5            1.1502e-009     -0.00013949     -9.053e-009    
  -1.55           1.6659e-009     -0.00014538     -1.2728e-008   
  -1.6            1.4327e-009     -0.00015106     1.4552e-008    
  -1.65           3.705e-010      -0.00015638     9.088e-009     
  -1.7            6.641e-010      -0.00016156     8.561e-009     
  -1.75           1.1003e-009     -0.00016647     1.2042e-008    
  -1.8            1.5248e-009     -0.00017104     1.4766e-008    
END_DB

BEGIN_DB
 ICCAP_VAR VS         0              
 ICCAP_VAR VB         0.9            
 ICCAP_VAR VD         -1.8           

 #VG              IG              ID              IB             
  0               -1.2952e-009    -3.8568e-009    -1.1321e-008   
  -0.05           1.1468e-009     -9.1326e-009    -1.4103e-008   
  -0.1            -2.4116e-009    -3.108e-008     -1.7451e-008   
  -0.15           1.6244e-009     -9.8717e-008    -1.2842e-008   
  -0.2            5.049e-010      -2.862e-007     -1.2686e-008   
  -0.25           8.46e-010       -7.6482e-007    9.762e-009     
  -0.3            -1.2546e-009    -1.7595e-006    -8.666e-009    
  -0.35           -1.2431e-009    -3.704e-006     2.781e-009     
  -0.4            -1.2337e-009    -7.0257e-006    2.752e-009     
  -0.45           1.685e-010      -1.2318e-005    4.135e-009     
  -0.5            1.7037e-009     -1.9809e-005    -1.1969e-008   
  -0.55           1.1744e-009     -2.9728e-005    -1.115e-009    
  -0.6            1.0528e-009     -4.2498e-005    -3.082e-009    
  -0.65           1.129e-009      -5.8223e-005    -6.304e-009    
  -0.7            1.1556e-009     -7.6875e-005    -1.1364e-008   
  -0.75           1.322e-009      -9.8614e-005    -1.5899e-008   
  -0.8            2.2959e-009     -0.00012308     9.087e-009     
  -0.85           1.4298e-009     -0.00015173     1.4238e-008    
  -0.9            3.754e-010      -0.00018322     9.157e-009     
  -0.95           6.648e-010      -0.00021898     8.591e-009     
  -1              1.0933e-009     -0.00025788     1.1821e-008    
  -1.05           1.5234e-009     -0.00029932     1.5068e-008    
  -1.1            4.47e-010       -0.00034465     9.228e-009     
  -1.15           7.622e-010      -0.0003938      9.095e-009     
  -1.2            1.2061e-009     -0.00044513     1.2726e-008    
  -1.25           1.6224e-009     -0.00049819     1.5229e-008    
  -1.3            5.171e-010      -0.00055502     8.81e-009      
  -1.35           8.695e-010      -0.00061442     1.0179e-008    
  -1.4            1.3168e-009     -0.00067463     1.4013e-008    
  -1.45           2.889e-010      -0.00073604     8.931e-009     
  -1.5            5.814e-010      -0.00080075     8.622e-009     
  -1.55           9.741e-010      -0.00086661     1.0593e-008    
  -1.6            1.4255e-009     -0.00093229     1.4278e-008    
  -1.65           3.805e-010      -0.00099924     9.205e-009     
  -1.7            6.671e-010      -0.00106858     8.558e-009     
  -1.75           1.0921e-009     -0.00113804     1.1182e-008    
  -1.8            -1.4137e-009    -0.0012055      1.1608e-008    
END_DB

BEGIN_DB
 ICCAP_VAR VS         0              
 ICCAP_VAR VB         1.8            
 ICCAP_VAR VD         -0.1           

 #VG              IG              ID              IB             
  0               1.0547e-009     1.0047e-009     8.27e-010      
  -0.05           -1.233e-009     1.2281e-009     1.1481e-008    
  -0.1            -1.4136e-009    -1.1474e-009    1.0001e-008    
  -0.15           1.1341e-009     -1.2686e-009    -1.0676e-008   
  -0.2            1.1508e-009     -1.881e-010     -1.1816e-008   
  -0.25           1.1519e-009     -1.2739e-009    -1.4128e-008   
  -0.3            1.564e-009      -5.1576e-009    -1.689e-008    
  -0.35           -2.2229e-009    -2.0661e-008    -1.1848e-008   
  -0.4            -1.688e-010     -7.5299e-008    -9.28e-009     
  -0.45           -2.2379e-009    -2.5094e-007    8.804e-009     
  -0.5            -2.49e-011      -7.3597e-007    -8.748e-009    
  -0.55           1.0908e-009     -1.8212e-006    8.774e-009     
  -0.6            1.1518e-009     -3.8017e-006    -1.011e-008    
  -0.65           1.5051e-009     -6.8582e-006    -1.4026e-008   
  -0.7            1.5324e-009     -1.10191e-005   1.5079e-008    
  -0.75           -2.3881e-009    -1.6228e-005    8.545e-009     
  -0.8            -3.996e-010     -2.2364e-005    -9.612e-009    
  -0.85           1.149e-009      -2.9584e-005    -1.0168e-008   
  -0.9            1.3277e-009     -3.7266e-005    -1.5868e-008   
  -0.95           1.0608e-009     -4.5467e-005    -3.282e-009    
  -1              1.0912e-009     -5.404e-005     -4.767e-009    
  -1.05           1.1513e-009     -6.2687e-005    -1.0219e-008   
  -1.1            1.4816e-009     -7.1304e-005    -1.422e-008    
  -1.15           1.5385e-009     -7.975e-005     1.4778e-008    
  -1.2            4.597e-010      -8.8104e-005    8.757e-009     
  -1.25           7.834e-010      -9.6191e-005    9.288e-009     
  -1.3            1.2252e-009     -0.000103849    1.2589e-008    
  -1.35           2.396e-010      -0.000111104    7.978e-009     
  -1.4            -1.2518e-009    -0.00011811     2.601e-009     
  -1.45           -1.2351e-009    -0.00012473     2.757e-009     
  -1.5            -1.9106e-009    -0.00013108     5.016e-009     
  -1.55           1.1467e-009     -0.00013727     -9.679e-009    
  -1.6            1.5372e-009     -0.00014301     -1.3465e-008   
  -1.65           1.1107e-009     -0.00014846     -2.958e-009    
  -1.7            1.0692e-009     -0.00015367     -3.752e-009    
  -1.75           1.1363e-009     -0.00015861     -8.376e-009    
  -1.8            1.7111e-009     -0.0001633      -1.2137e-008   
END_DB

BEGIN_DB
 ICCAP_VAR VS         0              
 ICCAP_VAR VB         1.8            
 ICCAP_VAR VD         -1.8           

 #VG              IG              ID              IB             
  0               -1.1885e-009    -1.0792e-009    1.2677e-008    
  -0.05           1.1467e-009     -1.4429e-009    -9.787e-009    
  -0.1            1.1504e-009     -7.541e-010     -1.3501e-008   
  -0.15           1.6882e-009     -3.1048e-009    -1.572e-008    
  -0.2            -2.2688e-009    -1.2215e-008    -1.2564e-008   
  -0.25           1.156e-009      -4.3717e-008    -1.0613e-008   
  -0.3            2.3471e-009     -1.4404e-007    -9.216e-009    
  -0.35           6.468e-010      -4.6094e-007    8.364e-009     
  -0.4            -2.1929e-009    -1.2371e-006    -1.5997e-008   
  -0.45           -1.06e-010      -2.9409e-006    -9.225e-009    
  -0.5            -4.768e-010     -6.0477e-006    -9.341e-009    
  -0.55           1.1102e-009     -1.1289e-005    -1.6976e-008   
  -0.6            1.1533e-009     -1.9237e-005    -1.0477e-008   
  -0.65           1.4518e-009     -2.999e-005     -1.4932e-008   
  -0.7            1.0735e-009     -4.3966e-005    -3.344e-009    
  -0.75           1.0806e-009     -6.1452e-005    -4.112e-009    
  -0.8            1.1465e-009     -8.2658e-005    -9.711e-009    
  -0.85           1.6117e-009     -0.000107351    -1.329e-008    
  -0.9            2.2926e-009     -0.00013551     9.761e-009     
  -0.95           8.296e-010      -0.00016858     9.401e-009     
  -1              1.2814e-009     -0.00020462     1.3207e-008    
  -1.05           2.892e-010      -0.00024363     8.499e-009     
  -1.1            5.677e-010      -0.00028753     8.664e-009     
  -1.15           9.548e-010      -0.00033457     9.529e-009     
  -1.2            1.4141e-009     -0.0003836      1.4112e-008    
  -1.25           3.728e-010      -0.00043543     9.115e-009     
  -1.3            6.831e-010      -0.00049117     8.445e-009     
  -1.35           1.0888e-009     -0.00054876     1.0735e-008    
  -1.4            1.5365e-009     -0.00060713     1.5217e-008    
  -1.45           5.025e-010      -0.00066834     9.125e-009     
  -1.5            7.805e-010      -0.00073187     8.544e-009     
  -1.55           1.2272e-009     -0.00079588     1.246e-008     
  -1.6            2.258e-010      -0.00085995     8.123e-009     
  -1.65           5.416e-010      -0.00092739     8.726e-009     
  -1.7            9.046e-010      -0.00099563     9.139e-009     
  -1.75           1.3609e-009     -0.00106322     1.3977e-008    
  -1.8            3.403e-010      -0.00113141     8.9e-009       
END_DB

