! VERSION = 6.00
BEGIN_HEADER
 ICCAP_INPUTS
  VG         V  B GROUND SMU4 0.001 LIN        1    0          -1.8       37   -0.05     
  VS         V  E GROUND SMU3 0.1 CON        0
  VB         V  C GROUND SMU1 0.1 LIN        3    0          1.8        3    0.9       
  VD         V  S GROUND SMU2 0.1 LIN        2    -0.1       -1.8       2    -1.7      
 ICCAP_OUTPUTS
  IG         I  B GROUND SMU4 B
  ID         I  S GROUND SMU2 B
  IB         I  C GROUND SMU1 B
END_HEADER

BEGIN_DB
 ICCAP_VAR VS         0              
 ICCAP_VAR VB         0              
 ICCAP_VAR VD         -0.1           

 #VG              IG              ID              IB             
  0               -3.259e-010     -3.5573e-009    -4.391e-009    
  -0.05           1.5123e-009     -3.9236e-009    -4.384e-009    
  -0.1            -6.33e-010      -1.5117e-008    -2.806e-009    
  -0.15           1.5461e-009     -3.4178e-008    -6.067e-009    
  -0.2            1.5686e-009     -8.2861e-008    -4.339e-009    
  -0.25           -1.575e-009     -1.7909e-007    -4.877e-009    
  -0.3            1.5073e-009     -3.5286e-007    -7.131e-009    
  -0.35           1.6066e-009     -6.1916e-007    -4.439e-009    
  -0.4            1.5965e-009     -1.0006e-006    -4.754e-009    
  -0.45           -9.329e-010     -1.4934e-006    -5.374e-009    
  -0.5            1.6183e-009     -2.1088e-006    -4.409e-009    
  -0.55           1.5457e-009     -2.8201e-006    -5.976e-009    
  -0.6            1.5703e-009     -3.6309e-006    -4.402e-009    
  -0.65           1.6166e-009     -4.5204e-006    -4.423e-009    
  -0.7            1.5345e-009     -5.4874e-006    -6.141e-009    
  -0.75           1.5828e-009     -6.5356e-006    -4.432e-009    
  -0.8            1.6119e-009     -7.6418e-006    -4.435e-009    
  -0.85           1.5273e-009     -8.8192e-006    -6.41e-009     
  -0.9            1.5903e-009     -1.00619e-005   -4.42e-009     
  -0.95           1.608e-009      -1.13382e-005   -4.524e-009    
  -1              -1.5718e-009    -1.2618e-005    -7.682e-009    
  -1.05           1.5307e-009     -1.3945e-005    -6.386e-009    
  -1.1            1.588e-009      -1.5244e-005    -4.474e-009    
  -1.15           1.6099e-009     -1.6513e-005    -4.484e-009    
  -1.2            1.5192e-009     -1.7747e-005    -6.654e-009    
  -1.25           1.5956e-009     -1.895e-005     -4.479e-009    
  -1.3            1.6069e-009     -2.0087e-005    -4.57e-009     
  -1.35           1.5178e-009     -2.1173e-005    -6.938e-009    
  -1.4            1.5972e-009     -2.221e-005     -4.429e-009    
  -1.45           1.6007e-009     -2.3187e-005    -4.706e-009    
  -1.5            1.5118e-009     -2.4118e-005    -7.217e-009    
  -1.55           1.602e-009      -2.5006e-005    -4.451e-009    
  -1.6            1.5975e-009     -2.5844e-005    -4.795e-009    
  -1.65           -1.4623e-009    -2.6621e-005    6.1834e-009    
  -1.7            -8.614e-010     -2.7383e-005    3.567e-010     
  -1.75           1.5905e-009     -2.8101e-005    -4.1816e-009   
  -1.8            -1.5609e-009    -2.8767e-005    5.5637e-009    
END_DB

BEGIN_DB
 ICCAP_VAR VS         0              
 ICCAP_VAR VB         0              
 ICCAP_VAR VD         -1.8           

 #VG              IG              ID              IB             
  0               -1.045e-010     -3.8151e-008    5.1388e-009    
  -0.05           1.6174e-009     -9.8254e-008    -3.4146e-009   
  -0.1            1.5072e-009     -2.1672e-007    6.1728e-009    
  -0.15           8.023e-010      -4.3969e-007    1.7203e-009    
  -0.2            -1.5733e-009    -8.1037e-007    5.6549e-009    
  -0.25           1.3283e-009     -1.4075e-006    4.9238e-009    
  -0.3            -1.5715e-009    -2.2279e-006    4.337e-009     
  -0.35           -6.263e-010     -3.3506e-006    -8.546e-010    
  -0.4            1.4809e-009     -4.8708e-006    -5.4265e-009   
  -0.45           8.46e-010       -6.6798e-006    1.5124e-009    
  -0.5            -1.5701e-009    -8.8476e-006    5.6131e-009    
  -0.55           1.619e-009      -1.1499e-005    2.5736e-009    
  -0.6            -1.5787e-009    -1.442e-005     5.6685e-009    
  -0.65           -5.963e-010     -1.7797e-005    -1.0672e-009   
  -0.7            1.5014e-009     -2.1787e-005    -5.7782e-009   
  -0.75           8.125e-010      -2.6064e-005    1.7025e-009    
  -0.8            -1.5768e-009    -3.0799e-005    5.6489e-009    
  -0.85           -6.016e-010     -3.6033e-005    -1.0291e-009   
  -0.9            1.5013e-009     -4.1949e-005    -5.712e-009    
  -0.95           8.199e-010      -4.8179e-005    1.6453e-009    
  -1              -1.578e-009     -5.4899e-005    5.6379e-009    
  -1.05           -6.141e-010     -6.2188e-005    -9.869e-010    
  -1.1            1.5002e-009     -7.0187e-005    -5.6495e-009   
  -1.15           8.211e-010      -7.8447e-005    1.6368e-009    
  -1.2            -1.5758e-009    -8.7136e-005    5.6223e-009    
  -1.25           -6.202e-010     -9.6336e-005    -9.288e-010    
  -1.3            1.4905e-009     -0.000106185    -5.5449e-009   
  -1.35           1.5384e-009     -0.00011617     1.9374e-009    
  -1.4            7.546e-010      -0.00012641     2.0104e-009    
  -1.45           -1.4388e-009    -0.00013703     5.6909e-009    
  -1.5            -9.33e-010      -0.00014795     6.003e-010     
  -1.55           1.5338e-009     -0.00015933     -3.8235e-009   
  -1.6            7.618e-010      -0.00017065     1.96e-009      
  -1.65           -1.4418e-009    -0.00018218     5.6914e-009    
  -1.7            -9.417e-010     -0.00019392     6.182e-010     
  -1.75           1.5246e-009     -0.00020611     -3.7766e-009   
  -1.8            7.715e-010      -0.00021805     1.9216e-009    
END_DB

BEGIN_DB
 ICCAP_VAR VS         0              
 ICCAP_VAR VB         0.9            
 ICCAP_VAR VD         -0.1           

 #VG              IG              ID              IB             
  0               4.2e-011        -1.9006e-009    -4.854e-009    
  -0.05           1.6007e-009     -4.428e-010     -6.32e-009     
  -0.1            1.6169e-009     -3.721e-010     -5.193e-009    
  -0.15           1.6022e-009     -4.514e-010     -4.419e-009    
  -0.2            1.5962e-009     -1.3562e-009    -4.388e-009    
  -0.25           1.5328e-009     -4.5533e-009    -4.34e-009     
  -0.3            -8.964e-010     -1.8472e-008    -4.33e-009     
  -0.35           1.6141e-009     -4.6193e-008    -4.367e-009    
  -0.4            -1.4913e-009    -1.1819e-007    -4.294e-009    
  -0.45           1.6159e-009     -2.6947e-007    -4.357e-009    
  -0.5            1.581e-009      -5.3849e-007    -5.304e-009    
  -0.55           1.5243e-009     -9.6118e-007    -4.329e-009    
  -0.6            -7.158e-010     -1.5475e-006    -4.241e-009    
  -0.65           1.4923e-009     -2.3014e-006    -8.056e-009    
  -0.7            1.6093e-009     -3.1977e-006    -4.36e-009     
  -0.75           1.5802e-009     -4.2104e-006    -5.151e-009    
  -0.8            -1.4525e-009    -5.314e-006     6.2177e-009    
  -0.85           -8.78e-010      -6.5255e-006    4.207e-010     
  -0.9            1.5769e-009     -7.8341e-006    -4.0915e-009   
  -0.95           7.034e-010      -9.1582e-006    2.3299e-009    
  -1              -1.4494e-009    -1.05136e-005   5.6956e-009    
  -1.05           -1.5706e-009    -1.188e-005     -9.3927e-009   
  -1.1            -5.893e-010     -1.3245e-005    -1.1182e-009   
  -1.15           1.5108e-009     -1.4603e-005    -5.9256e-009   
  -1.2            7.99e-010       -1.5886e-005    1.7592e-009    
  -1.25           -1.5714e-009    -1.7125e-005    5.6472e-009    
  -1.3            -5.954e-010     -1.8323e-005    -1.0718e-009   
  -1.35           1.5081e-009     -1.947e-005     -5.8463e-009   
  -1.4            8.059e-010      -2.0538e-005    1.6969e-009    
  -1.45           -1.5728e-009    -2.1547e-005    5.6493e-009    
  -1.5            -6.043e-010     -2.2518e-005    -1.0251e-009   
  -1.55           1.5021e-009     -2.3447e-005    -5.768e-009    
  -1.6            8.148e-010      -2.4305e-005    1.6435e-009    
  -1.65           -1.5743e-009    -2.5124e-005    5.6367e-009    
  -1.7            -6.121e-010     -2.5904e-005    -9.773e-010    
  -1.75           1.4973e-009     -2.666e-005     -5.6651e-009   
  -1.8            8.236e-010      -2.7344e-005    1.598e-009     
END_DB

BEGIN_DB
 ICCAP_VAR VS         0              
 ICCAP_VAR VB         0.9            
 ICCAP_VAR VD         -1.8           

 #VG              IG              ID              IB             
  0               -1.1127e-009    -1.0571e-009    6.2213e-009    
  -0.05           1.5794e-009     -2.2119e-009    -6.1644e-009   
  -0.1            -1.4609e-009    -2.6587e-009    5.7085e-009    
  -0.15           -4.077e-010     -1.5926e-008    -4.31e-009     
  -0.2            1.6136e-009     -3.8725e-008    -4.332e-009    
  -0.25           1.5564e-009     -1.04584e-007   -5.214e-009    
  -0.3            -1.4546e-009    -2.4368e-007    -4.322e-009    
  -0.35           1.5796e-009     -5.248e-007     -4.592e-009    
  -0.4            -1.4575e-009    -1.00519e-006   6.2085e-009    
  -0.45           1.6109e-009     -1.7995e-006    1.516e-009     
  -0.5            -1.4526e-009    -2.922e-006     5.712e-009     
  -0.55           -9.052e-010     -4.4793e-006    4.949e-010     
  -0.6            1.5414e-009     -6.5533e-006    -3.9503e-009   
  -0.65           7.353e-010      -9.0309e-006    2.1411e-009    
  -0.7            7.801e-010      -1.2052e-005    -5.1276e-009   
  -0.75           -1.5635e-009    -1.5571e-005    5.6933e-009    
  -0.8            -5.702e-010     -1.9636e-005    -1.1867e-009   
  -0.85           1.5072e-009     -2.4394e-005    -5.9902e-009   
  -0.9            7.911e-010      -2.9576e-005    1.7964e-009    
  -0.95           -1.5652e-009    -3.5329e-005    5.6807e-009    
  -1              -5.803e-010     -4.1669e-005    -1.1088e-009   
  -1.05           1.4959e-009     -4.8764e-005    -5.8355e-009   
  -1.1            8.03e-010       -5.6207e-005    1.7193e-009    
  -1.15           -1.5665e-009    -6.4173e-005    5.67e-009      
  -1.2            -5.987e-010     -7.2686e-005    -1.0307e-009   
  -1.25           1.4886e-009     -8.1832e-005    -5.6595e-009   
  -1.3            8.153e-010      -9.1212e-005    1.646e-009     
  -1.35           -1.567e-009     -0.000100928    5.6489e-009    
  -1.4            -6.055e-010     -0.000111103    -9.502e-010    
  -1.45           1.55e-009       -0.00012169     -6.0159e-009   
  -1.5            7.187e-010      -0.0001324      2.1937e-009    
  -1.55           -1.4411e-009    -0.0001433      5.6821e-009    
  -1.6            -9.091e-010     -0.00015456     5.075e-010     
  -1.65           1.543e-009      -0.00016615     -3.9629e-009   
  -1.7            7.356e-010      -0.00017767     2.1085e-009    
  -1.75           -1.4391e-009    -0.00018944     5.6737e-009    
  -1.8            -9.192e-010     -0.00020133     5.434e-010     
END_DB

BEGIN_DB
 ICCAP_VAR VS         0              
 ICCAP_VAR VB         1.8            
 ICCAP_VAR VD         -0.1           

 #VG              IG              ID              IB             
  0               -3.341e-010     -2.2334e-009    -6.9535e-009   
  -0.05           -1.0216e-009    -2.0638e-009    1.5886e-009    
  -0.1            7.784e-010      2.3469e-009     -6.7754e-009   
  -0.15           -9.299e-010     -2.2054e-009    5.3367e-009    
  -0.2            1.1723e-009     1.8935e-009     -6.3116e-009   
  -0.25           -8.491e-010     -2.4483e-009    5.1418e-009    
  -0.3            1.4722e-009     -2.0377e-009    -4.6932e-009   
  -0.35           -1.5132e-009    -2.2042e-009    5.359e-009     
  -0.4            -1.5685e-009    -1.0815e-008    5.2468e-009    
  -0.45           -6.227e-010     -3.6604e-008    -8.949e-010    
  -0.5            1.4798e-009     -9.9494e-008    -5.4683e-009   
  -0.55           -1.1246e-009    -2.4291e-007    5.5645e-009    
  -0.6            1.6232e-009     -5.2856e-007    -9.1437e-009   
  -0.65           -1.4435e-009    -9.9227e-007    5.6871e-009    
  -0.7            1.467e-009      -1.6884e-006    -3.7099e-009   
  -0.75           8.6e-010        -2.5554e-006    1.4545e-009    
  -0.8            -1.5591e-009    -3.5854e-006    5.5854e-009    
  -0.85           -6.52e-010      -4.7713e-006    -7.103e-010    
  -0.9            1.4641e-009     -6.0775e-006    -5.2006e-009   
  -0.95           8.671e-010      -7.4348e-006    1.4159e-009    
  -1              -1.5508e-009    -8.8237e-006    5.5697e-009    
  -1.05           -6.576e-010     -1.0259e-005    -6.596e-010    
  -1.1            -1.4559e-009    -1.1664e-005    1.8268e-009    
  -1.15           -8.534e-010     -1.3054e-005    3.236e-010     
  -1.2            1.5834e-009     -1.4416e-005    -4.2409e-009   
  -1.25           -1.5572e-009    -1.5684e-005    5.6072e-009    
  -1.3            -6.443e-010     -1.6926e-005    -7.427e-010    
  -1.35           1.4673e-009     -1.8112e-005    -5.2515e-009   
  -1.4            8.593e-010      -1.9214e-005    1.4418e-009    
  -1.45           -1.5573e-009    -2.0255e-005    5.5837e-009    
  -1.5            -6.511e-010     -2.1258e-005    -7.073e-010    
  -1.55           1.4653e-009     -2.2206e-005    -5.2055e-009   
  -1.6            8.666e-010      -2.3093e-005    1.4301e-009    
  -1.65           -1.5538e-009    -2.3928e-005    5.5758e-009    
  -1.7            -6.563e-010     -2.4732e-005    -6.876e-010    
  -1.75           1.4627e-009     -2.5505e-005    -5.1636e-009   
  -1.8            8.673e-010      -2.621e-005     1.4112e-009    
END_DB

BEGIN_DB
 ICCAP_VAR VS         0              
 ICCAP_VAR VB         1.8            
 ICCAP_VAR VD         -1.8           

 #VG              IG              ID              IB             
  0               -1.74e-011      -1.9416e-009    -4.291e-009    
  -0.05           1.5978e-009     -3.774e-010     -5.376e-009    
  -0.1            1.6011e-009     -2.863e-010     -4.39e-009     
  -0.15           1.5975e-009     -5.164e-010     -4.222e-009    
  -0.2            1.6032e-009     -1.7058e-009    -4.455e-009    
  -0.25           1.5879e-009     -5.603e-009     -4.126e-009    
  -0.3            -9.862e-010     -2.1798e-008    -4.188e-009    
  -0.35           1.5894e-009     -5.8046e-008    -4.476e-009    
  -0.4            -1.4381e-009    -1.5219e-007    -4.344e-009    
  -0.45           1.5338e-009     -3.6591e-007    -5.921e-009    
  -0.5            1.57e-009       -7.789e-007     -4.463e-009    
  -0.55           1.4774e-009     -1.4983e-006    -4.515e-010    
  -0.6            8.487e-010      -2.616e-006     1.4882e-009    
  -0.65           -1.5672e-009    -4.2099e-006    5.597e-009     
  -0.7            -6.373e-010     -6.3651e-006    -8.039e-010    
  -0.75           1.4753e-009     -9.1593e-006    -5.3142e-009   
  -0.8            1.624e-009      -1.2503e-005    3.9489e-009    
  -0.85           -1.4377e-009    -1.6409e-005    5.6823e-009    
  -0.9            -9.251e-010     -2.1011e-005    5.585e-010     
  -0.95           1.5358e-009     -2.6369e-005    -3.8818e-009   
  -1              7.5e-010        -3.2186e-005    2.0466e-009    
  -1.05           -1.4429e-009    -3.8645e-005    5.6962e-009    
  -1.1            -9.19e-010      -4.5753e-005    5.546e-010     
  -1.15           1.5323e-009     -5.3565e-005    -3.8962e-009   
  -1.2            7.445e-010      -6.1701e-005    2.0801e-009    
  -1.25           -1.4441e-009    -7.033e-005     5.6998e-009    
  -1.3            -9.205e-010     -7.9469e-005    5.331e-010     
  -1.35           1.535e-009      -8.9208e-005    -3.9056e-009   
  -1.4            7.403e-010      -9.9054e-005    2.109e-009     
  -1.45           -1.444e-009     -0.000109236    5.6975e-009    
  -1.5            -1.5398e-009    -0.00011963     2.4929e-009    
  -1.55           1.4627e-009     -0.00013073     -5.0911e-009   
  -1.6            8.821e-010      -0.00014175     1.3647e-009    
  -1.65           -1.5435e-009    -0.00015289     5.5461e-009    
  -1.7            -6.643e-010     -0.00016443     -6.129e-010    
  -1.75           1.4625e-009     -0.00017623     -5.0819e-009   
  -1.8            8.757e-010      -0.00018794     1.3721e-009    
END_DB

