! VERSION = 6.00
BEGIN_HEADER
 ICCAP_INPUTS
  VG         V  B GROUND SMU4 0.001 LIN        2    0          -1.8       6    -0.36     
  VS         V  E GROUND SMU2 0.1 CON        0
  VD         V  S GROUND SMU1 0.1 LIN        1    0          -1.8       37   -0.05     
  VB         V  C GROUND SMU3 0.1 LIN        3    0          0.9        2    0.9       
 ICCAP_OUTPUTS
  ID         I  S GROUND SMU1 B
  IB         I  C GROUND SMU3 B
  IG         I  B GROUND SMU4 B
END_HEADER

BEGIN_DB
 ICCAP_VAR VG         0              
 ICCAP_VAR VS         0              
 ICCAP_VAR VB         0              

 #VD              ID              IB              IG             
  0               -7.805e-010     -2.6433e-008    -7.676e-010    
  -0.05           -1.5013e-009    9.143e-009      -2.7405e-009   
  -0.1            -1.9378e-009    -2.7256e-008    1.306e-009     
  -0.15           -6.645e-010     -1.0163e-008    2.8428e-009    
  -0.2            1.1024e-009     1.2454e-008     -8.42e-011     
  -0.25           -1.9576e-009    2.7145e-008     -2.6946e-009   
  -0.3            -2.7032e-009    -2.1664e-008    2.3056e-009    
  -0.35           -7.189e-010     -5.213e-009     1.987e-009     
  -0.4            -9.751e-010     -7.696e-009     1.7162e-009    
  -0.45           -1.2633e-009    -8.834e-009     1.4989e-009    
  -0.5            -1.57e-009      -8.793e-009     1.3597e-009    
  -0.55           -1.9041e-009    -9.549e-009     2.7987e-009    
  -0.6            -2.7802e-009    1.0331e-008     -1.4714e-009   
  -0.65           -2.9207e-009    8.372e-009      -1.4084e-009   
  -0.7            -3.087e-009     8.782e-009      -1.3812e-009   
  -0.75           -3.2539e-009    9.241e-009      -1.3586e-009   
  -0.8            -3.4747e-009    8.145e-009      -1.3325e-009   
  -0.85           -3.6569e-009    8.31e-009       -1.2998e-009   
  -0.9            -3.8762e-009    1.0959e-008     -2.5255e-009   
  -0.95           -5.3719e-009    1.289e-009      -2.302e-009    
  -1              -6.752e-009     -1.2751e-008    1.6214e-009    
  -1.05           -5.2171e-009    -8.775e-009     1.4276e-009    
  -1.1            -5.8412e-009    -8.937e-009     2.7482e-009    
  -1.15           -4.8578e-009    1.2445e-008     1.5737e-009    
  -1.2            -5.6484e-009    1.2879e-008     1.7567e-009    
  -1.25           -5.5889e-009    1.1091e-008     3.297e-010     
  -1.3            -6.1946e-009    1.0958e-008     5.221e-010     
  -1.35           -6.8888e-009    9.872e-009      7.055e-010     
  -1.4            -1.1129e-008    -2.2874e-008    -2.0745e-009   
  -1.45           -1.1205e-008    1.1504e-008     -2.2489e-009   
  -1.5            -8.308e-009     1.0714e-008     1.4405e-009    
  -1.55           -1.324e-008     -2.7448e-008    2.5727e-009    
  -1.6            -1.4852e-008    -1.2304e-008    1.939e-010     
  -1.65           -1.5374e-008    8.783e-009      -1.3506e-009   
  -1.7            -1.2777e-008    9.497e-009      1.046e-009     
  -1.75           -1.7267e-008    -2.1725e-008    1.5114e-009    
  -1.8            -1.9993e-008    -1.1347e-008    -5.407e-010    
END_DB

BEGIN_DB
 ICCAP_VAR VG         -0.36          
 ICCAP_VAR VS         0              
 ICCAP_VAR VB         0              

 #VD              ID              IB              IG             
  0               -1.2927e-009    -2.4411e-008    3.88e-010      
  -0.05           -1.649e-007     -2.5546e-008    2.0314e-009    
  -0.1            -2.7226e-007    -1.2077e-008    1.575e-010     
  -0.15           -3.3335e-007    7.982e-009      -2.5611e-009   
  -0.2            -3.8359e-007    1.0433e-008     1.5557e-009    
  -0.25           -4.2404e-007    -2.037e-008     1.8117e-009    
  -0.3            -4.5504e-007    -1.1468e-008    -7.23e-010     
  -0.35           -4.8181e-007    2.1386e-008     -1.5416e-009   
  -0.4            -5.1205e-007    1.0786e-008     8.159e-010     
  -0.45           -5.4531e-007    -2.3364e-008    1.4138e-009    
  -0.5            -5.6759e-007    -1.0464e-008    -9.982e-010    
  -0.55           -5.9051e-007    2.6591e-008     -1.3975e-009   
  -0.6            -6.229e-007     9.557e-009      1.087e-009     
  -0.65           -6.5311e-007    -2.6987e-008    2.5777e-009    
  -0.7            -6.7935e-007    -2.6899e-008    2.3681e-009    
  -0.75           -7.0539e-007    -2.4959e-008    2.1282e-009    
  -0.8            -7.3211e-007    -2.1819e-008    1.8745e-009    
  -0.85           -7.5958e-007    -1.7835e-008    1.6502e-009    
  -0.9            -7.8005e-007    -1.1382e-008    -8.258e-010    
  -0.95           -8.0279e-007    2.3422e-008     -1.4657e-009   
  -1              -8.3426e-007    1.0419e-008     9.057e-010     
  -1.05           -8.6545e-007    -2.5126e-008    1.3409e-009    
  -1.1            -8.9199e-007    -2.7358e-008    2.5067e-009    
  -1.15           -9.1802e-007    -2.625e-008     2.2733e-009    
  -1.2            -9.4471e-007    -2.3832e-008    2.0273e-009    
  -1.25           -9.7441e-007    -2.0079e-008    1.7832e-009    
  -1.3            -9.957e-007     -1.1502e-008    -7.369e-010    
  -1.35           -1.01727e-006   2.1866e-008     -1.5195e-009   
  -1.4            -1.04953e-006   1.0831e-008     8.294e-010     
  -1.45           -1.08377e-006   -2.372e-008     1.3965e-009    
  -1.5            -1.10227e-006   -1.0366e-008    -1.0117e-009   
  -1.55           -1.12731e-006   2.6902e-008     -1.3963e-009   
  -1.6            -1.1566e-006    -1.1541e-008    -1.3641e-009   
  -1.65           -1.1928e-006    9.192e-009      1.1829e-009    
  -1.7            -1.2238e-006    -2.7333e-008    2.6034e-009    
  -1.75           -1.2532e-006    -2.7335e-008    2.574e-009     
  -1.8            -1.2807e-006    -2.751e-008     2.5421e-009    
END_DB

BEGIN_DB
 ICCAP_VAR VG         -0.72          
 ICCAP_VAR VS         0              
 ICCAP_VAR VB         0              

 #VD              ID              IB              IG             
  0               -1.9344e-009    9.44e-009       -2.3928e-009   
  -0.05           -1.0071e-006    2.772e-008      2.8833e-009    
  -0.1            -1.8416e-006    -1.8078e-008    1.6565e-009    
  -0.15           -2.5085e-006    -1.1413e-008    -6.915e-010    
  -0.2            -3.0335e-006    1.8222e-008     -1.6812e-009   
  -0.25           -3.4676e-006    1.2385e-008     2.1082e-009    
  -0.3            -3.8151e-006    -1.2354e-008    1.897e-010     
  -0.35           -4.0616e-006    8.868e-009      -1.3042e-009   
  -0.4            -4.3199e-006    1.1311e-008     1.5118e-009    
  -0.45           -4.5004e-006    -2.4322e-008    2.089e-009     
  -0.5            -4.6698e-006    -2.402e-008     2.044e-009     
  -0.55           -4.821e-006     -2.351e-008     1.9986e-009    
  -0.6            -4.961e-006     -2.3045e-008    1.9539e-009    
  -0.65           -5.091e-006     -2.2452e-008    1.9181e-009    
  -0.7            -5.2136e-006    -2.2072e-008    1.8813e-009    
  -0.75           -5.3303e-006    -2.1268e-008    1.8486e-009    
  -0.8            -5.4422e-006    -2.085e-008     1.815e-009     
  -0.85           -5.5497e-006    -2.0116e-008    1.7718e-009    
  -0.9            -5.6551e-006    -1.9473e-008    1.7406e-009    
  -0.95           -5.7576e-006    -1.8933e-008    1.7035e-009    
  -1              -5.8573e-006    -1.8204e-008    1.6722e-009    
  -1.05           -5.9538e-006    -1.7627e-008    1.6352e-009    
  -1.1            -6.0353e-006    -1.1458e-008    -7.12e-010     
  -1.15           -6.1113e-006    1.8663e-008     -1.6693e-009   
  -1.2            -6.2261e-006    1.2985e-008     2.1245e-009    
  -1.25           -6.3299e-006    -1.2268e-008    1.745e-010     
  -1.3            -6.377e-006     8.83e-009       -1.3012e-009   
  -1.35           -6.5146e-006    1.0343e-008     1.528e-009     
  -1.4            -6.5839e-006    -2.3836e-008    2.0533e-009    
  -1.45           -6.6701e-006    -2.3729e-008    2.0163e-009    
  -1.5            -6.7559e-006    -2.3121e-008    1.9621e-009    
  -1.55           -6.8399e-006    -2.2584e-008    1.9268e-009    
  -1.6            -6.9227e-006    -2.2086e-008    1.8903e-009    
  -1.65           -7.0071e-006    -2.1581e-008    1.861e-009     
  -1.7            -7.0897e-006    -2.0999e-008    1.8224e-009    
  -1.75           -7.1709e-006    -2.0199e-008    1.7801e-009    
  -1.8            -7.2534e-006    -1.9737e-008    1.7514e-009    
END_DB

BEGIN_DB
 ICCAP_VAR VG         -1.08          
 ICCAP_VAR VS         0              
 ICCAP_VAR VB         0              

 #VD              ID              IB              IG             
  0               -9.825e-009     -2.6026e-008    -2.957e-010    
  -0.05           -2.4468e-006    -1.8496e-008    -2.4306e-009   
  -0.1            -4.6369e-006    2.7078e-008     -1.3972e-009   
  -0.15           -6.5947e-006    9.81e-009       1.0129e-009    
  -0.2            -8.3072e-006    -2.5361e-008    1.3478e-009    
  -0.25           -9.7581e-006    -1.0378e-008    -9.826e-010    
  -0.3            -1.10057e-005   2.4752e-008     -1.4391e-009   
  -0.35           -1.2075e-005    1.0987e-008     -2.7235e-009   
  -0.4            -1.3009e-005    9.011e-009      1.2341e-009    
  -0.45           -1.375e-005     -2.1999e-008    1.9052e-009    
  -0.5            -1.4405e-005    -1.3161e-008    2.578e-010     
  -0.55           -1.4893e-005    8.363e-009      -2.432e-009    
  -0.6            -1.5386e-005    1.0914e-008     3.402e-010     
  -0.65           -1.5848e-005    -2.0655e-008    1.6129e-009    
  -0.7            -1.6171e-005    -1.0109e-008    -1.0485e-009   
  -0.75           -1.649e-005     2.7135e-008     -1.3556e-009   
  -0.8            -1.6889e-005    1.1009e-008     1.6165e-009    
  -0.85           -1.7151e-005    -1.3281e-008    2.675e-010     
  -0.9            -1.7341e-005    8.401e-009      -2.442e-009    
  -0.95           -1.7608e-005    1.0853e-008     3.279e-010     
  -1              -1.7894e-005    -2.0325e-008    1.6361e-009    
  -1.05           -1.8121e-005    -2.7131e-008    2.5641e-009    
  -1.1            -1.832e-005     -2.2506e-008    1.9316e-009    
  -1.15           -1.8539e-005    -1.3534e-008    2.723e-010     
  -1.2            -1.8659e-005    8.334e-009      -2.4579e-009   
  -1.25           -1.8873e-005    1.0891e-008     3.196e-010     
  -1.3            -1.9111e-005    -2.0166e-008    1.6439e-009    
  -1.35           -1.9292e-005    -2.7256e-008    2.581e-009     
  -1.4            -1.9456e-005    -2.2727e-008    1.9537e-009    
  -1.45           -1.9643e-005    -1.3611e-008    1.425e-009     
  -1.5            -1.9801e-005    -2.6534e-008    2.3e-009       
  -1.55           -1.9941e-005    -1.141e-008     -6.63e-010     
  -1.6            -2.0059e-005    2.5317e-008     -1.428e-009    
  -1.65           -2.0303e-005    9.165e-009      1.201e-009     
  -1.7            -2.0428e-005    -2.2815e-008    1.9661e-009    
  -1.75           -2.0597e-005    -1.3731e-008    1.4326e-009    
  -1.8            -2.0735e-005    -2.6531e-008    2.3113e-009    
END_DB

BEGIN_DB
 ICCAP_VAR VG         -1.44          
 ICCAP_VAR VS         0              
 ICCAP_VAR VB         0              

 #VD              ID              IB              IG             
  0               -1.4198e-008    -2.1755e-008    -1.1138e-009   
  -0.05           -3.8829e-006    -1.1327e-008    -1.3638e-009   
  -0.1            -7.561e-006     9.267e-009      1.1678e-009    
  -0.15           -1.10136e-005   -2.6793e-008    2.5864e-009    
  -0.2            -1.4221e-005    -1.2971e-008    2.249e-009     
  -0.25           -1.7212e-005    -2.5668e-008    1.3402e-009    
  -0.3            -1.9943e-005    -2.3321e-008    2.0396e-009    
  -0.35           -2.2437e-005    -1.4758e-008    1.4895e-009    
  -0.4            -2.4668e-005    -2.6049e-008    2.3529e-009    
  -0.45           -2.6645e-005    -1.1138e-008    -6.091e-010    
  -0.5            -2.8364e-005    2.4655e-008     -1.4584e-009   
  -0.55           -2.9965e-005    9.304e-009      1.1577e-009    
  -0.6            -3.1274e-005    -2.3234e-008    2.0428e-009    
  -0.65           -3.2403e-005    -1.1038e-008    -8.216e-010    
  -0.7            -3.3372e-005    2.6941e-008     -1.3983e-009   
  -0.75           -3.4357e-005    9.933e-009      1.3358e-009    
  -0.8            -3.5108e-005    -1.8868e-008    1.7459e-009    
  -0.85           -3.5814e-005    -2.6418e-008    2.6308e-009    
  -0.9            -3.642e-005     -2.3476e-008    2.0548e-009    
  -0.95           -3.6955e-005    -1.1022e-008    -8.201e-010    
  -1              -3.7438e-005    2.6825e-008     -1.4013e-009   
  -1.05           -3.804e-005     9.787e-009      1.334e-009     
  -1.1            -3.8447e-005    -1.8955e-008    1.7476e-009    
  -1.15           -3.8879e-005    -2.6319e-008    2.627e-009     
  -1.2            -3.9253e-005    -2.3463e-008    2.0564e-009    
  -1.25           -3.9588e-005    -1.1026e-008    -8.115e-010    
  -1.3            -3.9898e-005    2.6743e-008     -1.4028e-009   
  -1.35           -4.0369e-005    9.837e-009      1.3311e-009    
  -1.4            -4.065e-005     -1.9185e-008    1.7549e-009    
  -1.45           -4.0974e-005    -2.6292e-008    2.6362e-009    
  -1.5            -4.1253e-005    -2.3653e-008    2.0643e-009    
  -1.55           -4.1503e-005    -1.1055e-008    -8.098e-010    
  -1.6            -4.1736e-005    2.6678e-008     -1.4016e-009   
  -1.65           -4.2143e-005    9.803e-009      1.3222e-009    
  -1.7            -4.236e-005     -1.9193e-008    1.7622e-009    
  -1.75           -4.2631e-005    -2.6211e-008    1.2912e-009    
  -1.8            -4.286e-005     -2.1312e-008    1.8857e-009    
END_DB

BEGIN_DB
 ICCAP_VAR VG         -1.8           
 ICCAP_VAR VS         0              
 ICCAP_VAR VB         0              

 #VD              ID              IB              IG             
  0               -1.4302e-008    9.069e-009      1.2018e-009    
  -0.05           -4.971e-006     1.1043e-008     2.835e-009     
  -0.1            -9.7782e-006    -2.2886e-008    1.9486e-009    
  -0.15           -1.4399e-005    -2.657e-008     1.5591e-009    
  -0.2            -1.8845e-005    -1.4295e-008    1.4646e-009    
  -0.25           -2.3087e-005    -2.7e-008       2.3801e-009    
  -0.3            -2.7132e-005    -1.1371e-008    -6.117e-010    
  -0.35           -3.0939e-005    2.4326e-008     -1.4444e-009   
  -0.4            -3.4582e-005    9.123e-009      1.1641e-009    
  -0.45           -3.7954e-005    -2.4061e-008    2.0568e-009    
  -0.5            -4.1089e-005    -1.1183e-008    -8.206e-010    
  -0.55           -4.3973e-005    2.6864e-008     -1.3954e-009   
  -0.6            -4.6722e-005    9.756e-009      1.3436e-009    
  -0.65           -4.9145e-005    -1.9131e-008    1.7412e-009    
  -0.7            -5.1366e-005    -2.6668e-008    2.6667e-009    
  -0.75           -5.3345e-005    -2.4573e-008    2.0788e-009    
  -0.8            -5.5106e-005    -1.1202e-008    -8.132e-010    
  -0.85           -5.665e-005     2.6856e-008     -1.3958e-009   
  -0.9            -5.818e-005     9.623e-009      1.333e-009     
  -0.95           -5.9401e-005    -1.9424e-008    1.7584e-009    
  -1              -6.0544e-005    -2.6312e-008    2.6741e-009    
  -1.05           -6.1533e-005    -2.4637e-008    2.0939e-009    
  -1.1            -6.2416e-005    -1.1223e-008    -8.064e-010    
  -1.15           -6.3201e-005    2.6712e-008     -1.3966e-009   
  -1.2            -6.4103e-005    9.718e-009      1.3257e-009    
  -1.25           -6.4762e-005    -1.992e-008     1.7724e-009    
  -1.3            -6.5431e-005    -2.6546e-008    2.6823e-009    
  -1.35           -6.602e-005     -2.4867e-008    2.1126e-009    
  -1.4            -6.6553e-005    -1.1326e-008    -7.936e-010    
  -1.45           -6.7039e-005    2.6671e-008     -1.397e-009    
  -1.5            -6.77e-005      9.48e-009       1.3119e-009    
  -1.55           -6.8133e-005    -2.0105e-008    1.788e-009     
  -1.6            -6.8614e-005    -2.6183e-008    2.6917e-009    
  -1.65           -6.9033e-005    -2.5016e-008    2.1262e-009    
  -1.7            -6.9416e-005    -1.1285e-008    -7.84e-010     
  -1.75           -6.9766e-005    2.6647e-008     -1.4003e-009   
  -1.8            -7.0316e-005    9.403e-009      1.3029e-009    
END_DB

BEGIN_DB
 ICCAP_VAR VG         0              
 ICCAP_VAR VS         0              
 ICCAP_VAR VB         0.9            

 #VD              ID              IB              IG             
  0               6.781e-010      2.5576e-008     5.934e-010     
  -0.05           2.1848e-009     -1.1e-008       1.2059e-009    
  -0.1            1.9763e-009     1.0789e-008     -2.113e-010    
  -0.15           9.19e-010       2.5235e-008     -1.5499e-009   
  -0.2            -1.4573e-009    7.26e-009       -1.7467e-009   
  -0.25           -2.2019e-009    -1.1467e-008    -3.941e-010    
  -0.3            -1.3745e-009    -2.5476e-008    2.5517e-009    
  -0.35           2.2467e-009     -2.981e-009     1.1673e-009    
  -0.4            2.0791e-009     1.1684e-008     1.3191e-009    
  -0.45           1.8604e-009     1.2137e-008     1.493e-009     
  -0.5            2.0864e-009     1.0934e-008     4.57e-011      
  -0.55           2.1811e-009     1.0897e-008     2.401e-010     
  -0.6            2.2614e-009     1.0977e-008     4.316e-010     
  -0.65           2.3265e-009     1.0533e-008     6.125e-010     
  -0.7            2.3538e-009     9.54e-009       7.872e-010     
  -0.75           2.342e-009      9.146e-009      9.419e-010     
  -0.8            2.2817e-009     9.652e-009      1.0865e-009    
  -0.85           2.1538e-009     1.1121e-008     1.2316e-009    
  -0.9            1.9646e-009     1.0777e-008     -2.098e-010    
  -0.95           9.044e-010      2.533e-008      -1.5492e-009   
  -1              -1.4705e-009    7.248e-009      -1.7518e-009   
  -1.05           -2.2206e-009    -1.1484e-008    -3.907e-010    
  -1.1            -1.3917e-009    -2.5472e-008    2.555e-009     
  -1.15           2.2254e-009     -2.975e-009     1.1646e-009    
  -1.2            2.0543e-009     1.1812e-008     1.3179e-009    
  -1.25           1.8458e-009     1.2329e-008     1.4823e-009    
  -1.3            2.0578e-009     1.0806e-008     4.39e-011      
  -1.35           2.1524e-009     1.0975e-008     2.35e-010      
  -1.4            2.2256e-009     1.0869e-008     4.25e-010      
  -1.45           2.287e-009      1.0305e-008     6.012e-010     
  -1.5            2.316e-009      9.553e-009      7.824e-010     
  -1.55           2.3043e-009     9.178e-009      9.363e-010     
  -1.6            2.2404e-009     9.603e-009      1.0831e-009    
  -1.65           2.1114e-009     1.1106e-008     1.232e-009     
  -1.7            1.9069e-009     1.075e-008      -2.167e-010    
  -1.75           8.393e-010      2.5185e-008     -1.5537e-009   
  -1.8            -1.5422e-009    7.171e-009      -1.7486e-009   
END_DB

BEGIN_DB
 ICCAP_VAR VG         -0.36          
 ICCAP_VAR VS         0              
 ICCAP_VAR VB         0.9            

 #VD              ID              IB              IG             
  0               -1.0317e-009    1.105e-008      -1.2043e-009   
  -0.05           -1.5425e-008    9.176e-009      2.2084e-009    
  -0.1            -2.2254e-008    -2.7081e-008    2.5464e-009    
  -0.15           -2.7075e-008    -1.2443e-008    1.807e-010     
  -0.2            -2.9608e-008    8.849e-009      -1.3468e-009   
  -0.25           -2.9903e-008    9.423e-009      1.0576e-009    
  -0.3            -3.6924e-008    -2.1788e-008    1.5063e-009    
  -0.35           -4.1822e-008    -1.1369e-008    -5.431e-010    
  -0.4            -4.3796e-008    1.0953e-008     -2.2036e-009   
  -0.45           -4.544e-008     1.1022e-008     1.4688e-009    
  -0.5            -5.3369e-008    -2.7131e-008    2.5379e-009    
  -0.55           -5.8633e-008    -1.2219e-008    1.714e-010     
