! VERSION = 6.00
BEGIN_HEADER
 ICCAP_INPUTS
  VG         V  B GROUND SMU4 0.001 LIN        2    0          -1.8       6    -0.36     
  VS         V  E GROUND SMU2 0.1 CON        0
  VD         V  S GROUND SMU1 0.1 LIN        1    0          -1.8       37   -0.05     
  VB         V  C GROUND SMU3 0.1 LIN        3    0          0.9        2    0.9       
 ICCAP_OUTPUTS
  ID         I  S GROUND SMU1 B
  IB         I  C GROUND SMU3 B
  IG         I  B GROUND SMU4 B
END_HEADER

BEGIN_DB
 ICCAP_VAR VG         0              
 ICCAP_VAR VS         0              
 ICCAP_VAR VB         0              

 #VD              ID              IB              IG             
  0               1.595e-010      -9.401e-009     1.1386e-009    
  -0.05           -5.7684e-008    -7.458e-009     -1.7959e-009   
  -0.1            -7.8904e-008    1.2745e-008     -1.4798e-009   
  -0.15           -9.0692e-008    1.3594e-008     1.3269e-009    
  -0.2            -1.05835e-007   -9.473e-009     1.1598e-009    
  -0.25           -1.1581e-007    1.0035e-008     -1.422e-009    
  -0.3            -1.2622e-007    8.646e-009      2.926e-010     
  -0.35           -1.4079e-007    -3.441e-009     1.0698e-009    
  -0.4            -1.5679e-007    -1.2092e-008    1.7688e-009    
  -0.45           -1.7139e-007    -1.5148e-008    1.3814e-009    
  -0.5            -1.8841e-007    -1.2475e-008    1.1596e-009    
  -0.55           -1.9787e-007    -9.84e-009      -3.211e-010    
  -0.6            -2.1315e-007    2.198e-009      -1.2574e-009   
  -0.65           -2.3099e-007    8.498e-009      6.743e-010     
  -0.7            -2.5177e-007    -5.165e-009     1.1235e-009    
  -0.75           -2.7111e-007    -7.853e-009     1.147e-009     
  -0.8            -2.9353e-007    -1.0393e-008    1.1621e-009    
  -0.85           -3.1133e-007    -1.1908e-008    1.1531e-009    
  -0.9            -3.3345e-007    -1.3325e-008    1.5695e-009    
  -0.95           -3.577e-007     -1.5845e-008    1.1445e-009    
  -1              -3.8255e-007    -1.0522e-008    1.1667e-009    
  -1.05           -4.0446e-007    -1.1959e-008    1.1629e-009    
  -1.1            -4.3158e-007    -1.3337e-008    1.5759e-009    
  -1.15           -4.5267e-007    -9.124e-009     -3.63e-011     
  -1.2            -4.7782e-007    1.3833e-008     -1.4346e-009   
  -1.25           -5.0605e-007    8.51e-009       2.926e-010     
  -1.3            -5.4278e-007    -3.467e-009     1.0699e-009    
  -1.35           -5.8133e-007    -1.2127e-008    1.7749e-009    
  -1.4            -6.1632e-007    -1.4944e-008    1.3848e-009    
  -1.45           -6.3941e-007    -9.555e-009     -1.973e-010    
  -1.5            -6.7052e-007    6.63e-010       -1.2649e-009   
  -1.55           -7.1954e-007    8.534e-009      5.583e-010     
  -1.6            -7.6303e-007    -4.078e-009     1.0957e-009    
  -1.65           -7.99e-007      -8.702e-009     1.135e-010     
  -1.7            -8.358e-007     1.0522e-008     -1.5817e-009   
  -1.75           -8.7909e-007    1.501e-008      1.5991e-009    
  -1.8            -9.453e-007     -1.5746e-008    1.326e-009     
END_DB

BEGIN_DB
 ICCAP_VAR VG         -0.36          
 ICCAP_VAR VS         0              
 ICCAP_VAR VB         0              

 #VD              ID              IB              IG             
  0               -1.4074e-008    -3.859e-009     -1.2518e-009   
  -0.05           -4.9662e-006    -8.783e-009     -1.2621e-009   
  -0.1            -8.3344e-006    8.756e-009      5.108e-010     
  -0.15           -1.06168e-005   -3.288e-009     1.0656e-009    
  -0.2            -1.219e-005     -1.3083e-008    2.444e-010     
  -0.25           -1.3556e-005    -3.183e-009     1.0651e-009    
  -0.3            -1.4691e-005    -1.7502e-008    1.2251e-009    
  -0.35           -1.5635e-005    -1.1792e-008    1.155e-009     
  -0.4            -1.6315e-005    -8.625e-009     -8.322e-010    
  -0.45           -1.7194e-005    3.18e-009       -1.2362e-009   
  -0.5            -1.8182e-005    8.739e-009      6.068e-010     
  -0.55           -1.9005e-005    -7.758e-009     1.147e-009     
  -0.6            -1.9743e-005    -1.1825e-008    1.157e-009     
  -0.65           -2.0515e-005    -1.6371e-008    1.2963e-009    
  -0.7            -2.105e-005     -9.466e-009     -4.63e-010     
  -0.75           -2.1754e-005    2.951e-009      -1.2479e-009   
  -0.8            -2.27e-005      1.3624e-008     1.3598e-009    
  -0.85           -2.3453e-005    -1.5751e-008    1.3431e-009    
  -0.9            -2.3961e-005    -9.532e-009     -4.387e-010    
  -0.95           -2.4645e-005    2.926e-009      -1.2506e-009   
  -1              -2.5607e-005    1.3163e-008     1.32e-009      
  -1.05           -2.6326e-005    -1.5474e-008    1.3828e-009    
  -1.1            -2.6833e-005    -9.651e-009     -4.08e-010     
  -1.15           -2.7498e-005    2.906e-009      -1.2489e-009   
  -1.2            -2.8482e-005    1.2722e-008     1.276e-009     
  -1.25           -2.919e-005     -1.4851e-008    1.4347e-009    
  -1.3            -2.9946e-005    -1.0622e-008    1.1638e-009    
  -1.35           -3.0623e-005    -1.4115e-008    1.5238e-009    
  -1.4            -3.1385e-005    -9.764e-009     1.1601e-009    
  -1.45           -3.1781e-005    -9.166e-009     -5.556e-010    
  -1.5            -3.2492e-005    2.258e-009      -1.2467e-009   
  -1.55           -3.3471e-005    1.4291e-008     1.4554e-009    
  -1.6            -3.429e-005     -1.72e-008      1.2434e-009    
  -1.65           -3.4983e-005    -1.1677e-008    1.1588e-009    
  -1.7            -3.5344e-005    -8.662e-009     -8.158e-010    
  -1.75           -3.6135e-005    2.904e-009      -1.2373e-009   
  -1.8            -3.7194e-005    8.74e-009       5.957e-010     
END_DB

BEGIN_DB
 ICCAP_VAR VG         -0.72          
 ICCAP_VAR VS         0              
 ICCAP_VAR VB         0              

 #VD              ID              IB              IG             
  0               -5.7538e-008    8.859e-009      -1.863e-010    
  -0.05           -2.381e-005     -3.203e-009     -1.2432e-009   
  -0.1            -4.3805e-005    1.5372e-008     1.5817e-009    
  -0.15           -6.0368e-005    -5.998e-009     1.1279e-009    
  -0.2            -7.3522e-005    -9.711e-009     -3.166e-010    
  -0.25           -8.4194e-005    2.676e-009      -1.2547e-009   
  -0.3            -9.3485e-005    1.1611e-008     1.1596e-009    
  -0.35           -0.000100647    -9.764e-009     1.1565e-009    
  -0.4            -0.000106553    -1.5301e-008    1.3575e-009    
  -0.45           -0.000111187    -9.56e-009      -4.091e-010    
  -0.5            -0.00011544     -7.4e-011       -1.2556e-009   
  -0.55           -0.00012015     9.568e-009      8.172e-010     
  -0.6            -0.00012367     -7.958e-009     1.1475e-009    
  -0.65           -0.00012702     -1.0199e-008    1.1634e-009    
  -0.7            -0.00012995     -1.1945e-008    1.7766e-009    
  -0.75           -0.00013297     -1.4928e-008    1.3941e-009    
  -0.8            -0.00013546     -9.546e-009     -1.935e-010    
  -0.85           -0.00013785     5.38e-010       -1.2685e-009   
  -0.9            -0.00014097     8.617e-009      5.512e-010     
  -0.95           -0.00014344     -3.831e-009     1.0959e-009    
  -1              -0.00014605     -1.6389e-008    1.2621e-009    
  -1.05           -0.00014847     -1.0867e-008    1.1642e-009    
  -1.1            -0.00015071     -1.1694e-008    1.1627e-009    
  -1.15           -0.00015295     -1.2789e-008    1.6345e-009    
  -1.2            -0.00015524     -1.6184e-008    1.2769e-009    
  -1.25           -0.00015751     -1.1148e-008    1.1632e-009    
  -1.3            -0.00015957     -1.1487e-008    1.1621e-009    
  -1.35           -0.00016163     -1.2541e-008    1.652e-009     
  -1.4            -0.0001638      -1.6077e-008    1.2883e-009    
  -1.45           -0.00016543     -9.624e-009     -2.588e-010    
  -1.5            -0.00016716     1.331e-009      -1.2632e-009   
  -1.55           -0.00016993     8.514e-009      6.105e-010     
  -1.6            -0.00017194     -4.463e-009     1.1115e-009    
  -1.65           -0.00017399     -1.7844e-008    1.1836e-009    
  -1.7            -0.00017591     -1.0376e-008    1.1651e-009    
  -1.75           -0.00017793     -1.1551e-008    1.1625e-009    
  -1.8            -0.00017968     -1.2429e-008    1.6869e-009    
END_DB

BEGIN_DB
 ICCAP_VAR VG         -1.08          
 ICCAP_VAR VS         0              
 ICCAP_VAR VB         0              

 #VD              ID              IB              IG             
  0               -1.07042e-007   1.2319e-008     -7.62e-011     
  -0.05           -5.4128e-005    9.072e-009      -2.4321e-009   
  -0.1            -0.000103308    9.06e-009       8.369e-010     
  -0.15           -0.00014712     -6.747e-009     1.1629e-009    
  -0.2            -0.00018548     -1.2181e-008    1.7126e-009    
  -0.25           -0.00021905     -1.5526e-008    1.3414e-009    
  -0.3            -0.00024743     -9.557e-009     -2.276e-010    
  -0.35           -0.0002714      8.1e-010        -1.2671e-009   
  -0.4            -0.00029272     8.584e-009      5.769e-010     
  -0.45           -0.00031002     -4.328e-009     1.1006e-009    
  -0.5            -0.00032477     -1.5728e-008    1.1443e-009    
  -0.55           -0.00033756     -9.744e-009     1.1611e-009    
  -0.6            -0.00034845     -1.0965e-008    1.1667e-009    
  -0.65           -0.0003579      -1.1777e-008    1.7655e-009    
  -0.7            -0.0003664      -1.5e-008       1.3784e-009    
  -0.75           -0.00037346     -9.532e-009     -1.913e-010    
  -0.8            -0.00037995     4.96e-010       -1.2684e-009   
  -0.85           -0.00038743     8.66e-009       5.528e-010     
  -0.9            -0.00039329     -4.148e-009     1.0986e-009    
  -0.95           -0.00039914     -1.6569e-008    1.2547e-009    
  -1              -0.0004044      -1.0865e-008    1.1643e-009    
  -1.05           -0.00040948     -1.1547e-008    1.1644e-009    
  -1.1            -0.00041416     -1.2687e-008    1.6274e-009    
  -1.15           -0.00041898     -1.6371e-008    1.2748e-009    
  -1.2            -0.00042354     -1.1077e-008    1.1618e-009    
  -1.25           -0.00042662     -9.605e-009     -3.949e-010    
  -1.3            -0.00043058     2.463e-009      -1.2592e-009   
  -1.35           -0.0004363      8.677e-009      7.43e-010      
  -1.4            -0.00044005     -6.677e-009     1.1375e-009    
  -1.45           -0.00044381     -1.1296e-008    1.1608e-009    
  -1.5            -0.00044661     -9.606e-009     -3.74e-010     
  -1.55           -0.00044994     2.338e-009      -1.2599e-009   
  -1.6            -0.00045523     8.556e-009      7.282e-010     
  -1.65           -0.00045865     -6.238e-009     1.1339e-009    
  -1.7            -0.00046215     -1.1469e-008    1.1638e-009    
  -1.75           -0.00046551     -1.1291e-008    1.1645e-009    
  -1.8            -0.00046865     -1.2248e-008    1.7007e-009    
END_DB

BEGIN_DB
 ICCAP_VAR VG         -1.44          
 ICCAP_VAR VS         0              
 ICCAP_VAR VB         0              

 #VD              ID              IB              IG             
  0               7.452e-007      -1.1185e-008    1.6825e-009    
  -0.05           -8.2341e-005    8.791e-009      -2.4154e-009   
  -0.1            -0.0001606      8.92e-009       2.3555e-009    
  -0.15           -0.0002346      -1.0207e-008    1.1635e-009    
  -0.2            -0.00030347     -1.2129e-008    1.7347e-009    
  -0.25           -0.00036742     -8.723e-009     8.39e-011      
  -0.3            -0.00042586     1.1465e-008     -1.5474e-009   
  -0.35           -0.0004795      1.5072e-008     1.6252e-009    
  -0.4            -0.00052779     -1.6044e-008    1.2941e-009    
  -0.45           -0.00056986     -9.553e-009     -2.621e-010    
  -0.5            -0.00060693     1.34e-009       -1.2606e-009   
  -0.55           -0.00064071     8.553e-009      6.11e-010      
  -0.6            -0.00066903     -4.475e-009     1.1065e-009    
  -0.65           -0.00069319     -8.782e-009     3.41e-011      
  -0.7            -0.00071352     1.2434e-008     -1.5011e-009   
  -0.75           -0.00073237     8.168e-009      2.399e-010     
  -0.8            -0.00074964     -1.6872e-008    1.2491e-009    
  -0.85           -0.00076414     -9.543e-009     1.1609e-009    
  -0.9            -0.0007769      -1.1064e-008    1.1631e-009    
  -0.95           -0.00078826     -1.2038e-008    1.7956e-009    
  -1              -0.00079902     -1.5e-008       1.4095e-009    
  -1.05           -0.00080792     -9.485e-009     -1.828e-010    
  -1.1            -0.00081631     3.99e-010       -1.268e-009    
  -1.15           -0.00082615     8.686e-009      5.44e-010      
  -1.2            -0.00083409     -3.978e-009     1.0908e-009    
  -1.25           -0.000842       -1.6312e-008    1.28e-009      
  -1.3            -0.00084803     -9.508e-009     -2.713e-010    
  -1.35           -0.00085431     1.611e-009      -1.2585e-009   
  -1.4            -0.00086273     8.561e-009      6.204e-010     
  -1.45           -0.00086902     -4.684e-009     1.1105e-009    
  -1.5            -0.00087459     -8.763e-009     1.54e-011      
  -1.55           -0.00087941     1.268e-008      -1.4883e-009   
  -1.6            -0.00088555     8.268e-009      2.504e-010     
  -1.65           -0.00089249     -1.7074e-008    1.2383e-009    
  -1.7            -0.00089811     -1.072e-008     1.1645e-009    
  -1.75           -0.0009029      -1.1805e-008    1.1609e-009    
  -1.8            -0.00090807     -1.3152e-008    1.5986e-009    
END_DB

BEGIN_DB
 ICCAP_VAR VG         -1.8           
 ICCAP_VAR VS         0              
 ICCAP_VAR VB         0              

 #VD              ID              IB              IG             
  0               7.8922e-007     1.0557e-008     4.35e-010      
  -0.05           -0.00010261     -1.7186e-008    -2.028e-010    
  -0.1            -0.00020212     6.7e-010        -1.2673e-009   
  -0.15           -0.00029825     8.653e-009      5.599e-010     
  -0.2            -0.00039053     -3.98e-009      1.0956e-009    
  -0.25           -0.00047892     -1.6645e-008    1.2535e-009    
  -0.3            -0.00056319     -1.0836e-008    1.1631e-009    
  -0.35           -0.00064245     -1.1651e-008    1.1631e-009    
  -0.4            -0.00071725     -1.2959e-008    1.6141e-009    
  -0.45           -0.00078723     -1.6574e-008    1.2662e-009    
  -0.5            -0.00085239     -1.0952e-008    1.1604e-009    
  -0.55           -0.00091139     -9.595e-009     -4.087e-010    
  -0.6            -0.00096602     2.519e-009      -1.2567e-009   
  -0.65           -0.00101725     8.657e-009      7.582e-010     
  -0.7            -0.00106213     -6.899e-009     1.1371e-009    
  -0.75           -0.00110259     -1.1081e-008    1.1612e-009    
  -0.8            -0.00113737     -9.532e-009     -3.94e-010     
  -0.85           -0.001168       8.71e-009       -1.1067e-009   
  -0.9            -0.0011964      3.084e-009      -1.2372e-009   
  -0.95           -0.0012225      1.4179e-008     1.4443e-009    
  -1              -0.0012457      -9.646e-009     1.1564e-009    
  -1.05           -0.0012646      -1.2465e-008    1.6652e-009    
  -1.1            -0.0012825      -1.6067e-008    1.2961e-009    
  -1.15           -0.0012975      -9.522e-009     -2.59e-010     
  -1.2            -0.0013112      1.323e-009      -1.2621e-009   
  -1.25           -0.0013263      8.652e-009      6.06e-010      
  -1.3            -0.0013388      -4.502e-009     1.1063e-009    
  -1.35           -0.0013496      -8.833e-009     4e-011         
  -1.4            -0.0013588      1.2178e-008     -1.5024e-009   
  -1.45           -0.0013697      8.04e-009       2.308e-010     
  -1.5            -0.0013804      -1.6932e-008    1.2507e-009    
  -1.55           -0.0013896      -9.482e-009     1.1581e-009    
  -1.6            -0.0013983      -1.0937e-008    1.1615e-009    
  -1.65           -0.0014063      -1.1876e-008    1.7885e-009    
  -1.7            -0.0014144      -1.4872e-008    1.3999e-009    
  -1.75           -0.001421       -9.523e-009     -1.789e-010    
  -1.8            -0.0014275      4.86e-010       -1.2674e-009   
END_DB

BEGIN_DB
 ICCAP_VAR VG         0              
 ICCAP_VAR VS         0              
 ICCAP_VAR VB         0.9            

 #VD              ID              IB              IG             
  0               9.196e-010      1.909e-009      1.0825e-009    
  -0.05           1.1194e-009     1.2854e-008     -1.2761e-009   
  -0.1            -1.3641e-009    2.526e-009      -2.3731e-009   
  -0.15           -1.641e-010     -1.1403e-008    1.1552e-009    
  -0.2            -3.881e-010     -1.253e-008     1.1628e-009    
  -0.25           -6.19e-010      -1.4626e-008    1.7978e-009    
  -0.3            6.096e-010      -2.5e-011       -1.2496e-009   
  -0.35           -1.5887e-009    6.911e-009      -2.1214e-009   
  -0.4            -2.5658e-009    -9.565e-009     6.63e-011      
  -0.45           -8.127e-010     -1.3038e-008    1.1611e-009    
  -0.5            -1.0561e-009    -1.5298e-008    1.7099e-009    
  -0.55           -1.781e-009     -1.269e-009     -1.4783e-009   
  -0.6            -1.0671e-009    -1.2567e-008    1.1621e-009    
  -0.65           -1.3592e-009    -1.4768e-008    1.7843e-009    
  -0.7            -3.476e-010     -1.57e-010      1.5026e-009    
  -0.75           -2.0231e-009    1.4826e-008     -1.2617e-009   
  -0.8            -2.0522e-009    3.055e-009      -1.2558e-009   
  -0.85           -2.1097e-009    2.524e-009      -1.2537e-009   
  -0.9            -2.1776e-009    2.089e-009      -1.2517e-009   
  -0.95           -2.2314e-009    4.702e-009      -1.2468e-009   
  -1              -2.3106e-009    7.98e-009       -1.2333e-009   
  -1.05           -2.4188e-009    1.1682e-008     -1.8454e-009   
  -1.1            -2.625e-009     -1.0629e-008    1.1432e-009    
  -1.15           -3.0623e-009    -1.1902e-008    1.1608e-009    
  -1.2            -3.5299e-009    -1.3472e-008    1.1622e-009    
  -1.25           -3.9885e-009    -1.562e-008     1.6564e-009    
  -1.3            -2.8541e-009    1.3927e-008     1.1816e-009    
  -1.35           -3.3823e-009    1.5032e-008     1.3724e-009    
  -1.4            -3.1049e-009    8.659e-009      1.458e-010     
  -1.45           -3.4528e-009    9.046e-009      2.702e-010     
  -1.5            -3.9297e-009    8.692e-009      4.203e-010     
  -1.55           -4.4626e-009    8.466e-009      5.214e-010     
  -1.6            -5.0981e-009    9.201e-009      6.564e-010     
  -1.65           -5.8191e-009    1.0585e-008     8.15e-010      
  -1.7            -6.6241e-009    1.2916e-008     9.954e-010     
  -1.75           -7.471e-009     1.3888e-008     1.1826e-009    
  -1.8            -8.3535e-009    1.495e-008      1.3771e-009    
END_DB

BEGIN_DB
 ICCAP_VAR VG         -0.36          
 ICCAP_VAR VS         0              
 ICCAP_VAR VB         0.9            

 #VD              ID              IB              IG             
  0               -5.5722e-010    2.004e-009      1.2085e-009    
  -0.05           -8.1037e-007    8.5e-009        -1.477e-009    
  -0.1            -1.208e-006     -1.5477e-008    -2.1757e-009   
  -0.15           -1.4406e-006    7.153e-009      1.25e-010      
  -0.2            -1.6624e-006    -1.3302e-008    1.5571e-009    
  -0.25           -1.8394e-006    -1.5213e-008    1.353e-009     
  -0.3            -2.0109e-006    -6.155e-009     1.1301e-009    
  -0.35           -2.179e-006     -1.4104e-008    1.1484e-009    
  -0.4            -2.3533e-006    -1.1263e-008    1.1577e-009    
  -0.45           -2.5266e-006    -1.0762e-008    1.1605e-009    
  -0.5            -2.7021e-006    -1.0911e-008    1.1617e-009    
  -0.55           -2.8792e-006    -1.119e-008     1.1606e-009    
