! VERSION = 6.00
BEGIN_HEADER
 ICCAP_INPUTS
  VG         V  B GROUND SMU4 0.001 LIN        2    0          -1.8       6    -0.36     
  VS         V  E GROUND SMU2 0.1 CON        0
  VD         V  S GROUND SMU1 0.1 LIN        1    0          -1.8       37   -0.05     
  VB         V  C GROUND SMU3 0.1 LIN        3    0          0.9        2    0.9       
 ICCAP_OUTPUTS
  ID         I  S GROUND SMU1 B
  IB         I  C GROUND SMU3 B
  IG         I  B GROUND SMU4 B
END_HEADER

BEGIN_DB
 ICCAP_VAR VG         0              
 ICCAP_VAR VS         0              
 ICCAP_VAR VB         0              

 #VD              ID              IB              IG             
  0               9.018e-010      1.8466e-008     9.597e-010     
  -0.05           2.013e-009      -5.406e-009     1.3389e-009    
  -0.1            1.8562e-009     1.2196e-008     -1.4223e-009   
  -0.15           -2.2126e-009    8.407e-009      -1.037e-009    
  -0.2            -1.7406e-009    -1.1872e-008    1.4988e-009    
  -0.25           2.2968e-009     -8.675e-009     8.946e-010     
  -0.3            2.249e-009      9.359e-009      1.0507e-009    
  -0.35           2.1407e-009     1.0718e-008     1.2056e-009    
  -0.4            1.9167e-009     1.065e-008      -2.286e-010    
  -0.45           8.722e-010      2.4995e-008     -1.5485e-009   
  -0.5            -1.4641e-009    6.895e-009      -1.7325e-009   
  -0.55           -2.2054e-009    -1.1397e-008    -3.678e-010    
  -0.6            -1.3861e-009    -2.529e-008     2.5106e-009    
  -0.65           2.1616e-009     -3.146e-009     1.1866e-009    
  -0.7            1.9802e-009     1.1818e-008     1.3498e-009    
  -0.75           1.8612e-009     1.2287e-008     -1.4181e-009   
  -0.8            -2.2135e-009    8.623e-009      -1.0499e-009   
  -0.85           -1.7492e-009    -1.1794e-008    1.4793e-009    
  -0.9            2.2963e-009     -8.66e-009      9.039e-010     
  -0.95           2.2377e-009     9.348e-009      1.0611e-009    
  -1              2.1255e-009     9.732e-009      1.2174e-009    
  -1.05           1.922e-009      1.0659e-008     -2.192e-010    
  -1.1            8.808e-010      2.5087e-008     -1.5494e-009   
  -1.15           -1.4678e-009    7.065e-009      -1.7427e-009   
  -1.2            -2.2098e-009    -1.15e-008      -3.89e-010     
  -1.25           -1.3952e-009    -2.4796e-008    2.486e-009     
  -1.3            2.1455e-009     -3.211e-009     1.1929e-009    
  -1.35           1.9103e-009     1.0699e-008     -2.409e-010    
  -1.4            8.61e-010       2.4681e-008     -1.5654e-009   
  -1.45           -1.4889e-009    6.99e-009       -1.7307e-009   
  -1.5            -2.2075e-009    -1.1527e-008    -3.678e-010    
  -1.55           -1.378e-009     -2.5165e-008    2.5142e-009    
  -1.6            2.1596e-009     -3.035e-009     1.1792e-009    
  -1.65           1.9837e-009     1.1659e-008     1.3455e-009    
  -1.7            1.855e-009      1.2133e-008     -1.4277e-009   
  -1.75           -1.302e-009     8.536e-009      -1.8737e-009   
  -1.8            -1.6898e-009    -1.3288e-008    1.6551e-009    
END_DB

BEGIN_DB
 ICCAP_VAR VG         -0.36          
 ICCAP_VAR VS         0              
 ICCAP_VAR VB         0              

 #VD              ID              IB              IG             
  0               -9.277e-010     -1.6389e-008    -1.1547e-009   
  -0.05           -3.3727e-008    1.1034e-008     2.7844e-009    
  -0.1            -5.1325e-008    -1.7095e-008    1.5832e-009    
  -0.15           -5.7497e-008    -2.2761e-008    1.9161e-009    
  -0.2            -5.9623e-008    -2.6449e-008    2.2755e-009    
  -0.25           -6.067e-008     -2.6655e-008    2.5857e-009    
  -0.3            -6.1993e-008    -1.2849e-008    2.228e-010     
  -0.35           -6.1203e-008    8.511e-009      -1.3443e-009   
  -0.4            -5.8766e-008    9.61e-009       1.0184e-009    
  -0.45           -6.2501e-008    -2.1047e-008    1.5255e-009    
  -0.5            -6.4104e-008    -1.1249e-008    -4.94e-010     
  -0.55           -6.2495e-008    1.0815e-008     -2.2246e-009   
  -0.6            -6.0377e-008    1.0795e-008     1.4327e-009    
  -0.65           -6.4317e-008    -2.7057e-008    2.5273e-009    
  -0.7            -6.5311e-008    -1.2418e-008    1.865e-010     
  -0.75           -6.4269e-008    8.816e-009      -1.339e-009    
  -0.8            -6.1739e-008    9.557e-009      1.0601e-009    
  -0.85           -6.5348e-008    -2.1701e-008    1.4763e-009    
  -0.9            -6.6531e-008    -2.0341e-008    1.768e-009     
  -0.95           -6.6678e-008    -2.5235e-008    2.1191e-009    
  -1              -6.6652e-008    -2.7136e-008    2.4677e-009    
  -1.05           -6.752e-008     -1.2011e-008    1.456e-010     
  -1.1            -6.6318e-008    8.778e-009      -1.3293e-009   
  -1.15           -6.3794e-008    9.671e-009      1.1033e-009    
  -1.2            -6.7462e-008    -2.2612e-008    1.4355e-009    
  -1.25           -6.8642e-008    -1.9024e-008    1.6936e-009    
  -1.3            -6.8649e-008    -2.4325e-008    2.0538e-009    
  -1.35           -6.8578e-008    -2.7037e-008    2.4036e-009    
  -1.4            -6.9415e-008    -1.1694e-008    1.092e-010     
  -1.45           -6.8145e-008    9.142e-009      -1.3218e-009   
  -1.5            -6.5675e-008    9.46e-009       1.1394e-009    
  -1.55           -6.9295e-008    -2.3467e-008    1.3926e-009    
  -1.6            -7.0363e-008    -1.7774e-008    1.6274e-009    
  -1.65           -7.0428e-008    -2.3401e-008    1.9693e-009    
  -1.7            -7.0281e-008    -2.6783e-008    2.3336e-009    
  -1.75           -7.1038e-008    -1.1596e-008    6.73e-011      
  -1.8            -6.9716e-008    9.241e-009      -1.3138e-009   
END_DB

BEGIN_DB
 ICCAP_VAR VG         -0.72          
 ICCAP_VAR VS         0              
 ICCAP_VAR VB         0              

 #VD              ID              IB              IG             
  0               -1.299e-009     -3.5e-010       1.641e-010     
  -0.05           -3.3138e-007    1.08e-009       2.365e-009     
  -0.1            -5.8663e-007    -2.5089e-008    2.1152e-009    
  -0.15           -7.7704e-007    -2.1723e-008    1.8554e-009    
  -0.2            -9.106e-007     -1.1363e-008    -6.59e-010     
  -0.25           -9.9952e-007    2.0883e-008     -1.5562e-009   
  -0.3            -1.06321e-006   1.0629e-008     7.863e-010     
  -0.35           -1.10932e-006   -2.284e-008     1.4209e-009    
  -0.4            -1.13518e-006   -2.6456e-008    2.6109e-009    
  -0.45           -1.1475e-006    -2.7043e-008    -1.9318e-009   
  -0.5            -1.1564e-006    1.186e-008      -2.662e-010    
  -0.55           -1.1746e-006    -1.137e-008     2.8221e-009    
  -0.6            -1.1834e-006    -1.357e-008     1.3962e-009    
  -0.65           -1.1905e-006    -1.3133e-008    2.389e-010     
  -0.7            -1.1853e-006    9.118e-009      -1.3072e-009   
  -0.75           -1.2004e-006    9.882e-009      1.4511e-009    
  -0.8            -1.2048e-006    -2.4954e-008    2.1272e-009    
  -0.85           -1.2091e-006    -2.4664e-008    2.0713e-009    
  -0.9            -1.2136e-006    -2.4009e-008    2.0181e-009    
  -0.95           -1.2172e-006    -2.3365e-008    1.972e-009     
  -1              -1.2214e-006    -2.2779e-008    1.9214e-009    
  -1.05           -1.2246e-006    -2.192e-008     1.8714e-009    
  -1.1            -1.2295e-006    -2.1202e-008    1.8227e-009    
  -1.15           -1.2323e-006    -2.047e-008     1.775e-009     
  -1.2            -1.2366e-006    -1.9575e-008    1.724e-009     
  -1.25           -1.2373e-006    -1.1426e-008    -6.078e-010    
  -1.3            -1.2331e-006    1.7614e-008     -1.7304e-009   
  -1.35           -1.2421e-006    1.2058e-008     2.0545e-009    
  -1.4            -1.2513e-006    -1.2844e-008    2.2e-010       
  -1.45           -1.2427e-006    9.138e-009      -1.3026e-009   
  -1.5            -1.2557e-006    1.0933e-008     1.4765e-009    
  -1.55           -1.2574e-006    -2.4496e-008    2.0873e-009    
  -1.6            -1.2604e-006    -2.4086e-008    2.0256e-009    
  -1.65           -1.263e-006     -2.3531e-008    1.9733e-009    
  -1.7            -1.2652e-006    -2.2774e-008    1.9213e-009    
  -1.75           -1.2666e-006    -1.1321e-008    -4.578e-010    
  -1.8            -1.2615e-006    1.4796e-008     -1.8892e-009   
END_DB

BEGIN_DB
 ICCAP_VAR VG         -1.08          
 ICCAP_VAR VS         0              
 ICCAP_VAR VB         0              

 #VD              ID              IB              IG             
  0               -1.915e-009     1.0632e-008     -2.921e-010    
  -0.05           -9.6967e-007    -1.0834e-008    2.5565e-009    
  -0.1            -1.8285e-006    1.0627e-008     2.0136e-009    
  -0.15           -2.5724e-006    -2.3225e-008    1.9529e-009    
  -0.2            -3.2076e-006    -2.2462e-008    1.9028e-009    
  -0.25           -3.7406e-006    -2.1711e-008    1.8534e-009    
  -0.3            -4.1817e-006    -2.0901e-008    1.8067e-009    
  -0.35           -4.5325e-006    -1.1358e-008    -5.598e-010    
  -0.4            -4.8014e-006    1.6546e-008     -1.7927e-009   
  -0.45           -5.0408e-006    1.2175e-008     2.0142e-009    
  -0.5            -5.219e-006     -1.3184e-008    2.548e-010     
  -0.55           -5.3216e-006    9.286e-009      -1.316e-009    
  -0.6            -5.4544e-006    1.0548e-008     1.4372e-009    
  -0.65           -5.5205e-006    -2.5321e-008    2.1594e-009    
  -0.7            -5.5807e-006    -2.5052e-008    2.1098e-009    
  -0.75           -5.6257e-006    -2.445e-008     2.0531e-009    
  -0.8            -5.6667e-006    -2.3825e-008    2.0048e-009    
  -0.85           -5.6978e-006    -2.3106e-008    1.9492e-009    
  -0.9            -5.7266e-006    -2.2479e-008    1.8986e-009    
  -0.95           -5.7524e-006    -2.1753e-008    1.8453e-009    
  -1              -5.776e-006     -2.0979e-008    1.8066e-009    
  -1.05           -5.7973e-006    -2.014e-008     1.7446e-009    
  -1.1            -5.8098e-006    -1.1418e-008    -5.944e-010    
  -1.15           -5.8107e-006    1.7191e-008     -1.7518e-009   
  -1.2            -5.847e-006     1.2066e-008     2.0459e-009    
  -1.25           -5.8735e-006    -1.2759e-008    2.315e-010     
  -1.3            -5.8563e-006    9.191e-009      -1.3074e-009   
  -1.35           -5.9084e-006    9.731e-009      1.4653e-009    
  -1.4            -5.9104e-006    -2.4715e-008    2.1026e-009    
  -1.45           -5.9231e-006    -2.4504e-008    2.0599e-009    
  -1.5            -5.9336e-006    -2.3737e-008    2.0029e-009    
  -1.55           -5.9483e-006    -2.3188e-008    1.9523e-009    
  -1.6            -5.9594e-006    -2.2496e-008    1.8992e-009    
  -1.65           -5.9714e-006    -2.1726e-008    1.8494e-009    
  -1.7            -5.9835e-006    -2.0978e-008    1.7993e-009    
  -1.75           -5.9946e-006    -2.0035e-008    1.7477e-009    
  -1.8            -6.0055e-006    -1.9265e-008    1.6986e-009    
END_DB

BEGIN_DB
 ICCAP_VAR VG         -1.44          
 ICCAP_VAR VS         0              
 ICCAP_VAR VB         0              

 #VD              ID              IB              IG             
  0               -1.9327e-009    1.1536e-008     5.986e-010     
  -0.05           -1.6631e-006    -1.1272e-008    -1.3573e-009   
  -0.1            -3.2236e-006    9.28e-009       1.2213e-009    
  -0.15           -4.6809e-006    -2.7651e-008    2.4734e-009    
  -0.2            -6.0301e-006    -2.7536e-008    2.4302e-009    
  -0.25           -7.2728e-006    -2.7296e-008    2.3807e-009    
  -0.3            -8.4072e-006    -2.7124e-008    2.3368e-009    
  -0.35           -9.4307e-006    -2.6738e-008    2.2847e-009    
  -0.4            -1.03456e-005   -2.6273e-008    2.2349e-009    
  -0.45           -1.11536e-005   -2.5615e-008    2.1816e-009    
  -0.5            -1.1859e-005    -2.4433e-008    1.6493e-009    
  -0.55           -1.2463e-005    -1.2795e-008    2.366e-010     
  -0.6            -1.2934e-005    9.032e-009      -2.3448e-009   
  -0.65           -1.3395e-005    1.2387e-008     1.9805e-009    
  -0.7            -1.3756e-005    -2.1348e-008    1.5378e-009    
  -0.75           -1.4046e-005    -2.7424e-008    2.4338e-009    
  -0.8            -1.4277e-005    -2.012e-008     1.7733e-009    
  -0.85           -1.4477e-005    -1.265e-008     2.071e-010     
  -0.9            -1.4587e-005    9.574e-009      -2.3139e-009   
  -0.95           -1.4759e-005    1.2449e-008     2.0157e-009    
  -1              -1.4874e-005    -2.1794e-008    1.5024e-009    
  -1.05           -1.4968e-005    -2.7313e-008    2.3892e-009    
  -1.1            -1.5045e-005    -1.9236e-008    1.7302e-009    
  -1.15           -1.513e-005     -1.2276e-008    1.845e-010     
  -1.2            -1.5141e-005    9.964e-009      -2.2605e-009   
  -1.25           -1.5242e-005    1.2233e-008     2.0478e-009    
  -1.3            -1.5301e-005    -2.2256e-008    1.4683e-009    
  -1.35           -1.5349e-005    -2.6954e-008    2.3364e-009    
  -1.4            -1.5397e-005    -1.8621e-008    1.6857e-009    
  -1.45           -1.5404e-005    -1.0503e-008    -9.807e-010    
  -1.5            -1.5432e-005    2.7332e-008     -1.3627e-009   
  -1.55           -1.5539e-005    1.0247e-008     1.5464e-009    
  -1.6            -1.556e-005     -1.3793e-008    1.4426e-009    
  -1.65           -1.5589e-005    -2.6517e-008    2.283e-009     
  -1.7            -1.5621e-005    -1.7659e-008    1.6443e-009    
  -1.75           -1.5618e-005    -1.038e-008     -1.0056e-009   
  -1.8            -1.5635e-005    2.7115e-008     -1.3582e-009   
END_DB

BEGIN_DB
 ICCAP_VAR VG         -1.8           
 ICCAP_VAR VS         0              
 ICCAP_VAR VB         0              

 #VD              ID              IB              IG             
  0               -1.9594e-009    -1.92e-010      -7.789e-010    
  -0.05           -2.2265e-006    1.0607e-008     2.8504e-009    
  -0.1            -4.3709e-006    -1.4987e-008    1.4918e-009    
  -0.15           -6.4189e-006    -1.1476e-008    -8.099e-010    
  -0.2            -8.3753e-006    2.136e-008      -1.5393e-009   
  -0.25           -1.02525e-005   1.1105e-008     6.71e-010      
  -0.3            -1.2033e-005    -2.1807e-008    9.896e-010     
  -0.35           -1.3723e-005    -2.6705e-008    2.3369e-009    
  -0.4            -1.5308e-005    -1.8836e-008    1.6828e-009    
  -0.45           -1.6785e-005    -1.0573e-008    -9.873e-010    
  -0.5            -1.8163e-005    2.7308e-008     -1.3574e-009   
  -0.55           -1.9485e-005    1.0359e-008     1.5664e-009    
  -0.6            -2.066e-005     -1.3972e-008    1.435e-009     
  -0.65           -2.1736e-005    -2.6512e-008    2.2895e-009    
  -0.7            -2.2714e-005    -1.7936e-008    1.6343e-009    
  -0.75           -2.3557e-005    -1.039e-008     -1.0112e-009   
  -0.8            -2.4317e-005    2.71e-008       -1.3512e-009   
  -0.85           -2.5055e-005    1.0613e-008     1.6009e-009    
  -0.9            -2.5634e-005    -1.3313e-008    1.3957e-009    
  -0.95           -2.6126e-005    -2.6242e-008    2.2315e-009    
  -1              -2.6534e-005    -1.156e-008     -6.889e-010    
  -1.05           -2.6871e-005    7.851e-009      -1.3679e-009   
  -1.1            -2.7242e-005    1.1019e-008     1.4783e-009    
  -1.15           -2.7479e-005    -1.5164e-008    1.5096e-009    
  -1.2            -2.77e-005      -2.7328e-008    2.4226e-009    
  -1.25           -2.7872e-005    -1.1476e-008    -5.435e-010    
  -1.3            -2.8002e-005    2.3406e-008     -1.4513e-009   
  -1.35           -2.8211e-005    9.361e-009      1.1259e-009    
  -1.4            -2.8325e-005    -2.4485e-008    2.069e-009     
  -1.45           -2.8422e-005    -1.1351e-008    -7.891e-010    
  -1.5            -2.8501e-005    2.6865e-008     -1.3911e-009   
  -1.55           -2.868e-005     9.719e-009      1.3244e-009    
  -1.6            -2.8743e-005    -1.909e-008     1.7164e-009    
  -1.65           -2.884e-005     -2.6764e-008    2.6196e-009    
  -1.7            -2.8911e-005    -2.3944e-008    2.0171e-009    
  -1.75           -2.8956e-005    -1.1218e-008    -8.202e-010    
  -1.8            -2.9005e-005    2.7035e-008     -1.387e-009    
END_DB

BEGIN_DB
 ICCAP_VAR VG         0              
 ICCAP_VAR VS         0              
 ICCAP_VAR VB         0.9            

 #VD              ID              IB              IG             
  0               -1.1707e-009    -9.131e-009     -1.3146e-009   
  -0.05           -1.163e-009     -2.7069e-008    1.3283e-009    
  -0.1            2.2521e-009     -9.832e-009     1.0984e-009    
  -0.15           2.1024e-009     1.0042e-008     1.2648e-009    
  -0.2            1.9859e-009     1.0726e-008     -1.577e-010    
  -0.25           9.61e-010       2.6124e-008     -1.4914e-009   
  -0.3            -1.3557e-009    8.168e-009      -1.8089e-009   
  -0.35           -2.1991e-009    -1.152e-008     -5.014e-010    
  -0.4            -1.44e-009      -2.2541e-008    2.3137e-009    
  -0.45           2.0715e-009     -4.417e-009     1.2989e-009    
  -0.5            1.8337e-009     1.1587e-008     1.4861e-009    
  -0.55           2.081e-009      1.0927e-008     6e-011         
  -0.6            2.1851e-009     1.0959e-008     2.696e-010     
  -0.65           2.267e-009      1.1085e-008     4.903e-010     
  -0.7            2.3208e-009     1.0352e-008     6.952e-010     
  -0.75           2.3289e-009     9.619e-009      8.721e-010     
  -0.8            2.2854e-009     9.11e-009       1.0326e-009    
  -0.85           2.1668e-009     9.619e-009      1.1934e-009    
  -0.9            1.9476e-009     1.0729e-008     -2.37e-010     
  -0.95           9.098e-010      2.5066e-008     -1.554e-009    
  -1              -1.4273e-009    7.19e-009       -1.7518e-009   
  -1.05           -2.1815e-009    -1.1516e-008    -4.117e-010    
  -1.1            -1.3794e-009    -2.4271e-008    2.4427e-009    
  -1.15           2.1514e-009     -3.508e-009     1.2226e-009    
  -1.2            1.9642e-009     1.0792e-008     -2.043e-010    
  -1.25           9.306e-010      2.5606e-008     -1.527e-009    
  -1.3            -1.3954e-009    7.596e-009      -1.7784e-009   
  -1.35           -2.1892e-009    -1.1414e-008    -4.559e-010    
  -1.4            -1.41e-009      -2.3716e-008    2.3953e-009    
  -1.45           2.1158e-009     -3.883e-009     1.2579e-009    
  -1.5            1.9797e-009     1.0764e-008     -1.751e-010    
  -1.55           9.54e-010       2.6042e-008     -1.5021e-009   
  -1.6            -1.3648e-009    8.017e-009      -1.8027e-009   
  -1.65           -2.1984e-009    -1.152e-008     -4.951e-010    
  -1.7            -1.4272e-009    -2.2789e-008    2.3417e-009    
  -1.75           2.0817e-009     -4.327e-009     1.2881e-009    
  -1.8            1.8492e-009     1.1962e-008     1.4673e-009    
END_DB

BEGIN_DB
 ICCAP_VAR VG         -0.36          
 ICCAP_VAR VS         0              
 ICCAP_VAR VB         0.9            

 #VD              ID              IB              IG             
  0               -8.853e-010     -2.3723e-008    -1.0069e-009   
  -0.05           -1.559e-009     6.913e-009      -1.721e-009    
  -0.1            -2.2977e-009    -1.1477e-008    -3.776e-010    
  -0.15           -1.4899e-009    -2.5067e-008    2.4964e-009    
  -0.2            2.0151e-009     -3.278e-009     2.041e-010     
  -0.25           2.1038e-009     1.1137e-008     4.184e-010     
  -0.3            2.1671e-009     1.0642e-008     6.255e-010     
  -0.35           2.1945e-009     9.624e-009      8.153e-010     
  -0.4            1.3187e-009     9.146e-009      -1.3328e-009   
  -0.45           -1.18e-011      8.334e-009      -1.2972e-009   
  -0.5            1.547e-010      1.122e-008      -2.5037e-009   
  -0.55           -1.3347e-009    1.372e-009      -1.9693e-009   
