! VERSION = 6.00
BEGIN_HEADER
 ICCAP_INPUTS
  VG         V  B GROUND SMU4 0.001 LIN        1    0          -1.8       37   -0.05     
  VS         V  E GROUND SMU2 0.1 CON        0
  VB         V  C GROUND SMU3 0.1 LIN        3    0          1.8        3    0.9       
  VD         V  S GROUND SMU1 0.1 LIN        2    -0.1       -1.8       2    -1.7      
 ICCAP_OUTPUTS
  IG         I  B GROUND SMU4 B
  ID         I  S GROUND SMU1 B
  IB         I  C GROUND SMU3 B
END_HEADER

BEGIN_DB
 ICCAP_VAR VS         0              
 ICCAP_VAR VB         0              
 ICCAP_VAR VD         -0.1           

 #VG              IG              ID              IB             
  0               -1.2715e-009    -5.402e-009     -1.307e-008    
  -0.05           -1.5164e-009    -1.452e-008     -6.453e-009    
  -0.1            2.1189e-009     -2.9434e-008    -2.4945e-008   
  -0.15           1.4466e-009     -5.8617e-008    -7.998e-009    
  -0.2            2.8404e-009     -1.09635e-007   -8.849e-009    
  -0.25           -1.488e-010     -1.836e-007     8.474e-009     
  -0.3            -6.732e-010     -2.767e-007     -1.1018e-008   
  -0.35           1.7874e-009     -3.9562e-007    -2.0502e-008   
  -0.4            1.3061e-009     -5.3531e-007    -9.052e-009    
  -0.45           2.8724e-009     -7.0568e-007    -9.658e-009    
  -0.5            2.6261e-009     -8.9939e-007    -3.32e-010     
  -0.55           1.9515e-009     -1.12534e-006   -2.839e-009    
  -0.6            2.6519e-009     -1.3774e-006    2.0591e-008    
  -0.65           1.7115e-009     -1.6602e-006    1.2769e-008    
  -0.7            6.023e-010      -1.9577e-006    1.0665e-008    
  -0.75           1.0001e-009     -2.2913e-006    1.0071e-008    
  -0.8            1.4042e-009     -2.652e-006     1.1409e-008    
  -0.85           2.65e-010       -3.0231e-006    1.0146e-008    
  -0.9            7.33e-010       -3.435e-006     1.0615e-008    
  -0.95           1.1111e-009     -3.8711e-006    9.766e-009     
  -1              1.5337e-009     -4.3202e-006    1.1247e-008    
  -1.05           1.9807e-009     -4.7674e-006    1.2794e-008    
  -1.1            8.589e-010      -5.2145e-006    1.0714e-008    
  -1.15           1.2313e-009     -5.6705e-006    9.914e-009     
  -1.2            7.32e-011       -6.0982e-006    1.0285e-008    
  -1.25           5.564e-010      -6.5299e-006    1.0725e-008    
  -1.3            9.669e-010      -6.9508e-006    1.0454e-008    
  -1.35           1.3668e-009     -7.3588e-006    1.1167e-008    
  -1.4            1.809e-009      -7.7442e-006    1.3051e-008    
  -1.45           6.995e-010      -8.1076e-006    1.0671e-008    
  -1.5            1.0797e-009     -8.4699e-006    9.731e-009     
  -1.55           1.4952e-009     -8.8147e-006    1.2134e-008    
  -1.6            1.9419e-009     -9.141e-006     1.2764e-008    
  -1.65           8.243e-010      -9.4519e-006    1.0354e-008    
  -1.7            1.1926e-009     -9.7592e-006    9.853e-009     
  -1.75           3.39e-011       -1.00445e-005   1.04e-008      
  -1.8            5.185e-010      -1.03262e-005   1.0553e-008    
END_DB

BEGIN_DB
 ICCAP_VAR VS         0              
 ICCAP_VAR VB         0              
 ICCAP_VAR VD         -1.8           

 #VG              IG              ID              IB             
  0               -1.3034e-009    -3.1293e-008    -1.2525e-008   
  -0.05           2.3469e-009     -7.1677e-008    -2.6434e-008   
  -0.1            1.913e-010      -1.4792e-007    6.16e-009      
  -0.15           -2.099e-010     -2.722e-007     -1.0751e-008   
  -0.2            -7.382e-010     -4.5546e-007    -1.1088e-008   
  -0.25           1.6939e-009     -7.141e-007     -1.8852e-008   
  -0.3            1.2808e-009     -1.04615e-006   -9.04e-009     
  -0.35           -1.3706e-009    -1.4593e-006    -1.104e-008    
  -0.4            -1.3114e-009    -1.9737e-006    8.468e-009     
  -0.45           -2.2778e-009    -2.5953e-006    9.924e-009     
  -0.5            1.629e-010      -3.3554e-006    -1.2622e-008   
  -0.55           -2.604e-010     -4.2045e-006    -1.0782e-008   
  -0.6            2.3535e-009     -5.1902e-006    -2.6366e-008   
  -0.65           1.6278e-009     -6.3053e-006    -5.751e-009    
  -0.7            2.774e-009      -7.5625e-006    -8.813e-009    
  -0.75           1.9602e-009     -8.976e-006     1.2926e-008    
  -0.8            8.405e-010      -1.05191e-005   1.0734e-008    
  -0.85           -2.1594e-009    -1.2243e-005    1.0829e-008    
  -0.9            1.9578e-009     -1.4194e-005    -1.8221e-008   
  -0.95           1.3692e-009     -1.6299e-005    -8.999e-009    
  -1              2.8544e-009     -1.8598e-005    -9.152e-009    
  -1.05           2.7226e-009     -2.1072e-005    0              
  -1.1            5.893e-010      -2.3723e-005    1.0661e-008    
  -1.15           9.938e-010      -2.6609e-005    1.0299e-008    
  -1.2            1.3984e-009     -2.9669e-005    1.0463e-008    
  -1.25           2.528e-010      -3.2713e-005    1.0189e-008    
  -1.3            7.302e-010      -3.6045e-005    1.0838e-008    
  -1.35           1.1133e-009     -3.9524e-005    1.005e-008     
  -1.4            1.5365e-009     -4.3112e-005    1.1035e-008    
  -1.45           1.9753e-009     -4.6716e-005    1.2726e-008    
  -1.5            8.567e-010      -5.041e-005     1.077e-008     
  -1.55           1.2363e-009     -5.4298e-005    1.0016e-008    
  -1.6            6.73e-011       -5.8074e-005    1.0297e-008    
  -1.65           5.593e-010      -6.2068e-005    1.0641e-008    
  -1.7            9.724e-010      -6.6148e-005    1.0445e-008    
  -1.75           -2.15e-010      -7.0172e-005    1.1923e-008    
  -1.8            -1.4298e-009    -7.4267e-005    2.4168e-008    
END_DB

BEGIN_DB
 ICCAP_VAR VS         0              
 ICCAP_VAR VB         0.9            
 ICCAP_VAR VD         -0.1           

 #VG              IG              ID              IB             
  0               9.301e-010      8.811e-010      2.1e-008       
  -0.05           6.705e-010      2.2949e-009     -8.94e-009     
  -0.1            8.484e-010      2.2146e-009     9.982e-009     
  -0.15           -1.3271e-009    9.638e-010      9.826e-009     
  -0.2            -2.6218e-009    -2.8217e-009    8.461e-009     
  -0.25           -2.4565e-009    -7.3013e-009    8.22e-010      
  -0.3            -1.8124e-009    -2.0804e-008    -1.9312e-008   
  -0.35           -2.6914e-009    -5.1328e-008    -5.22e-009     
  -0.4            2.5349e-009     -1.10278e-007   -2.6781e-008   
  -0.45           -9.39e-010      -2.0212e-007    1.108e-008     
  -0.5            2.413e-010      -3.3356e-007    -1.4107e-008   
  -0.55           1.4713e-009     -4.9881e-007    -2.1793e-008   
  -0.6            2.8346e-009     -7.0185e-007    -9.019e-009    
  -0.65           2.0895e-009     -9.4114e-007    1.3112e-008    
  -0.7            -2.0983e-009    -1.2197e-006    -1.4803e-008   
  -0.75           1.247e-009      -1.5407e-006    -2.6689e-008   
  -0.8            2.8229e-009     -1.8905e-006    -1.1897e-008   
  -0.85           1.3643e-009     -2.2738e-006    1.1052e-008    
  -0.9            2.256e-010      -2.6729e-006    1.0265e-008    
  -0.95           7.061e-010      -3.1117e-006    1.0644e-008    
  -1              1.0897e-009     -3.5696e-006    9.64e-009      
  -1.05           1.5081e-009     -4.0364e-006    1.2106e-008    
  -1.1            1.9547e-009     -4.4932e-006    1.2807e-008    
  -1.15           8.355e-010      -4.946e-006     1.0458e-008    
  -1.2            1.2149e-009     -5.4038e-006    9.802e-009     
  -1.25           5.19e-011       -5.8301e-006    1.0342e-008    
  -1.3            5.468e-010      -6.2568e-006    1.0658e-008    
  -1.35           9.584e-010      -6.6714e-006    1.0438e-008    
  -1.4            -2.271e-010     -7.0639e-006    1.2154e-008    
  -1.45           -1.4337e-009    -7.4356e-006    2.4217e-008    
  -1.5            -1.3374e-009    -7.8016e-006    8.488e-009     
  -1.55           -2.525e-009     -8.1495e-006    7.709e-009     
  -1.6            -6.649e-010     -8.4925e-006    -1.1013e-008   
  -1.65           1.7945e-009     -8.8168e-006    -2.0519e-008   
  -1.7            1.313e-009      -9.1221e-006    -8.97e-009     
  -1.75           2.8582e-009     -9.4193e-006    -9.789e-009    
  -1.8            2.6267e-009     -9.6997e-006    -3.54e-010     
END_DB

BEGIN_DB
 ICCAP_VAR VS         0              
 ICCAP_VAR VB         0.9            
 ICCAP_VAR VD         -1.8           

 #VG              IG              ID              IB             
  0               -1.2934e-009    -1.3816e-009    -2.5141e-008   
  -0.05           9.66e-011       -2.7318e-009    -1.0858e-008   
  -0.1            -6.51e-011      -4.8781e-009    -1.0667e-008   
  -0.15           -2.933e-010     -1.13358e-008   -1.1022e-008   
  -0.2            2.5054e-009     -2.6108e-008    8.945e-009     
  -0.25           1.4894e-009     -6.8259e-008    1.2147e-008    
  -0.3            2.8658e-009     -1.5386e-007    -1.1041e-008   
  -0.35           2.6435e-009     -2.996e-007     -2.91e-010     
  -0.4            1.9788e-009     -5.2361e-007    -2.686e-009    
  -0.45           1.3931e-009     -8.4221e-007    -8.68e-009     
  -0.5            -2.6981e-009    -1.2654e-006    -2.6825e-008   
  -0.55           -2.564e-010     -1.82e-006      -1.0744e-008   
  -0.6            -7.759e-010     -2.4999e-006    -1.0962e-008   
  -0.65           1.627e-009      -3.3417e-006    -1.7825e-008   
  -0.7            1.268e-009      -4.3277e-006    -8.871e-009    
  -0.75           2.8502e-009     -5.496e-006     -1.0553e-008   
  -0.8            3.463e-010      -6.791e-006     1.0236e-008    
  -0.85           8.049e-010      -8.3248e-006    1.0464e-008    
  -0.9            1.1851e-009     -1.00794e-005   9.86e-009      
  -0.95           -2.4358e-009    -1.197e-005     1.0173e-008    
  -1              1.6792e-009     -1.4134e-005    -1.8722e-008   
  -1.05           1.2811e-009     -1.6476e-005    -8.847e-009    
  -1.1            2.859e-009      -1.9031e-005    -1.0276e-008   
  -1.15           3.034e-010      -2.1678e-005    1.0276e-008    
  -1.2            7.751e-010      -2.4591e-005    1.0542e-008    
  -1.25           1.1517e-009     -2.7687e-005    9.727e-009     
  -1.3            -1.02e-011      -3.0798e-005    1.0556e-008    
  -1.35           4.783e-010      -3.4134e-005    1.047e-008     
  -1.4            9.009e-010      -3.7622e-005    1.0276e-008    
  -1.45           1.2922e-009     -4.1243e-005    1.0623e-008    
  -1.5            1.7318e-009     -4.4906e-005    1.2898e-008    
  -1.55           6.344e-010      -4.8543e-005    1.0683e-008    
  -1.6            1.031e-009      -5.2421e-005    9.826e-009     
  -1.65           1.4411e-009     -5.6382e-005    1.1818e-008    
  -1.7            3.144e-010      -6.0203e-005    1.0154e-008    
  -1.75           7.865e-010      -6.4252e-005    1.0559e-008    
  -1.8            1.1565e-009     -6.8385e-005    9.774e-009     
END_DB

BEGIN_DB
 ICCAP_VAR VS         0              
 ICCAP_VAR VB         1.8            
 ICCAP_VAR VD         -0.1           

 #VG              IG              ID              IB             
  0               7.484e-010      8.239e-010      2.6222e-008    
  -0.05           9.974e-010      2.3429e-009     -9.173e-009    
  -0.1            1.1628e-009     2.2416e-009     1.1463e-008    
  -0.15           -2.276e-010     1.9187e-009     1.0474e-008    
  -0.2            -5.06e-011      1.9814e-009     1.0274e-008    
  -0.25           1.537e-010      1.9707e-009     1.038e-008     
  -0.3            3.641e-010      1.6036e-009     1.0759e-008    
  -0.35           -2.5623e-009    -2.2111e-009    1.0392e-008    
  -0.4            -2.3585e-009    -9.8139e-009    1.185e-009     
  -0.45           1.377e-009      -2.7859e-008    1.1072e-008    
  -0.5            2.8564e-009     -7.5079e-008    -9.372e-009    
  -0.55           -2.947e-010     -1.6264e-007    8.81e-009      
  -0.6            -8.001e-010     -2.9557e-007    -1.0954e-008   
  -0.65           1.5999e-009     -4.8327e-007    -1.7266e-008   
  -0.7            1.2584e-009     -7.1563e-007    -8.684e-009    
  -0.75           2.8406e-009     -1.0001e-006    -1.1078e-008   
  -0.8            2.1579e-009     -1.3233e-006    7.894e-009     
  -0.85           1.0258e-009     -1.6944e-006    1.0174e-008    
  -0.9            1.4393e-009     -2.107e-006     1.0732e-008    
  -0.95           3.124e-010      -2.5304e-006    1.0295e-008    
  -1              7.815e-010      -2.9879e-006    1.0785e-008    
  -1.05           1.1608e-009     -3.4619e-006    9.8e-009       
  -1.1            -3.9e-012       -3.92e-006      1.0544e-008    
  -1.15           4.833e-010      -4.3873e-006    1.0536e-008    
  -1.2            9.103e-010      -4.85e-006      1.0277e-008    
  -1.25           1.3101e-009     -5.3019e-006    1.0592e-008    
  -1.3            1.7583e-009     -5.734e-006     1.294e-008     
  -1.35           6.505e-010      -6.1411e-006    1.0647e-008    
  -1.4            1.0412e-009     -6.5477e-006    9.799e-009     
  -1.45           1.4606e-009     -6.935e-006     1.1739e-008    
  -1.5            1.9148e-009     -7.3026e-006    1.3049e-008    
  -1.55           7.93e-010       -7.6476e-006    1.0393e-008    
  -1.6            1.1712e-009     -7.9925e-006    9.721e-009     
  -1.65           1.28e-011       -8.3116e-006    1.051e-008     
  -1.7            5.063e-010      -8.6237e-006    1.0615e-008    
  -1.75           9.235e-010      -8.9258e-006    1.048e-008     
  -1.8            1.3211e-009     -9.2181e-006    1.0084e-008    
END_DB

BEGIN_DB
 ICCAP_VAR VS         0              
 ICCAP_VAR VB         1.8            
 ICCAP_VAR VD         -1.8           

 #VG              IG              ID              IB             
  0               -1.2771e-009    -1.1597e-009    -1.0435e-008   
  -0.05           2.87e-011       -1.9891e-009    -1.0855e-008   
  -0.1            1.4518e-009     -1.15e-009      -2.5393e-008   
  -0.15           1.306e-009      3.95e-011       -9.119e-009    
  -0.2            2.827e-009      -7.669e-010     -9.773e-009    
  -0.25           1.8208e-009     -1.8914e-009    1.304e-008     
  -0.3            -2.4338e-009    -1.2865e-008    -2.6716e-008   
  -0.35           1.4535e-009     -3.7771e-008    -1.4843e-008   
  -0.4            2.8476e-009     -9.3188e-008    -9.06e-009     
  -0.45           2.4702e-009     -2.0262e-007    -1.3659e-008   
  -0.5            1.4385e-009     -3.9461e-007    1.0534e-008    
  -0.55           3.124e-010      -6.7957e-007    1.0175e-008    
  -0.6            7.757e-010      -1.09913e-006   1.0496e-008    
  -0.65           -1.3537e-009    -1.653e-006     -1.1001e-008   
  -0.7            -2.6225e-009    -2.3727e-006    7.976e-009     
  -0.75           -2.139e-009     -3.2774e-006    7.69e-010      
  -0.8            1.2514e-009     -4.3952e-006    -2.655e-008    
  -0.85           2.8344e-009     -5.7029e-006    -1.1684e-008   
  -0.9            1.3483e-009     -7.2314e-006    1.0207e-008    
  -0.95           1.7959e-009     -8.9731e-006    1.2979e-008    
  -1              6.889e-010      -1.08884e-005   1.0798e-008    
  -1.05           -6.46e-011      -1.3101e-005    7.981e-009     
  -1.1            2.5941e-009     -1.5487e-005    -2.6391e-008   
  -1.15           1.8955e-009     -1.8059e-005    -3.242e-009    
  -1.2            1.3574e-009     -2.0825e-005    -9.148e-009    
  -1.25           2.8606e-009     -2.3751e-005    -9.404e-009    
  -1.3            2.6993e-009     -2.6809e-005    -4.1e-011      
  -1.35           2.089e-009      -3.0046e-005    -2.099e-009    
  -1.4            1.4481e-009     -3.3401e-005    -8.251e-009    
  -1.45           2.8416e-009     -3.6871e-005    -8.949e-009    
  -1.5            2.7846e-009     -4.0405e-005    3.2e-010       
  -1.55           1.4198e-009     -4.4139e-005    1.0584e-008    
  -1.6            2.859e-010      -4.7758e-005    1.0222e-008    
  -1.65           7.567e-010      -5.161e-005     1.0844e-008    
  -1.7            1.1312e-009     -5.5557e-005    9.803e-009     
  -1.75           -3.56e-011      -5.9408e-005    1.0649e-008    
  -1.8            4.438e-010      -6.3403e-005    1.0472e-008    
END_DB

