! VERSION = 6.00
BEGIN_HEADER
 ICCAP_INPUTS
  VG         V  B GROUND SMU4 0.001 LIN        1    0          -1.8       37   -0.05     
  VS         V  E GROUND SMU2 0.1 CON        0
  VB         V  C GROUND SMU3 0.1 LIN        3    0          1.8        3    0.9       
  VD         V  S GROUND SMU1 0.1 LIN        2    -0.1       -1.8       2    -1.7      
 ICCAP_OUTPUTS
  IG         I  B GROUND SMU4 B
  ID         I  S GROUND SMU1 B
  IB         I  C GROUND SMU3 B
END_HEADER

BEGIN_DB
 ICCAP_VAR VS         0              
 ICCAP_VAR VB         0              
 ICCAP_VAR VD         -0.1           

 #VG              IG              ID              IB             
  0               1.0187e-009     7.574e-010      1.1557e-008    
  -0.05           -1.5502e-009    1.0201e-009     1.0358e-008    
  -0.1            -1.4352e-009    -2.6442e-009    6.803e-009     
  -0.15           -1.392e-009     -6.7458e-009    8.419e-009     
  -0.2            2.0199e-009     -1.5745e-008    8.381e-009     
  -0.25           8.839e-010      -4.0542e-008    1.0245e-008    
  -0.3            1.2539e-009     -8.978e-008     9.345e-009     
  -0.35           2.8758e-009     -1.7063e-007    -1.1518e-008   
  -0.4            2.6387e-009     -2.8436e-007    -3.83e-010     
  -0.45           1.9562e-009     -4.3084e-007    -2.315e-009    
  -0.5            1.3908e-009     -6.0751e-007    -7.565e-009    
  -0.55           2.8608e-009     -8.1129e-007    -9.227e-009    
  -0.6            2.148e-009      -1.03497e-006   1.2689e-008    
  -0.65           -1.3632e-009    -1.2823e-006    -1.1379e-008   
  -0.7            -2.5925e-009    -1.5531e-006    8.413e-009     
  -0.75           -2.013e-009     -1.8518e-006    1.152e-009     
  -0.8            2.4891e-009     -2.1781e-006    -2.7906e-008   
  -0.85           1.744e-009      -2.5194e-006    -3.26e-009     
  -0.9            1.3156e-009     -2.8856e-006    -8.653e-009    
  -0.95           2.872e-009      -3.27e-006      -9.669e-009    
  -1              2.6385e-009     -3.6597e-006    -3.77e-010     
  -1.05           1.953e-009      -4.0603e-006    -2.201e-009    
  -1.1            1.3911e-009     -4.463e-006     -7.491e-009    
  -1.15           2.8518e-009     -4.8623e-006    -8.998e-009    
  -1.2            2.7547e-009     -5.2501e-006    1.76e-010      
  -1.25           1.4343e-009     -5.6397e-006    9.845e-009     
  -1.3            2.844e-010      -5.9977e-006    1.089e-008     
  -1.35           7.643e-010      -6.3553e-006    1.092e-008     
  -1.4            1.1443e-009     -6.7031e-006    9.329e-009     
  -1.45           1.562e-009      -7.0329e-006    1.1709e-008    
  -1.5            2.0278e-009     -7.3425e-006    1.2181e-008    
  -1.55           8.79e-010       -7.6411e-006    1.0226e-008    
  -1.6            1.2583e-009     -7.9332e-006    9.404e-009     
  -1.65           8.07e-011       -8.2009e-006    1.079e-008     
  -1.7            5.693e-010      -8.4655e-006    1.0989e-008    
  -1.75           9.905e-010      -8.7207e-006    9.796e-009     
  -1.8            1.3746e-009     -8.9682e-006    9.499e-009     
END_DB

BEGIN_DB
 ICCAP_VAR VS         0              
 ICCAP_VAR VB         0              
 ICCAP_VAR VD         -1.8           

 #VG              IG              ID              IB             
  0               -2.3146e-009    -5.376e-009     3.74e-010      
  -0.05           1.9994e-009     -1.07763e-008   -1.7243e-008   
  -0.1            -1.4964e-009    -2.5595e-008    -1.2817e-008   
  -0.15           -1.371e-009     -6.0646e-008    7.829e-009     
  -0.2            2.0533e-009     -1.3165e-007    -5.097e-009    
  -0.25           1.4283e-009     -2.5299e-007    -7.37e-009     
  -0.3            2.85e-009       -4.4792e-007    -9.081e-009    
  -0.35           2.108e-009      -7.2492e-007    1.2006e-008    
  -0.4            9.555e-010      -1.10432e-006   9.992e-009     
  -0.45           -1.9934e-009    -1.5834e-006    -1.3273e-008   
  -0.5            -9.773e-010     -2.1862e-006    -1.0687e-008   
  -0.55           2.123e-010      -2.9276e-006    -1.2527e-008   
  -0.6            1.3959e-009     -3.7812e-006    -2.3398e-008   
  -0.65           2.8664e-009     -4.7616e-006    -9.337e-009    
  -0.7            2.7315e-009     -5.8724e-006    7e-011         
  -0.75           1.4672e-009     -7.1688e-006    1.0919e-008    
  -0.8            3.143e-010      -8.5353e-006    1.071e-008     
  -0.85           7.905e-010      -1.01304e-005   1.0685e-008    
  -0.9            -8.592e-010     -1.186e-005     1.8285e-008    
  -0.95           1.4663e-009     -1.3822e-005    -1.4712e-008   
  -1              2.8411e-009     -1.591e-005     -8.912e-009    
  -1.05           2.082e-009      -1.8168e-005    1.2718e-008    
  -1.1            9.314e-010      -2.0602e-005    1.0402e-008    
  -1.15           1.316e-009      -2.3251e-005    9.232e-009     
  -1.2            1.7591e-009     -2.6005e-005    1.1907e-008    
  -1.25           6.345e-010      -2.8821e-005    1.096e-008     
  -1.3            1.0404e-009     -3.1886e-005    9.812e-009     
  -1.35           1.4341e-009     -3.5072e-005    1.0729e-008    
  -1.4            2.864e-010      -3.8211e-005    1.0677e-008    
  -1.45           7.604e-010      -4.1593e-005    1.0723e-008    
  -1.5            1.1418e-009     -4.5089e-005    9.247e-009     
  -1.55           1.5609e-009     -4.8643e-005    1.1487e-008    
  -1.6            2.0239e-009     -5.2198e-005    1.2293e-008    
  -1.65           8.784e-010      -5.5843e-005    1.0302e-008    
  -1.7            1.254e-009      -5.9634e-005    9.342e-009     
  -1.75           8.13e-011       -6.328e-005     1.063e-008     
  -1.8            5.669e-010      -6.7123e-005    1.0965e-008    
END_DB

BEGIN_DB
 ICCAP_VAR VS         0              
 ICCAP_VAR VB         0.9            
 ICCAP_VAR VD         -0.1           

 #VG              IG              ID              IB             
  0               7.983e-010      7.831e-010      -1.2701e-008   
  -0.05           9.412e-010      2.3305e-009     -8.898e-009    
  -0.1            1.1002e-009     2.241e-009      9.874e-009     
  -0.15           1.2647e-009     2.0557e-009     1.1249e-008    
  -0.2            -1.638e-010     1.8199e-009     1.0662e-008    
  -0.25           -1.495e-009     3.137e-010      2.6374e-008    
  -0.3            -1.4108e-009    -2.7027e-009    8.119e-009     
  -0.35           -1.3786e-009    -8.2354e-009    8.808e-009     
  -0.4            2.8322e-009     -2.4162e-008    1.096e-008     
  -0.45           1.2923e-009     -6.2539e-008    9.104e-009     
  -0.5            2.8661e-009     -1.4103e-007    -1.1552e-008   
  -0.55           2.5911e-009     -2.6492e-007    -3.78e-010     
  -0.6            1.9141e-009     -4.3558e-007    -2.385e-009    
  -0.65           1.3759e-009     -6.4985e-007    -8.306e-009    
  -0.7            2.8674e-009     -9.0327e-007    -9.35e-009     
  -0.75           1.3731e-009     -1.1914e-006    6.6e-009       
  -0.8            1.8253e-009     -1.5091e-006    1.2297e-008    
  -0.85           6.948e-010      -1.8515e-006    1.1079e-008    
  -0.9            1.0888e-009     -2.2286e-006    9.529e-009     
  -0.95           1.4962e-009     -2.6243e-006    1.1124e-008    
  -1              3.483e-010      -3.015e-006     1.076e-008     
  -1.05           8.172e-010      -3.4298e-006    1.1027e-008    
  -1.1            1.1967e-009     -3.8467e-006    9.245e-009     
  -1.15           8.6e-012        -4.244e-006     1.06e-008      
  -1.2            -1.3748e-009    -4.644e-006     2.7518e-008    
  -1.25           -1.3055e-009    -5.0339e-006    9.006e-009     
  -1.3            -2.196e-009     -5.4113e-006    1.1022e-008    
  -1.35           1.645e-010      -5.7912e-006    -1.2121e-008   
  -1.4            1.352e-009      -6.1354e-006    -2.4652e-008   
  -1.45           2.8642e-009     -6.4675e-006    -9.553e-009    
  -1.5            2.6685e-009     -6.7824e-006    -2.15e-010     
  -1.55           1.5151e-009     -7.0939e-006    1.1221e-008    
  -1.6            1.9844e-009     -7.3836e-006    1.2405e-008    
  -1.65           8.356e-010      -7.6614e-006    1.0531e-008    
  -1.7            1.2121e-009     -7.9333e-006    9.232e-009     
  -1.75           2.76e-011       -8.1834e-006    1.0691e-008    
  -1.8            5.123e-010      -8.4306e-006    1.0906e-008    
END_DB

BEGIN_DB
 ICCAP_VAR VS         0              
 ICCAP_VAR VB         0.9            
 ICCAP_VAR VD         -1.8           

 #VG              IG              ID              IB             
  0               9.967e-010      9.421e-010      1.3843e-008    
  -0.05           1.1786e-009     2.1594e-009     -2.975e-009    
  -0.1            -1.5134e-009    1.6326e-009     1.1717e-008    
  -0.15           -2.6111e-009    -1.6683e-009    7.628e-009     
  -0.2            -4.552e-010     -4.3249e-009    -1.1386e-008   
  -0.25           2.4134e-009     -8.9252e-009    -2.3553e-008   
  -0.3            -1.9245e-009    -2.4491e-008    -2.0843e-008   
  -0.35           -2.6716e-009    -6.6179e-008    -6.062e-009    
  -0.4            8.95e-011       -1.5924e-007    7.593e-009     
  -0.45           1.3111e-009     -3.2939e-007    -2.5846e-008   
  -0.5            2.8678e-009     -6.0495e-007    -9.995e-009    
  -0.55           2.6058e-009     -1.00239e-006   -4.72e-010     
  -0.6            1.4177e-009     -1.5541e-006    7.099e-009     
  -0.65           2.535e-010      -2.223e-006     1.0657e-008    
  -0.7            7.251e-010      -3.0788e-006    1.0877e-008    
  -0.75           1.1101e-009     -4.1077e-006    9.429e-009     
  -0.8            1.5204e-009     -5.3083e-006    1.1292e-008    
  -0.85           3.661e-010      -6.6356e-006    1.087e-008     
  -0.9            8.27e-010       -8.2097e-006    1.0522e-008    
  -0.95           1.1952e-009     -9.9913e-006    9.185e-009     
  -1              -1.1265e-009    -1.1851e-005    2.4493e-008    
  -1.05           2.6299e-009     -1.4046e-005    -2.665e-008    
  -1.1            1.9617e-009     -1.6341e-005    -2.083e-009    
  -1.15           1.3985e-009     -1.8821e-005    -7.697e-009    
  -1.2            2.8533e-009     -2.1468e-005    -9.068e-009    
  -1.25           2.133e-009      -2.4238e-005    1.2119e-008    
  -1.3            9.678e-010      -2.7162e-005    9.806e-009     
  -1.35           1.3565e-009     -3.0258e-005    1.0051e-008    
  -1.4            1.7921e-009     -3.3406e-005    1.2178e-008    
  -1.45           6.631e-010      -3.6609e-005    1.0999e-008    
  -1.5            1.058e-009      -4.0016e-005    9.66e-009      
  -1.55           1.4565e-009     -4.3512e-005    9.846e-009     
  -1.6            2.999e-010      -4.6919e-005    1.0773e-008    
  -1.65           7.688e-010      -5.0562e-005    1.0969e-008    
  -1.7            1.1474e-009     -5.4287e-005    9.364e-009     
  -1.75           1.5624e-009     -5.8028e-005    1.0465e-008    
  -1.8            2.0112e-009     -6.1738e-005    1.2317e-008    
END_DB

BEGIN_DB
 ICCAP_VAR VS         0              
 ICCAP_VAR VB         1.8            
 ICCAP_VAR VD         -0.1           

 #VG              IG              ID              IB             
  0               -1.3499e-009    -1.2417e-009    1.0887e-008    
  -0.05           1.5891e-009     -1.6879e-009    -1.2606e-008   
  -0.1            8.232e-010      2.3519e-009     -8.845e-009    
  -0.15           9.832e-010      2.3249e-009     9.202e-009     
  -0.2            1.1385e-009     2.2364e-009     9.354e-009     
  -0.25           1.3005e-009     2.0548e-009     1.0394e-008    
  -0.3            -1.4452e-009    1.7916e-009     1.175e-008     
  -0.35           -2.6754e-009    -1.394e-009     8.46e-009      
  -0.4            1.5366e-009     -3.1486e-009    -1.219e-008    
  -0.45           1.3648e-009     -5.3015e-009    -8.832e-009    
  -0.5            -1.3348e-009    -1.9957e-008    -1.1402e-008   
  -0.55           -2.4205e-009    -5.6392e-008    8.552e-009     
  -0.6            8.774e-010      -1.3378e-007    -1.694e-008    
  -0.65           1.2488e-009     -2.7017e-007    9.117e-009     
  -0.7            5.66e-011       -4.5922e-007    1.0745e-008    
  -0.75           5.367e-010      -7.0951e-007    1.0912e-008    
  -0.8            9.579e-010      -1.01139e-006   1.0166e-008    
  -0.85           -2.5211e-009    -1.3483e-006    -2.1698e-008   
  -0.9            -1.933e-009     -1.7164e-006    1.238e-009     
  -0.95           -2.6697e-009    -2.1125e-006    -5.915e-009    
  -1              1.954e-010      -2.5302e-006    -1.2256e-008   
  -1.05           1.3785e-009     -2.9446e-006    -2.3996e-008   
  -1.1            2.8628e-009     -3.362e-006     -9.351e-009    
  -1.15           2.1682e-009     -3.7736e-006    1.201e-008     
  -1.2            9.989e-010      -4.1832e-006    9.767e-009     
  -1.25           1.385e-009      -4.5852e-006    1.0292e-008    
  -1.3            1.8222e-009     -4.968e-006     1.242e-008     
  -1.35           6.87e-010       -5.3298e-006    1.1001e-008    
  -1.4            1.0827e-009     -5.6895e-006    9.574e-009     
  -1.45           1.4802e-009     -6.0332e-006    1.006e-008     
  -1.5            3.234e-010      -6.3464e-006    1.0806e-008    
  -1.55           7.823e-010      -6.6591e-006    1.0969e-008    
  -1.6            1.1636e-009     -6.9593e-006    9.31e-009      
  -1.65           1.5707e-009     -7.2447e-006    1.166e-008     
  -1.7            2.019e-009      -7.5134e-006    1.2159e-008    
  -1.75           8.692e-010      -7.7712e-006    1.0409e-008    
  -1.8            1.2419e-009     -8.0236e-006    9.248e-009     
END_DB

BEGIN_DB
 ICCAP_VAR VS         0              
 ICCAP_VAR VB         1.8            
 ICCAP_VAR VD         -1.8           

 #VG              IG              ID              IB             
  0               -9.146e-010     -8.276e-010     -2.7137e-008   
  -0.05           -1.0252e-009    -2.2096e-009    8.418e-009     
  -0.1            1.523e-009      -1.7156e-009    -1.2039e-008   
  -0.15           8.694e-010      2.3384e-009     -8.849e-009    
  -0.2            1.0268e-009     2.2613e-009     9.144e-009     
  -0.25           -1.2994e-009    1.4409e-009     9.458e-009     
  -0.3            -2.477e-009     -1.6615e-009    1.1563e-008    
  -0.35           -2.2678e-009    -4.0327e-009    1.382e-009     
  -0.4            -1.7852e-009    -1.4219e-008    -8.83e-009     
  -0.45           -7.334e-010     -4.2091e-008    -1.1523e-008   
  -0.5            1.31e-010       -1.1082e-007    -9.951e-009    
  -0.55           6.079e-010      -2.6526e-007    1.1058e-008    
  -0.6            1.0115e-009     -5.4346e-007    9.887e-009     
  -0.65           1.3899e-009     -9.6638e-007    9.523e-009     
  -0.7            -2.6372e-009    -1.5371e-006    -2.5106e-008   
  -0.75           -2.1658e-009    -2.2902e-006    1.099e-009     
  -0.8            1.655e-010      -3.2594e-006    -1.1998e-008   
  -0.85           1.3532e-009     -4.4076e-006    -2.4292e-008   
  -0.9            2.8675e-009     -5.7596e-006    -9.45e-009     
  -0.95           2.7064e-009     -7.3101e-006    -1.12e-010     
  -1              1.4781e-009     -9.1187e-006    1.0938e-008    
  -1.05           3.155e-010      -1.10228e-005   1.0819e-008    
  -1.1            -3.523e-010     -1.3215e-005    9.91e-009      
  -1.15           2.1666e-009     -1.5562e-005    -2.5592e-008   
  -1.2            1.5e-009        -1.8074e-005    -5.989e-009    
  -1.25           2.8172e-009     -2.0742e-005    -8.798e-009    
  -1.3            2.0108e-009     -2.3557e-005    1.2571e-008    
  -1.35           8.603e-010      -2.6487e-005    1.0827e-008    
  -1.4            1.2295e-009     -2.9603e-005    9.156e-009     
  -1.45           3.03e-011       -3.2693e-005    1.0671e-008    
  -1.5            5.043e-010      -3.598e-005     1.0945e-008    
  -1.55           9.269e-010      -3.9401e-005    1.0347e-008    
  -1.6            1.3014e-009     -4.2908e-005    9.192e-009     
  -1.65           1.7267e-009     -4.6437e-005    1.1352e-008    
  -1.7            5.921e-010      -4.9943e-005    1.105e-008     
  -1.75           9.98e-010       -5.3635e-005    1.005e-008     
  -1.8            1.3812e-009     -5.7392e-005    9.503e-009     
END_DB

