! VERSION = 6.00
BEGIN_HEADER
 ICCAP_INPUTS
  VG         V  B GROUND SMU4 0.001 LIN        2    0          -1.8       6    -0.36     
  VS         V  E GROUND SMU2 0.1 CON        0
  VD         V  S GROUND SMU1 0.1 LIN        1    0          -1.8       37   -0.05     
  VB         V  C GROUND SMU3 0.1 LIN        3    0          0.9        2    0.9       
 ICCAP_OUTPUTS
  ID         I  S GROUND SMU1 B
  IB         I  C GROUND SMU3 B
  IG         I  B GROUND SMU4 B
END_HEADER

BEGIN_DB
 ICCAP_VAR VG         0              
 ICCAP_VAR VS         0              
 ICCAP_VAR VB         0              

 #VD              ID              IB              IG             
  0               1.058e-009      -9.359e-009     1.0706e-009    
  -0.05           1.1625e-009     1.0902e-008     -1.2547e-009   
  -0.1            -1.2729e-009    8.232e-009      -1.3852e-009   
  -0.15           -1.2571e-009    -1.2166e-008    1.1366e-009    
  -0.2            1.3294e-009     -1.1604e-008    -1.2832e-009   
  -0.25           -1.2037e-009    2.717e-009      -1.4893e-009   
  -0.3            1.2529e-009     -1.0699e-008    -1.2415e-009   
  -0.35           -1.2061e-009    1.2261e-008     -1.495e-009    
  -0.4            1.2498e-009     -1.0771e-008    -1.244e-009    
  -0.45           -1.2094e-009    1.2376e-008     -1.4961e-009   
  -0.5            1.248e-009      -1.0831e-008    -1.2446e-009   
  -0.55           -1.2153e-009    1.2563e-008     -1.4963e-009   
  -0.6            1.2397e-009     -1.0944e-008    -1.2433e-009   
  -0.65           -1.2213e-009    1.263e-008      -1.4989e-009   
  -0.7            1.2364e-009     -1.0838e-008    -1.2421e-009   
  -0.75           -1.2265e-009    1.2619e-008     -1.504e-009    
  -0.8            -2.0803e-009    -9.638e-009     -1.922e-010    
  -0.85           -3.148e-010     -1.6313e-008    1.6545e-009    
  -0.9            1.6852e-009     -2.026e-009     1.498e-010     
  -0.95           5.685e-010      9.076e-009      -1.267e-009    
  -1              -1.2182e-009    2.997e-009      -1.6168e-009   
  -1.05           8.1e-012        -1.1993e-008    1.1688e-009    
  -1.1            -1.67e-010      -1.3689e-008    1.1705e-009    
  -1.15           -3.249e-010     -1.565e-008     1.7111e-009    
  -1.2            1.6245e-009     -1.237e-009     1.419e-010     
  -1.25           5.067e-010      8.903e-009      -1.268e-009    
  -1.3            -1.2478e-009    3.086e-009      -1.5783e-009   
  -1.35           2.09e-011       -1.1671e-008    1.1648e-009    
  -1.4            -1.527e-010     -1.3266e-008    1.17e-009      
  -1.45           -3.124e-010     -1.5446e-008    1.1574e-009    
  -1.5            -4.267e-010     -1.772e-008     1.5211e-009    
  -1.55           1.1369e-009     -3.124e-009     -1.2459e-009   
  -1.6            -1.249e-009     1.1405e-008     -2.3362e-009   
  -1.65           -1.449e-009     -1.0508e-008    1.1596e-009    
  -1.7            -1.332e-010     -1.2797e-008    1.1667e-009    
  -1.75           -3.174e-010     -1.4894e-008    1.1668e-009    
  -1.8            -4.309e-010     -1.6982e-008    1.5853e-009    
END_DB

BEGIN_DB
 ICCAP_VAR VG         -0.36          
 ICCAP_VAR VS         0              
 ICCAP_VAR VB         0              

 #VD              ID              IB              IG             
  0               4.361e-010      2.869e-009      1.1136e-009    
  -0.05           -6.5348e-008    -1.1405e-008    -2.1562e-009   
  -0.1            -9.7557e-008    2.644e-009      -1.2617e-009   
  -0.15           -1.1508e-007    2.242e-009      5.89e-011      
  -0.2            -1.2214e-007    1.1944e-008     -1.5401e-009   
  -0.25           -1.2668e-007    8.106e-009      2.102e-010     
  -0.3            -1.3446e-007    -1.6611e-008    1.2943e-009    
  -0.35           -1.4011e-007    -1.1151e-008    1.1688e-009    
  -0.4            -1.4313e-007    -9.664e-009     -3.807e-010    
  -0.45           -1.4569e-007    2.513e-009      -1.2685e-009   
  -0.5            -1.4813e-007    8.554e-009      7.341e-010     
  -0.55           -1.5289e-007    -6.172e-009     1.1412e-009    
  -0.6            -1.5845e-007    -1.1742e-008    1.1696e-009    
  -0.65           -1.605e-007     -9.789e-009     -3.539e-010    
  -0.7            -1.624e-007     2.502e-009      -1.2682e-009   
  -0.75           -1.6476e-007    8.525e-009      7.07e-010      
  -0.8            -1.6917e-007    -5.558e-009     1.1375e-009    
  -0.85           -1.7353e-007    -9.324e-009     -8.47e-011     
  -0.9            -1.7411e-007    1.4761e-008     -1.4132e-009   
  -0.95           -1.7597e-007    8.626e-009      3.209e-010     
  -1              -1.8035e-007    -3.483e-009     1.0752e-009    
  -1.05           -1.8472e-007    -1.2275e-008    1.7464e-009    
  -1.1            -1.885e-007     -8.882e-009     8.6e-011       
  -1.15           -1.8894e-007    1.1314e-008     -1.5625e-009   
  -1.2            -1.9124e-007    1.5068e-008     1.6278e-009    
  -1.25           -1.9705e-007    -1.6164e-008    1.3214e-009    
  -1.3            -1.9988e-007    -9.64e-009      -2.446e-010    
  -1.35           -2.0103e-007    1.37e-009       -1.2699e-009   
  -1.4            -2.0358e-007    8.576e-009      5.965e-010     
  -1.45           -2.0805e-007    -4.216e-009     1.1125e-009    
  -1.5            -2.1202e-007    -8.845e-009     7.37e-011      
  -1.55           -2.1243e-007    1.1729e-008     -1.5568e-009   
  -1.6            -2.1506e-007    1.5136e-008     1.6421e-009    
  -1.65           -2.2084e-007    -1.6219e-008    1.3072e-009    
  -1.7            -2.2316e-007    -9.613e-009     -2.545e-010    
  -1.75           -2.2469e-007    1.526e-009      -1.2714e-009   
  -1.8            -2.2747e-007    8.561e-009      6.02e-010      
END_DB

BEGIN_DB
 ICCAP_VAR VG         -0.72          
 ICCAP_VAR VS         0              
 ICCAP_VAR VB         0              

 #VD              ID              IB              IG             
  0               -1.4562e-009    -8.813e-009     -2.2207e-009   
  -0.05           -6.017e-007     3.082e-009      1.0716e-009    
  -0.1            -1.06882e-006   -1.3965e-008    1.5606e-009    
  -0.15           -1.4256e-006    1.4615e-008     1.1887e-009    
  -0.2            -1.6935e-006    -1.1418e-008    1.1723e-009    
  -0.25           -1.8929e-006    -9.875e-009     1.1653e-009    
  -0.3            -2.0267e-006    -9.739e-009     -3.998e-010    
  -0.35           -2.1324e-006    2.031e-009      -1.2694e-009   
  -0.4            -2.2273e-006    8.872e-009      5.557e-010     
  -0.45           -2.2984e-006    -3.4e-009       1.0791e-009    
  -0.5            -2.3584e-006    -1.3431e-008    1.6177e-009    
  -0.55           -2.4125e-006    -1.5301e-008    1.417e-009     
  -0.6            -2.4546e-006    -9.072e-009     -4.18e-011     
  -0.65           -2.4894e-006    1.1297e-008     -1.5859e-009   
  -0.7            -2.5383e-006    1.4261e-008     1.5089e-009    
  -0.75           -2.5856e-006    -1.0524e-008    1.1723e-009    
  -0.8            -2.6198e-006    -1.1343e-008    1.1716e-009    
  -0.85           -2.6549e-006    -1.1448e-008    1.1717e-009    
  -0.9            -2.6869e-006    -1.1476e-008    1.1698e-009    
  -0.95           -2.7186e-006    -1.1791e-008    1.1693e-009    
  -1              -2.7482e-006    -1.1875e-008    1.1687e-009    
  -1.05           -2.7776e-006    -1.2124e-008    1.1693e-009    
  -1.1            -2.8065e-006    -1.222e-008     1.1689e-009    
  -1.15           -2.8346e-006    -1.2281e-008    1.1686e-009    
  -1.2            -2.8623e-006    -1.2507e-008    1.7536e-009    
  -1.25           -2.8904e-006    -1.4143e-008    1.5528e-009    
  -1.3            -2.9135e-006    -8.759e-009     6.77e-011      
  -1.35           -2.9269e-006    9.122e-009      -1.7056e-009   
  -1.4            -2.9657e-006    1.3893e-008     1.4145e-009    
  -1.45           -2.9965e-006    -1.1789e-008    1.1708e-009    
  -1.5            -3.0205e-006    -1.0546e-008    1.1713e-009    
  -1.55           -3.045e-006     -1.0589e-008    1.1718e-009    
  -1.6            -3.0707e-006    -9.699e-009     1.1645e-009    
  -1.65           -3.0749e-006    -9.671e-009     -4.083e-010    
  -1.7            -3.0935e-006    2.112e-009      -1.2679e-009   
  -1.75           -3.1323e-006    8.832e-009      5.637e-010     
  -1.8            -3.1556e-006    -3.467e-009     1.0819e-009    
END_DB

BEGIN_DB
 ICCAP_VAR VG         -1.08          
 ICCAP_VAR VS         0              
 ICCAP_VAR VB         0              

 #VD              ID              IB              IG             
  0               -1.5717e-009    -3.324e-009     -1.26e-009     
  -0.05           -1.7187e-006    8.632e-009      1.1543e-009    
  -0.1            -3.2435e-006    -9.241e-009     -7.46e-011     
  -0.15           -4.5685e-006    1.1839e-008     -1.5604e-009   
  -0.2            -5.7246e-006    1.465e-008      1.5312e-009    
  -0.25           -6.7117e-006    -1.0329e-008    1.173e-009     
  -0.3            -7.5241e-006    -1.1377e-008    1.1711e-009    
  -0.35           -8.1952e-006    -1.156e-008     1.1709e-009    
  -0.4            -8.7406e-006    -1.1658e-008    1.1703e-009    
  -0.45           -9.1819e-006    -1.1687e-008    1.1691e-009    
  -0.5            -9.5403e-006    -1.1956e-008    1.1698e-009    
  -0.55           -9.8341e-006    -1.2143e-008    1.1698e-009    
  -0.6            -1.00761e-005   -1.2313e-008    1.1685e-009    
  -0.65           -1.02824e-005   -1.2564e-008    1.1577e-009    
  -0.7            -1.04603e-005   -1.2791e-008    1.7261e-009    
  -0.75           -1.06203e-005   -1.4287e-008    1.5216e-009    
  -0.8            -1.07646e-005   -1.6029e-008    1.3267e-009    
  -0.85           -1.08729e-005   -9.424e-009     -1.293e-010    
  -0.9            -1.09725e-005   1.2966e-008     -1.5106e-009   
  -0.95           -1.1079e-005    -1.0646e-008    -5.83e-011     
  -1              -1.1227e-005    -1.5982e-008    1.3535e-009    
  -1.05           -1.1285e-005    -9.553e-009     -4.274e-010    
  -1.1            -1.1373e-005    3.049e-009      -1.2612e-009   
  -1.15           -1.151e-005     1.2882e-008     1.3102e-009    
  -1.2            -1.1599e-005    -1.5074e-008    1.4295e-009    
  -1.25           -1.1687e-005    -1.0737e-008    1.1686e-009    
  -1.3            -1.176e-005     -1.4175e-008    1.5419e-009    
  -1.35           -1.185e-005     -1.074e-008     1.1687e-009    
  -1.4            -1.1916e-005    -1.4567e-008    1.4822e-009    
  -1.45           -1.1994e-005    -1.0167e-008    1.1701e-009    
  -1.5            -1.2061e-005    -1.3584e-008    1.5992e-009    
  -1.55           -1.214e-005     -1.1264e-008    1.1687e-009    
  -1.6            -1.2202e-005    -1.4141e-008    1.5406e-009    
  -1.65           -1.228e-005     -1.0652e-008    1.1701e-009    
  -1.7            -1.2335e-005    -1.4631e-008    1.4847e-009    
  -1.75           -1.2406e-005    -1.0277e-008    1.1692e-009    
  -1.8            -1.2414e-005    -9.015e-009     -5.723e-010    
END_DB

BEGIN_DB
 ICCAP_VAR VG         -1.44          
 ICCAP_VAR VS         0              
 ICCAP_VAR VB         0              

 #VD              ID              IB              IG             
  0               -1.5702e-009    9.033e-009      1.165e-009     
  -0.05           -2.8634e-006    -1.468e-008     -2.0909e-009   
  -0.1            -5.5578e-006    2.041e-009      -1.2571e-009   
  -0.15           -8.0908e-006    1.1499e-008     1.2059e-009    
  -0.2            -1.04352e-005   -1.0989e-008    1.1713e-009    
  -0.25           -1.2586e-005    -1.0763e-008    1.6581e-009    
  -0.3            -1.4576e-005    -2.0148e-008    1.1158e-009    
  -0.35           -1.6364e-005    -1.3933e-008    1.5991e-009    
  -0.4            -1.7979e-005    -1.1328e-008    1.1706e-009    
  -0.45           -1.9394e-005    -1.4506e-008    1.5333e-009    
  -0.5            -2.0649e-005    -1.0755e-008    1.1699e-009    
  -0.55           -2.1722e-005    -1.4859e-008    1.4852e-009    
  -0.6            -2.2653e-005    -1.0338e-008    1.1713e-009    
  -0.65           -2.3434e-005    -1.3849e-008    1.6056e-009    
  -0.7            -2.4109e-005    -1.1362e-008    1.1701e-009    
  -0.75           -2.4669e-005    -1.4322e-008    1.5463e-009    
  -0.8            -2.5163e-005    -1.0827e-008    1.1723e-009    
  -0.85           -2.5572e-005    -1.4704e-008    1.4938e-009    
  -0.9            -2.594e-005     -1.0386e-008    1.171e-009     
  -0.95           -2.6253e-005    -1.3746e-008    1.6105e-009    
  -1              -2.6557e-005    -1.1289e-008    1.1704e-009    
  -1.05           -2.6805e-005    -1.4194e-008    1.5501e-009    
  -1.1            -2.7054e-005    -1.085e-008     1.1698e-009    
  -1.15           -2.7271e-005    -1.4733e-008    1.492e-009     
  -1.2            -2.7494e-005    -1.0394e-008    1.1691e-009    
  -1.25           -2.7679e-005    -1.5059e-008    1.449e-009     
  -1.3            -2.7874e-005    -1.063e-008     1.1709e-009    
  -1.35           -2.8041e-005    -1.4247e-008    1.5591e-009    
  -1.4            -2.8219e-005    -1.0864e-008    1.1697e-009    
  -1.45           -2.8371e-005    -1.4655e-008    1.5051e-009    
  -1.5            -2.8538e-005    -1.0425e-008    1.1703e-009    
  -1.55           -2.8679e-005    -1.5194e-008    1.4491e-009    
  -1.6            -2.8829e-005    -9.971e-009     1.168e-009     
  -1.65           -2.8964e-005    -1.5459e-008    1.4007e-009    
  -1.7            -2.9109e-005    -1.0996e-008    1.1705e-009    
  -1.75           -2.9231e-005    -1.4712e-008    1.5039e-009    
  -1.8            -2.9372e-005    -1.0329e-008    1.1694e-009    
END_DB

BEGIN_DB
 ICCAP_VAR VG         -1.8           
 ICCAP_VAR VS         0              
 ICCAP_VAR VB         0              

 #VD              ID              IB              IG             
  0               -8.589e-009     7.979e-009      -1.2589e-009   
  -0.05           -3.7552e-006    -9.684e-009     -1.2639e-009   
  -0.1            -7.3798e-006    9.091e-009      8.749e-010     
  -0.15           -1.08613e-005   -6.434e-009     1.145e-009     
  -0.2            -1.4189e-005    -1.5261e-008    3.731e-010     
  -0.25           -1.7381e-005    -3.888e-009     1.0964e-009    
  -0.3            -2.0427e-005    -1.2097e-008    1.1676e-009    
  -0.35           -2.3289e-005    -1.3253e-008    1.6189e-009    
  -0.4            -2.5999e-005    -1.1371e-008    1.1724e-009    
  -0.45           -2.8527e-005    -1.3626e-008    1.5685e-009    
  -0.5            -3.0904e-005    -1.0848e-008    1.1693e-009    
  -0.55           -3.3074e-005    -1.4219e-008    1.5027e-009    
  -0.6            -3.5089e-005    -1.0282e-008    1.1688e-009    
  -0.65           -3.6915e-005    -1.4715e-008    1.4485e-009    
  -0.7            -3.8566e-005    -1.0486e-008    1.1708e-009    
  -0.75           -4.0047e-005    -1.3747e-008    1.558e-009     
  -0.8            -4.1376e-005    -1.0792e-008    1.1691e-009    
  -0.85           -4.2534e-005    -1.4224e-008    1.4964e-009    
  -0.9            -4.357e-005     -1.0348e-008    1.1681e-009    
  -0.95           -4.4454e-005    -1.4693e-008    1.4408e-009    
  -1              -4.5251e-005    -9.846e-009     1.1675e-009    
  -1.05           -4.5925e-005    -1.5202e-008    1.3893e-009    
  -1.1            -4.6539e-005    -1.0824e-008    1.1696e-009    
  -1.15           -4.7065e-005    -1.4228e-008    1.5026e-009    
  -1.2            -4.7562e-005    -1.0319e-008    1.1684e-009    
  -1.25           -4.798e-005     -1.4824e-008    1.4437e-009    
  -1.3            -4.8387e-005    -1.0605e-008    1.1701e-009    
  -1.35           -4.874e-005     -1.3777e-008    1.5577e-009    
  -1.4            -4.9092e-005    -1.0807e-008    1.1691e-009    
  -1.45           -4.9391e-005    -1.4375e-008    1.4915e-009    
  -1.5            -4.9703e-005    -1.028e-008     1.1659e-009    
  -1.55           -4.997e-005     -1.4607e-008    1.4351e-009    
  -1.6            -5.0244e-005    -1.0423e-008    1.1687e-009    
  -1.65           -5.0483e-005    -1.3892e-008    1.5495e-009    
  -1.7            -5.0738e-005    -1.0644e-008    1.1679e-009    
  -1.75           -5.0956e-005    -1.4439e-008    1.4889e-009    
  -1.8            -5.1191e-005    -1.0124e-008    1.1667e-009    
END_DB

BEGIN_DB
 ICCAP_VAR VG         0              
 ICCAP_VAR VS         0              
 ICCAP_VAR VB         0.9            

 #VD              ID              IB              IG             
  0               -1.0619e-009    -1.3352e-008    -1.1881e-009   
  -0.05           -1.2603e-009    -1.0231e-008    1.1595e-009    
  -0.1            7.26e-011       -1.2326e-008    1.171e-009     
  -0.15           -9.45e-011      -1.4216e-008    1.1613e-009    
  -0.2            -2.051e-010     -1.6331e-008    1.6252e-009    
  -0.25           9.552e-010      -2.148e-009     1.9645e-009    
  -0.3            1.0795e-009     9.585e-009      -1.2599e-009   
  -0.35           -1.3348e-009    5.368e-009      -1.2659e-009   
  -0.4            -1.843e-009     -9.244e-009     2.205e-010     
  -0.45           9.895e-010      -1.1876e-008    2.0919e-009    
  -0.5            1.2349e-009     1.0862e-008     -1.2537e-009   
  -0.55           -1.1939e-009    8.813e-009      -1.4062e-009   
  -0.6            -1.9171e-009    -9.887e-009     5.8e-012       
  -0.65           -6.32e-011      -1.3639e-008    1.163e-009     
  -0.7            -1.928e-010     -1.5545e-008    1.6824e-009    
  -0.75           1.2298e-009     1.2945e-008     1.1616e-009    
  -0.8            1.0756e-009     1.338e-008      1.3424e-009    
  -0.85           1.7693e-009     8.819e-009      8.17e-011      
  -0.9            1.8278e-009     9.167e-009      2.432e-010     
  -0.95           7.468e-010      9.027e-009      -1.2702e-009   
  -1              -1.747e-009     2.822e-009      -8.095e-010    
  -1.05           -1.5732e-009    -9.546e-009     -1.002e-009    
  -1.1            -7.88e-011      -1.3849e-008    1.1622e-009    
  -1.15           -1.954e-010     -1.6046e-008    1.6468e-009    
  -1.2            9.509e-010      -1.74e-009      1.9553e-009    
  -1.25           1.0848e-009     9.532e-009      -1.2617e-009   
  -1.3            -1.3517e-009    4.903e-009      -1.2462e-009   
  -1.35           -2.354e-010     -1.6944e-008    1.5507e-009    
  -1.4            9.628e-010      -2.742e-009     1.9972e-009    
  -1.45           1.1307e-009     9.841e-009      -1.2596e-009   
  -1.5            -1.3013e-009    6.012e-009      -1.3023e-009   
  -1.55           -1.8657e-009    -9.504e-009     1.754e-010     
  -1.6            8.53e-011       -1.2203e-008    1.173e-009     
  -1.65           -8.35e-011      -1.3903e-008    1.1629e-009    
  -1.7            -1.938e-010     -1.604e-008     1.6429e-009    
  -1.75           9.513e-010      -1.88e-009      1.9566e-009    
  -1.8            1.0823e-009     9.343e-009      -1.2618e-009   
END_DB

BEGIN_DB
 ICCAP_VAR VG         -0.36          
 ICCAP_VAR VS         0              
 ICCAP_VAR VB         0.9            

 #VD              ID              IB              IG             
  0               -1.0858e-009    -1.2196e-008    -1.2208e-009   
  -0.05           -3.0396e-009    -9.494e-009     1.952e-010     
  -0.1            -1.3898e-009    -1.2338e-008    1.1728e-009    
  -0.15           -1.6685e-009    -1.4237e-008    1.1687e-009    
  -0.2            -1.8722e-009    -1.6312e-008    1.6763e-009    
  -0.25           -7.73e-010      -1.48e-009      1.4269e-009    
  -0.3            -8.875e-010     -3.262e-009     1.2435e-009    
  -0.35           -1.02e-009      -3.063e-009     1.1257e-009    
  -0.4            -1.1907e-009    -3.448e-009     1.0766e-009    
  -0.45           -1.3969e-009    -4.23e-009      1.077e-009     
  -0.5            -1.6032e-009    -6.079e-009     1.1009e-009    
  -0.55           -1.8008e-009    -8.938e-009     1.1303e-009    
