! VERSION = 6.00
BEGIN_HEADER
 ICCAP_INPUTS
  VG         V  B GROUND SMU4 0.001 LIN        2    0          -1.8       6    -0.36     
  VS         V  E GROUND SMU3 0.1 CON        0
  VD         V  S GROUND SMU2 0.1 LIN        1    0          -1.8       37   -0.05     
  VB         V  C GROUND SMU1 0.1 LIN        3    0          0.9        2    0.9       
 ICCAP_OUTPUTS
  ID         I  S GROUND SMU2 B
  IB         I  C GROUND SMU1 B
  IG         I  B GROUND SMU4 B
END_HEADER

BEGIN_DB
 ICCAP_VAR VG         0              
 ICCAP_VAR VS         0              
 ICCAP_VAR VB         0              

 #VD              ID              IB              IG             
  0               2.1861e-009     5.0527e-009     2.58e-010      
  -0.05           1.4821e-009     -7.704e-010     -1.5457e-009   
  -0.1            -3.9694e-009    -1.2927e-009    1.5145e-009    
  -0.15           -2.3299e-009    5.5722e-009     -1.4489e-009   
  -0.2            -4.2826e-009    2.611e-010      -7.419e-010    
  -0.25           -3.3943e-009    -5.4097e-009    1.5335e-009    
  -0.3            -2.146e-009     5.6264e-009     -1.5508e-009   
  -0.35           -4.0403e-009    -5.0864e-009    1.5037e-009    
  -0.4            -6.445e-010     2.3929e-009     5.823e-010     
  -0.45           -2.5465e-009    6.0115e-009     -1.5531e-009   
  -0.5            -5.0272e-009    -5.3294e-009    1.5244e-009    
  -0.55           -2.7549e-009    5.6204e-009     -1.4563e-009   
  -0.6            -6.9829e-009    2.154e-010      -7.249e-010    
  -0.65           -6.2547e-009    -5.596e-009     1.5459e-009    
  -0.7            -4.1769e-009    5.6651e-009     -1.4636e-009   
  -0.75           -5.7189e-009    -3.4124e-009    1.3782e-009    
  -0.8            -4.5054e-009    4.6806e-009     -1.4721e-009   
  -0.85           -9.677e-009     -7.32e-011      -7.402e-010    
  -0.9            -1.0355e-008    4.1798e-009     -6.532e-010    
  -0.95           -1.0535e-008    3.9001e-009     -1.5102e-009   
  -1              -1.1403e-008    6.2404e-009     -1.5467e-009   
  -1.05           -9.042e-009     -6.1182e-009    1.2817e-009    
  -1.1            -1.3302e-008    9.202e-010      -1.0108e-009   
  -1.15           -1.2842e-008    5.0791e-009     -1.4979e-009   
  -1.2            -1.2193e-008    6.103e-009      -1.4808e-009   
  -1.25           -1.2859e-008    5.9116e-009     -1.5181e-009   
  -1.3            -1.3921e-008    6.0968e-009     -1.5477e-009   
  -1.35           -1.5024e-008    6.2338e-009     -1.5488e-009   
  -1.4            -1.6073e-008    6.244e-009      -1.462e-009    
  -1.45           -1.6756e-008    5.7934e-009     -1.484e-009    
  -1.5            -1.8204e-008    5.9227e-009     -1.5187e-009   
  -1.55           -1.9559e-008    6.1106e-009     -1.5498e-009   
  -1.6            -2.0919e-008    6.2348e-009     -1.5508e-009   
  -1.65           -2.237e-008     6.2518e-009     -1.4615e-009   
  -1.7            -2.336e-008     5.8017e-009     -1.4868e-009   
  -1.75           -2.5123e-008    5.9281e-009     -1.5204e-009   
  -1.8            -2.6775e-008    6.1082e-009     -1.5489e-009   
END_DB

BEGIN_DB
 ICCAP_VAR VG         -0.36          
 ICCAP_VAR VS         0              
 ICCAP_VAR VB         0              

 #VD              ID              IB              IG             
  0               3.9e-011        -6.534e-009     -7.386e-010    
  -0.05           -4.5759e-007    -5.766e-009     -1.5547e-009   
  -0.1            -7.2989e-007    -4.285e-009     1.5963e-009    
  -0.15           -8.9914e-007    -4.451e-009     1.571e-009     
  -0.2            -1.01971e-006   -4.535e-009     1.5298e-009    
  -0.25           -1.11499e-006   -4.445e-009     1.4765e-009    
  -0.3            -1.1849e-006    4.077e-010      -1.5562e-009   
  -0.35           -1.2595e-006    6.1808e-009     -1.5573e-009   
  -0.4            -1.3325e-006    6.1514e-009     -1.5577e-009   
  -0.45           -1.4034e-006    6.1418e-009     -1.5543e-009   
  -0.5            -1.473e-006     6.1286e-009     -1.554e-009    
  -0.55           -1.5409e-006    6.0974e-009     -1.551e-009    
  -0.6            -1.6092e-006    6.0931e-009     -1.5453e-009   
  -0.65           -1.6776e-006    6.0733e-009     -1.5453e-009   
  -0.7            -1.746e-006     6.0429e-009     -1.544e-009    
  -0.75           -1.8139e-006    6.0286e-009     -1.5392e-009   
  -0.8            -1.8829e-006    6.0065e-009     -1.5379e-009   
  -0.85           -1.9524e-006    5.9709e-009     -1.5348e-009   
  -0.9            -2.0217e-006    5.9593e-009     -1.527e-009    
  -0.95           -2.0905e-006    5.943e-009      -1.523e-009    
  -1              -2.1614e-006    5.905e-009      -1.5202e-009   
  -1.05           -2.232e-006     5.8997e-009     -1.5119e-009   
  -1.1            -2.3022e-006    5.8812e-009     -1.509e-009    
  -1.15           -2.3742e-006    5.8565e-009     -1.5079e-009   
  -1.2            -2.4449e-006    5.8518e-009     -1.4977e-009   
  -1.25           -2.5178e-006    5.836e-009      -1.4983e-009   
  -1.3            -2.5911e-006    5.8109e-009     -1.493e-009    
  -1.35           -2.6631e-006    5.8032e-009     -1.4845e-009   
  -1.4            -2.7374e-006    5.8013e-009     -1.4852e-009   
  -1.45           -2.8109e-006    5.7703e-009     -1.4804e-009   
  -1.5            -2.8847e-006    5.7761e-009     -1.476e-009    
  -1.55           -2.9599e-006    5.7686e-009     -1.4721e-009   
  -1.6            -3.0346e-006    5.7422e-009     -1.4727e-009   
  -1.65           -3.1112e-006    5.748e-009      -1.465e-009    
  -1.7            -3.1875e-006    5.7452e-009     -1.4688e-009   
  -1.75           -3.2641e-006    5.7269e-009     -1.466e-009    
  -1.8            -3.3407e-006    5.7249e-009     -1.4606e-009   
END_DB

BEGIN_DB
 ICCAP_VAR VG         -0.72          
 ICCAP_VAR VS         0              
 ICCAP_VAR VB         0              

 #VD              ID              IB              IG             
  0               1.1321e-008     -4.128e-009     -1.72e-011     
  -0.05           -3.3931e-006    -6.198e-009     -9.673e-010    
  -0.1            -6.1785e-006    -5.787e-009     1.5381e-009    
  -0.15           -8.4256e-006    -4.205e-009     1.5838e-009    
  -0.2            -1.02118e-005   -4.103e-009     1.5947e-009    
  -0.25           -1.1577e-005    -4.413e-009     -1.5476e-009   
  -0.3            -1.2729e-005    -4.065e-009     1.5976e-009    
  -0.35           -1.3625e-005    -4.107e-009     1.5856e-009    
  -0.4            -1.4367e-005    -4.963e-009     1.5611e-009    
  -0.45           -1.4996e-005    -6.266e-009     1.5293e-009    
  -0.5            -1.5552e-005    -8.073e-009     1.4973e-009    
  -0.55           -1.6076e-005    -4.486e-009     1.5027e-009    
  -0.6            -1.6538e-005    -4.342e-009     1.5639e-009    
  -0.65           -1.6959e-005    -4.138e-009     1.5954e-009    
  -0.7            -1.7359e-005    -4.117e-009     1.5964e-009    
  -0.75           -1.7736e-005    -4.398e-009     1.5807e-009    
  -0.8            -1.81e-005      -5.417e-009     1.5509e-009    
  -0.85           -1.8453e-005    -6.776e-009     1.5157e-009    
  -0.9            -1.8823e-005    -4.434e-009     1.4546e-009    
  -0.95           -1.9162e-005    -4.424e-009     1.5322e-009    
  -1              -1.9492e-005    -4.278e-009     1.5801e-009    
  -1.05           -1.9807e-005    -4.147e-009     1.6005e-009    
  -1.1            -2.0113e-005    -4.114e-009     1.5934e-009    
  -1.15           -2.0411e-005    -4.674e-009     1.5699e-009    
  -1.2            -2.0711e-005    -5.855e-009     1.5366e-009    
  -1.25           -2.1004e-005    -7.543e-009     1.5033e-009    
  -1.3            -2.133e-005     -4.471e-009     1.4893e-009    
  -1.35           -2.1625e-005    -4.463e-009     1.5554e-009    
  -1.4            -2.1909e-005    -4.295e-009     1.5971e-009    
  -1.45           -2.219e-005     -4.127e-009     1.6038e-009    
  -1.5            -2.2462e-005    -4.228e-009     1.5877e-009    
  -1.55           -2.273e-005     -5.015e-009     1.5598e-009    
  -1.6            -2.3e-005       -6.452e-009     1.5214e-009    
  -1.65           -2.33e-005      -1.24e-010      1.1511e-009    
  -1.7            -2.3577e-005    -9.3394e-009    1.5024e-009    
  -1.75           -2.3848e-005    -4.7188e-009    1.6054e-009    
  -1.8            -2.4131e-005    -6.8831e-009    1.5525e-009    
END_DB

BEGIN_DB
 ICCAP_VAR VG         -1.08          
 ICCAP_VAR VS         0              
 ICCAP_VAR VB         0              

 #VD              ID              IB              IG             
  0               1.057e-008      -4.333e-009     -2.843e-010    
  -0.05           -8.1733e-006    -4.315e-009     -7.783e-010    
  -0.1            -1.553e-005     -5.473e-009     -1.4597e-009   
  -0.15           -2.2174e-005    -4.4e-009       1.5251e-009    
  -0.2            -2.8008e-005    -4.437e-009     1.5861e-009    
  -0.25           -3.3088e-005    -4.36e-009      1.6159e-009    
  -0.3            -3.7459e-005    -4.387e-009     1.6156e-009    
  -0.35           -4.1184e-005    -4.906e-009     1.5951e-009    
  -0.4            -4.4346e-005    -5.949e-009     1.5516e-009    
  -0.45           -4.7014e-005    -7.306e-009     1.5087e-009    
  -0.5            -4.9301e-005    -4.665e-010     1.2071e-009    
  -0.55           -5.1226e-005    -9.4427e-009    1.4853e-009    
  -0.6            -5.2888e-005    -4.5266e-009    1.621e-009     
  -0.65           -5.434e-005     -6.4261e-009    1.5399e-009    
  -0.7            -5.5623e-005    -4.8551e-009    1.4553e-009    
  -0.75           -5.6816e-005    -4.1873e-009    1.5964e-009    
  -0.8            -5.7821e-005    -5.4857e-009    1.4899e-009    
  -0.85           -5.8836e-005    -4.5397e-009    1.6209e-009    
  -0.9            -5.9754e-005    -6.4491e-009    1.5407e-009    
  -0.95           -6.0613e-005    -4.8726e-009    1.454e-009     
  -1              -6.1446e-005    -4.2034e-009    1.5958e-009    
  -1.05           -6.218e-005     -5.47e-009      1.4909e-009    
  -1.1            -6.2949e-005    -4.5418e-009    1.6177e-009    
  -1.15           -6.3692e-005    -6.4557e-009    1.5377e-009    
  -1.2            -6.4382e-005    -4.8843e-009    1.4546e-009    
  -1.25           -6.508e-005     -4.1973e-009    1.5939e-009    
  -1.3            -6.5708e-005    -5.4881e-009    1.4896e-009    
  -1.35           -6.6336e-005    -4.5406e-009    1.6199e-009    
  -1.4            -6.6952e-005    -6.4855e-009    1.5443e-009    
  -1.45           -6.7517e-005    -4.9034e-009    1.4575e-009    
  -1.5            -6.8171e-005    -4.1992e-009    1.5973e-009    
  -1.55           -6.8714e-005    -5.5121e-009    1.49e-009      
  -1.6            -6.9283e-005    -4.5551e-009    1.6187e-009    
  -1.65           -6.985e-005     -6.5018e-009    1.54e-009      
  -1.7            -7.0342e-005    -4.8924e-009    1.4559e-009    
  -1.75           -7.0932e-005    -4.2176e-009    1.596e-009     
  -1.8            -7.1399e-005    -5.5066e-009    1.4901e-009    
END_DB

BEGIN_DB
 ICCAP_VAR VG         -1.44          
 ICCAP_VAR VS         0              
 ICCAP_VAR VB         0              

 #VD              ID              IB              IG             
  0               1.2591e-008     -5.323e-009     -7.95e-011     
  -0.05           -1.2642e-005    -4.899e-009     -1.4771e-009   
  -0.1            -2.4668e-005    -4.329e-009     1.4805e-009    
  -0.15           -3.6036e-005    -4.37e-009      1.552e-009     
  -0.2            -4.6702e-005    -4.274e-009     1.6004e-009    
  -0.25           -5.6632e-005    -4.331e-009     1.6155e-009    
  -0.3            -6.5822e-005    -4.565e-009     1.6034e-009    
  -0.35           -7.4232e-005    -5.475e-009     1.5724e-009    
  -0.4            -8.1884e-005    -6.571e-009     1.531e-009     
  -0.45           -8.8793e-005    -1.682e-010     1.1721e-009    
  -0.5            -9.4921e-005    -9.4e-009       1.5096e-009    
  -0.55           -0.000100366    -4.6717e-009    1.6137e-009    
  -0.6            -0.000105142    -6.8639e-009    1.5582e-009    
  -0.65           -0.000109291    -5.0586e-009    1.4704e-009    
  -0.7            -0.000112933    -4.3439e-009    1.6023e-009    
  -0.75           -0.00011587     -8.3062e-009    1.5418e-009    
  -0.8            -0.00011882     -5.7631e-009    1.5036e-009    
  -0.85           -0.00012127     -5.2051e-009    1.4766e-009    
  -0.9            -0.00012349     -4.8279e-009    1.4573e-009    
  -0.95           -0.0001255      -4.5764e-009    1.6184e-009    
  -1              -0.00012737     -8.1034e-009    1.603e-009     
  -1.05           -0.00012905     -7.1049e-009    1.5683e-009    
  -1.1            -0.0001306      -6.2182e-009    1.529e-009     
  -1.15           -0.00013206     -5.5314e-009    1.494e-009     
  -1.2            -0.00013345     -5.0328e-009    1.4701e-009    
  -1.25           -0.00013477     -4.7203e-009    1.6124e-009    
  -1.3            -0.00013598     -8.5961e-009    1.6166e-009    
  -1.35           -0.00013717     -7.7279e-009    1.5936e-009    
  -1.4            -0.00013828     -6.7524e-009    1.5544e-009    
  -1.45           -0.00013941     -5.9434e-009    1.5147e-009    
  -1.5            -0.00014044     -5.3223e-009    1.4859e-009    
  -1.55           -0.00014146     -4.8991e-009    1.4637e-009    
  -1.6            -0.00014248     -4.6359e-009    1.6169e-009    
  -1.65           -0.00014346     -8.3187e-009    1.6115e-009    
  -1.7            -0.00014434     -7.39e-009      1.5824e-009    
  -1.75           -0.00014524     -6.4162e-009    1.539e-009     
  -1.8            -0.00014616     -5.6761e-009    1.5015e-009    
END_DB

BEGIN_DB
 ICCAP_VAR VG         -1.8           
 ICCAP_VAR VS         0              
 ICCAP_VAR VB         0              

 #VD              ID              IB              IG             
  0               1.2299e-008     -5.997e-009     8.7e-012       
  -0.05           -1.5856e-005    -5.503e-009     -1.4607e-009   
  -0.1            -3.1264e-005    -4.448e-009     1.532e-009     
  -0.15           -4.6145e-005    -4.399e-009     1.5941e-009    
  -0.2            -6.0573e-005    -4.399e-009     1.6216e-009    
  -0.25           -7.4387e-005    -4.464e-009     1.6195e-009    
  -0.3            -8.7642e-005    -5.089e-009     1.5907e-009    
  -0.35           -0.000100278    -6.064e-009     1.5435e-009    
  -0.4            -0.000112281    -7.498e-009     1.5051e-009    
  -0.45           -0.00012356     -5.395e-009     1.5355e-009    
  -0.5            -0.00013421     -5.711e-009     1.5652e-009    
  -0.55           -0.00014413     -5.088e-009     1.5947e-009    
  -0.6            -0.00015344     -4.663e-009     1.6128e-009    
  -0.65           -0.00016198     -4.458e-009     1.6244e-009    
  -0.7            -0.00016983     -4.407e-009     1.621e-009     
  -0.75           -0.00017696     -4.458e-009     1.6048e-009    
  -0.8            -0.0001834      -4.452e-009     1.5755e-009    
  -0.85           -0.00018916     -1.9726e-009    1.4293e-009    
  -0.9            -0.00019431     -9.6076e-009    1.4718e-009    
  -0.95           -0.00019896     -4.8014e-009    1.4507e-009    
  -1              -0.00020308     -4.5539e-009    1.6236e-009    
  -1.05           -0.00020674     -8.0782e-009    1.6063e-009    
  -1.1            -0.00021016     -7.0765e-009    1.5705e-009    
  -1.15           -0.00021318     -6.1797e-009    1.5213e-009    
  -1.2            -0.0002159      -5.4712e-009    1.486e-009     
  -1.25           -0.00021842     -4.9841e-009    1.4617e-009    
  -1.3            -0.00022076     -4.6976e-009    1.6218e-009    
  -1.35           -0.00022302     -8.5953e-009    1.621e-009     
  -1.4            -0.00022499     -7.7429e-009    1.5939e-009    
  -1.45           -0.00022697     -6.69e-009      1.5523e-009    
  -1.5            -0.0002288      -5.8744e-009    1.5058e-009    
  -1.55           -0.00023044     -5.2722e-009    1.4753e-009    
  -1.6            -0.00023207     -4.8647e-009    1.4541e-009    
  -1.65           -0.00023365     -4.6093e-009    1.6248e-009    
  -1.7            -0.00023516     -8.3191e-009    1.6151e-009    
  -1.75           -0.00023665     -7.3191e-009    1.5815e-009    
  -1.8            -0.00023794     -6.4065e-009    1.5357e-009    
END_DB

BEGIN_DB
 ICCAP_VAR VG         0              
 ICCAP_VAR VS         0              
 ICCAP_VAR VB         0.9            

 #VD              ID              IB              IG             
  0               -2.0811e-009    -4.348e-009     -1.974e-010    
  -0.05           2.1407e-009     -4.417e-009     1.006e-009     
  -0.1            2.2309e-009     -4.343e-009     9.316e-010     
  -0.15           2.3025e-009     -4.365e-009     8.648e-010     
  -0.2            -2.5855e-009    -1.499e-009     1.5534e-009    
  -0.25           1.4477e-009     5.6603e-009     -1.4608e-009   
  -0.3            -2.3767e-009    1.105e-010      -7.055e-010    
  -0.35           2.2778e-009     -7.3562e-009    8.876e-010     
  -0.4            -2.0575e-009    4.6796e-009     -1.0466e-009   
  -0.45           2.3351e-009     -6.8636e-009    7.943e-010     
  -0.5            -2.2066e-009    4.3656e-009     -9.374e-010    
  -0.55           1.9223e-009     -6.3369e-009    1.1859e-009    
  -0.6            -2.3114e-009    5.1672e-009     -8.471e-010    
  -0.65           2.0776e-009     -5.7682e-009    1.0485e-009    
  -0.7            -2.3676e-009    4.9899e-009     -7.57e-010     
  -0.75           2.2095e-009     -7.67e-009      9.398e-010     
  -0.8            -1.9903e-009    4.779e-009      -1.1155e-009   
  -0.85           2.2923e-009     -7.1281e-009    8.444e-010     
  -0.9            -2.1489e-009    4.5316e-009     -9.918e-010    
  -0.95           2.33e-009       -6.6159e-009    7.456e-010     
  -1              -2.2803e-009    5.2742e-009     -8.972e-010    
  -1.05           1.959e-009      -6.1136e-009    1.1233e-009    
  -1.1            -2.3693e-009    5.0955e-009     -8.072e-010    
  -1.15           2.1093e-009     -5.4736e-009    9.972e-010     
  -1.2            -1.922e-009     4.9161e-009     -1.1982e-009   
  -1.25           2.2208e-009     -7.3828e-009    8.981e-010     
  -1.3            -2.1003e-009    4.7018e-009     -1.0612e-009   
  -1.35           2.2685e-009     -6.8795e-009    8.006e-010     
  -1.4            -2.2634e-009    5.4153e-009     -9.483e-010    
  -1.45           2.2983e-009     -6.4155e-009    6.987e-010     
  -1.5            -2.3887e-009    5.1841e-009     -8.558e-010    
  -1.55           1.9688e-009     -5.8099e-009    1.0595e-009    
  -1.6            -2.4639e-009    5.0185e-009     -7.632e-010    
  -1.65           2.0886e-009     -5.1937e-009    9.508e-010     
  -1.7            -2.0872e-009    4.8229e-009     -1.1292e-009   
  -1.75           2.1594e-009     -7.153e-009     8.519e-010     
  -1.8            -2.2703e-009    4.5721e-009     -1.0051e-009   
END_DB

BEGIN_DB
 ICCAP_VAR VG         -0.36          
 ICCAP_VAR VS         0              
 ICCAP_VAR VB         0.9            

 #VD              ID              IB              IG             
  0               -1.5299e-009    -4.504e-009     -2.101e-010    
  -0.05           -3.5699e-008    -4.734e-009     -1.067e-009    
  -0.1            -4.6814e-008    -5.328e-009     1.5598e-009    
  -0.15           -5.4933e-008    -4.565e-009     1.6126e-009    
  -0.2            -6.2748e-008    -3.836e-009     1.3769e-009    
  -0.25           -7.1383e-008    -7.201e-009     1.5015e-009    
  -0.3            -7.8556e-008    -4.424e-009     1.6223e-009    
  -0.35           -8.5661e-008    -1.7146e-009    1.387e-009     
  -0.4            -9.5922e-008    -8.6209e-009    1.5734e-009    
  -0.45           -1.029e-007     -9.4e-010       -1.5427e-009   
  -0.5            -1.1252e-007    -5.4005e-009    1.4545e-009    
  -0.55           -1.2476e-007    -4.6929e-009    1.6224e-009    
