! VERSION = 6.00
BEGIN_HEADER
 ICCAP_INPUTS
  VG         V  B GROUND SMU4 0.001 LIN        2    0          -1.8       6    -0.36     
  VS         V  E GROUND SMU2 0.1 CON        0
  VD         V  S GROUND SMU1 0.1 LIN        1    0          -1.8       37   -0.05     
  VB         V  C GROUND SMU3 0.1 LIN        3    0          0.9        2    0.9       
 ICCAP_OUTPUTS
  ID         I  S GROUND SMU1 B
  IB         I  C GROUND SMU3 B
  IG         I  B GROUND SMU4 B
END_HEADER

BEGIN_DB
 ICCAP_VAR VG         0              
 ICCAP_VAR VS         0              
 ICCAP_VAR VB         0              

 #VD              ID              IB              IG             
  0               -1.789e-008     2.8035e-008     1.1667e-009    
  -0.05           -2.8827e-008    -1.8564e-008    -3.908e-010    
  -0.1            -1.559e-007     9.512e-009      2.4608e-009    
  -0.15           -1.858e-007     -1.8137e-008    2.0116e-009    
  -0.2            -2.2582e-008    -1.0484e-008    -1.6624e-009   
  -0.25           -1.372e-008     1.8747e-008     -2.3233e-009   
  -0.3            -2.7869e-007    1.1996e-008     1.5172e-009    
  -0.35           -3.2584e-008    -1.3003e-008    2.03e-009      
  -0.4            -1.9667e-008    9.667e-009      -1.0772e-009   
  -0.45           -3.6818e-007    -1.7664e-008    2.0785e-009    
  -0.5            -2.2855e-008    -1.0352e-008    1.1975e-009    
  -0.55           -2.635e-008     1.0192e-008     -2.6435e-009   
  -0.6            -1.3659e-007    -1.0374e-008    1.2497e-009    
  -0.65           -4.4947e-008    -1.0688e-008    2.219e-009     
  -0.7            -3.692e-008     9.932e-009      -1.2953e-009   
  -0.75           -9.1288e-008    -1.8247e-008    1.6525e-009    
  -0.8            -4.457e-008     1.024e-008      2.752e-009     
  -0.85           -4.9394e-008    -1.1094e-008    1.6196e-009    
  -0.9            -5.47e-008      1.014e-008      2.7399e-009    
  -0.95           -6.0331e-008    -1.1122e-008    2.7641e-009    
  -1              -1.3669e-007    9.773e-009      1.0434e-009    
  -1.05           -8.3477e-007    -2.6757e-008    1.2392e-009    
  -1.1            -8.5118e-007    -1.8038e-008    1.9963e-009    
  -1.15           -2.11e-007      -1.0481e-008    -5.947e-010    
  -1.2            -9.2223e-007    1.8811e-008     -1.6303e-009   
  -1.25           -2.1547e-007    1.0576e-008     6.96e-010      
  -1.3            -1.06106e-006   -2.1414e-008    1.5029e-009    
  -1.35           -2.2863e-007    -2.4183e-008    3.236e-010     
  -1.4            -1.1105e-006    1.9897e-008     -1.5576e-009   
  -1.45           -2.675e-007     1.0458e-008     -1.2936e-009   
  -1.5            -3.729e-007     7.093e-009      -1.3466e-009   
  -1.55           -1.587e-007     1.0476e-008     -2.6823e-009   
  -1.6            -1.75e-007      1.0741e-008     -2.6221e-009   
  -1.65           -2.799e-007     9.861e-009      -1.308e-009    
  -1.7            -3.92e-007      5.716e-009      -1.3856e-009   
  -1.75           -2.17e-007      1.0301e-008     -2.5809e-009   
  -1.8            -2.257e-007     1.1785e-008     -2.5882e-009   
END_DB

BEGIN_DB
 ICCAP_VAR VG         -0.36          
 ICCAP_VAR VS         0              
 ICCAP_VAR VB         0              

 #VD              ID              IB              IG             
  0               -4.933e-008     -2.6084e-008    9.962e-010     
  -0.05           -2.0271e-006    -7.968e-009     -1.1965e-009   
  -0.1            -5.2727e-006    2.7321e-008     -1.3318e-009   
  -0.15           -3.8304e-006    1.0054e-008     1.0489e-009    
  -0.2            -8.2154e-006    -2.5387e-008    1.2805e-009    
  -0.25           -9.2423e-006    -2.6824e-008    1.2273e-009    
  -0.3            -9.3527e-006    -1.0757e-008    -2.39e-011     
  -0.35           -1.0735e-005    8.906e-009      9.584e-010     
  -0.4            -1.1496e-005    -2.2329e-008    1.4297e-009    
  -0.45           -1.211e-005     -1.7298e-008    2.1413e-009    
  -0.5            -6.0882e-006    -1.1096e-008    2.4395e-009    
  -0.55           -6.456e-006     -1.2743e-008    2.6661e-009    
  -0.6            -1.3834e-005    -1.8864e-008    1.907e-009     
  -0.65           -8.3625e-006    -1.3035e-008    2.0278e-009    
  -0.7            -7.4958e-006    1.0026e-008     -1.3043e-009   
  -0.75           -9.1592e-006    -1.3211e-008    2.0234e-009    
  -0.8            -8.2423e-006    9.929e-009      -1.3004e-009   
  -0.85           -1.7214e-005    -1.3391e-008    2.448e-010     
  -0.9            -1.5841e-005    9.131e-009      -2.4351e-009   
  -0.95           -1.3706e-005    9.665e-009      3.48e-010      
  -1              -1.8173e-005    -2.0068e-008    1.6234e-009    
  -1.05           -1.8587e-005    -1.143e-008     9.14e-011      
  -1.1            -1.8691e-005    1.1719e-008     -2.1867e-009   
  -1.15           -1.3785e-005    1.0121e-008     5.499e-010     
  -1.2            -2.0306e-005    -2.3121e-008    1.3963e-009    
  -1.25           -1.9221e-005    -1.0636e-008    -7.95e-011     
  -1.3            -2.0933e-005    1.5101e-008     -1.8997e-009   
  -1.35           -1.4557e-005    1.047e-008      7.421e-010     
  -1.4            -2.2386e-005    -2.5514e-008    1.2742e-009    
  -1.45           -1.9158e-005    -1.0331e-008    -3.018e-010    
  -1.5            -2.3214e-005    1.8559e-008     -1.6365e-009   
  -1.55           -1.5726e-005    1.0425e-008     9.13e-010      
  -1.6            -2.4899e-005    -2.7126e-008    1.2141e-009    
  -1.65           -1.8989e-005    -1.0325e-008    -5.207e-010    
  -1.7            -2.5329e-005    2.2395e-008     -1.4611e-009   
  -1.75           -1.7645e-005    1.0143e-008     1.0729e-009    
  -1.8            -2.4345e-005    -1.1117e-008    2.792e-009     
END_DB

BEGIN_DB
 ICCAP_VAR VG         -0.72          
 ICCAP_VAR VS         0              
 ICCAP_VAR VB         0              

 #VD              ID              IB              IG             
  0               -3.4926e-008    -3.962e-009     -1.8091e-009   
  -0.05           -1.6044e-005    -1.1102e-008    2.7953e-009    
  -0.1            -2.8943e-005    -1.4606e-008    1.4614e-009    
  -0.15           -3.9375e-005    -2.6578e-008    2.4034e-009    
  -0.2            -4.7795e-005    -1.0596e-008    -5.984e-010    
  -0.25           -5.5367e-005    2.3469e-008     -1.4284e-009   
  -0.3            -5.8703e-005    9.995e-009      1.1354e-009    
  -0.35           -6.6147e-005    -1.2241e-008    2.7566e-009    
  -0.4            -7.128e-005     -1.03e-008      -2.394e-010    
  -0.45           -7.5755e-005    1.7972e-008     -1.7029e-009   
  -0.5            -7.3297e-005    1.0458e-008     8.709e-010     
  -0.55           -8.3577e-005    -2.7016e-008    1.2236e-009    
  -0.6            -8.2016e-005    -1.0195e-008    -4.658e-010    
  -0.65           -8.8385e-005    2.1301e-008     -1.5092e-009   
  -0.7            -8.3135e-005    1.0223e-008     1.0288e-009    
  -0.75           -9.0696e-005    -1.0412e-008    2.8251e-009    
  -0.8            -9.6877e-005    -2.6868e-008    1.2082e-009    
  -0.85           -9.2588e-005    -1.0419e-008    -5.616e-010    
  -0.9            -0.000100659    2.3013e-008     -1.4498e-009   
  -0.95           -9.3627e-005    9.841e-009      1.1026e-009    
  -1              -0.000102275    -1.1804e-008    2.7813e-009    
  -1.05           -0.000105231    -1.0344e-008    -2.007e-010    
  -1.1            -0.00010944     1.7171e-008     6.206e-010     
  -1.15           -0.00011106     -2.7016e-008    1.219e-009     
  -1.2            -0.00011348     -1.8857e-008    1.8873e-009    
  -1.25           -0.00010702     -1.0836e-008    -6.627e-010    
  -1.3            -0.00011643     1.9772e-008     -1.5716e-009   
  -1.35           -0.00010953     1.0435e-008     7.52e-010      
  -1.4            -0.0001222      -2.2192e-008    1.4427e-009    
  -1.45           -0.00012458     -1.2332e-008    1.793e-010     
  -1.5            -0.00011887     8.958e-009      -2.5847e-009   
  -1.55           -0.00011605     1.1597e-008     1.4888e-009    
  -1.6            -0.00012748     -1.4077e-008    2.654e-009     
  -1.65           -0.00012925     -1.0607e-008    -9.14e-011     
  -1.7            -0.00012981     1.1184e-008     -2.2567e-009   
  -1.75           -0.0001311      9.821e-009      2.454e-010     
  -1.8            -0.00013447     -1.7116e-008    2.2072e-009    
END_DB

BEGIN_DB
 ICCAP_VAR VG         -1.08          
 ICCAP_VAR VS         0              
 ICCAP_VAR VB         0              

 #VD              ID              IB              IG             
  0               -3.6254e-008    -1.0363e-008    1.801e-009     
  -0.05           -4.3169e-005    1.0425e-008     -2.7138e-009   
  -0.1            -8.1407e-005    1.0249e-008     1.2664e-009    
  -0.15           -0.00011535     -2.4302e-008    5.989e-010     
  -0.2            -0.00014391     7.725e-009      -1.3359e-009   
  -0.25           -0.00017144     9.714e-009      1.153e-009     
  -0.3            -0.000195       -2.6791e-008    1.2057e-009    
  -0.35           -0.00021623     -1.0259e-008    -2.663e-010    
  -0.4            -0.00022928     1.3476e-008     -2.0299e-009   
  -0.45           -0.00024045     1.172e-008      1.9494e-009    
  -0.5            -0.00025875     -1.2194e-008    1.708e-010     
  -0.55           -0.00026028     8.67e-009       -2.5788e-009   
  -0.6            -0.00026911     1.1678e-008     1.502e-009     
  -0.65           -0.00028263     -2.1038e-008    1.8722e-009    
  -0.7            -0.00028436     -1.0857e-008    -6.778e-010    
  -0.75           -0.00029373     2.0071e-008     -1.5599e-009   
  -0.8            -0.00029569     1.0452e-008     7.652e-010     
  -0.85           -0.0003099      -2.2515e-008    1.4332e-009    
  -0.9            -0.00031647     -1.2225e-008    1.658e-010     
  -0.95           -0.00031303     8.822e-009      -2.578e-009    
  -1              -0.00031634     1.168e-008      1.5069e-009    
  -1.05           -0.00032871     -2.0939e-008    1.8652e-009    
  -1.1            -0.00032678     -1.0854e-008    -6.843e-010    
  -1.15           -0.00033624     2.0075e-008     -1.5626e-009   
  -1.2            -0.00033432     1.0467e-008     7.712e-010     
  -1.25           -0.0003449      -2.2442e-008    1.4287e-009    
  -1.3            -0.00033861     -1.0978e-008    -9.577e-010    
  -1.35           -0.00035017     2.562e-008      -1.3728e-009   
  -1.4            -0.0003456      1.0322e-008     1.0346e-009    
  -1.45           -0.00035979     -2.6498e-008    1.2368e-009    
  -1.5            -0.00036414     -1.7964e-008    2.0349e-009    
  -1.55           -0.00036504     -1.9909e-008    1.787e-009     
  -1.6            -0.00036098     -1.0993e-008    -7.321e-010    
  -1.65           -0.00037131     2.1038e-008     -1.5194e-009   
  -1.7            -0.00036651     1.0748e-008     8.164e-010     
  -1.75           -0.00038101     -2.314e-008     1.3833e-009    
  -1.8            -0.00037161     -1.0937e-008    -9.989e-010    
END_DB

BEGIN_DB
 ICCAP_VAR VG         -1.44          
 ICCAP_VAR VS         0              
 ICCAP_VAR VB         0              

 #VD              ID              IB              IG             
  0               -4.3283e-008    -1.0178e-008    1.5606e-009    
  -0.05           -6.933e-005     1.059e-008      -2.7049e-009   
  -0.1            -0.00013492     2.4686e-008     9.049e-010     
  -0.15           -0.00019404     -2.4576e-008    1.3103e-009    
  -0.2            -0.00025145     -2.6982e-008    1.21e-009      
  -0.25           -0.00030746     -1.041e-008     -2.374e-010    
  -0.3            -0.00035131     1.3081e-008     -2.0738e-009   
  -0.35           -0.00040135     9.647e-009      3.757e-010     
  -0.4            -0.00043374     -1.8263e-008    1.9899e-009    
  -0.45           -0.0004745      -1.0547e-008    -5.986e-010    
  -0.5            -0.00049838     1.8746e-008     -1.6398e-009   
  -0.55           -0.00053318     1.0442e-008     7.029e-010     
  -0.6            -0.00055205     -2.1344e-008    1.5092e-009    
  -0.65           -0.00057509     -1.3105e-008    2.17e-010      
  -0.7            -0.00058811     9.187e-009      -2.6228e-009   
  -0.75           -0.00061184     1.1101e-008     -1.26e-010     
  -0.8            -0.00062248     -1.3278e-008    2.7048e-009    
  -0.85           -0.00063832     -2.7011e-008    1.2173e-009    
  -0.9            -0.00064638     -1.8765e-008    1.9061e-009    
  -0.95           -0.0006577      -1.0771e-008    -6.505e-010    
  -1              -0.0006644      1.9793e-008     -1.5861e-009   
  -1.05           -0.00067614     1.0443e-008     7.447e-010     
  -1.1            -0.00068838     -2.1895e-008    1.4478e-009    
  -1.15           -0.00069209     -2.5637e-008    1.2623e-009    
  -1.2            -0.00070712     -1.0773e-008    -3.71e-011     
  -1.25           -0.00070211     1.0524e-008     -2.3154e-009   
  -1.3            -0.00071464     1.2126e-008     1.7547e-009    
  -1.35           -0.00072489     -1.499e-008     1.4977e-009    
  -1.4            -0.0007332      -1.2873e-008    2.109e-010     
  -1.45           -0.0007275      9.129e-009      -2.6118e-009   
  -1.5            -0.00074411     1.1085e-008     -1.136e-010    
  -1.55           -0.00074544     -1.3573e-008    2.6976e-009    
  -1.6            -0.00075478     -2.6948e-008    1.2144e-009    
  -1.65           -0.00076289     -1.0316e-008    -2.012e-010    
  -1.7            -0.00076094     1.2692e-008     -2.1068e-009   
  -1.75           -0.00077355     9.652e-009      3.535e-010     
  -1.8            -0.00077606     -1.8152e-008    2.0337e-009    
END_DB

BEGIN_DB
 ICCAP_VAR VG         -1.8           
 ICCAP_VAR VS         0              
 ICCAP_VAR VB         0              

 #VD              ID              IB              IG             
  0               -4.631e-008     1.3791e-008     3.391e-010     
  -0.05           -8.7792e-005    -1.0937e-008    3.5e-012       
  -0.1            -0.00017279     -1.4099e-008    4.77e-011      
  -0.15           -0.00025361     9.209e-009      -2.4315e-009   
  -0.2            -0.00033384     1.003e-008      8.64e-011      
  -0.25           -0.00040773     -1.6061e-008    2.442e-009     
  -0.3            -0.00047854     -1.8239e-008    1.9909e-009    
  -0.35           -0.00055019     -1.0558e-008    -5.925e-010    
  -0.4            -0.00060999     1.8685e-008     -1.6418e-009   
  -0.45           -0.00067569     1.0472e-008     6.958e-010     
  -0.5            -0.00072354     -2.1255e-008    1.5106e-009    
  -0.55           -0.00077542     -1.3082e-008    2.258e-010     
  -0.6            -0.00081997     9.102e-009      -2.6198e-009   
  -0.65           -0.00087317     1.1348e-008     1.4277e-009    
  -0.7            -0.00090415     -1.3232e-008    2.702e-009     
  -0.75           -0.00093782     -2.69e-008      1.2192e-009    
  -0.8            -0.00097801     1.0434e-008     -2.6687e-009   
  -0.85           -0.0010027      -9.218e-009     9.271e-010     
  -0.9            -0.0010238      -1.9672e-008    1.7219e-009    
  -0.95           -0.0010514      -1.1068e-008    -7.672e-010    
  -1              -0.0010629      2.1774e-008     -1.4894e-009   
  -1.05           -0.0010903      1.0878e-008     8.407e-010     
  -1.1            -0.0011048      -2.392e-008     1.3586e-009    
  -1.15           -0.001118       -1.0895e-008    -1.0303e-009   
  -1.2            -0.0011319      2.6495e-008     -1.3531e-009   
  -1.25           -0.0011445      1.0063e-008     1.1062e-009    
  -1.3            -0.0011542      -2.6917e-008    2.5275e-009    
  -1.35           -0.0011689      -1.7676e-008    2.1038e-009    
  -1.4            -0.0011814      -2.0944e-008    1.8504e-009    
  -1.45           -0.0011918      -1.0906e-008    -6.929e-010    
  -1.5            -0.0011966      2.0524e-008     -1.5582e-009   
  -1.55           -0.00121        1.0571e-008     7.764e-010     
  -1.6            -0.0012122      -2.2597e-008    1.4235e-009    
  -1.65           -0.0012244      -2.5733e-008    1.2497e-009    
  -1.7            -0.0012341      -1.7545e-008    2.0971e-009    
  -1.75           -0.0012406      -1.0388e-008    -5.219e-010    
  -1.8            -0.0012433      1.7828e-008     -1.7044e-009   
END_DB

BEGIN_DB
 ICCAP_VAR VG         0              
 ICCAP_VAR VS         0              
 ICCAP_VAR VB         0.9            

 #VD              ID              IB              IG             
  0               -1.3174e-009    1.0621e-008     -1.3461e-009   
  -0.05           -2.2155e-009    -1.0497e-008    -2.226e-010    
  -0.1            -2.2853e-009    -1.1114e-008    -4.203e-010    
  -0.15           -2.4365e-009    -2.4662e-008    1.2219e-009    
  -0.2            -1.4604e-009    -1.0302e-008    2.851e-009     
  -0.25           3.026e-010      -8.2e-011       2.8378e-009    
  -0.3            2.43e-011       9.748e-009      -1.2993e-009   
  -0.35           -1.6149e-009    9.519e-009      -2.6141e-009   
  -0.4            -1.7966e-009    4.53e-010       -2.4786e-009   
  -0.45           -2.4924e-009    -1.097e-008     -3.503e-010    
  -0.5            -2.5255e-009    -1.1324e-008    -5.474e-010    
  -0.55           -4.8643e-009    -1.8798e-008    2.3671e-009    
  -0.6            -1.6285e-009    -4.697e-009     2.069e-009     
  -0.65           -2.3725e-009    -7.293e-009     1.7837e-009    
  -0.7            -3.1969e-009    -8.88e-009      1.5369e-009    
  -0.75           -4.2437e-009    -8.833e-009     1.3676e-009    
  -0.8            -5.4316e-009    -8.624e-009     1.2717e-009    
  -0.85           -6.8651e-009    -8.884e-009     2.8147e-009    
  -0.9            4.482e-010      1.1241e-008     1.7679e-009    
  -0.95           -8.5543e-009    1.0643e-008     -1.4462e-009   
  -1              -1.3433e-008    -1.5955e-008    2.175e-009     
  -1.05           -6.138e-009     -2.6901e-008    2.8566e-009    
  -1.1            -1.669e-008     -1.109e-008     1.8942e-009    
  -1.15           -1.7942e-008    -1.8027e-008    2.0717e-009    
  -1.2            -9.877e-009     -2.6822e-008    2.8509e-009    
  -1.25           -2.1905e-008    -1.0949e-008    1.791e-009     
  -1.3            -2.3714e-008    -1.8608e-008    1.9617e-009    
  -1.35           -2.6207e-008    -1.0396e-008    1.4067e-009    
  -1.4            -3.066e-008     -1.0908e-008    1.2194e-009    
  -1.45           -3.1996e-008    -2.6287e-008    1.2428e-009    
  -1.5            -3.2593e-008    -1.2638e-008    2.0321e-009    
  -1.55           -3.5893e-008    -1.7069e-008    2.2121e-009    
  -1.6            -4.1722e-008    -2.684e-008     1.2261e-009    
  -1.65           -4.4515e-008    -2.61e-008      1.2561e-009    
  -1.7            -4.5145e-008    -1.3132e-008    2.1073e-009    
  -1.75           -5.0689e-008    -1.0556e-008    1.4922e-009    
  -1.8            -5.6039e-008    -1.0543e-008    1.2356e-009    
END_DB

BEGIN_DB
 ICCAP_VAR VG         -0.36          
 ICCAP_VAR VS         0              
 ICCAP_VAR VB         0.9            

 #VD              ID              IB              IG             
  0               -9.4711e-008    9.043e-009      -1.0482e-009   
  -0.05           -1.5276e-007    1.0671e-008     -2.6889e-009   
  -0.1            -2.252e-007     9.036e-009      -1.4498e-009   
  -0.15           -2.628e-007     -1.1156e-008    2.8527e-009    
  -0.2            -3.01e-007      -1.5038e-008    2.5531e-009    
  -0.25           -3.422e-007     -1.0611e-008    2.8495e-009    
  -0.3            -3.874e-007     -1.8938e-008    2.4435e-009    
  -0.35           -4.281e-007     -1.0352e-008    2.794e-009     
  -0.4            -2.7248e-006    -2.3028e-008    1.9963e-009    
  -0.45           -8.429e-007     -1.0355e-008    1.2351e-009    
  -0.5            -3.014e-006     -2.6943e-008    1.2149e-009    
  -0.55           -3.1067e-006    -1.7874e-008    2.0544e-009    
