! VERSION = 6.00
BEGIN_HEADER
 ICCAP_INPUTS
  VG         V  B GROUND SMU4 0.001 LIN        2    0          -1.8       6    -0.36     
  VS         V  E GROUND SMU2 0.1 CON        0
  VD         V  S GROUND SMU1 0.1 LIN        1    0          -1.8       37   -0.05     
  VB         V  C GROUND SMU3 0.1 LIN        3    0          0.9        2    0.9       
 ICCAP_OUTPUTS
  ID         I  S GROUND SMU1 B
  IB         I  C GROUND SMU3 B
  IG         I  B GROUND SMU4 B
END_HEADER

BEGIN_DB
 ICCAP_VAR VG         0              
 ICCAP_VAR VS         0              
 ICCAP_VAR VB         0              

 #VD              ID              IB              IG             
  0               8.918e-010      1.5836e-008     9.999e-010     
  -0.05           -2.7371e-009    -5.585e-009     2.0266e-009    
  -0.1            -3.8947e-009    -8.41e-009      1.7077e-009    
  -0.15           -4.6265e-009    -8.913e-009     1.4604e-009    
  -0.2            -5.2527e-009    -8.72e-009      1.3182e-009    
  -0.25           -5.8845e-009    -9.32e-009      2.8155e-009    
  -0.3            -4.9246e-009    1.0762e-008     1.7915e-009    
  -0.35           -4.7341e-009    1.0852e-008     4.012e-010     
  -0.4            -5.1476e-009    1.0836e-008     6.055e-010     
  -0.45           -5.657e-009     1.0273e-008     7.68e-010      
  -0.5            -6.2031e-009    9.876e-009      9.201e-010     
  -0.55           -6.8404e-009    1.0209e-008     1.0856e-009    
  -0.6            -1.0668e-008    -2.593e-008     -2.6098e-009   
  -0.65           -1.1066e-008    9.722e-009      -1.3148e-009   
  -0.7            -1.1459e-008    1.0226e-008     -2.5757e-009   
  -0.75           -8.262e-009     9.836e-009      1.1691e-009    
  -0.8            -1.2544e-008    -2.4001e-008    1.3731e-009    
  -0.85           -1.4871e-008    -1.1101e-008    -7.513e-010    
  -0.9            -1.3488e-008    1.3536e-008     -1.9694e-009   
  -0.95           -1.1004e-008    1.255e-008      1.6502e-009    
  -1              -1.5921e-008    -2.5988e-008    2.2743e-009    
  -1.05           -1.6331e-008    -2.6752e-008    1.254e-009     
  -1.1            -1.704e-008     -2.5878e-008    1.2813e-009    
  -1.15           -1.8441e-008    -1.3788e-008    2.376e-010     
  -1.2            -1.8674e-008    8.582e-009      -1.3518e-009   
  -1.25           -1.608e-008     1.021e-008      9.738e-010     
  -1.3            -2.0113e-008    -2.0162e-008    1.5945e-009    
  -1.35           -2.2486e-008    -1.0855e-008    -4.849e-010    
  -1.4            -2.1898e-008    9.604e-009      -2.2923e-009   
  -1.45           -1.9361e-008    1.1501e-008     1.4179e-009    
  -1.5            -2.4407e-008    -2.6819e-008    2.6061e-009    
  -1.55           -2.5993e-008    -1.2757e-008    1.829e-010     
  -1.6            -2.6299e-008    8.618e-009      -1.3418e-009   
  -1.65           -2.397e-008     1.0062e-008     1.0455e-009    
  -1.7            -2.846e-008     -2.1638e-008    1.5046e-009    
  -1.75           -3.0672e-008    -2.0606e-008    1.803e-009     
  -1.8            -3.1689e-008    -2.5248e-008    2.1736e-009    
END_DB

BEGIN_DB
 ICCAP_VAR VG         -0.36          
 ICCAP_VAR VS         0              
 ICCAP_VAR VB         0              

 #VD              ID              IB              IG             
  0               -2.889e-010     1.8542e-008     1.2439e-009    
  -0.05           -2.4628e-007    -2.4912e-008    1.6022e-009    
  -0.1            -4.2212e-007    -1.9007e-008    1.7294e-009    
  -0.15           -5.3737e-007    -1.0952e-008    -8.026e-010    
  -0.2            -6.1554e-007    2.2766e-008     -1.5002e-009   
  -0.25           -6.7877e-007    1.0413e-008     8.826e-010     
  -0.3            -7.3177e-007    -2.4613e-008    1.3631e-009    
  -0.35           -7.7259e-007    -2.6586e-008    1.2452e-009    
  -0.4            -8.0887e-007    -1.862e-008     1.8602e-009    
  -0.45           -8.3857e-007    -1.0938e-008    -7.287e-010    
  -0.5            -8.6469e-007    2.1158e-008     -1.5562e-009   
  -0.55           -8.9787e-007    1.0498e-008     8.149e-010     
  -0.6            -9.34e-007      -2.3775e-008    1.4218e-009    
  -0.65           -9.6215e-007    -2.6406e-008    1.2698e-009    
  -0.7            -9.8927e-007    -1.1058e-008    -1.457e-010    
  -0.75           -1.00793e-006   1.0878e-008     -2.1521e-009   
  -0.8            -1.03479e-006   1.0246e-008     3.05e-010      
  -0.85           -1.07181e-006   -1.7823e-008    2.0828e-009    
  -0.9            -1.09522e-006   -1.0961e-008    -5.567e-010    
  -0.95           -1.11482e-006   1.8107e-008     -1.6921e-009   
  -1              -1.1446e-006    -2.547e-008     -2.6637e-009   
  -1.05           -1.1756e-006    9.897e-009      1.234e-009     
  -1.1            -1.204e-006     -2.6503e-008    2.4893e-009    
  -1.15           -1.2301e-006    -2.6424e-008    2.4481e-009    
  -1.2            -1.2564e-006    -2.6241e-008    2.3926e-009    
  -1.25           -1.2817e-006    -2.5912e-008    2.3402e-009    
  -1.3            -1.3068e-006    -2.5617e-008    2.2898e-009    
  -1.35           -1.3333e-006    -1.7855e-008    2.0427e-009    
  -1.4            -1.359e-006     -2.2837e-008    1.9813e-009    
  -1.45           -1.3847e-006    -2.2267e-008    1.934e-009     
  -1.5            -1.4101e-006    -2.1339e-008    1.886e-009     
  -1.55           -1.4371e-006    -2.0593e-008    1.8287e-009    
  -1.6            -1.4628e-006    -1.9758e-008    1.7759e-009    
  -1.65           -1.4846e-006    -1.1046e-008    -6.406e-010    
  -1.7            -1.5035e-006    1.6808e-008     -1.7499e-009   
  -1.75           -1.5378e-006    1.2992e-008     2.0553e-009    
  -1.8            -1.5693e-006    -1.3284e-008    1.984e-010     
END_DB

BEGIN_DB
 ICCAP_VAR VG         -0.72          
 ICCAP_VAR VS         0              
 ICCAP_VAR VB         0              

 #VD              ID              IB              IG             
  0               -1.4855e-009    -2.2698e-008    2.419e-010     
  -0.05           -1.1412e-006    -2.1389e-008    -2.4777e-009   
  -0.1            -2.0944e-006    1.0714e-008     1.4854e-009    
  -0.15           -2.8764e-006    -1.3227e-008    2.7612e-009    
  -0.2            -3.5128e-006    -1.2311e-008    1.215e-010     
  -0.25           -3.999e-006     8.121e-009      -2.6166e-009   
  -0.3            -4.4354e-006    1.0226e-008     1.3367e-009    
  -0.35           -4.7605e-006    -2.6075e-008    2.3558e-009    
  -0.4            -5.0322e-006    -2.5735e-008    2.2989e-009    
  -0.45           -5.2632e-006    -1.7746e-008    2.0419e-009    
  -0.5            -5.4558e-006    -2.3021e-008    1.9861e-009    
  -0.55           -5.6281e-006    -2.2231e-008    1.9344e-009    
  -0.6            -5.7833e-006    -2.1563e-008    1.8793e-009    
  -0.65           -5.9263e-006    -2.0544e-008    1.8253e-009    
  -0.7            -6.0579e-006    -2.0015e-008    1.7722e-009    
  -0.75           -6.1815e-006    -1.9035e-008    1.7147e-009    
  -0.8            -6.2866e-006    -1.1085e-008    -6.893e-010    
  -0.85           -6.3801e-006    1.7656e-008     -1.708e-009    
  -0.9            -6.5125e-006    1.3102e-008     2.0915e-009    
  -0.95           -6.6282e-006    -1.2748e-008    1.666e-010     
  -1              -6.6861e-006    8.525e-009      -1.3077e-009   
  -1.05           -6.8337e-006    1.2104e-008     1.5303e-009    
  -1.1            -6.9118e-006    -2.353e-008     2.0488e-009    
  -1.15           -7.0033e-006    -1.0699e-008    -4.479e-010    
  -1.2            -7.0682e-006    1.3223e-008     -1.9782e-009   
  -1.25           -7.1613e-006    1.0257e-008     3.038e-010     
  -1.3            -7.2814e-006    -1.6542e-008    2.2863e-009    
  -1.35           -7.3663e-006    -2.5357e-008    2.2312e-009    
  -1.4            -7.4556e-006    -1.8079e-008    1.9705e-009    
  -1.45           -7.5325e-006    -1.0842e-008    -4.973e-010    
  -1.5            -7.5889e-006    1.426e-008      -1.9116e-009   
  -1.55           -7.7093e-006    1.2612e-008     1.9369e-009    
  -1.6            -7.7936e-006    -1.4879e-008    1.483e-009     
  -1.65           -7.8751e-006    -1.4442e-008    1.4493e-009    
  -1.7            -7.9555e-006    -2.4872e-008    1.3352e-009    
  -1.75           -8.0334e-006    -2.6354e-008    1.2656e-009    
  -1.8            -8.1092e-006    -2.6305e-008    2.3895e-009    
END_DB

BEGIN_DB
 ICCAP_VAR VG         -1.08          
 ICCAP_VAR VS         0              
 ICCAP_VAR VB         0              

 #VD              ID              IB              IG             
  0               -1.6804e-009    -1.8777e-008    -4.164e-010    
  -0.05           -2.6475e-006    -5.118e-009     -1.4603e-009   
  -0.1            -5.0342e-006    1.0724e-008     8.416e-010     
  -0.15           -7.1767e-006    -2.1656e-008    1.5103e-009    
  -0.2            -9.0618e-006    -1.4866e-008    1.4752e-009    
  -0.25           -1.07037e-005   -1.435e-008     1.443e-009     
  -0.3            -1.2095e-005    -1.3387e-008    2.2041e-009    
  -0.35           -1.331e-005     -2.4722e-008    1.3481e-009    
  -0.4            -1.4321e-005    -2.4229e-008    2.0896e-009    
  -0.45           -1.5194e-005    -1.5298e-008    1.4955e-009    
  -0.5            -1.5914e-005    -2.6446e-008    2.3788e-009    
  -0.55           -1.6537e-005    -1.9184e-008    1.7258e-009    
  -0.6            -1.7029e-005    -1.0643e-008    -1.0083e-009   
  -0.65           -1.7477e-005    2.7094e-008     -1.3544e-009   
  -0.7            -1.7976e-005    1.1165e-008     1.5741e-009    
  -0.75           -1.8322e-005    -1.4368e-008    1.458e-009     
  -0.8            -1.8639e-005    -2.6147e-008    2.3305e-009    
  -0.85           -1.8922e-005    -1.1082e-008    -6.863e-010    
  -0.9            -1.9162e-005    2.4617e-008     -1.4377e-009   
  -0.95           -1.9507e-005    9.811e-009      1.2085e-009    
  -1              -1.9731e-005    -2.2546e-008    1.9611e-009    
  -1.05           -1.9984e-005    -1.4021e-008    2.471e-010     
  -1.1            -2.0123e-005    8.28e-009       -2.4204e-009   
  -1.15           -2.0417e-005    1.2893e-008     1.9476e-009    
  -1.2            -2.062e-005     -2.0066e-008    1.6227e-009    
  -1.25           -2.0825e-005    -1.1782e-008    7.45e-011      
  -1.3            -2.0935e-005    1.106e-008      -2.1256e-009   
  -1.35           -2.1146e-005    1.0739e-008     5.965e-010     
  -1.4            -2.1383e-005    -2.3927e-008    1.3942e-009    
  -1.45           -2.154e-005     -2.5258e-008    2.2109e-009    
  -1.5            -2.1689e-005    -1.1146e-008    -7.662e-010    
  -1.55           -2.1816e-005    2.5505e-008     -1.4123e-009   
  -1.6            -2.2077e-005    9.94e-009       1.2798e-009    
  -1.65           -2.2208e-005    -2.0624e-008    1.8344e-009    
  -1.7            -2.2381e-005    -2.5572e-008    1.2984e-009    
  -1.75           -2.2515e-005    -2.2216e-008    1.9368e-009    
  -1.8            -2.269e-005     -1.3736e-008    2.362e-010     
END_DB

BEGIN_DB
 ICCAP_VAR VG         -1.44          
 ICCAP_VAR VS         0              
 ICCAP_VAR VB         0              

 #VD              ID              IB              IG             
  0               -1.0939e-008    -7.341e-009     -2.6354e-009   
  -0.05           -4.1334e-006    -2.0292e-008    -2.4208e-009   
  -0.1            -8.0424e-006    1.0967e-008     1.528e-009     
  -0.15           -1.1716e-005    -2.4403e-008    1.1342e-009    
  -0.2            -1.5159e-005    -2.3756e-008    2.0944e-009    
  -0.25           -1.8366e-005    -1.5431e-008    1.5019e-009    
  -0.3            -2.1306e-005    -2.6176e-008    2.39e-009      
  -0.35           -2.3975e-005    -1.1048e-008    -6.343e-010    
  -0.4            -2.6365e-005    2.3976e-008     -1.4582e-009   
  -0.45           -2.858e-005     9.747e-009      1.1632e-009    
  -0.5            -3.0476e-005    -2.3471e-008    2.0403e-009    
  -0.55           -3.2171e-005    -1.477e-008     1.4686e-009    
  -0.6            -3.3623e-005    -2.6028e-008    2.338e-009     
  -0.65           -3.4875e-005    -1.1017e-008    -6.774e-010    
  -0.7            -3.5934e-005    2.45e-008       -1.4433e-009   
  -0.75           -3.6994e-005    9.838e-009      1.1964e-009    
  -0.8            -3.7812e-005    -2.2627e-008    1.9758e-009    
  -0.85           -3.8586e-005    -1.4309e-008    2.555e-010     
  -0.9            -3.9154e-005    8.143e-009      -2.4283e-009   
  -0.95           -3.9865e-005    1.2643e-008     1.9282e-009    
  -1              -4.0411e-005    -2.0008e-008    1.65e-009      
  -1.05           -4.0913e-005    -2.6423e-008    1.2556e-009    
  -1.1            -4.1359e-005    -1.0851e-008    -4.919e-010    
  -1.15           -4.1729e-005    2.1976e-008     -1.5235e-009   
  -1.2            -4.2228e-005    9.772e-009      1.0609e-009    
  -1.25           -4.2601e-005    -2.5102e-008    2.2281e-009    
  -1.3            -4.2938e-005    -1.1114e-008    -7.556e-010    
  -1.35           -4.3236e-005    2.5383e-008     -1.4195e-009   
  -1.4            -4.3699e-005    9.903e-009      1.2584e-009    
  -1.45           -4.3975e-005    -2.126e-008     1.8723e-009    
  -1.5            -4.4308e-005    -2.5214e-008    1.3083e-009    
  -1.55           -4.4586e-005    -2.2555e-008    1.9709e-009    
  -1.6            -4.4902e-005    -1.4241e-008    2.507e-010     
  -1.65           -4.5057e-005    8.187e-009      -2.4111e-009   
  -1.7            -4.5452e-005    1.2799e-008     1.9337e-009    
  -1.75           -4.5711e-005    -2.0097e-008    1.6321e-009    
  -1.8            -4.5968e-005    -2.6565e-008    2.5333e-009    
END_DB

BEGIN_DB
 ICCAP_VAR VG         -1.8           
 ICCAP_VAR VS         0              
 ICCAP_VAR VB         0              

 #VD              ID              IB              IG             
  0               -9.383e-009     2.315e-008      5.681e-010     
  -0.05           -5.2577e-006    -9.149e-009     -1.6999e-009   
  -0.1            -1.03243e-005   2.0752e-008     -1.3032e-009   
  -0.15           -1.5212e-005    1.0299e-008     -2.5152e-009   
  -0.2            -1.9912e-005    1.0421e-008     8.682e-010     
  -0.25           -2.4424e-005    -2.6694e-008    1.2549e-009    
  -0.3            -2.8705e-005    -1.0925e-008    -4.684e-010    
  -0.35           -3.2739e-005    2.1353e-008     -1.5345e-009   
  -0.4            -3.6592e-005    9.886e-009      1.0493e-009    
  -0.45           -4.0181e-005    -2.5984e-008    2.2836e-009    
  -0.5            -4.3511e-005    -1.1155e-008    -7.243e-010    
  -0.55           -4.6577e-005    2.4727e-008     -1.4209e-009   
  -0.6            -4.9493e-005    9.975e-009      1.2377e-009    
  -0.65           -5.2091e-005    -2.2289e-008    1.9231e-009    
  -0.7            -5.4471e-005    -2.4781e-008    1.3143e-009    
  -0.75           -5.6608e-005    -1.8728e-008    1.8325e-009    
  -0.8            -5.8519e-005    -2.5291e-008    1.2895e-009    
  -0.85           -6.0205e-005    -1.0738e-008    -3.504e-010    
  -0.9            -6.1658e-005    1.9023e-008     -1.626e-009    
  -0.95           -6.3065e-005    1.0347e-008     9.618e-010     
  -1              -6.4285e-005    -2.6543e-008    2.4375e-009    
  -1.05           -6.5352e-005    -2.0426e-008    1.7817e-009    
  -1.1            -6.626e-005     -1.0777e-008    -9.815e-010    
  -1.15           -6.7101e-005    2.7353e-008     -1.3571e-009   
  -1.2            -6.8051e-005    1.0942e-008     1.5422e-009    
  -1.25           -6.8743e-005    -1.5234e-008    1.4975e-009    
  -1.3            -6.9408e-005    -2.6563e-008    2.409e-009     
  -1.35           -7.0036e-005    -1.973e-008     1.7472e-009    
  -1.4            -7.0551e-005    -1.0648e-008    -1.0005e-009   
  -1.45           -7.1068e-005    2.732e-008      -1.3531e-009   
  -1.5            -7.1763e-005    1.2251e-008     1.5707e-009    
  -1.55           -7.2216e-005    -1.4817e-008    1.4643e-009    
  -1.6            -7.2679e-005    -1.1114e-008    -3.87e-011     
  -1.65           -7.3018e-005    1.3952e-008     -1.9526e-009   
  -1.7            -7.3502e-005    1.0678e-008     7.315e-010     
  -1.75           -7.3981e-005    -2.5028e-008    1.3074e-009    
  -1.8            -7.4357e-005    -2.3698e-008    2.0174e-009    
END_DB

BEGIN_DB
 ICCAP_VAR VG         0              
 ICCAP_VAR VS         0              
 ICCAP_VAR VB         0.9            

 #VD              ID              IB              IG             
  0               -1.1632e-009    -1.0403e-008    -1.3018e-009   
  -0.05           -1.3192e-009    -2.6426e-008    1.2805e-009    
  -0.1            7.32e-011       -1.0404e-008    2.8484e-009    
  -0.15           1.7076e-009     1.35e-010       1.6352e-009    
  -0.2            2.0086e-009     1.2112e-008     -3.17e-011     
  -0.25           2.1105e-009     1.0403e-008     1.563e-010     
  -0.3            2.207e-009      1.074e-008      3.636e-010     
  -0.35           2.2885e-009     1.0375e-008     5.728e-010     
  -0.4            2.3298e-009     1.0037e-008     7.51e-010      
  -0.45           2.3364e-009     9.678e-009      9.14e-010      
  -0.5            2.2796e-009     1.0607e-008     1.0691e-009    
  -0.55           2.151e-009      1.1911e-008     1.2319e-009    
  -0.6            1.9263e-009     1.0387e-008     -1.796e-010    
  -0.65           2.0038e-009     1.0372e-008     8e-013         
  -0.7            2.1017e-009     1.0534e-008     1.916e-010     
  -0.75           2.1915e-009     1.0738e-008     3.923e-010     
  -0.8            2.2662e-009     1.0362e-008     6.036e-010     
  -0.85           2.2998e-009     9.913e-009      7.786e-010     
  -0.9            2.2989e-009     9.717e-009      9.366e-010     
  -0.95           2.2293e-009     1.0851e-008     1.0937e-009    
  -1              1.6558e-009     1.086e-008      -1.6299e-009   
  -1.05           -1.6028e-009    6.88e-009       -1.7214e-009   
  -1.1            -1.652e-009     -1.8599e-008    2.1076e-009    
  -1.15           2.2017e-009     -7.778e-009     5.353e-010     
  -1.2            2.2512e-009     1.0385e-008     7.251e-010     
  -1.25           2.2556e-009     9.791e-009      8.85e-010      
  -1.3            2.2091e-009     1.0345e-008     1.0421e-009    
  -1.35           1.5621e-009     1.1756e-008     -1.2988e-009   
  -1.4            2.441e-010      1.1513e-008     -2.4439e-009   
  -1.45           -2.3393e-009    -1.1031e-008    -4.515e-010    
  -1.5            -1.5723e-009    -2.4626e-008    1.2421e-009    
  -1.55           -1.625e-010     -1.2511e-008    2.862e-009     
  -1.6            2.1692e-009     -2.62e-010      7.257e-010     
  -1.65           1.2003e-009     9.675e-009      -1.3481e-009   
  -1.7            -1.3707e-009    7.717e-009      -2.151e-009    
  -1.75           -1.603e-009     -2.5184e-008    1.2552e-009    
  -1.8            -2.041e-010     -1.1834e-008    2.8623e-009    
END_DB

BEGIN_DB
 ICCAP_VAR VG         -0.36          
 ICCAP_VAR VS         0              
 ICCAP_VAR VB         0.9            

 #VD              ID              IB              IG             
  0               -9.417e-010     -9.563e-009     -1.2963e-009   
  -0.05           -4.1795e-008    1.2784e-008     1.3999e-009    
  -0.1            -6.1568e-008    -1.0994e-008    -7.012e-010    
  -0.15           -7.0297e-008    1.2493e-008     -2.0487e-009   
  -0.2            -7.7028e-008    1.0538e-008     -3.6e-012      
  -0.25           -8.6958e-008    -1.1066e-008    2.8418e-009    
  -0.3            -9.5918e-008    -1.8929e-008    1.7017e-009    
  -0.35           -1.0261e-007    -1.0836e-008    -3.994e-010    
  -0.4            -1.06889e-007   8.81e-009       -2.3975e-009   
  -0.45           -1.1621e-007    7.772e-009      -5.717e-010    
  -0.5            -1.2016e-007    1.781e-008      -1.6882e-009   
  -0.55           -1.2597e-007    1.0796e-008     6.874e-010     
