! VERSION = 6.00
BEGIN_HEADER
 ICCAP_INPUTS
  VG         V  B GROUND SMU4 0.001 LIN        2    0          -1.8       6    -0.36     
  VS         V  E GROUND SMU2 0.1 CON        0
  VD         V  S GROUND SMU1 0.1 LIN        1    0          -1.8       37   -0.05     
  VB         V  C GROUND SMU3 0.1 LIN        3    0          0.9        2    0.9       
 ICCAP_OUTPUTS
  ID         I  S GROUND SMU1 B
  IB         I  C GROUND SMU3 B
  IG         I  B GROUND SMU4 B
END_HEADER

BEGIN_DB
 ICCAP_VAR VG         0              
 ICCAP_VAR VS         0              
 ICCAP_VAR VB         0              

 #VD              ID              IB              IG             
  0               -1.2485e-009    1.1039e-008     -1.3696e-009   
  -0.05           -2.2492e-009    -1.1445e-008    -2.304e-010    
  -0.1            -2.3108e-009    -1.1507e-008    -4.276e-010    
  -0.15           -2.0262e-009    -2.4305e-008    2.4543e-009    
  -0.2            2.0356e-009     -3.293e-009     1.953e-010     
  -0.25           2.1343e-009     1.1025e-008     3.765e-010     
  -0.3            2.1934e-009     1.0974e-008     5.522e-010     
  -0.35           2.2253e-009     1.0182e-008     7.267e-010     
  -0.4            2.2119e-009     9.491e-009      8.76e-010      
  -0.45           8.654e-010      8.982e-009      -1.3199e-009   
  -0.5            -1.234e-009     9.169e-009      -2.2836e-009   
  -0.55           -2.1539e-009    -2.3056e-008    2.372e-009     
  -0.6            2.0578e-009     -3.786e-009     2.529e-010     
  -0.65           2.1472e-009     1.0936e-008     4.329e-010     
  -0.7            2.2025e-009     1.0339e-008     6.083e-010     
  -0.75           2.2207e-009     9.644e-009      7.78e-010      
  -0.8            2.2065e-009     9.218e-009      9.226e-010     
  -0.85           9.314e-010      9.008e-009      -1.3103e-009   
  -0.9            -1.2428e-009    9.851e-009      -2.3353e-009   
  -0.95           -2.2051e-009    -2.1957e-008    2.314e-009     
  -1              2.0944e-009     -4.475e-009     3.102e-010     
  -1.05           2.1694e-009     1.093e-008      4.937e-010     
  -1.1            2.2165e-009     1.0407e-008     6.694e-010     
  -1.15           2.2172e-009     9.758e-009      8.271e-010     
  -1.2            7.331e-010      9.244e-009      -1.3271e-009   
  -1.25           -1.2669e-009    8.567e-009      -2.2284e-009   
  -1.3            -1.9077e-009    -2.4269e-008    2.458e-009     
  -1.35           2.0339e-009     -3.178e-009     1.888e-010     
  -1.4            2.1226e-009     1.0988e-008     3.675e-010     
  -1.45           2.1801e-009     1.0927e-008     5.504e-010     
  -1.5            2.2245e-009     1.0252e-008     7.207e-010     
  -1.55           2.2216e-009     9.557e-009      8.7e-010       
  -1.6            8.51e-010       9.06e-009       -1.3196e-009   
  -1.65           -1.2455e-009    8.983e-009      -2.277e-009    
  -1.7            -2.1301e-009    -2.3294e-008    2.3916e-009    
  -1.75           2.0544e-009     -3.758e-009     2.46e-010      
  -1.8            2.1292e-009     1.1033e-008     4.246e-010     
END_DB

BEGIN_DB
 ICCAP_VAR VG         -0.36          
 ICCAP_VAR VS         0              
 ICCAP_VAR VB         0              

 #VD              ID              IB              IG             
  0               1.03e-010       -2.7385e-008    -8.827e-010    
  -0.05           -3.5313e-008    1.163e-008      2.4655e-009    
  -0.1            -5.2383e-008    -1.1887e-008    1.666e-010     
  -0.15           -5.4346e-008    8.891e-009      -1.3351e-009   
  -0.2            -4.9571e-008    9.443e-009      1.0675e-009    
  -0.25           -6.6641e-008    -2.2299e-008    1.4605e-009    
  -0.3            -5.9148e-008    -1.1444e-008    -5.378e-010    
  -0.35           -6.8347e-008    1.2033e-008     -2.1757e-009   
  -0.4            -5.318e-008     9.788e-009      1.4659e-009    
  -0.45           -7.3113e-008    -2.7455e-008    2.4903e-009    
  -0.5            -7.2607e-008    -1.1898e-008    1.81e-010      
  -0.55           -6.3975e-008    8.814e-009      -1.3385e-009   
  -0.6            -5.5894e-008    9.708e-009      1.0545e-009    
  -0.65           -7.2675e-008    -2.2017e-008    1.4663e-009    
  -0.7            -7.4963e-008    -1.9851e-008    1.7838e-009    
  -0.75           -7.4381e-008    -2.5483e-008    2.1673e-009    
  -0.8            -7.4377e-008    -2.732e-008     2.5164e-009    
  -0.85           -7.5496e-008    -1.1967e-008    1.994e-010     
  -0.9            -6.5506e-008    8.801e-009      -1.3425e-009   
  -0.95           -5.7752e-008    9.733e-009      1.0393e-009    
  -1              -7.6395e-008    -2.1675e-008    1.4915e-009    
  -1.05           -7.8792e-008    -2.0396e-008    1.8048e-009    
  -1.1            -7.7333e-008    -2.5736e-008    2.1946e-009    
  -1.15           -7.3756e-008    -1.1564e-008    2.16e-011      
  -1.2            -7.0955e-008    9.448e-009      -1.3018e-009   
  -1.25           -5.9301e-008    9.129e-009      1.222e-009     
  -1.3            -7.8123e-008    -2.5416e-008    1.3311e-009    
  -1.35           -6.5761e-008    -1.1549e-008    -7.49e-010     
  -1.4            -7.746e-008     1.5132e-008     -1.8968e-009   
  -1.45           -7.0702e-008    1.0908e-008     3.17e-011      
  -1.5            -7.4594e-008    -1.2214e-008    2.793e-009     
  -1.55           -8.2351e-008    -1.6675e-008    1.5905e-009    
  -1.6            -8.2756e-008    -2.2668e-008    1.9527e-009    
  -1.65           -8.0427e-008    -2.6968e-008    2.3372e-009    
  -1.7            -7.8779e-008    -1.1571e-008    9.21e-011      
  -1.75           -7.2309e-008    9.294e-009      -1.3186e-009   
  -1.8            -6.053e-008     9.34e-009       1.1454e-009    
END_DB

BEGIN_DB
 ICCAP_VAR VG         -0.72          
 ICCAP_VAR VS         0              
 ICCAP_VAR VB         0              

 #VD              ID              IB              IG             
  0               -3.242e-010     -2.7221e-008    2.18e-011      
  -0.05           -2.9297e-007    -1.1234e-008    2.8521e-009    
  -0.1            -5.287e-007     -1.3814e-008    1.4504e-009    
  -0.15           -6.9916e-007    -1.2385e-008    2.059e-010     
  -0.2            -8.1463e-007    8.559e-009      -2.5783e-009   
  -0.25           -8.9923e-007    9.857e-009      1.4834e-009    
  -0.3            -9.6778e-007    -2.0718e-008    1.8609e-009    
  -0.35           -9.8421e-007    -1.1334e-008    -6.197e-010    
  -0.4            -1.0249e-006    2.0742e-008     -1.5778e-009   
  -0.45           -1.02911e-006   1.0791e-008     7.274e-010     
  -0.5            -1.06828e-006   -2.2791e-008    1.4718e-009    
  -0.55           -1.07578e-006   -1.2512e-008    2.205e-010     
  -0.6            -1.07409e-006   8.703e-009      -2.5999e-009   
  -0.65           -1.08225e-006   9.855e-009      1.4591e-009    
  -0.7            -1.11448e-006   -2.1163e-008    1.882e-009     
  -0.75           -1.08857e-006   -1.1422e-008    -5.911e-010    
  -0.8            -1.11558e-006   2.037e-008      -1.5938e-009   
  -0.85           -1.10413e-006   1.0606e-008     7.105e-010     
  -0.9            -1.1297e-006    -2.2386e-008    -1.8399e-009   
  -0.95           -1.1192e-006    1.0915e-008     3.403e-010     
  -1              -1.1463e-006    -1.6931e-008    2.1481e-009    
  -1.05           -1.1502e-006    -2.4608e-008    2.1226e-009    
  -1.1            -1.1559e-006    -2.4326e-008    2.0912e-009    
  -1.15           -1.1595e-006    -2.391e-008     2.0608e-009    
  -1.2            -1.1656e-006    -2.3531e-008    2.0304e-009    
  -1.25           -1.1668e-006    -2.314e-008     1.9984e-009    
  -1.3            -1.173e-006     -2.2675e-008    1.9737e-009    
  -1.35           -1.1775e-006    -2.232e-008     1.9475e-009    
  -1.4            -1.1818e-006    -2.1877e-008    1.9126e-009    
  -1.45           -1.1841e-006    -2.1384e-008    1.8807e-009    
  -1.5            -1.1904e-006    -2.0875e-008    1.8658e-009    
  -1.55           -1.1674e-006    -1.1378e-008    -4.769e-010    
  -1.6            -1.1851e-006    1.5266e-008     -1.8674e-009   
  -1.65           -1.1738e-006    1.0887e-008     3.161e-010     
  -1.7            -1.2052e-006    -1.6897e-008    2.1892e-009    
  -1.75           -1.2106e-006    -2.5141e-008    2.1552e-009    
  -1.8            -1.2098e-006    -2.4807e-008    2.1302e-009    
END_DB

BEGIN_DB
 ICCAP_VAR VG         -1.08          
 ICCAP_VAR VS         0              
 ICCAP_VAR VB         0              

 #VD              ID              IB              IG             
  0               -1.4488e-009    1.0472e-008     8.538e-010     
  -0.05           -8.8945e-007    -2.2075e-008    1.6481e-009    
  -0.1            -1.6764e-006    9.799e-009      2.8115e-009    
  -0.15           -2.3549e-006    -1.3363e-008    1.4123e-009    
  -0.2            -2.9275e-006    -1.3127e-008    1.4021e-009    
  -0.25           -3.406e-006     -1.306e-008     2.631e-010     
  -0.3            -3.7732e-006    9.192e-009      -1.3094e-009   
  -0.35           -4.1124e-006    1.0363e-008     1.4159e-009    
  -0.4            -4.3542e-006    -2.5465e-008    2.2066e-009    
  -0.45           -4.5516e-006    -2.5495e-008    2.1754e-009    
  -0.5            -4.7025e-006    -2.5199e-008    2.1594e-009    
  -0.55           -4.8112e-006    -2.4833e-008    2.1168e-009    
  -0.6            -4.9038e-006    -2.4382e-008    2.1001e-009    
  -0.65           -4.9738e-006    -2.42e-008      2.0705e-009    
  -0.7            -5.0233e-006    -2.3913e-008    2.0452e-009    
  -0.75           -5.0763e-006    -2.3512e-008    2.0128e-009    
  -0.8            -5.1161e-006    -2.3156e-008    1.9836e-009    
  -0.85           -5.1447e-006    -2.2754e-008    1.951e-009     
  -0.9            -5.1797e-006    -2.2335e-008    1.9199e-009    
  -0.95           -5.1755e-006    -1.131e-008     -4.409e-010    
  -1              -5.2123e-006    1.5142e-008     -1.9295e-009   
  -1.05           -5.2343e-006    1.0726e-008     2.905e-010     
  -1.1            -5.2931e-006    -1.725e-008     2.2499e-009    
  -1.15           -5.3036e-006    -2.5753e-008    2.2165e-009    
  -1.2            -5.3305e-006    -2.5499e-008    2.2026e-009    
  -1.25           -5.3484e-006    -2.5254e-008    2.1699e-009    
  -1.3            -5.3676e-006    -2.5046e-008    2.1447e-009    
  -1.35           -5.3899e-006    -2.4602e-008    2.1042e-009    
  -1.4            -5.394e-006     -2.4254e-008    2.071e-009     
  -1.45           -5.4236e-006    -2.3848e-008    2.0528e-009    
  -1.5            -5.4418e-006    -2.3494e-008    2.0082e-009    
  -1.55           -5.4569e-006    -2.3121e-008    1.9944e-009    
  -1.6            -5.4659e-006    -2.2675e-008    1.9561e-009    
  -1.65           -5.4562e-006    -1.128e-008     -4.176e-010    
  -1.7            -5.4752e-006    1.4719e-008     -1.9614e-009   
  -1.75           -5.4853e-006    1.0707e-008     2.63e-010      
  -1.8            -5.5375e-006    -1.7134e-008    2.2799e-009    
END_DB

BEGIN_DB
 ICCAP_VAR VG         -1.44          
 ICCAP_VAR VS         0              
 ICCAP_VAR VB         0              

 #VD              ID              IB              IG             
  0               -2.3965e-009    -6.096e-009     -6.977e-010    
  -0.05           -1.5509e-006    1.1925e-008     1.504e-009     
  -0.1            -2.9963e-006    -1.1329e-008    -7.882e-010    
  -0.15           -4.3475e-006    2.1183e-008     -1.5678e-009   
  -0.2            -5.5907e-006    1.0905e-008     6.23e-010      
  -0.25           -6.7509e-006    -1.9591e-008    1.7678e-009    
  -0.3            -7.7757e-006    -1.1395e-008    -5.551e-010    
  -0.35           -8.7193e-006    1.7352e-008     -1.7993e-009   
  -0.4            -9.5618e-006    1.1841e-008     1.9931e-009    
  -0.45           -1.0314e-005    -1.3124e-008    1.4031e-009    
  -0.5            -1.09541e-005   -1.3051e-008    1.3909e-009    
  -0.55           -1.1478e-005    6.525e-009      1.7714e-009    
  -0.6            -1.1946e-005    -1.2373e-008    2.1e-010       
  -0.65           -1.2287e-005    1.0178e-008     -2.3198e-009   
  -0.7            -1.2621e-005    1.1915e-008     1.991e-009     
  -0.75           -1.2889e-005    -2.1154e-008    1.525e-009     
  -0.8            -1.3103e-005    -2.6903e-008    2.4481e-009    
  -0.85           -1.3231e-005    -1.1297e-008    -4.873e-010    
  -0.9            -1.3366e-005    2.2792e-008     -1.4833e-009   
  -0.95           -1.3508e-005    9.461e-009      1.0761e-009    
  -1              -1.3606e-005    -2.519e-008     2.1885e-009    
  -1.05           -1.365e-005     -1.1427e-008    -7.001e-010    
  -1.1            -1.3737e-005    2.5474e-008     -1.4076e-009   
  -1.15           -1.3845e-005    9.203e-009      1.2317e-009    
  -1.2            -1.3895e-005    -2.1419e-008    1.8976e-009    
  -1.25           -1.3963e-005    -1.3208e-008    1.3992e-009    
  -1.3            -1.4014e-005    -2.5951e-008    2.2458e-009    
  -1.35           -1.4005e-005    -1.1509e-008    -6.456e-010    
  -1.4            -1.4075e-005    2.4851e-008     -1.4238e-009   
  -1.45           -1.4157e-005    9.171e-009      1.1986e-009    
  -1.5            -1.4204e-005    -2.2505e-008    1.9657e-009    
  -1.55           -1.4173e-005    -1.1157e-008    -8.299e-010    
  -1.6            -1.425e-005     2.684e-008      -1.3784e-009   
  -1.65           -1.4327e-005    9.93e-009       1.3636e-009    
  -1.7            -1.4359e-005    -1.8055e-008    1.6836e-009    
  -1.75           -1.4399e-005    -2.6305e-008    2.5898e-009    
  -1.8            -1.4417e-005    -2.3556e-008    2.0268e-009    
END_DB

BEGIN_DB
 ICCAP_VAR VG         -1.8           
 ICCAP_VAR VS         0              
 ICCAP_VAR VB         0              

 #VD              ID              IB              IG             
  0               -9.469e-009     1.0778e-008     4.8e-011       
  -0.05           -2.0811e-006    -1.6925e-008    -2.1302e-009   
  -0.1            -4.0839e-006    2.1976e-008     -1.5106e-009   
  -0.15           -5.9983e-006    1.0895e-008     6.811e-010     
  -0.2            -7.8414e-006    -2.0212e-008    1.6645e-009    
  -0.25           -9.575e-006     -1.1406e-008    -6.366e-010    
  -0.3            -1.12413e-005   1.8383e-008     -1.7027e-009   
  -0.35           -1.2785e-005    1.1704e-008     -1.7743e-009   
  -0.4            -1.4276e-005    1.0879e-008     7.846e-010     
  -0.45           -1.5676e-005    -2.6767e-008    2.6334e-009    
  -0.5            -1.6961e-005    -2.4113e-008    2.0678e-009    
  -0.55           -1.8122e-005    -1.1523e-008    -7.689e-010    
  -0.6            -1.9221e-005    2.6606e-008     -1.3961e-009   
  -0.65           -2.025e-005     9.076e-009      1.2944e-009    
  -0.7            -2.1135e-005    -1.9384e-008    1.7784e-009    
  -0.75           -2.1948e-005    -1.23e-008      2.212e-010     
  -0.8            -2.2601e-005    1.0004e-008     -2.3334e-009   
  -0.85           -2.3248e-005    1.1855e-008     1.9814e-009    
  -0.9            -2.3792e-005    -2.1232e-008    1.539e-009     
  -0.95           -2.4256e-005    -2.7258e-008    2.4574e-009    
  -1              -2.4587e-005    -1.1434e-008    -4.681e-010    
  -1.05           -2.4917e-005    2.276e-008      -1.4822e-009   
  -1.1            -2.5232e-005    9.512e-009      1.0621e-009    
  -1.15           -2.5452e-005    -2.5526e-008    2.2008e-009    
  -1.2            -2.56e-005      -1.1469e-008    -6.846e-010    
  -1.25           -2.5777e-005    2.574e-008      -1.4118e-009   
  -1.3            -2.5997e-005    9.181e-009      1.2164e-009    
  -1.35           -2.6104e-005    -2.145e-008     1.9041e-009    
  -1.4            -2.6242e-005    -1.2907e-008    1.4063e-009    
  -1.45           -2.6348e-005    -2.6268e-008    2.2564e-009    
  -1.5            -2.6395e-005    -1.1466e-008    -6.389e-010    
  -1.55           -2.6497e-005    2.5258e-008     -1.4241e-009   
  -1.6            -2.6638e-005    9.18e-009       1.1833e-009    
  -1.65           -2.67e-005      -2.2564e-008    1.9653e-009    
  -1.7            -2.6709e-005    -1.112e-008     -8.202e-010    
  -1.75           -2.681e-005     2.7115e-008     -1.3869e-009   
  -1.8            -2.6944e-005    9.864e-009      1.3455e-009    
END_DB

BEGIN_DB
 ICCAP_VAR VG         0              
 ICCAP_VAR VS         0              
 ICCAP_VAR VB         0.9            

 #VD              ID              IB              IG             
  0               2.3097e-009     -1.5399e-008    2.6115e-009    
  -0.05           2.0024e-009     1.1762e-008     -9.64e-011     
  -0.1            9.84e-010       2.6531e-008     -1.4644e-009   
  -0.15           -1.3366e-009    8.366e-009      -1.8024e-009   
  -0.2            -2.2043e-009    -1.151e-008     -4.671e-010    
  -0.25           -1.3827e-009    -2.3237e-008    2.3962e-009    
  -0.3            2.1247e-009     -3.449e-009     1.2097e-009    
  -0.35           1.9384e-009     1.0716e-008     -2.456e-010    
  -0.4            8.748e-010      2.4491e-008     -1.5822e-009   
  -0.45           -1.4827e-009    6.718e-009      -1.684e-009    
  -0.5            -2.1551e-009    -1.1525e-008    -2.699e-010    
  -0.55           -2.2036e-009    -1.1517e-008    -4.617e-010    
  -0.6            -1.3795e-009    -2.3395e-008    2.409e-009     
  -0.65           2.1387e-009     -3.334e-009     1.2055e-009    
  -0.7            1.9386e-009     1.0759e-008     -2.453e-010    
  -0.75           8.755e-010      2.457e-008      -1.5907e-009   
  -0.8            -1.4917e-009    6.643e-009      -1.6814e-009   
  -0.85           -1.5076e-009    -1.9098e-008    2.1276e-009    
  -0.9            1.9637e-009     -5.814e-009     1.3773e-009    
  -0.95           1.7534e-009     1.1674e-008     1.5368e-009    
  -1              1.973e-009      1.1985e-008     -1.704e-010    
  -1.05           9.337e-010      2.5698e-008     -1.5179e-009   
  -1.1            -1.4032e-009    7.767e-009      -1.7533e-009   
  -1.15           -2.1849e-009    -1.153e-008     -3.799e-010    
  -1.2            -1.3274e-009    -2.4936e-008    2.5047e-009    
  -1.25           2.1905e-009     -2.69e-009      1.1382e-009    
  -1.3            2.0507e-009     1.0977e-008     1.2811e-009    
  -1.35           1.9758e-009     1.0744e-008     -1.765e-010    
  -1.4            9.299e-010      2.5643e-008     -1.5185e-009   
  -1.45           -1.4066e-009    7.683e-009      -1.7494e-009   
  -1.5            -2.1796e-009    -1.1612e-008    -3.671e-010    
  -1.55           -1.3276e-009    -2.4975e-008    2.5078e-009    
  -1.6            2.1909e-009     -2.691e-009     1.1357e-009    
  -1.65           2.0557e-009     1.1075e-008     1.2793e-009    
  -1.7            1.9741e-009     1.0685e-008     -1.825e-010    
  -1.75           9.242e-010      2.5534e-008     -1.5206e-009   
  -1.8            -1.4157e-009    7.619e-009      -1.7444e-009   
END_DB

BEGIN_DB
 ICCAP_VAR VG         -0.36          
 ICCAP_VAR VS         0              
 ICCAP_VAR VB         0.9            

 #VD              ID              IB              IG             
  0               -8.761e-010     -2.3847e-008    -1.0407e-009   
  -0.05           -1.7057e-009    5.543e-009      -1.6047e-009   
  -0.1            -2.2496e-009    -1.141e-008     -1.559e-010    
  -0.15           -2.318e-009     -1.1534e-008    -3.332e-010    
  -0.2            -1.5211e-009    -2.5556e-008    2.5491e-009    
  -0.25           1.9413e-009     -2.399e-009     9.98e-011      
  -0.3            2.0309e-009     1.0958e-008     2.787e-010     
  -0.35           2.1002e-009     1.1071e-008     4.507e-010     
  -0.4            2.1447e-009     1.0646e-008     6.213e-010     
  -0.45           2.1601e-009     9.94e-009       7.879e-010     
  -0.5            1.1977e-009     9.32e-009       -1.3376e-009   
  -0.55           -1.2877e-009    8.386e-009      -2.1868e-009   
