! VERSION = 6.00
BEGIN_HEADER
 ICCAP_INPUTS
  VG         V  B GROUND SMU4 0.001 LIN        2    0          -1.8       6    -0.36     
  VS         V  E GROUND SMU2 0.1 CON        0
  VD         V  S GROUND SMU1 0.1 LIN        1    0          -1.8       37   -0.05     
  VB         V  C GROUND SMU3 0.1 LIN        3    0          0.9        2    0.9       
 ICCAP_OUTPUTS
  ID         I  S GROUND SMU1 B
  IB         I  C GROUND SMU3 B
  IG         I  B GROUND SMU4 B
END_HEADER

BEGIN_DB
 ICCAP_VAR VG         0              
 ICCAP_VAR VS         0              
 ICCAP_VAR VB         0              

 #VD              ID              IB              IG             
  0               -1.0702e-009    -7.586e-009     -1.2442e-009   
  -0.05           -1.1391e-008    1.038e-008      1.2942e-009    
  -0.1            -1.5613e-008    -1.49e-008      1.3919e-009    
  -0.15           -1.8613e-008    -1.3724e-008    1.5183e-009    
  -0.2            -2.2852e-008    -8.801e-009     1.0945e-009    
  -0.25           -2.4486e-008    -1.1738e-008    1.7656e-009    
  -0.3            -2.7419e-008    -1.1194e-008    1.1598e-009    
  -0.35           -3.2757e-008    -9.605e-009     -1.803e-010    
  -0.4            -3.5221e-008    8.46e-009       -1.6813e-009   
  -0.45           -3.6794e-008    1.188e-008      1.1119e-009    
  -0.5            -4.2642e-008    -6.78e-009      1.146e-009     
  -0.55           -4.8032e-008    -1.5093e-008    1.3974e-009    
  -0.6            -5.2789e-008    -1.3688e-008    1.5146e-009    
  -0.65           -5.7966e-008    -1.248e-008     1.6427e-009    
  -0.7            -6.3422e-008    -1.1517e-008    1.1512e-009    
  -0.75           -7.0734e-008    -9.869e-009     1.1568e-009    
  -0.8            -7.7187e-008    -1.0733e-008    1.1666e-009    
  -0.85           -8.2726e-008    -9.464e-009     -8.42e-011     
  -0.9            -8.8715e-008    6.46e-009       -1.799e-009    
  -0.95           -9.4629e-008    1.0129e-008     1.0245e-009    
  -1              -1.04585e-007   -5.309e-009     1.1314e-009    
  -1.05           -1.1191e-007    -1.3661e-008    -1.4224e-009   
  -1.1            -1.1891e-007    8.957e-009      2.711e-010     
  -1.15           -1.3318e-007    -1.8201e-008    1.2025e-009    
  -1.2            -1.4271e-007    -1.016e-008     1.1775e-009    
  -1.25           -1.5321e-007    -1.1101e-008    1.1595e-009    
  -1.3            -1.6498e-007    -1.2263e-008    1.6774e-009    
  -1.35           -1.7548e-007    -9.1e-009       4.37e-011      
  -1.4            -1.862e-007     1.2156e-008     -1.4959e-009   
  -1.45           -1.9668e-007    8.611e-009      2.131e-010     
  -1.5            -2.1706e-007    -1.7072e-008    1.2494e-009    
  -1.55           -2.3288e-007    -1.0659e-008    1.173e-009     
  -1.6            -2.4549e-007    -1.1576e-008    1.1596e-009    
  -1.65           -2.6205e-007    -1.3038e-008    1.5725e-009    
  -1.7            -2.7984e-007    -1.5977e-008    1.1459e-009    
  -1.75           -2.9245e-007    -9.687e-009     -1.911e-010    
  -1.8            -3.0612e-007    6.13e-010       -1.2655e-009   
END_DB

BEGIN_DB
 ICCAP_VAR VG         -0.36          
 ICCAP_VAR VS         0              
 ICCAP_VAR VB         0              

 #VD              ID              IB              IG             
  0               -1.234e-008     -1.2933e-008    -1.2049e-009   
  -0.05           -2.9838e-006    -1.7103e-008    -2.2297e-009   
  -0.1            -4.7808e-006    8.177e-009      1.91e-010      
  -0.15           -5.9941e-006    -1.4704e-008    1.4151e-009    
  -0.2            -6.8271e-006    -1.5819e-008    1.1425e-009    
  -0.25           -7.4669e-006    -9.418e-009     -5.76e-011     
  -0.3            -8.0188e-006    1.1537e-008     -1.5175e-009   
  -0.35           -8.6157e-006    1.5081e-008     1.5207e-009    
  -0.4            -9.2079e-006    -9.947e-009     1.1531e-009    
  -0.45           -9.5916e-006    -9.678e-009     -3.611e-010    
  -0.5            -1.00525e-005   1.572e-009      -1.2615e-009   
  -0.55           -1.06531e-005   8.885e-009      5.349e-010     
  -0.6            -1.1138e-005    -3.246e-009     1.0791e-009    
  -0.65           -1.1658e-005    2.998e-009      1.1496e-009    
  -0.7            -1.2106e-005    -1.6096e-008    1.3069e-009    
  -0.75           -1.259e-005     -1.0922e-008    1.1571e-009    
  -0.8            -1.3048e-005    -1.5249e-008    1.3724e-009    
  -0.85           -1.3542e-005    -2.2553e-008    1.0745e-009    
  -0.9            -1.4001e-005    -1.6092e-008    1.2978e-009    
  -0.95           -1.4483e-005    -1.1089e-008    1.1569e-009    
  -1              -1.4941e-005    -1.5166e-008    1.3714e-009    
  -1.05           -1.5436e-005    -1.0706e-008    1.157e-009     
  -1.1            -1.5886e-005    -1.425e-008     1.4444e-009    
  -1.15           -1.6386e-005    -1.0291e-008    1.1602e-009    
  -1.2            -1.663e-005     -8.888e-009     -5.897e-010    
  -1.25           -1.7131e-005    2.229e-009      -1.2406e-009   
  -1.3            -1.7748e-005    1.4467e-008     1.4952e-009    
  -1.35           -1.8333e-005    -1.8285e-008    1.1897e-009    
  -1.4            -1.8781e-005    -1.1954e-008    1.7503e-009    
  -1.45           -1.9181e-005    -9.571e-009     -1.702e-010    
  -1.5            -1.9572e-005    2.484e-009      -1.2589e-009   
  -1.55           -2.0325e-005    1.0852e-008     9.782e-010     
  -1.6            -2.0811e-005    -1.156e-008     1.1597e-009    
  -1.65           -2.1276e-005    -1.3204e-008    1.5678e-009    
  -1.7            -2.1821e-005    -1.0957e-008    1.1552e-009    
  -1.75           -2.2304e-005    -1.3971e-008    1.4867e-009    
  -1.8            -2.2855e-005    -1.024e-008     1.1553e-009    
END_DB

BEGIN_DB
 ICCAP_VAR VG         -0.72          
 ICCAP_VAR VS         0              
 ICCAP_VAR VB         0              

 #VD              ID              IB              IG             
  0               -5.7362e-008    1.5233e-008     -3.122e-010    
  -0.05           -1.9371e-005    -3.488e-009     -1.2263e-009   
  -0.1            -3.5408e-005    8.367e-009      6.427e-010     
  -0.15           -4.8284e-005    -8.889e-009     1.154e-009     
  -0.2            -5.8517e-005    -1.2398e-008    1.7327e-009    
  -0.25           -6.6753e-005    -1.2641e-008    1.1566e-009    
  -0.3            -7.3254e-005    -1.3158e-008    1.6359e-009    
  -0.35           -7.8661e-005    -1.1492e-008    1.1595e-009    
  -0.4            -8.2587e-005    -9.041e-009     -5.795e-010    
  -0.45           -8.6404e-005    2.145e-009      -1.2506e-009   
  -0.5            -9.017e-005     1.4677e-008     1.4954e-009    
  -0.55           -9.3406e-005    -1.781e-008     1.19e-009      
  -0.6            -9.6101e-005    -1.2288e-008    1.7653e-009    
  -0.65           -9.8809e-005    -1.3346e-008    1.1546e-009    
  -0.7            -0.000101206    -1.2759e-008    1.6829e-009    
  -0.75           -0.000103663    -1.2023e-008    1.1561e-009    
  -0.8            -0.000105847    -1.3466e-008    1.5904e-009    
  -0.85           -0.000108133    -1.0859e-008    1.1588e-009    
  -0.9            -0.000110158    -1.4283e-008    1.5002e-009    
  -0.95           -0.000112336    -1.0071e-008    1.1566e-009    
  -1              -0.00011357     -1.4988e-008    -1.2549e-009   
  -1.05           -0.0001163      1.0534e-008     1.0771e-009    
  -1.1            -0.00011803     -1.4967e-008    1.1503e-009    
  -1.15           -0.00012001     -1.0035e-008    1.1562e-009    
  -1.2            -0.00012175     -1.2259e-008    1.7492e-009    
  -1.25           -0.00012368     -1.5368e-008    1.3623e-009    
  -1.3            -0.00012546     -1.2327e-008    1.1616e-009    
  -1.35           -0.00012681     -9.969e-009     -3.331e-010    
  -1.4            -0.00012835     2.4e-009        -1.2573e-009   
  -1.45           -0.00013082     8.435e-009      6.838e-010     
  -1.5            -0.00013253     -5.346e-009     1.1335e-009    
  -1.55           -0.00013397     -9.523e-009     -8.8e-011      
  -1.6            -0.00013529     1.4823e-008     -1.393e-009    
  -1.65           -0.0001372      9.037e-009      3.212e-010     
  -1.7            -0.00013915     -3.282e-009     1.0702e-009    
  -1.75           -0.00014081     -1.2575e-008    1.6898e-009    
  -1.8            -0.00014253     -1.6029e-008    1.3204e-009    
END_DB

BEGIN_DB
 ICCAP_VAR VG         -1.08          
 ICCAP_VAR VS         0              
 ICCAP_VAR VB         0              

 #VD              ID              IB              IG             
  0               -1.08528e-007   -1.7987e-008    -1.2689e-009   
  -0.05           -4.7201e-005    -3.686e-009     -1.2306e-009   
  -0.1            -8.9868e-005    8.537e-009      6.65e-010      
  -0.15           -0.00012765     -5.64e-009      1.1633e-009    
  -0.2            -0.00016069     -1.2022e-008    1.7725e-009    
  -0.25           -0.00018932     -1.4981e-008    1.3863e-009    
  -0.3            -0.00021344     -1.0062e-008    -1.882e-010    
  -0.35           -0.00023366     6.39e-010       -1.2642e-009   
  -0.4            -0.0002516      8.708e-009      5.5e-010       
  -0.45           -0.00026617     -3.992e-009     1.1092e-009    
  -0.5            -0.0002786      -1.6145e-008    1.1496e-009    
  -0.55           -0.00028883     -9.982e-009     -1.902e-010    
  -0.6            -0.00029753     6.7e-010        -1.2632e-009   
  -0.65           -0.00030651     8.689e-009      5.542e-010     
  -0.7            -0.00031367     -3.943e-009     1.1072e-009    
  -0.75           -0.00032008     -9.111e-009     9.78e-011      
  -0.8            -0.00032535     1.0967e-008     -1.5599e-009   
  -0.85           -0.00033145     1.5287e-008     1.6033e-009    
  -0.9            -0.00033718     -1.5824e-008    1.3025e-009    
  -0.95           -0.00034135     -9.879e-009     -2.491e-010    
  -1              -0.00034561     1.408e-009      -1.2577e-009   
  -1.05           -0.0003512      8.554e-009      6.03e-010      
  -1.1            -0.00035547     -4.427e-009     1.119e-009     
  -1.15           -0.00035973     -6.629e-009     1.1447e-009    
  -1.2            -0.00036303     -9.92e-009      -1.475e-010    
  -1.25           -0.00036624     1.44e-010       -1.2644e-009   
  -1.3            -0.00037099     8.911e-009      5.17e-010      
  -1.35           -0.00037469     -3.664e-009     1.1018e-009    
  -1.4            -0.00037822     -1.7461e-008    1.1485e-009    
  -1.45           -0.00038132     -9.991e-009     -1.544e-010    
  -1.5            -0.00038408     1.58e-010       -1.2622e-009   
  -1.55           -0.00038846     8.723e-009      5.358e-010     
  -1.6            -0.00039174     -3.469e-009     1.0849e-009    
  -1.65           -0.00039346     -8.811e-009     -9.635e-010    
  -1.7            -0.00039689     1.785e-009      -1.2506e-009   
  -1.75           -0.0004015      1.2963e-008     1.3221e-009    
  -1.8            -0.00040464     -1.046e-008     1.1596e-009    
END_DB

BEGIN_DB
 ICCAP_VAR VG         -1.44          
 ICCAP_VAR VS         0              
 ICCAP_VAR VB         0              

 #VD              ID              IB              IG             
  0               7.0998e-007     -1.7e-011       4.227e-010     
  -0.05           -7.3397e-005    2.009e-009      1.0961e-009    
  -0.1            -0.00014304     -1.5993e-008    -1.497e-010    
  -0.15           -0.00020852     5.6e-011        -1.2723e-009   
  -0.2            -0.00027007     9.073e-009      5.284e-010     
  -0.25           -0.00032698     -3.901e-009     1.1266e-009    
  -0.3            -0.00037941     -1.5764e-008    1.2963e-009    
  -0.35           -0.00042651     -1.0492e-008    -2.652e-010    
  -0.4            -0.00046885     1.404e-009      -1.2682e-009   
  -0.45           -0.00050762     8.599e-009      6.144e-010     
  -0.5            -0.00054113     -4.63e-009      1.1466e-009    
  -0.55           -0.00056989     -9.329e-009     1e-011         
  -0.6            -0.0005944      1.2971e-008     -1.4802e-009   
  -0.65           -0.00061653     9.058e-009      2.523e-010     
  -0.7            -0.00063632     -1.745e-008     1.2199e-009    
  -0.75           -0.00065281     -1.0246e-008    1.177e-009     
  -0.8            -0.00066702     -1.2067e-008    1.7724e-009    
  -0.85           -0.00068008     -1.5138e-008    1.3786e-009    
  -0.9            -0.00069083     -1.0091e-008    -2.027e-010    
  -0.95           -0.00070073     8.2e-010        -1.2717e-009   
  -1              -0.00071162     8.96e-009       5.589e-010     
  -1.05           -0.00072043     -4.136e-009     1.1176e-009    
  -1.1            -0.00072869     -1.61e-008      1.1441e-009    
  -1.15           -0.00073682     -1.037e-008     1.1488e-009    
  -1.2            -0.00074372     -1.1933e-008    1.1543e-009    
  -1.25           -0.00075081     -1.356e-008     1.562e-009     
  -1.3            -0.00075736     -1.5965e-008    1.1543e-009    
  -1.35           -0.00076412     -1.0264e-008    1.1485e-009    
  -1.4            -0.00076975     -1.1981e-008    1.1513e-009    
  -1.45           -0.00077582     -1.3703e-008    1.557e-009     
  -1.5            -0.00078141     -1.5472e-008    1.1441e-009    
  -1.55           -0.00078732     -1.0272e-008    1.152e-009     
  -1.6            -0.00079219     -1.2107e-008    1.7631e-009    
  -1.65           -0.00079759     -1.5124e-008    1.3806e-009    
  -1.7            -0.00080179     -1.0091e-008    -2.014e-010    
  -1.75           -0.00080603     7.05e-010       -1.2601e-009   
  -1.8            -0.0008124      8.742e-009      5.603e-010     
END_DB

BEGIN_DB
 ICCAP_VAR VG         -1.8           
 ICCAP_VAR VS         0              
 ICCAP_VAR VB         0              

 #VD              ID              IB              IG             
  0               7.6256e-007     8.468e-009      -5.72e-010     
  -0.05           -9.2024e-005    8.111e-009      -8.48e-011     
  -0.1            -0.00018134     1.2982e-008     1.614e-010     
  -0.15           -0.00026759     -1.5444e-008    1.3555e-009    
  -0.2            -0.00035036     -9.822e-009     -2.335e-010    
  -0.25           -0.00042959     9.71e-010       -1.2538e-009   
  -0.3            -0.00050564     8.541e-009      5.793e-010     
  -0.35           -0.00057731     -4.209e-009     1.121e-009     
  -0.4            -0.00064479     -8.722e-009     7.08e-011      
  -0.45           -0.00070765     1.1927e-008     -1.5449e-009   
  -0.5            -0.00076679     8.485e-009      2.061e-010     
  -0.55           -0.00082184     -1.6988e-008    1.2776e-009    
  -0.6            -0.00087203     -1.1317e-008    1.1738e-009    
  -0.65           -0.00091682     -9.637e-009     -4.015e-010    
  -0.7            -0.0009579      2.456e-009      -1.2532e-009   
  -0.75           -0.00099637     8.539e-009      7.598e-010     
  -0.8            -0.00102953     -6.761e-009     1.1325e-009    
  -0.85           -0.00105885     -1.1401e-008    1.1551e-009    
  -0.9            -0.00108374     -9.663e-009     -4.143e-010    
  -0.95           -0.00110661     2.351e-009      -1.2463e-009   
  -1              -0.00112884     8.552e-009      7.719e-010     
  -1.05           -0.0011449      -7.182e-009     -1.2385e-009   
  -1.1            -0.001163       1.4312e-008     1.3518e-009    
  -1.15           -0.0011779      -1.043e-008     1.1517e-009    
  -1.2            -0.001191       -1.2128e-008    1.1433e-009    
  -1.25           -0.0012037      -1.3786e-008    1.5471e-009    
  -1.3            -0.0012146      -9.155e-009     -6.2e-011      
  -1.35           -0.0012245      1.4587e-008     -1.4196e-009   
  -1.4            -0.0012351      8.763e-009      3.012e-010     
  -1.45           -0.0012457      -3.245e-009     1.0596e-009    
  -1.5            -0.0012546      -1.2428e-008    1.7204e-009    
  -1.55           -0.0012636      -1.5585e-008    1.3597e-009    
  -1.6            -0.0012707      -9.829e-009     -2.18e-010     
  -1.65           -0.0012779      9.46e-010       -1.2542e-009   
  -1.7            -0.001287       8.504e-009      5.838e-010     
  -1.75           -0.0012943      -4.351e-009     1.1067e-009    
  -1.8            -0.001301       -9.028e-009     6.71e-011      
END_DB

BEGIN_DB
 ICCAP_VAR VG         0              
 ICCAP_VAR VS         0              
 ICCAP_VAR VB         0.9            

 #VD              ID              IB              IG             
  0               -1.802e-010     -6.043e-009     1.0641e-009    
  -0.05           1.1149e-009     1.0503e-008     -1.2407e-009   
  -0.1            -1.234e-009     7.21e-009       -1.3406e-009   
  -0.15           -1.9237e-009    -9.564e-009     3.76e-011      
  -0.2            -1.211e-010     -1.3491e-008    1.1542e-009    
  -0.25           -2.7e-010       -1.584e-008     1.6329e-009    
  -0.3            1.6776e-009     -2.056e-009     1.469e-010     
  -0.35           5.921e-010      9.251e-009      -1.2579e-009   
  -0.4            -1.1851e-009    2.682e-009      -1.6208e-009   
  -0.45           -5.54e-011      -1.1997e-008    1.1505e-009    
  -0.5            -2.57e-010      -1.4184e-008    1.1487e-009    
  -0.55           -3.9e-010       -1.675e-008     1.541e-009     
  -0.6            1.0648e-009     -2.84e-009      -1.2306e-009   
  -0.65           -1.269e-009     1.0839e-008     -2.3006e-009   
  -0.7            7.55e-011       -1.0412e-008    1.1609e-009    
  -0.75           -1.368e-010     -1.1836e-008    1.1685e-009    
  -0.8            -3.411e-010     -1.3381e-008    1.1637e-009    
  -0.85           -5.311e-010     -1.5621e-008    1.6635e-009    
  -0.9            8.21e-010       -1.876e-009     -1.2373e-009   
  -0.95           -1.486e-009     9.309e-009      -2.2451e-009   
  -1              -2.3362e-009    -9.601e-009     8.06e-011      
  -1.05           -5.771e-010     -1.3166e-008    1.1505e-009    
  -1.1            -7.911e-010     -1.5325e-008    1.6674e-009    
  -1.15           7.473e-010      1.3817e-008     -1.2733e-009   
  -1.2            -1.7815e-009    3.179e-009      -2.4073e-009   
  -1.25           -7.687e-010     -1.2448e-008    1.1538e-009    
  -1.3            -1.0691e-009    -1.4405e-008    1.7924e-009    
  -1.35           -1.8559e-009    -1.79e-010      -1.5175e-009   
  -1.4            -1.0771e-009    -1.2078e-008    1.1506e-009    
  -1.45           -1.3888e-009    -1.4292e-008    1.1485e-009    
  -1.5            -1.6414e-009    -1.6784e-008    1.5546e-009    
  -1.55           -6.184e-010     -2.842e-009     1.2876e-009    
  -1.6            -8.605e-010     -3.189e-009     1.1516e-009    
  -1.65           -1.1431e-009    -3.182e-009     1.0835e-009    
  -1.7            -1.4599e-009    -4.274e-009     1.0918e-009    
  -1.75           -1.7898e-009    -6.7e-009       1.089e-009     
  -1.8            -2.167e-009     -9.819e-009     1.1175e-009    
END_DB

BEGIN_DB
 ICCAP_VAR VG         -0.36          
 ICCAP_VAR VS         0              
 ICCAP_VAR VB         0.9            

 #VD              ID              IB              IG             
  0               -2.0342e-009    8.651e-009      -2.235e-010    
  -0.05           -3.0063e-007    2.822e-009      -1.845e-010    
  -0.1            -4.2162e-007    5.3e-010        -1.2565e-009   
  -0.15           -5.1043e-007    8.513e-009      5.509e-010     
  -0.2            -5.8455e-007    -3.746e-009     1.0871e-009    
  -0.25           -6.5787e-007    -1.6575e-008    1.2464e-009    
  -0.3            -7.2862e-007    -9.828e-009     1.1509e-009    
  -0.35           -8.0206e-007    -1.1154e-008    1.151e-009     
  -0.4            -8.7126e-007    -1.2036e-008    1.7635e-009    
  -0.45           -9.5179e-007    -1.4997e-008    1.3719e-009    
  -0.5            -1.01554e-006   -9.595e-009     -2.036e-010    
  -0.55           -1.08407e-006   8.51e-010       -1.2528e-009   
