! VERSION = 6.00
BEGIN_HEADER
 ICCAP_INPUTS
  VG         V  B GROUND SMU4 0.001 LIN        2    0          -1.8       6    -0.36     
  VS         V  E GROUND SMU3 0.1 CON        0
  VD         V  S GROUND SMU2 0.1 LIN        1    0          -1.8       37   -0.05     
  VB         V  C GROUND SMU1 0.1 LIN        3    0          0.9        2    0.9       
 ICCAP_OUTPUTS
  ID         I  S GROUND SMU2 B
  IB         I  C GROUND SMU1 B
  IG         I  B GROUND SMU4 B
END_HEADER

BEGIN_DB
 ICCAP_VAR VG         0              
 ICCAP_VAR VS         0              
 ICCAP_VAR VB         0              

 #VD              ID              IB              IG             
  0               -1.9174e-009    -4.62e-009      -2.65e-011     
  -0.05           -1.2756e-009    -5.593e-009     1.6142e-009    
  -0.1            -1.599e-009     -5.128e-009     1.6148e-009    
  -0.15           -1.9417e-009    -5.832e-009     1.6093e-009    
  -0.2            -2.2881e-009    -6.282e-009     1.6026e-009    
  -0.25           -2.649e-009     -6.825e-009     1.5895e-009    
  -0.3            -2.8635e-009    -5.454e-009     1.6108e-009    
  -0.35           -3.0559e-009    -4.42e-009      1.6018e-009    
  -0.4            -3.2572e-009    -4.354e-009     1.5507e-009    
  -0.45           -3.5059e-009    -4.369e-009     1.4651e-009    
  -0.5            -3.8319e-009    -4.322e-009     1.3551e-009    
  -0.55           -5.2643e-009    -6.221e-009     1.6012e-009    
  -0.6            -5.6866e-009    -4.869e-009     1.6168e-009    
  -0.65           -6.1318e-009    -4.357e-009     1.5884e-009    
  -0.7            -6.603e-009     -4.334e-009     1.521e-009     
  -0.75           -7.1679e-009    -4.409e-009     1.4248e-009    
  -0.8            -8.7905e-009    5.0889e-009     -1.3641e-009   
  -0.85           -1.109e-008     5.7003e-009     -1.5575e-009   
  -0.9            -1.1173e-008    4.7704e-009     -1.2377e-009   
  -0.95           -1.1628e-008    5.5076e-009     -1.567e-009    
  -1              -1.1969e-008    6.28e-009       -1.4334e-009   
  -1.05           -1.2558e-008    5.6993e-009     -1.4532e-009   
  -1.1            -1.3936e-008    5.7891e-009     -1.4862e-009   
  -1.15           -1.5461e-008    5.9673e-009     -1.5369e-009   
  -1.2            -1.6898e-008    6.1834e-009     -1.5707e-009   
  -1.25           -1.8402e-008    6.2815e-009     -1.4345e-009   
  -1.3            -1.9391e-008    5.7024e-009     -1.4544e-009   
  -1.35           -2.1198e-008    5.8114e-009     -1.4893e-009   
  -1.4            -2.3079e-008    5.9809e-009     -1.5387e-009   
  -1.45           -2.4933e-008    6.181e-009      -1.5712e-009   
  -1.5            -2.6854e-008    6.2755e-009     -1.4344e-009   
  -1.55           -2.8326e-008    5.6987e-009     -1.4545e-009   
  -1.6            -3.056e-008     5.8021e-009     -1.486e-009    
  -1.65           -3.2878e-008    5.983e-009      -1.5402e-009   
  -1.7            -3.5222e-008    6.1854e-009     -1.5679e-009   
  -1.75           -3.765e-008     6.2726e-009     -1.4356e-009   
  -1.8            -3.9681e-008    5.7053e-009     -1.4588e-009   
END_DB

BEGIN_DB
 ICCAP_VAR VG         -0.36          
 ICCAP_VAR VS         0              
 ICCAP_VAR VB         0              

 #VD              ID              IB              IG             
  0               4.1066e-009     -3.697e-009     4.105e-010     
  -0.05           -4.3098e-007    -4.426e-009     -1.4844e-009   
  -0.1            -6.8616e-007    -5.113e-009     1.5672e-009    
  -0.15           -8.4672e-007    -4.459e-009     1.5932e-009    
  -0.2            -9.6717e-007    -4.317e-009     1.6113e-009    
  -0.25           -1.06933e-006   -4.388e-009     1.6182e-009    
  -0.3            -1.1587e-006    -4.468e-009     -7.254e-010    
  -0.35           -1.2503e-006    -4.548e-009     1.562e-009     
  -0.4            -1.335e-006     -4.287e-009     1.4446e-009    
  -0.45           -1.414e-006     -3.632e-009     1.2958e-009    
  -0.5            -1.4932e-006    -2.517e-009     1.4466e-009    
  -0.55           -1.5799e-006    -4.455e-009     1.4864e-009    
  -0.6            -1.655e-006     -3.843e-009     1.3462e-009    
  -0.65           -1.7329e-006    -2.697e-009     1.1934e-009    
  -0.7            -1.8137e-006    -6.85e-009      1.5058e-009    
  -0.75           -1.8927e-006    -4.994e-009     1.569e-009     
  -0.8            -1.9761e-006    -4.277e-009     1.6159e-009    
  -0.85           -2.0573e-006    -4.509e-009     1.6e-009       
  -0.9            -2.1364e-006    -1.7375e-009    1.3992e-009    
  -0.95           -2.2212e-006    -9.3308e-009    1.4949e-009    
  -1              -2.3023e-006    -5.6546e-009    1.4906e-009    
  -1.05           -2.3836e-006    -5.5507e-009    1.4856e-009    
  -1.1            -2.4653e-006    -5.4647e-009    1.4792e-009    
  -1.15           -2.5472e-006    -5.3627e-009    1.478e-009     
  -1.2            -2.6287e-006    -5.2907e-009    1.4724e-009    
  -1.25           -2.7139e-006    -5.2151e-009    1.4683e-009    
  -1.3            -2.7968e-006    -5.1898e-009    1.4669e-009    
  -1.35           -2.8783e-006    -5.1001e-009    1.4639e-009    
  -1.4            -2.9637e-006    -5.033e-009     1.4623e-009    
  -1.45           -3.0462e-006    -4.9882e-009    1.4579e-009    
  -1.5            -3.1336e-006    -4.9182e-009    1.4575e-009    
  -1.55           -3.2203e-006    -4.8812e-009    1.4531e-009    
  -1.6            -3.3064e-006    -4.846e-009     1.453e-009     
  -1.65           -3.3924e-006    -4.8104e-009    1.4512e-009    
  -1.7            -3.4841e-006    -4.7669e-009    1.4513e-009    
  -1.75           -3.5725e-006    -4.7239e-009    1.6127e-009    
  -1.8            -3.6673e-006    -9.075e-009     1.6169e-009    
END_DB

BEGIN_DB
 ICCAP_VAR VG         -0.72          
 ICCAP_VAR VS         0              
 ICCAP_VAR VB         0              

 #VD              ID              IB              IG             
  0               1.1568e-008     5.7392e-009     3.363e-010     
  -0.05           -3.2472e-006    5.89e-009       1e-009         
  -0.1            -5.9068e-006    -7.4355e-009    1.6068e-009    
  -0.15           -8.0117e-006    -9.2706e-009    1.6108e-009    
  -0.2            -9.6704e-006    -9.1741e-009    1.6161e-009    
  -0.25           -1.09772e-005   -9.091e-009     1.6155e-009    
  -0.3            -1.1944e-005    5.7623e-009     -6.89e-010     
  -0.35           -1.2759e-005    4.9594e-009     -1.3955e-009   
  -0.4            -1.3482e-005    6.2816e-009     -1.4409e-009   
  -0.45           -1.4069e-005    5.3409e-009     -1.5088e-009   
  -0.5            -1.4623e-005    5.7016e-009     -1.4523e-009   
  -0.55           -1.5103e-005    5.5524e-009     -1.5539e-009   
  -0.6            -1.5573e-005    5.7425e-009     -1.4721e-009   
  -0.65           -1.5996e-005    5.6711e-009     -1.5718e-009   
  -0.7            -1.6404e-005    5.8602e-009     -1.5093e-009   
  -0.75           -1.6805e-005    5.7008e-009     -1.4537e-009   
  -0.8            -1.7165e-005    5.5469e-009     -1.5521e-009   
  -0.85           -1.7543e-005    5.7385e-009     -1.4703e-009   
  -0.9            -1.7893e-005    5.6673e-009     -1.5722e-009   
  -0.95           -1.8235e-005    5.8605e-009     -1.5102e-009   
  -1              -1.858e-005     5.6975e-009     -1.4546e-009   
  -1.05           -1.8905e-005    5.5386e-009     -1.5525e-009   
  -1.1            -1.9236e-005    5.742e-009      -1.4727e-009   
  -1.15           -1.9552e-005    5.6692e-009     -1.5714e-009   
  -1.2            -1.9858e-005    5.854e-009      -1.5056e-009   
  -1.25           -2.0171e-005    5.6969e-009     -1.4532e-009   
  -1.3            -2.0471e-005    5.5439e-009     -1.5514e-009   
  -1.35           -2.0776e-005    5.7337e-009     -1.4703e-009   
  -1.4            -2.1073e-005    5.6718e-009     -1.5718e-009   
  -1.45           -2.1359e-005    5.8533e-009     -1.5058e-009   
  -1.5            -2.1661e-005    5.6988e-009     -1.455e-009    
  -1.55           -2.1934e-005    5.5376e-009     -1.5493e-009   
  -1.6            -2.2231e-005    5.7362e-009     -1.4711e-009   
  -1.65           -2.2514e-005    5.6686e-009     -1.5733e-009   
  -1.7            -2.2791e-005    5.8464e-009     -1.5056e-009   
  -1.75           -2.3071e-005    5.6995e-009     -1.4525e-009   
  -1.8            -2.3334e-005    5.5348e-009     -1.5513e-009   
END_DB

BEGIN_DB
 ICCAP_VAR VG         -1.08          
 ICCAP_VAR VS         0              
 ICCAP_VAR VB         0              

 #VD              ID              IB              IG             
  0               1.2393e-008     -1.9744e-009    2.519e-010     
  -0.05           -7.7294e-006    6.0252e-009     1.0614e-009    
  -0.1            -1.4674e-005    5.5344e-009     -9.399e-010    
  -0.15           -2.0873e-005    5.5213e-009     -1.5601e-009   
  -0.2            -2.6337e-005    5.7555e-009     -1.4746e-009   
  -0.25           -3.1074e-005    5.6714e-009     -1.5692e-009   
  -0.3            -3.5126e-005    5.8935e-009     -1.5182e-009   
  -0.35           -3.8576e-005    5.6905e-009     -1.4513e-009   
  -0.4            -4.1454e-005    5.5839e-009     -1.5561e-009   
  -0.45           -4.3894e-005    5.7473e-009     -1.4723e-009   
  -0.5            -4.5962e-005    5.6737e-009     -1.5677e-009   
  -0.55           -4.7711e-005    5.8777e-009     -1.5102e-009   
  -0.6            -4.924e-005     5.693e-009      -1.4535e-009   
  -0.65           -5.0555e-005    5.5706e-009     -1.5516e-009   
  -0.7            -5.176e-005     5.7406e-009     -1.4725e-009   
  -0.75           -5.2824e-005    5.6735e-009     -1.5693e-009   
  -0.8            -5.3808e-005    5.8606e-009     -1.5076e-009   
  -0.85           -5.4732e-005    5.7009e-009     -1.4553e-009   
  -0.9            -5.5581e-005    5.5538e-009     -1.5481e-009   
  -0.95           -5.6405e-005    5.7434e-009     -1.4708e-009   
  -1              -5.7166e-005    5.6673e-009     -1.5674e-009   
  -1.05           -5.7909e-005    5.8563e-009     -1.5087e-009   
  -1.1            -5.8613e-005    5.6974e-009     -1.452e-009    
  -1.15           -5.9272e-005    5.5491e-009     -1.5501e-009   
  -1.2            -5.9947e-005    5.7434e-009     -1.468e-009    
  -1.25           -6.0577e-005    5.6625e-009     -1.5689e-009   
  -1.3            -6.1203e-005    5.8408e-009     -1.5013e-009   
  -1.35           -6.1813e-005    5.6908e-009     -1.4478e-009   
  -1.4            -6.2385e-005    5.5294e-009     -1.5416e-009   
  -1.45           -6.2973e-005    5.7273e-009     -1.4634e-009   
  -1.5            -6.353e-005     5.6475e-009     -1.5629e-009   
  -1.55           -6.4075e-005    5.8184e-009     -1.4941e-009   
  -1.6            -6.4624e-005    5.691e-009      -1.4507e-009   
  -1.65           -6.5137e-005    5.5107e-009     -1.5382e-009   
  -1.7            -6.5678e-005    5.7244e-009     -1.4633e-009   
  -1.75           -6.618e-005     5.6475e-009     -1.5643e-009   
  -1.8            -6.6684e-005    5.8058e-009     -1.4934e-009   
END_DB

BEGIN_DB
 ICCAP_VAR VG         -1.44          
 ICCAP_VAR VS         0              
 ICCAP_VAR VB         0              

 #VD              ID              IB              IG             
  0               1.1375e-008     -4.36e-009      1.399e-010     
  -0.05           -1.175e-005     -5.646e-009     -1.4505e-009   
  -0.1            -2.2922e-005    -4.394e-009     1.554e-009     
  -0.15           -3.3478e-005    -4.386e-009     1.6053e-009    
  -0.2            -4.3375e-005    -4.403e-009     1.6214e-009    
  -0.25           -5.2584e-005    -4.499e-009     1.6086e-009    
  -0.3            -6.1107e-005    -5.307e-009     1.5699e-009    
  -0.35           -6.8891e-005    -6.492e-009     1.5222e-009    
  -0.4            -7.5995e-005    -2.309e-010     1.1772e-009    
  -0.45           -8.2355e-005    -9.394e-009     1.4884e-009    
  -0.5            -8.8014e-005    -4.5966e-009    1.6226e-009    
  -0.55           -9.2997e-005    -6.5908e-009    1.5428e-009    
  -0.6            -9.7344e-005    -4.906e-009     1.4553e-009    
  -0.65           -0.000101152    -4.2532e-009    1.5972e-009    
  -0.7            -0.000104429    -5.5154e-009    1.4864e-009    
  -0.75           -0.000107313    -4.5661e-009    1.62e-009      
  -0.8            -0.000109822    -6.4524e-009    1.5361e-009    
  -0.85           -0.000112054    -4.8607e-009    1.4511e-009    
  -0.9            -0.000114107    -4.2067e-009    1.5927e-009    
  -0.95           -0.00011571     -3.979e-009     -8.877e-010    
  -1              -0.00011723     5.1632e-009     -1.5312e-009   
  -1.05           -0.00011882     6.2901e-009     -1.4306e-009   
  -1.1            -0.00012025     5.5515e-009     -1.5638e-009   
  -1.15           -0.00012158     5.9456e-009     -1.5309e-009   
  -1.2            -0.00012284     5.8133e-009     -1.4948e-009   
  -1.25           -0.00012404     5.7363e-009     -1.4671e-009   
  -1.3            -0.00012518     5.6849e-009     -1.4494e-009   
  -1.35           -0.00012624     5.666e-009      -1.5727e-009   
  -1.4            -0.00012724     6.1734e-009     -1.5715e-009   
  -1.45           -0.00012822     6.0253e-009     -1.5508e-009   
  -1.5            -0.00012917     5.8733e-009     -1.5135e-009   
  -1.55           -0.00013008     5.7616e-009     -1.4808e-009   
  -1.6            -0.00013102     5.7086e-009     -1.4583e-009   
  -1.65           -0.00013184     5.6794e-009     -1.444e-009    
  -1.7            -0.00013266     5.6393e-009     -1.573e-009    
  -1.75           -0.00013355     6.1023e-009     -1.5607e-009   
  -1.8            -0.00013431     5.9435e-009     -1.5294e-009   
END_DB

BEGIN_DB
 ICCAP_VAR VG         -1.8           
 ICCAP_VAR VS         0              
 ICCAP_VAR VB         0              

 #VD              ID              IB              IG             
  0               1.1097e-008     -6.951e-009     -3.457e-010    
  -0.05           -1.4537e-005    -4.797e-009     -1.4658e-009   
  -0.1            -2.8635e-005    2.0941e-009     -1.2662e-009   
  -0.15           -4.2294e-005    6.2381e-009     -1.4527e-009   
  -0.2            -5.5472e-005    5.5664e-009     -1.5672e-009   
  -0.25           -6.8167e-005    5.771e-009      -1.4789e-009   
  -0.3            -8.0337e-005    5.6546e-009     -1.5747e-009   
  -0.35           -9.1871e-005    5.9122e-009     -1.5214e-009   
  -0.4            -0.000102889    5.6845e-009     -1.4497e-009   
  -0.45           -0.000113295    5.541e-009      -1.5607e-009   
  -0.5            -0.00012311     3.9775e-009     1.4432e-009    
  -0.55           -0.00013224     -9.624e-009     1.4612e-009    
  -0.6            -0.00014071     -4.7269e-009    1.4447e-009    
  -0.65           -0.00014852     -4.4868e-009    1.6169e-009    
  -0.7            -0.00015572     -7.79e-009      1.5966e-009    
  -0.75           -0.00016222     -6.778e-009     1.5528e-009    
  -0.8            -0.00016808     -5.9186e-009    1.5071e-009    
  -0.85           -0.00017331     -5.2678e-009    1.4747e-009    
  -0.9            -0.00017802     -4.8474e-009    1.4491e-009    
  -0.95           -0.00018225     -4.6016e-009    1.6211e-009    
  -1              -0.00018596     -8.251e-009     1.6097e-009    
  -1.05           -0.00018928     -7.1967e-009    1.576e-009     
  -1.1            -0.0001923      -6.2727e-009    1.5264e-009    
  -1.15           -0.00019499     -5.5249e-009    1.4895e-009    
  -1.2            -0.00019745     -5.0036e-009    1.4614e-009    
  -1.25           -0.00019973     -4.6977e-009    1.4422e-009    
  -1.3            -0.00020181     -4.4677e-009    1.619e-009     
  -1.35           -0.00020372     -7.6847e-009    1.5954e-009    
  -1.4            -0.0002056      -6.6747e-009    1.5521e-009    
  -1.45           -0.00020725     -5.8268e-009    1.5044e-009    
  -1.5            -0.00020882     -5.2338e-009    1.4731e-009    
  -1.55           -0.00021044     -4.8117e-009    1.4509e-009    
  -1.6            -0.00021184     -4.5741e-009    1.6214e-009    
  -1.65           -0.00021326     -8.1184e-009    1.6087e-009    
  -1.7            -0.00021458     -7.125e-009     1.5714e-009    
  -1.75           -0.00021589     -6.1955e-009    1.523e-009     
  -1.8            -0.00021713     -5.4776e-009    1.4859e-009    
END_DB

BEGIN_DB
 ICCAP_VAR VG         0              
 ICCAP_VAR VS         0              
 ICCAP_VAR VB         0.9            

 #VD              ID              IB              IG             
  0               -2.2358e-009    -4.343e-009     -3.386e-010    
  -0.05           2.2742e-009     -4.452e-009     8.954e-010     
  -0.1            2.3166e-009     -4.382e-009     8.321e-010     
  -0.15           -4.721e-010     -6.744e-009     1.5947e-009    
  -0.2            -3.538e-010     -5.427e-009     1.6231e-009    
  -0.25           2.0926e-009     -4.568e-009     1.0423e-009    
  -0.3            2.1832e-009     -4.412e-009     9.69e-010      
  -0.35           2.2593e-009     -4.43e-009      9.035e-010     
  -0.4            2.3021e-009     -4.464e-009     8.416e-010     
  -0.45           -2.6005e-009    -1.5794e-009    1.5668e-009    
  -0.5            1.4094e-009     5.6586e-009     -1.4492e-009   
  -0.55           -2.3731e-009    5.07e-011       -6.873e-010    
  -0.6            2.2652e-009     -7.2776e-009    8.761e-010     
  -0.65           -2.0869e-009    4.634e-009      -1.0388e-009   
  -0.7            2.3011e-009     -6.8007e-009    7.848e-010     
  -0.75           -2.2189e-009    5.3837e-009     -9.382e-010    
  -0.8            2.344e-009      -6.319e-009     6.928e-010     
  -0.85           -2.3199e-009    5.1832e-009     -8.521e-010    
  -0.9            2.0255e-009     -5.8277e-009    1.0629e-009    
  -0.95           -2.3774e-009    5.0129e-009     -7.691e-010    
  -1              2.1437e-009     -5.2293e-009    9.594e-010     
  -1.05           -2.0052e-009    4.842e-009      -1.1499e-009   
  -1.1            2.2192e-009     -7.2317e-009    8.657e-010     
  -1.15           -2.1634e-009    4.6058e-009     -1.0307e-009   
  -1.2            2.2467e-009     -6.7766e-009    7.801e-010     
  -1.25           -2.3101e-009    5.3662e-009     -9.289e-010    
  -1.3            2.2718e-009     -6.2771e-009    6.824e-010     
  -1.35           -2.4188e-009    5.1671e-009     -8.439e-010    
  -1.4            1.9421e-009     -5.7664e-009    1.0477e-009    
  -1.45           -1.9606e-009    4.9955e-009     -1.2742e-009   
  -1.5            -9.529e-010     -9.0993e-009    1.4579e-009    
  -1.55           2.1665e-009     1.5851e-009     7.25e-010      
  -1.6            -2.4756e-009    5.2447e-009     -8.784e-010    
  -1.65           2.1977e-009     -6.01e-009      6.271e-010     
  -1.7            -1.9852e-009    5.068e-009      -1.3322e-009   
  -1.75           -1.1162e-009    -8.6891e-009    1.4469e-009    
  -1.8            2.0304e-009     1.432e-009      7.68e-010      
END_DB

BEGIN_DB
 ICCAP_VAR VG         -0.36          
 ICCAP_VAR VS         0              
 ICCAP_VAR VB         0.9            

 #VD              ID              IB              IG             
  0               -1.8212e-009    -4.331e-009     -2.555e-010    
  -0.05           -4.2353e-008    -4.548e-009     -1.0446e-009   
  -0.1            -5.7135e-008    -5.082e-009     1.5803e-009    
  -0.15           -6.8125e-008    -4.388e-009     1.5939e-009    
  -0.2            -7.8109e-008    -3.7e-009       1.3543e-009    
  -0.25           -8.8804e-008    -6.856e-009     1.5202e-009    
  -0.3            -1.00508e-007   -5.245e-009     -1.1084e-009   
  -0.35           -1.0679e-007    -4.354e-009     -1.4955e-009   
  -0.4            -1.193e-007     -5.127e-009     1.5814e-009    
  -0.45           -1.3018e-007    -4.547e-009     1.6028e-009    
  -0.5            -1.4122e-007    -4.375e-009     1.6173e-009    
  -0.55           -1.529e-007     -4.337e-009     1.6185e-009    
