! VERSION = 6.00
BEGIN_HEADER
 ICCAP_INPUTS
  VG         V  B GROUND SMU4 0.001 LIN        2    0          -1.8       6    -0.36     
  VS         V  E GROUND SMU2 0.1 CON        0
  VD         V  S GROUND SMU1 0.1 LIN        1    0          -1.8       37   -0.05     
  VB         V  C GROUND SMU3 0.1 LIN        3    0          0.9        2    0.9       
 ICCAP_OUTPUTS
  ID         I  S GROUND SMU1 B
  IB         I  C GROUND SMU3 B
  IG         I  B GROUND SMU4 B
END_HEADER

BEGIN_DB
 ICCAP_VAR VG         0              
 ICCAP_VAR VS         0              
 ICCAP_VAR VB         0              

 #VD              ID              IB              IG             
  0               -1.925e-010     1.0046e-008     -1.5177e-009   
  -0.05           -1.1919e-008    2.1494e-008     2.8809e-009    
  -0.1            -2.2045e-008    -2.5173e-008    2.1412e-009    
  -0.15           -2.7978e-008    -2.7591e-008    2.4999e-009    
  -0.2            -3.3513e-008    -2.6217e-008    1.3272e-009    
  -0.25           -4.0476e-008    -1.1e-008       -8.421e-010    
  -0.3            -4.3428e-008    1.5189e-008     -1.7972e-009   
  -0.35           -4.6016e-008    1.2619e-008     1.7498e-009    
  -0.4            -5.4678e-008    -2.3961e-008    2.0779e-009    
  -0.45           -5.9034e-008    -2.7492e-008    2.4407e-009    
  -0.5            -6.327e-008     -2.6764e-008    1.3084e-009    
  -0.55           -6.8341e-008    -1.345e-008     2.835e-010     
  -0.6            -7.0987e-008    8.524e-009      -1.3706e-009   
  -0.65           -7.2122e-008    9.854e-009      9.59e-010      
  -0.7            -7.9387e-008    -2.0596e-008    1.6225e-009    
  -0.75           -8.4251e-008    -2.268e-008     1.9501e-009    
  -0.8            -8.7985e-008    -2.6636e-008    2.3184e-009    
  -0.85           -9.1505e-008    -2.7356e-008    2.6415e-009    
  -0.9            -9.6081e-008    -1.2688e-008    2.196e-010     
  -0.95           -9.7707e-008    8.765e-009      -1.3586e-009   
  -1              -9.9415e-008    9.6e-009        1.024e-009     
  -1.05           -1.06891e-007   -2.1747e-008    1.5386e-009    
  -1.1            -1.11749e-007   -2.0742e-008    1.8352e-009    
  -1.15           -1.1078e-007    -1.6956e-008    9.82e-010      
  -1.2            -1.1869e-007    -2.6738e-008    1.3082e-009    
  -1.25           -1.2282e-007    -2.6927e-008    2.3392e-009    
  -1.3            -1.2718e-007    -2.4221e-008    2.0767e-009    
  -1.35           -1.3106e-007    -1.1348e-008    -5.542e-010    
  -1.4            -1.3291e-007    1.7943e-008     -1.6655e-009   
  -1.45           -1.3499e-007    1.1052e-008     6.679e-010     
  -1.5            -1.4368e-007    -2.1517e-008    1.5451e-009    
  -1.55           -1.4903e-007    -1.3018e-008    2.493e-010     
  -1.6            -1.5008e-007    8.661e-009      -1.2996e-009   
  -1.65           -1.5246e-007    1.1079e-008     6.494e-010     
  -1.7            -1.6101e-007    -2.1126e-008    1.5755e-009    
  -1.75           -1.6599e-007    -1.3343e-008    2.706e-010     
  -1.8            -1.6682e-007    8.777e-009      -1.3057e-009   
END_DB

BEGIN_DB
 ICCAP_VAR VG         -0.36          
 ICCAP_VAR VS         0              
 ICCAP_VAR VB         0              

 #VD              ID              IB              IG             
  0               -7.866e-010     2.5776e-008     1.1767e-009    
  -0.05           -2.9637e-007    -2.6311e-008    2.0215e-009    
  -0.1            -5.1329e-007    -1.198e-008     1.613e-010     
  -0.15           -6.6065e-007    7.673e-009      -2.5636e-009   
  -0.2            -7.8184e-007    1.0676e-008     1.5614e-009    
  -0.25           -8.817e-007     -1.9819e-008    1.7782e-009    
  -0.3            -9.6228e-007    -1.158e-008     -7.637e-010    
  -0.35           -1.03376e-006   2.2077e-008     -1.5059e-009   
  -0.4            -1.10751e-006   1.0739e-008     8.514e-010     
  -0.45           -1.1698e-006    1.1069e-008     2.3621e-009    
  -0.5            -1.2388e-006    -2.2406e-008    1.4681e-009    
  -0.55           -1.2967e-006    -1.3756e-008    1.4383e-009    
  -0.6            -1.3532e-006    -1.3245e-008    2.567e-010     
  -0.65           -1.3932e-006    9.186e-009      -1.3267e-009   
  -0.7            -1.4544e-006    1.0803e-008     1.4389e-009    
  -0.75           -1.503e-006     -2.5455e-008    2.1874e-009    
  -0.8            -1.55e-006      -2.4869e-008    2.1281e-009    
  -0.85           -1.5967e-006    -2.4289e-008    2.0652e-009    
  -0.9            -1.6411e-006    -2.3552e-008    2.0123e-009    
  -0.95           -1.6834e-006    -2.29e-008      1.9475e-009    
  -1              -1.7253e-006    -2.1902e-008    1.8891e-009    
  -1.05           -1.7659e-006    -2.0993e-008    1.8321e-009    
  -1.1            -1.8032e-006    -1.1412e-008    -5.814e-010    
  -1.15           -1.8331e-006    1.551e-008      -1.7971e-009   
  -1.2            -1.8814e-006    1.2501e-008     2.0245e-009    
  -1.25           -1.9249e-006    -1.2916e-008    2.542e-010     
  -1.3            -1.9465e-006    9.222e-009      -1.327e-009    
  -1.35           -1.9999e-006    1.0933e-008     1.4415e-009    
  -1.4            -2.0334e-006    -2.5258e-008    2.1665e-009    
  -1.45           -2.069e-006     -2.4755e-008    2.1097e-009    
  -1.5            -2.1034e-006    -2.4061e-008    2.0485e-009    
  -1.55           -2.1404e-006    -2.3287e-008    1.9985e-009    
  -1.6            -2.1757e-006    -2.2421e-008    1.9407e-009    
  -1.65           -2.209e-006     -2.1696e-008    1.8797e-009    
  -1.7            -2.2434e-006    -2.0886e-008    1.8264e-009    
  -1.75           -2.2785e-006    -1.9859e-008    1.7725e-009    
  -1.8            -2.3136e-006    -1.8929e-008    1.7251e-009    
END_DB

BEGIN_DB
 ICCAP_VAR VG         -0.72          
 ICCAP_VAR VS         0              
 ICCAP_VAR VB         0              

 #VD              ID              IB              IG             
  0               -1.4703e-009    -2.5656e-008    -9.691e-010    
  -0.05           -1.17e-006      1.1924e-008     2.1281e-009    
  -0.1            -2.1538e-006    -2.4422e-008    2.0682e-009    
  -0.15           -2.9675e-006    -2.3771e-008    2.0101e-009    
  -0.2            -3.6344e-006    -2.2798e-008    1.9531e-009    
  -0.25           -4.1754e-006    -2.2029e-008    1.8878e-009    
  -0.3            -4.6163e-006    -2.1154e-008    1.8342e-009    
  -0.35           -4.9801e-006    -2.0251e-008    1.7758e-009    
  -0.4            -5.2801e-006    -1.1503e-008    -6.077e-010    
  -0.45           -5.5256e-006    1.6071e-008     -1.763e-009    
  -0.5            -5.7823e-006    1.2337e-008     2.0539e-009    
  -0.55           -6.0016e-006    -1.2501e-008    2.307e-010     
  -0.6            -6.1561e-006    9.124e-009      -1.3193e-009   
  -0.65           -6.376e-006     1.1285e-008     1.4716e-009    
  -0.7            -6.5287e-006    -2.4772e-008    2.1245e-009    
  -0.75           -6.6885e-006    -2.4291e-008    2.0588e-009    
  -0.8            -6.8395e-006    -2.3534e-008    2.0004e-009    
  -0.85           -6.9837e-006    -2.2789e-008    1.9474e-009    
  -0.9            -7.1228e-006    -2.1891e-008    1.8859e-009    
  -0.95           -7.2582e-006    -2.0811e-008    1.8317e-009    
  -1              -7.3899e-006    -1.986e-008     1.7775e-009    
  -1.05           -7.5177e-006    -1.9074e-008    1.7257e-009    
  -1.1            -7.6405e-006    -1.8243e-008    1.6754e-009    
  -1.15           -7.7466e-006    -1.1585e-008    -6.95e-010     
  -1.2            -7.8455e-006    1.7808e-008     -1.6687e-009   
  -1.25           -7.9826e-006    1.2891e-008     2.1258e-009    
  -1.3            -8.1096e-006    -1.2008e-008    1.74e-010      
  -1.35           -8.1713e-006    8.856e-009      -1.3051e-009   
  -1.4            -8.3343e-006    1.0617e-008     1.5421e-009    
  -1.45           -8.4196e-006    -2.331e-008     1.996e-009     
  -1.5            -8.5224e-006    -2.2649e-008    1.9374e-009    
  -1.55           -8.6243e-006    -2.1869e-008    1.8763e-009    
  -1.6            -8.7251e-006    -2.0812e-008    1.8285e-009    
  -1.65           -8.8252e-006    -1.9981e-008    1.7688e-009    
  -1.7            -8.9104e-006    -1.1453e-008    -6.246e-010    
  -1.75           -8.9869e-006    1.6469e-008     -1.7481e-009   
  -1.8            -9.1081e-006    1.2311e-008     2.0612e-009    
END_DB

BEGIN_DB
 ICCAP_VAR VG         -1.08          
 ICCAP_VAR VS         0              
 ICCAP_VAR VB         0              

 #VD              ID              IB              IG             
  0               -9.144e-009     -2.3435e-008    -1.2724e-009   
  -0.05           -2.611e-006     -2.7641e-008    -2.751e-009    
  -0.1            -4.9767e-006    9.305e-009      1.1142e-009    
  -0.15           -7.0916e-006    -2.7231e-008    1.2932e-009    
  -0.2            -8.96e-006      -2.7628e-008    2.4657e-009    
  -0.25           -1.05944e-005   -2.7356e-008    2.4104e-009    
  -0.3            -1.1992e-005    -1.1262e-008    2.8258e-009    
  -0.35           -1.3215e-005    -1.3875e-008    1.4501e-009    
  -0.4            -1.4235e-005    -2.6956e-008    2.3236e-009    
  -0.45           -1.5092e-005    -1.1468e-008    -6.743e-010    
  -0.5            -1.5802e-005    2.5641e-008     -1.4252e-009   
  -0.55           -1.6506e-005    9.128e-009      1.2128e-009    
  -0.6            -1.7039e-005    -2.207e-008     1.9239e-009    
  -0.65           -1.7544e-005    -1.3044e-008    2.585e-010     
  -0.7            -1.7911e-005    8.208e-009      -2.4247e-009   
  -0.75           -1.8373e-005    1.2967e-008     1.9617e-009    
  -0.8            -1.8738e-005    -2.0824e-008    1.5779e-009    
  -0.85           -1.9079e-005    -2.7706e-008    2.512e-009     
  -0.9            -1.9383e-005    -2.0662e-008    1.8294e-009    
  -0.95           -1.9699e-005    -1.2536e-008    2.149e-010     
  -1              -1.9902e-005    8.864e-009      -2.3438e-009   
  -1.05           -2.0238e-005    1.2616e-008     2.018e-009     
  -1.1            -2.0506e-005    -2.1653e-008    1.5135e-009    
  -1.15           -2.0751e-005    -2.7324e-008    2.4225e-009    
  -1.2            -2.0987e-005    -1.926e-008     1.7467e-009    
  -1.25           -2.1172e-005    -1.051e-008     -9.884e-010    
  -1.3            -2.1374e-005    2.805e-008      -1.3683e-009   
  -1.35           -2.1697e-005    1.1815e-008     1.5476e-009    
  -1.4            -2.1887e-005    -1.3761e-008    1.4601e-009    
  -1.45           -2.2087e-005    -2.6911e-008    2.3347e-009    
  -1.5            -2.2268e-005    -1.1433e-008    -6.616e-010    
  -1.55           -2.2421e-005    2.5371e-008     -1.424e-009    
  -1.6            -2.2706e-005    9.309e-009      1.2049e-009    
  -1.65           -2.2868e-005    -2.2137e-008    1.9258e-009    
  -1.7            -2.3071e-005    -1.3096e-008    2.645e-010     
  -1.75           -2.3168e-005    8.294e-009      -2.4329e-009   
  -1.8            -2.3369e-005    1.089e-008      3.571e-010     
END_DB

BEGIN_DB
 ICCAP_VAR VG         -1.44          
 ICCAP_VAR VS         0              
 ICCAP_VAR VB         0              

 #VD              ID              IB              IG             
  0               -1.4613e-008    -1.9106e-008    -1.1428e-009   
  -0.05           -4.0369e-006    1.158e-009      7.446e-010     
  -0.1            -7.8716e-006    -2.061e-008     1.6126e-009    
  -0.15           -1.1467e-005    -1.1441e-008    2.4818e-009    
  -0.2            -1.4838e-005    -1.1321e-008    -7.933e-010    
  -0.25           -1.7954e-005    2.6704e-008     -1.3989e-009   
  -0.3            -2.0885e-005    9.26e-009       1.3199e-009    
  -0.35           -2.351e-005     -1.9372e-008    1.7515e-009    
  -0.4            -2.59e-005      -2.7053e-008    2.6788e-009    
  -0.45           -2.8026e-005    -2.4085e-008    2.0527e-009    
  -0.5            -2.9908e-005    -1.1399e-008    -8.379e-010    
  -0.55           -3.1548e-005    2.7486e-008     -1.3932e-009   
  -0.6            -3.3099e-005    9.489e-009      1.374e-009     
  -0.65           -3.4346e-005    -1.7751e-008    1.6759e-009    
  -0.7            -3.5399e-005    -1.0198e-008    -1.0314e-009   
  -0.75           -3.6352e-005    2.7517e-008     -1.3623e-009   
  -0.8            -3.7329e-005    1.0961e-008     1.6057e-009    
  -0.85           -3.806e-005     -1.3166e-008    2.667e-010     
  -0.9            -3.8641e-005    8.121e-009      -2.4386e-009   
  -0.95           -3.9293e-005    1.0952e-008     3.543e-010     
  -1              -3.9931e-005    -2.0811e-008    1.6038e-009    
  -1.05           -4.0453e-005    -2.7545e-008    2.5256e-009    
  -1.1            -4.093e-005     -2.1179e-008    1.8487e-009    
  -1.15           -4.1409e-005    -1.2803e-008    2.234e-010     
  -1.2            -4.1732e-005    8.83e-009       -2.3636e-009   
  -1.25           -4.2239e-005    1.289e-008      2.0117e-009    
  -1.3            -4.2636e-005    -2.1556e-008    1.5322e-009    
  -1.35           -4.3005e-005    -2.7433e-008    2.4465e-009    
  -1.4            -4.3359e-005    -1.9467e-008    1.7715e-009    
  -1.45           -4.372e-005     -2.6986e-008    2.6756e-009    
  -1.5            -4.4033e-005    -2.3762e-008    2.0555e-009    
  -1.55           -4.4323e-005    -1.1273e-008    -8.307e-010    
  -1.6            -4.4589e-005    2.7338e-008     -1.3981e-009   
  -1.65           -4.5037e-005    9.466e-009      1.3626e-009    
  -1.7            -4.5288e-005    -1.7581e-008    1.6871e-009    
  -1.75           -4.5502e-005    -1.0269e-008    -1.0194e-009   
  -1.8            -4.5763e-005    2.7469e-008     -1.3645e-009   
END_DB

BEGIN_DB
 ICCAP_VAR VG         -1.8           
 ICCAP_VAR VS         0              
 ICCAP_VAR VB         0              

 #VD              ID              IB              IG             
  0               -1.6578e-008    -1.8128e-008    -1.1189e-009   
  -0.05           -5.1273e-006    -1.1495e-008    -1.3777e-009   
  -0.1            -1.00899e-005   9.382e-009      1.1316e-009    
  -0.15           -1.486e-005     -2.4359e-008    1.1164e-009    
  -0.2            -1.9453e-005    -2.4833e-008    2.1385e-009    
  -0.25           -2.3844e-005    -1.1529e-008    -8.022e-010    
  -0.3            -2.802e-005     2.6941e-008     -1.4018e-009   
  -0.35           -3.2032e-005    9.176e-009      1.3272e-009    
  -0.4            -3.5767e-005    -1.9196e-008    1.7484e-009    
  -0.45           -3.926e-005     -1.0542e-008    -9.881e-010    
  -0.5            -4.2526e-005    2.7916e-008     -1.3699e-009   
  -0.55           -4.5641e-005    1.0664e-008     1.5568e-009    
  -0.6            -4.8435e-005    -1.3906e-008    1.4589e-009    
  -0.65           -5.1004e-005    -2.683e-008     2.3454e-009    
  -0.7            -5.3349e-005    -1.8117e-008    1.6715e-009    
  -0.75           -5.5415e-005    -1.0292e-008    -1.0331e-009   
  -0.8            -5.7303e-005    2.7556e-008     -1.3638e-009   
  -0.85           -5.9128e-005    1.0957e-008     1.6109e-009    
  -0.9            -6.0623e-005    -1.3255e-008    2.693e-010     
  -0.95           -6.1869e-005    8.255e-009      -2.4378e-009   
  -1              -6.3125e-005    1.086e-008      3.496e-010     
  -1.05           -6.429e-005     -2.0804e-008    1.6019e-009    
  -1.1            -6.5272e-005    -2.7507e-008    2.5367e-009    
  -1.15           -6.6137e-005    -1.1296e-008    -5.276e-010    
  -1.2            -6.6882e-005    2.277e-008      -1.4842e-009   
  -1.25           -6.7732e-005    9.378e-009      1.0968e-009    
  -1.3            -6.841e-005     -2.5269e-008    2.16e-009      
  -1.35           -6.9019e-005    -1.1398e-008    -7.751e-010    
  -1.4            -6.9566e-005    2.6544e-008     -1.4036e-009   
  -1.45           -7.0287e-005    9.618e-009      1.305e-009     
  -1.5            -7.0776e-005    -1.9714e-008    1.7726e-009    
  -1.55           -7.131e-005     -2.6756e-008    1.2896e-009    
  -1.6            -7.1773e-005    -1.1386e-008    -3.736e-010    
  -1.65           -7.2161e-005    2.0191e-008     -1.5776e-009   
  -1.7            -7.2698e-005    9.764e-009      9.883e-010     
  -1.75           -7.3149e-005    -2.6957e-008    2.3809e-009    
  -1.8            -7.3532e-005    -1.1492e-008    -6.376e-010    
END_DB

BEGIN_DB
 ICCAP_VAR VG         0              
 ICCAP_VAR VS         0              
 ICCAP_VAR VB         0.9            

 #VD              ID              IB              IG             
  0               2.3847e-009     -1.8614e-008    2.6216e-009    
  -0.05           2.1313e-009     1.0972e-008     2.92e-010      
  -0.1            2.1855e-009     1.105e-008      5.077e-010     
  -0.15           2.2234e-009     1.0197e-008     7.22e-010      
  -0.2            1.2302e-009     9.422e-009      -1.3582e-009   
  -0.25           -1.371e-009     7.868e-009      -2.1893e-009   
  -0.3            -1.6475e-009    -2.4805e-008    2.5032e-009    
  -0.35           1.921e-009      -3.898e-009     2.564e-010     
  -0.4            1.985e-009      1.1045e-008     4.775e-010     
  -0.45           8.742e-010      1.0023e-008     -1.3861e-009   
  -0.5            -1.5836e-009    9.101e-009      -2.0179e-009   
  -0.55           -1.6661e-009    -2.7521e-008    1.3226e-009    
  -0.6            -3.197e-010     -1.0011e-008    2.8534e-009    
  -0.65           1.5122e-009     1.2862e-008     -4.64e-011     
  -0.7            4.704e-010      2.7846e-008     -1.4367e-009   
  -0.75           -1.6781e-009    8.607e-009      -2.7033e-009   
  -0.8            -2.9619e-009    -1.1093e-008    -6.933e-010    
  -0.85           -2.3491e-009    -1.8539e-008    2.1089e-009    
  -0.9            -2.928e-010     -7.361e-009     1.7589e-009    
  -0.95           -4.829e-010     -8.894e-009     1.4972e-009    
  -1              -6.817e-010     -8.789e-009     1.3451e-009    
  -1.05           -9.067e-010     -9.751e-009     2.8282e-009    
  -1.1            8.339e-010      1.2408e-008     -1.06e-010     
  -1.15           -4.387e-010     1.0865e-008     -1.6607e-009   
  -1.2            -2.4786e-009    6.292e-009      -2.5201e-009   
  -1.25           -3.6559e-009    -1.1449e-008    -3.305e-010    
  -1.3            -3.8244e-009    -1.1157e-008    -5.612e-010    
  -1.35           -3.2477e-009    -2.1922e-008    2.3019e-009    
  -1.4            -1.2561e-009    -5.566e-009     1.9431e-009    
  -1.45           -1.5164e-009    -8.507e-009     1.6417e-009    
  -1.5            -1.7771e-009    -8.868e-009     1.4217e-009    
  -1.55           -2.0696e-009    -9.207e-009     2.7705e-009    
  -1.6            -1.473e-010     1.0818e-008     5.879e-010     
  -1.65           -2.683e-010     9.588e-009      7.857e-010     
  -1.7            -4.697e-010     9.201e-009      9.636e-010     
  -1.75           -7.385e-010     1.0112e-008     1.1302e-009    
  -1.8            -1.1281e-009    1.1829e-008     1.3079e-009    
END_DB

BEGIN_DB
 ICCAP_VAR VG         -0.36          
 ICCAP_VAR VS         0              
 ICCAP_VAR VB         0.9            

 #VD              ID              IB              IG             
  0               1.883e-010      2.8116e-008     1.1203e-009    
  -0.05           -8.2798e-008    -2.0796e-008    -1.895e-009    
  -0.1            -1.2964e-007    -1.3578e-008    2.4629e-009    
  -0.15           -1.6624e-007    -2.6586e-008    2.7015e-009    
  -0.2            -1.9345e-007    -2.7507e-008    2.5078e-009    
  -0.25           -2.1804e-007    -2.631e-008     2.254e-009     
  -0.3            -2.41e-007      -2.3235e-008    1.9879e-009    
  -0.35           -2.6184e-007    -1.15e-008      -6.23e-010     
  -0.4            -2.7884e-007    1.9519e-008     -1.6064e-009   
  -0.45           -2.9815e-007    1.0874e-008     7.386e-010     
  -0.5            -3.2224e-007    -2.2565e-008    1.4716e-009    
  -0.55           -3.406e-007     -2.6476e-008    1.2973e-009    
