! VERSION = 6.00
BEGIN_HEADER
 ICCAP_INPUTS
  VG         V  B GROUND SMU4 0.001 LIN        1    0          -1.8       37   -0.05     
  VS         V  E GROUND SMU2 0.1 CON        0
  VB         V  C GROUND SMU3 0.1 LIN        3    0          1.8        3    0.9       
  VD         V  S GROUND SMU1 0.1 LIN        2    -0.1       -1.8       2    -1.7      
 ICCAP_OUTPUTS
  IG         I  B GROUND SMU4 B
  ID         I  S GROUND SMU1 B
  IB         I  C GROUND SMU3 B
END_HEADER

BEGIN_DB
 ICCAP_VAR VS         0              
 ICCAP_VAR VB         0              
 ICCAP_VAR VD         -0.1           

 #VG              IG              ID              IB             
  0               -1.0143e-009    -1.0301e-009    -2.5002e-008   
  -0.05           -2.479e-009     -1.2927e-009    5.794e-009     
  -0.1            2.0329e-009     -2.9313e-009    -1.7133e-008   
  -0.15           1.7534e-009     -2.0003e-009    -6.658e-009    
  -0.2            1.5406e-009     -5.678e-009     -8.643e-009    
  -0.25           -2.3479e-009    -9.405e-009     -2.6133e-008   
  -0.3            -7.162e-010     -2.2199e-008    -1.1431e-008   
  -0.35           1.6652e-009     -4.4599e-008    -1.7717e-008   
  -0.4            2.734e-009      -6.5557e-008    -8.82e-009     
  -0.45           -1.7469e-009    -1.0505e-007    2.7889e-008    
  -0.5            -6.402e-010     -1.5763e-007    -1.149e-008    
  -0.55           -1.0165e-009    -2.2011e-007    -1.0362e-008   
  -0.6            1.996e-010      -3.008e-007     -1.2037e-008   
  -0.65           1.3956e-009     -3.8862e-007    -2.365e-008    
  -0.7            2.8318e-009     -4.8281e-007    -9.179e-009    
  -0.75           2.0843e-009     -5.8897e-007    1.165e-008     
  -0.8            9.097e-010      -7.1675e-007    1.0144e-008    
  -0.85           1.266e-009      -8.5899e-007    9.329e-009     
  -0.9            4.87e-011       -1.01413e-006   1.0887e-008    
  -0.95           -2.7157e-009    -1.1814e-006    -2.7387e-008   
  -1              2.2191e-009     -1.3707e-006    -2.5876e-008   
  -1.05           1.5574e-009     -1.5551e-006    -4.936e-009    
  -1.1            2.7632e-009     -1.7478e-006    -8.765e-009    
  -1.15           8.254e-010      -1.9376e-006    1.0805e-008    
  -1.2            1.1809e-009     -2.1323e-006    9.244e-009     
  -1.25           1.57e-009       -2.3218e-006    1.0311e-008    
  -1.3            1.9866e-009     -2.5036e-006    1.2063e-008    
  -1.35           8.209e-010      -2.683e-006     1.0772e-008    
  -1.4            1.1764e-009     -2.8601e-006    9.224e-009     
  -1.45           1.5656e-009     -3.0332e-006    1.0397e-008    
  -1.5            1.9885e-009     -3.1936e-006    1.2181e-008    
  -1.55           8.218e-010      -3.3533e-006    1.0726e-008    
  -1.6            1.1802e-009     -3.5107e-006    9.278e-009     
  -1.65           1.5691e-009     -3.6625e-006    1.0343e-008    
  -1.7            1.9842e-009     -3.805e-006     1.2185e-008    
  -1.75           8.164e-010      -3.9451e-006    1.0802e-008    
  -1.8            1.1738e-009     -4.0836e-006    9.214e-009     
END_DB

BEGIN_DB
 ICCAP_VAR VS         0              
 ICCAP_VAR VB         0              
 ICCAP_VAR VD         -1.8           

 #VG              IG              ID              IB             
  0               1.3005e-009     1.2712e-009     6.377e-009     
  -0.05           -1.6411e-009    9.582e-010      9.662e-009     
  -0.1            -1.4928e-009    -2.0846e-009    5.853e-009     
  -0.15           -1.421e-009     -4.0201e-009    7.463e-009     
  -0.2            -1.3854e-009    -9.15e-009      8.482e-009     
  -0.25           -2.7195e-009    -1.2099e-008    -2.1283e-008   
  -0.3            2.3619e-009     -4.1566e-008    -2.7117e-008   
  -0.35           1.6737e-009     -5.3162e-008    -3.796e-009    
  -0.4            -2.4636e-009    -9.467e-008     -2.7293e-008   
  -0.45           6.17e-011       -1.8237e-007    -9.855e-009    
  -0.5            5.074e-010      -2.6669e-007    1.0904e-008    
  -0.55           9.198e-010      -3.991e-007     1.0319e-008    
  -0.6            1.2738e-009     -5.7895e-007    9.182e-009     
  -0.65           6.44e-011       -8.0259e-007    1.0845e-008    
  -0.7            5.077e-010      -1.06007e-006   1.0866e-008    
  -0.75           -2.6071e-009    -1.371e-006     -2.3825e-008   
  -0.8            -2.1549e-009    -1.7626e-006    9.79e-010      
  -0.85           1.884e-010      -2.2758e-006    -1.1952e-008   
  -0.9            1.382e-009      -2.8211e-006    -2.4e-008      
  -0.95           2.8372e-009     -3.4379e-006    -9.261e-009    
  -1              2.0973e-009     -4.1445e-006    1.2263e-008    
  -1.05           9.191e-010      -4.9726e-006    1.0417e-008    
  -1.1            1.2811e-009     -5.8965e-006    9.106e-009     
  -1.15           6.58e-011       -6.8736e-006    1.0842e-008    
  -1.2            5.132e-010      -7.9615e-006    1.08e-008      
  -1.25           9.229e-010      -9.157e-006     9.936e-009     
  -1.3            1.2793e-009     -1.04498e-005   9.493e-009     
  -1.35           1.6062e-009     -1.1799e-005    -2.5022e-008   
  -1.4            2.0296e-009     -1.3189e-005    1.1695e-008    
  -1.45           8.586e-010      -1.4688e-005    1.0348e-008    
  -1.5            1.2114e-009     -1.6286e-005    9.199e-009     
  -1.55           -4.1e-012       -1.7867e-005    1.0879e-008    
  -1.6            4.344e-010      -1.9554e-005    1.0864e-008    
  -1.65           8.588e-010      -2.1332e-005    1.0156e-008    
  -1.7            1.2152e-009     -2.3174e-005    9.22e-009      
  -1.75           -1.3e-012       -2.4946e-005    1.0893e-008    
  -1.8            4.374e-010      -2.687e-005     1.0891e-008    
END_DB

BEGIN_DB
 ICCAP_VAR VS         0              
 ICCAP_VAR VB         0.9            
 ICCAP_VAR VD         -0.1           

 #VG              IG              ID              IB             
  0               9.504e-010      8.763e-010      2.1804e-008    
  -0.05           1.3783e-009     1.9552e-009     -5.681e-009    
  -0.1            1.5276e-009     1.7334e-009     1.168e-008     
  -0.15           8.86e-011       2.0852e-009     1.0821e-008    
  -0.2            2.571e-010      2.1678e-009     1.0761e-008    
  -0.25           4.314e-010      2.2317e-009     1.0632e-008    
  -0.3            6.089e-010      2.2366e-009     1.0261e-008    
  -0.35           -1.3653e-009    2.776e-010      9.646e-009     
  -0.4            -2.7151e-009    -1.7672e-009    9.415e-009     
  -0.45           2.5706e-009     -8.5202e-009    -2.5257e-008   
  -0.5            -2.5392e-009    -1.6084e-008    -1.1052e-008   
  -0.55           -1.9931e-009    -2.2545e-008    1.235e-009     
  -0.6            -9.451e-010     -5.6437e-008    -1.0896e-008   
  -0.65           1.3937e-009     -1.07967e-007   -1.2651e-008   
  -0.7            -1.17e-011      -1.7131e-007    8.826e-009     
  -0.75           -4.817e-010     -2.5555e-007    -1.1343e-008   
  -0.8            1.9801e-009     -3.7919e-007    -2.2372e-008   
  -0.85           1.416e-009      -4.9692e-007    -7.32e-009     
  -0.9            2.8221e-009     -6.5279e-007    -8.906e-009    
  -0.95           2.0353e-009     -8.0933e-007    1.1325e-008    
  -1              8.709e-010      -9.9165e-007    1.0187e-008    
  -1.05           -2.7172e-009    -1.1733e-006    -2.6615e-008   
  -1.1            2.3544e-009     -1.3801e-006    -2.6661e-008   
  -1.15           1.6833e-009     -1.5677e-006    -3.728e-009    
  -1.2            1.3116e-009     -1.7635e-006    -8.763e-009    
  -1.25           2.8483e-009     -1.9564e-006    -9.939e-009    
  -1.3            2.6425e-009     -2.1372e-006    -1.5e-010      
  -1.35           1.4838e-009     -2.3276e-006    1.0862e-008    
  -1.4            3.049e-010      -2.4976e-006    1.0887e-008    
  -1.45           7.511e-010      -2.674e-006     1.0564e-008    
  -1.5            1.1152e-009     -2.8408e-006    9.158e-009     
  -1.55           1.4956e-009     -3.0033e-006    1.0906e-008    
  -1.6            3.12e-010       -3.1549e-006    1.0797e-008    
  -1.65           7.632e-010      -3.3071e-006    1.0489e-008    
  -1.7            1.1249e-009     -3.4574e-006    9.354e-009     
  -1.75           1.5034e-009     -3.6001e-006    9.964e-009     
  -1.8            3.324e-010      -3.7358e-006    1.0885e-008    
END_DB

BEGIN_DB
 ICCAP_VAR VS         0              
 ICCAP_VAR VB         0.9            
 ICCAP_VAR VD         -1.8           

 #VG              IG              ID              IB             
  0               -1.123e-009     -9.998e-010     -1.7621e-008   
  -0.05           -4.658e-010     -2.1949e-009    -1.1405e-008   
  -0.1            2.4238e-009     -1.4096e-009    -2.2972e-008   
  -0.15           1.207e-009      2.1464e-009     -3.554e-009    
  -0.2            -2.459e-010     1.9094e-009     1.0686e-008    
  -0.25           -1.603e-009     7.52e-010       2.4245e-008    
  -0.3            -1.6969e-009    -1.5537e-009    6.589e-009     
  -0.35           -2.454e-010     -3.1023e-009    -1.1493e-008   
  -0.4            2.7958e-009     -8.926e-009     1.0756e-008    
  -0.45           -1.2962e-009    -5.5028e-008    1.022e-008     
  -0.5            -2.3044e-009    -7.6957e-008    1.215e-008     
  -0.55           -2.5726e-009    -3.843e-008     8.95e-009      
  -0.6            -2.0913e-009    -8.034e-008     9.19e-010      
  -0.65           2.5628e-009     -2.8762e-007    -2.6466e-008   
  -0.7            1.9265e-009     -2.8406e-007    -2.49e-009     
  -0.75           1.3951e-009     -4.813e-007     -8.102e-009    
  -0.8            2.8191e-009     -7.6398e-007    -8.747e-009    
  -0.85           -4.473e-010     -1.01299e-006   1.948e-008     
  -0.9            1.4321e-009     -1.4232e-006    1.0765e-008    
  -0.95           2.8094e-009     -1.9671e-006    -8.612e-009    
  -1              2.0053e-009     -2.4838e-006    1.0983e-008    
  -1.05           8.468e-010      -3.1819e-006    1.0303e-008    
  -1.1            1.1988e-009     -3.9803e-006    9.08e-009      
  -1.15           -5.7e-012       -4.9436e-006    1.0785e-008    
  -1.2            4.24e-010       -5.8328e-006    1.0676e-008    
  -1.25           8.5e-010        -6.8859e-006    1.0171e-008    
  -1.3            1.2e-009        -8.1125e-006    9.063e-009     
  -1.35           -1.21e-011      -9.3685e-006    1.0782e-008    
  -1.4            4.214e-010      -1.05878e-005   1.0778e-008    
  -1.45           -1.8202e-009    -1.1787e-005    2.003e-008     
  -1.5            -7.46e-010      -1.3329e-005    -1.1607e-008   
  -1.55           -1.0961e-009    -1.4811e-005    -1.0094e-008   
  -1.6            1.48e-010       -1.6678e-005    -1.1449e-008   
  -1.65           1.3432e-009     -1.8384e-005    -2.4703e-008   
  -1.7            2.8404e-009     -2.0077e-005    -9.072e-009    
  -1.75           2.7034e-009     -2.1684e-005    1.23e-010      
  -1.8            1.4161e-009     -2.3712e-005    1.0231e-008    
END_DB

BEGIN_DB
 ICCAP_VAR VS         0              
 ICCAP_VAR VB         1.8            
 ICCAP_VAR VD         -0.1           

 #VG              IG              ID              IB             
  0               9.584e-010      8.636e-010      2.2421e-008    
  -0.05           1.423e-009      1.913e-009      -6.626e-009    
  -0.1            -3.54e-011      2.0341e-009     1.0893e-008    
  -0.15           -1.438e-009     1.0368e-009     2.7126e-008    
  -0.2            -9.913e-010     -2.1782e-009    8.746e-009     
  -0.25           1.5881e-009     -1.6761e-009    -1.1843e-008   
  -0.3            7.855e-010      2.3089e-009     -8.404e-009    
  -0.35           9.213e-010      2.2886e-009     9.114e-009     
  -0.4            1.0636e-009     2.2023e-009     8.993e-009     
  -0.45           -1.6629e-009    9.254e-010      9.349e-009     
  -0.5            -1.5034e-009    -2.6763e-009    5.886e-009     
  -0.55           -1.4192e-009    -7.274e-009     7.983e-009     
  -0.6            1.4004e-009     -2.2072e-008    -9.992e-009    
  -0.65           2.8252e-009     -2.7041e-008    -8.458e-009    
  -0.7            2.0667e-009     -3.142e-008     1.1367e-008    
  -0.75           2.8211e-009     -7.0766e-008    2.6185e-008    
  -0.8            -3.097e-010     -1.5612e-007    1.0042e-008    
  -0.85           -7.877e-010     -2.4238e-007    -1.1553e-008   
  -0.9            1.5882e-009     -4.021e-007     -1.5607e-008   
  -0.95           2.7533e-009     -5.4534e-007    -8.525e-009    
  -1              8.085e-010      -7.1353e-007    1.0422e-008    
  -1.05           1.1622e-009     -9.0863e-007    9.019e-009     
  -1.1            -4.68e-011      -1.09671e-006   1.091e-008     
  -1.15           -1.3682e-009    -1.2708e-006    -1.1567e-008   
  -1.2            -1.3041e-009    -1.4737e-006    1.0261e-008    
  -1.25           -2.33e-009      -1.6699e-006    1.2172e-008    
  -1.3            -7.671e-010     -1.8497e-006    -1.1574e-008   
  -1.35           1.6104e-009     -2.0506e-006    -1.5949e-008   
  -1.4            2.7354e-009     -2.2308e-006    -8.522e-009    
  -1.45           7.923e-010      -2.3963e-006    1.0822e-008    
  -1.5            1.1476e-009     -2.5746e-006    9.076e-009     
  -1.55           1.5393e-009     -2.736e-006     9.973e-009     
  -1.6            1.9605e-009     -2.891e-006     1.1177e-008    
  -1.65           8.031e-010      -3.0407e-006    1.0677e-008    
  -1.7            1.1569e-009     -3.1992e-006    9.07e-009      
  -1.75           1.5521e-009     -3.3455e-006    1.0042e-008    
  -1.8            1.9639e-009     -3.4759e-006    1.1218e-008    
END_DB

BEGIN_DB
 ICCAP_VAR VS         0              
 ICCAP_VAR VB         1.8            
 ICCAP_VAR VD         -1.8           

 #VG              IG              ID              IB             
  0               -9.182e-010     -8.089e-010     -2.7203e-008   
  -0.05           -9.794e-010     -2.1932e-009    8.45e-009      
  -0.1            1.6065e-009     -1.6677e-009    -1.2913e-008   
  -0.15           7.817e-010      2.3266e-009     -8.721e-009    
  -0.2            9.287e-010      2.3091e-009     9.434e-009     
  -0.25           1.0661e-009     2.2513e-009     9.115e-009     
  -0.3            1.2014e-009     2.1459e-009     9.561e-009     
  -0.35           1.3437e-009     1.9854e-009     1.0491e-008    
  -0.4            1.4989e-009     1.7822e-009     1.1804e-008    
  -0.45           3.85e-011       2.0529e-009     1.0791e-008    
  -0.5            2.033e-010      2.0848e-009     1.0733e-008    
  -0.55           3.763e-010      1.8695e-009     1.0808e-008    
  -0.6            -1.4914e-009    -2.2867e-009    1.0451e-008    
  -0.65           -1.4237e-009    -8.2068e-009    7.796e-009     
  -0.7            2.4363e-009     -2.749e-008     1.004e-008     
  -0.75           1.7649e-009     -7.4506e-008    -3.249e-009    
  -0.8            -6.323e-010     -1.7161e-007    8.389e-009     
  -0.85           1.7754e-009     -3.3622e-007    -1.9914e-008   
  -0.9            1.3392e-009     -5.7797e-007    -8.689e-009    
  -0.95           2.8532e-009     -9.1609e-007    -9.79e-009     
  -1              -1.5348e-009    -1.3387e-006    -6.036e-009    
  -1.05           -1.3833e-009    -1.8714e-006    7.158e-009     
  -1.1            -1.3144e-009    -2.5092e-006    9.493e-009     
  -1.15           -2.3552e-009    -3.2462e-006    9.18e-009      
  -1.2            -7.165e-010     -4.1014e-006    -1.1439e-008   
  -1.25           1.6718e-009     -5.0524e-006    -1.8123e-008   
  -1.3            2.7339e-009     -6.0868e-006    -8.699e-009    
  -1.35           1.8266e-009     -7.2167e-006    1.2017e-008    
  -1.4            6.619e-010      -8.4016e-006    1.0839e-008    
  -1.45           1.0499e-009     -9.7113e-006    9.624e-009     
  -1.5            1.4158e-009     -1.10909e-005   1.0529e-008    
  -1.55           -1.9663e-009    -1.2472e-005    1.3226e-008    
  -1.6            2.58e-009       -1.401e-005     -2.6802e-008   
  -1.65           1.9575e-009     -1.5567e-005    -2.14e-009     
  -1.7            1.4251e-009     -1.7197e-005    -7.294e-009    
  -1.75           2.8285e-009     -1.8877e-005    -8.97e-009     
  -1.8            2.0513e-009     -2.0606e-005    1.1867e-008    
END_DB

