! VERSION = 6.00
BEGIN_HEADER
 ICCAP_INPUTS
  VG         V  B GROUND SMU4 0.001 LIN        1    0          -1.8       37   -0.05     
  VS         V  E GROUND SMU3 0.1 CON        0
  VB         V  C GROUND SMU1 0.1 LIN        3    0          1.8        3    0.9       
  VD         V  S GROUND SMU2 0.1 LIN        2    -0.1       -1.8       2    -1.7      
 ICCAP_OUTPUTS
  IG         I  B GROUND SMU4 B
  ID         I  S GROUND SMU2 B
  IB         I  C GROUND SMU1 B
END_HEADER

BEGIN_DB
 ICCAP_VAR VS         0              
 ICCAP_VAR VB         0              
 ICCAP_VAR VD         -0.1           

 #VG              IG              ID              IB             
  0               -2.484e-010     -3.6164e-009    -4.398e-009    
  -0.05           1.5893e-009     -4.5112e-009    -4.292e-009    
  -0.1            -9.141e-010     -1.5786e-008    -4.404e-009    
  -0.15           1.6183e-009     -3.4861e-008    -4.171e-009    
  -0.2            1.56e-009       -8.7155e-008    -5.165e-009    
  -0.25           -1.5007e-009    -1.8808e-007    -4.505e-009    
  -0.3            1.6115e-009     -3.7291e-007    -4.221e-009    
  -0.35           1.5824e-009     -6.5856e-007    -4.528e-009    
  -0.4            -1.4727e-009    -1.05517e-006   6.2148e-009    
  -0.45           1.533e-009      -1.5924e-006    -3.1752e-009   
  -0.5            7.634e-010      -2.2177e-006    2.0053e-009    
  -0.55           -1.4561e-009    -2.9561e-006    5.7235e-009    
  -0.6            -9.217e-010     -3.7081e-006    5.848e-010     
  -0.65           1.5413e-009     -4.7491e-006    -3.83e-009     
  -0.7            7.52e-010       -5.7426e-006    2.0602e-009    
  -0.75           -1.4561e-009    -6.8285e-006    5.7305e-009    
  -0.8            -9.113e-010     -7.9986e-006    5.377e-010     
  -0.85           1.5481e-009     -9.2718e-006    -3.8832e-009   
  -0.9            7.431e-010      -1.05622e-005   2.1149e-009    
  -0.95           8.114e-010      -1.1912e-005    -4.9622e-009   
  -1              -1.562e-009     -1.3285e-005    5.661e-009     
  -1.05           -5.972e-010     -1.4682e-005    -1.0708e-009   
  -1.1            1.5144e-009     -1.6101e-005    -5.9634e-009   
  -1.15           8.021e-010      -1.7466e-005    1.7369e-009    
  -1.2            -1.5616e-009    -1.8803e-005    5.6852e-009    
  -1.25           -5.858e-010     -2.0113e-005    -1.1231e-009   
  -1.3            1.518e-009      -2.1393e-005    -6.0905e-009   
  -1.35           7.91e-010       -2.2586e-005    1.8072e-009    
  -1.4            -1.565e-009     -2.3733e-005    5.6955e-009    
  -1.45           -5.788e-010     -2.4832e-005    -1.1778e-009   
  -1.5            1.5237e-009     -2.5902e-005    -6.1935e-009   
  -1.55           7.811e-010      -2.6876e-005    1.8703e-009    
  -1.6            -1.5593e-009    -2.7823e-005    5.7052e-009    
  -1.65           -5.659e-010     -2.8726e-005    -1.2359e-009   
  -1.7            1.528e-009      -2.9606e-005    -6.2866e-009   
  -1.75           7.681e-010      -3.0419e-005    1.9357e-009    
  -1.8            -1.4545e-009    -3.1187e-005    5.7041e-009    
END_DB

BEGIN_DB
 ICCAP_VAR VS         0              
 ICCAP_VAR VB         0              
 ICCAP_VAR VD         -1.8           

 #VG              IG              ID              IB             
  0               -2.599e-010     -3.0107e-008    -4.436e-009    
  -0.05           1.5925e-009     -7.0236e-008    -4.764e-009    
  -0.1            -1.4425e-009    -1.6329e-007    -4.341e-009    
  -0.15           1.5737e-009     -3.539e-007     -5.15e-009     
  -0.2            -1.449e-009     -6.7966e-007    6.2877e-009    
  -0.25           1.4478e-009     -1.2205e-006    -1.4817e-009   
  -0.3            9.312e-010      -2.0015e-006    1.1388e-009    
  -0.35           -1.5285e-009    -3.0763e-006    5.4217e-009    
  -0.4            -7.16e-010      -4.5236e-006    -3.336e-010    
  -0.45           1.452e-009      -6.4088e-006    -4.8244e-009   
  -0.5            9.211e-010      -8.6589e-006    1.1925e-009    
  -0.55           -1.5365e-009    -1.13007e-005   5.4609e-009    
  -0.6            -1.444e-009     -1.4471e-005    -3.9428e-009   
  -0.65           -9.126e-010     -1.8102e-005    5.2e-010       
  -0.7            1.5532e-009     -2.234e-005     -3.9653e-009   
  -0.75           7.279e-010      -2.6916e-005    2.1803e-009    
  -0.8            -1.4446e-009    -3.202e-005     5.6982e-009    
  -0.85           -8.992e-010     -3.7718e-005    4.871e-010     
  -0.9            1.5612e-009     -4.4093e-005    -4.0238e-009   
  -0.95           7.153e-010      -5.0864e-005    2.2642e-009    
  -1              -1.4458e-009    -5.8199e-005    5.6989e-009    
  -1.05           -8.908e-010     -6.6163e-005    4.579e-010     
  -1.1            1.5707e-009     -7.4923e-005    -4.1036e-009   
  -1.15           7.027e-010      -8.3932e-005    2.322e-009     
  -1.2            -1.4497e-009    -9.3494e-005    5.7001e-009    
  -1.25           -8.775e-010     -0.000103588    4.19e-010      
  -1.3            1.4959e-009     -0.00011424     5.8843e-009    
  -1.35           8.03e-010       -0.00012517     1.7227e-009    
  -1.4            -1.5758e-009    -0.00013649     5.6737e-009    
  -1.45           -5.888e-010     -0.00014812     -1.0859e-009   
  -1.5            1.5061e-009     -0.0001604      -5.9072e-009   
  -1.55           7.93e-010       -0.00017263     1.7703e-009    
  -1.6            -1.5785e-009    -0.00018514     5.6809e-009    
  -1.65           -5.785e-010     -0.00019788     -1.1533e-009   
  -1.7            1.5164e-009     -0.00021127     -6.1066e-009   
  -1.75           7.785e-010      -0.0002244      1.8535e-009    
  -1.8            -1.5753e-009    -0.00023762     5.6878e-009    
END_DB

BEGIN_DB
 ICCAP_VAR VS         0              
 ICCAP_VAR VB         0.9            
 ICCAP_VAR VD         -0.1           

 #VG              IG              ID              IB             
  0               -2.676e-010     -2.3574e-009    4.9777e-009    
  -0.05           -1.0917e-009    -1.9881e-009    2.0166e-009    
  -0.1            8.33e-010       2.278e-009      -7.0559e-009   
  -0.15           -9.813e-010     -2.3655e-009    5.4902e-009    
  -0.2            1.623e-009      -2.4746e-009    -4.1123e-009   
  -0.25           -1.4858e-009    -2.0927e-009    5.7191e-009    
  -0.3            -1.5567e-009    -1.1402e-008    3.2663e-009    
  -0.35           -6.367e-010     -3.9881e-008    -7.716e-010    
  -0.4            1.4766e-009     -1.07674e-007   -5.3287e-009   
  -0.45           -7.132e-010     -2.5864e-007    6.0484e-009    
  -0.5            1.4611e-009     -5.4612e-007    -4.8706e-009   
  -0.55           9.188e-010      -9.969e-007     1.1963e-009    
  -0.6            -1.5061e-009    -1.6164e-006    -4.7079e-009   
  -0.65           -7.215e-010     -2.42e-006      -2.856e-010    
  -0.7            1.4593e-009     -3.3757e-006    -4.8421e-009   
  -0.75           9.254e-010      -4.3909e-006    1.1605e-009    
  -0.8            -1.5098e-009    -5.6012e-006    5.4028e-009    
  -0.85           -7.185e-010     -6.8893e-006    -3.158e-010    
  -0.9            1.4575e-009     -8.2576e-006    -4.8588e-009   
  -0.95           9.188e-010      -9.6645e-006    1.1872e-009    
  -1              -1.516e-009     -1.10831e-005   5.4181e-009    
  -1.05           -1.456e-009     -1.2533e-005    -8.8531e-009   
  -1.1            -8.742e-010     -1.3997e-005    3.935e-010     
  -1.15           1.5592e-009     -1.5345e-005    -4.1207e-009   
  -1.2            6.843e-010      -1.6741e-005    2.3977e-009    
  -1.25           -1.4564e-009    -1.8184e-005    5.7254e-009    
  -1.3            -8.687e-010     -1.9495e-005    3.763e-010     
  -1.35           1.5618e-009     -2.0764e-005    -4.1518e-009   
  -1.4            6.808e-010      -2.1937e-005    2.4272e-009    
  -1.45           -1.4577e-009    -2.3054e-005    5.7204e-009    
  -1.5            -8.622e-010     -2.4151e-005    3.638e-010     
  -1.55           1.5635e-009     -2.519e-005     -4.1782e-009   
  -1.6            -1.5395e-009    -2.6151e-005    5.5922e-009    
  -1.65           -6.5e-010       -2.7087e-005    -6.967e-010    
  -1.7            1.4695e-009     -2.7989e-005    -5.2451e-009   
  -1.75           8.587e-010      -2.8814e-005    1.437e-009     
  -1.8            -1.547e-009     -2.9615e-005    5.5935e-009    
END_DB

BEGIN_DB
 ICCAP_VAR VS         0              
 ICCAP_VAR VB         0.9            
 ICCAP_VAR VD         -1.8           

 #VG              IG              ID              IB             
  0               7.059e-010      -1.8105e-009    -9.4492e-009   
  -0.05           6.567e-010      1.7658e-009     1.9431e-009    
  -0.1            -1.3761e-009    -2.5558e-009    5.8744e-009    
  -0.15           1.4496e-009     -8.2727e-009    -8.264e-009    
  -0.2            -1.3027e-009    -2.4918e-008    -3.9039e-009   
  -0.25           1.5663e-009     -7.285e-008     -7.3994e-009   
  -0.3            1.4991e-009     -1.8831e-007    6.242e-009     
  -0.35           8.082e-010      -4.3235e-007    1.6794e-009    
  -0.4            -1.5691e-009    -8.7693e-007    5.6936e-009    
  -0.45           1.592e-009      -1.6444e-006    4.154e-009     
  -0.5            -1.464e-009     -2.7315e-006    5.7505e-009    
  -0.55           -8.568e-010     -4.2979e-006    3.404e-010     
  -0.6            1.5794e-009     -6.411e-006     -4.2522e-009   
  -0.65           -1.5538e-009    -8.974e-006     5.6212e-009    
  -0.7            -1.4774e-009    -1.2131e-005    -8.3796e-009   
  -0.75           -8.139e-010     -1.5939e-005    1.836e-010     
  -0.8            1.5945e-009     -2.0381e-005    -4.4582e-009   
  -0.85           -1.56e-009      -2.529e-005     5.6849e-009    
  -0.9            -6.008e-010     -3.0913e-005    -1.0037e-009   
  -0.95           1.4998e-009     -3.7325e-005    -5.7938e-009   
  -1              8.135e-010      -4.4209e-005    1.6501e-009    
  -1.05           -1.5581e-009    -5.1667e-005    5.669e-009     
  -1.1            -6.031e-010     -5.9822e-005    -1.001e-009    
  -1.15           1.5009e-009     -6.8732e-005    -5.7721e-009   
  -1.2            8.114e-010      -7.7968e-005    1.6557e-009    
  -1.25           -1.5562e-009    -8.7715e-005    5.6654e-009    
  -1.3            -6.031e-010     -9.8014e-005    -1.0066e-009   
  -1.35           1.5006e-009     -0.00010892     -5.7824e-009   
  -1.4            1.4761e-009     -0.00011999     1.3033e-009    
  -1.45           8.708e-010      -0.00013151     1.3701e-009    
  -1.5            -1.5395e-009    -0.00014313     5.5311e-009    
  -1.55           -6.705e-010     -0.00015534     -6.15e-010     
  -1.6            1.4772e-009     -0.00016794     -5.1812e-009   
  -1.65           8.713e-010      -0.0001805      1.3756e-009    
  -1.7            -1.5408e-009    -0.00019322     5.5291e-009    
  -1.75           -6.682e-010     -0.00020629     -6.184e-010    
  -1.8            1.476e-009      -0.00021962     -5.1917e-009   
END_DB

BEGIN_DB
 ICCAP_VAR VS         0              
 ICCAP_VAR VB         1.8            
 ICCAP_VAR VD         -0.1           

 #VG              IG              ID              IB             
  0               -8.1e-011       -1.9934e-009    -4.361e-009    
  -0.05           1.6202e-009     -2.829e-010     -4.997e-009    
  -0.1            1.0061e-009     2.1473e-009     -4.468e-009    
  -0.15           9.398e-010      2.234e-009      -4.445e-009    
  -0.2            8.779e-010      2.2757e-009     -4.54e-009     
  -0.25           8.15e-010       2.2475e-009     -4.444e-009    
  -0.3            -7.948e-010     -2.659e-009     4.461e-010     
  -0.35           1.4874e-009     -2.7771e-009    -4.8573e-009   
  -0.4            6.05e-010       -3.6452e-009    2.2417e-009    
  -0.45           1.621e-009      -2.3331e-008    2.2813e-009    
  -0.5            -1.441e-009     -7.4114e-008    5.6828e-009    
  -0.55           1.4993e-009     -2.1479e-007    4.48e-010      
  -0.6            -1.4999e-009    -5.04e-007      3.8661e-009    
  -0.65           -7.35e-010      -1.00932e-006   -2.193e-010    
  -0.7            -1.246e-009     -1.7407e-006    -9.6256e-009   
  -0.75           1.5739e-009     -2.6964e-006    -7.8589e-009   
  -0.8            -1.5461e-009    -3.7937e-006    5.6564e-009    
  -0.85           -6.3e-010       -5.0536e-006    -8.156e-010    
  -0.9            1.4761e-009     -6.4321e-006    -5.412e-009    
  -0.95           8.487e-010      -7.8598e-006    1.5016e-009    
  -1              -1.5407e-009    -9.3225e-006    5.6264e-009    
  -1.05           -6.35e-010      -1.08314e-005   -7.729e-010    
  -1.1            -1.5468e-009    -1.232e-005     3.8501e-009    
  -1.15           1.4708e-009     -1.3816e-005    -5.1723e-009   
  -1.2            8.852e-010      -1.5254e-005    1.344e-009     
  -1.25           -1.5263e-009    -1.6628e-005    5.5313e-009    
  -1.3            -6.765e-010     -1.7987e-005    -5.45e-010     
  -1.35           1.4657e-009     -1.9284e-005    -5.0683e-009   
  -1.4            8.907e-010      -2.0502e-005    1.3254e-009    
  -1.45           -1.5309e-009    -2.1649e-005    5.5291e-009    
  -1.5            -6.803e-010     -2.2768e-005    -5.227e-010    
  -1.55           1.4614e-009     -2.3826e-005    -5.0282e-009   
  -1.6            8.977e-010      -2.4819e-005    1.302e-009     
  -1.65           -1.5344e-009    -2.575e-005     5.5161e-009    
  -1.7            -6.82e-010      -2.6666e-005    -5.029e-010    
  -1.75           1.4599e-009     -2.7532e-005    -5.0106e-009   
  -1.8            8.983e-010      -2.8347e-005    1.2967e-009    
END_DB

BEGIN_DB
 ICCAP_VAR VS         0              
 ICCAP_VAR VB         1.8            
 ICCAP_VAR VD         -1.8           

 #VG              IG              ID              IB             
  0               -2.79e-010      -2.1663e-009    -4.476e-009    
  -0.05           9.464e-010      2.2142e-009     -4.259e-009    
  -0.1            8.872e-010      2.2684e-009     -4.554e-009    
  -0.15           8.249e-010      2.1908e-009     -4.682e-009    
  -0.2            1.3623e-009     -2.121e-010     -4.689e-009    
  -0.25           1.5778e-009     -2.9945e-009    -5.984e-009    
  -0.3            -1.259e-009     -1.2414e-008    -7.122e-009    
  -0.35           1.5857e-009     -3.4173e-008    -4.309e-009    
  -0.4            -1.458e-009     -1.05378e-007   6.2251e-009    
  -0.45           7.588e-010      -2.8205e-007    -6.3721e-009   
  -0.5            -1.4474e-009    -6.5163e-007    5.7204e-009    
  -0.55           1.6162e-009     -1.3429e-006    1.2591e-009    
  -0.6            -1.5745e-009    -2.4318e-006    5.7131e-009    
  -0.65           -5.738e-010     -4.0513e-006    -1.146e-009    
  -0.7            1.5015e-009     -6.3368e-006    -6.0244e-009   
  -0.75           7.899e-010      -9.187e-006     1.8078e-009    
  -0.8            1.4523e-009     -1.2747e-005    2.507e-010     
  -0.85           9.365e-010      -1.6991e-005    1.1474e-009    
  -0.9            -1.5119e-009    -2.1864e-005    5.3994e-009    
  -0.95           -7.256e-010     -2.7558e-005    -2.735e-010    
  -1              1.4541e-009     -3.3994e-005    -4.8119e-009   
  -1.05           9.393e-010      -4.104e-005     1.1344e-009    
  -1.1            -1.5114e-009    -4.8632e-005    5.4009e-009    
  -1.15           -7.256e-010     -5.7032e-005    -2.74e-010     
  -1.2            1.4557e-009     -6.6049e-005    -4.8204e-009   
  -1.25           9.401e-010      -7.552e-005     1.1269e-009    
  -1.3            -1.514e-009     -8.535e-005     5.4022e-009    
  -1.35           -7.286e-010     -9.5884e-005    -2.575e-010    
  -1.4            1.4554e-009     -0.00010688     -4.8137e-009   
  -1.45           1.4608e-009     -0.00011803     1.1916e-009    
  -1.5            9.121e-010      -0.00012959     1.2504e-009    
  -1.55           -1.5353e-009    -0.00014134     5.4936e-009    
  -1.6            -6.96e-010      -0.00015355     -4.307e-010    
  -1.65           1.4603e-009     -0.00016611     -4.9364e-009   
  -1.7            9.126e-010      -0.00017874     1.2466e-009    
  -1.75           -1.5337e-009    -0.00019142     5.4851e-009    
  -1.8            -7.005e-010     -0.00020451     -4.288e-010    
END_DB

