! VERSION = 6.00
BEGIN_HEADER
 ICCAP_INPUTS
  VG         V  B GROUND SMU4 0.001 LIN        1    0          -1.8       37   -0.05     
  VS         V  E GROUND SMU2 0.1 CON        0
  VB         V  C GROUND SMU3 0.1 LIN        3    0          1.8        3    0.9       
  VD         V  S GROUND SMU1 0.1 LIN        2    -0.1       -1.8       2    -1.7      
 ICCAP_OUTPUTS
  IG         I  B GROUND SMU4 B
  ID         I  S GROUND SMU1 B
  IB         I  C GROUND SMU3 B
END_HEADER

BEGIN_DB
 ICCAP_VAR VS         0              
 ICCAP_VAR VB         0              
 ICCAP_VAR VD         -0.1           

 #VG              IG              ID              IB             
  0               5.074e-010      -9.72e-009      -1.2201e-008   
  -0.05           2.7913e-009     -2.6337e-007    -1.1317e-008   
  -0.1            2.0511e-009     -6.3241e-007    1.0864e-008    
  -0.15           2.8444e-009     -6.299e-007     1.0214e-008    
  -0.2            -1.2815e-009    -9.976e-007     9.607e-009     
  -0.25           -2.3568e-009    -2.2576e-006    9.785e-009     
  -0.3            -7.774e-010     -1.8513e-006    -1.0988e-008   
  -0.35           1.5902e-009     -5.1623e-006    -1.6604e-008   
  -0.4            1.2494e-009     -4.8228e-006    -9.042e-009    
  -0.45           2.8436e-009     -7.8279e-006    -9.639e-009    
  -0.5            -1.0684e-009    -1.1107e-005    1.2279e-008    
  -0.55           -1.3196e-009    -1.4182e-005    2.8021e-008    
  -0.6            -2.6171e-009    -1.6955e-005    9.241e-009     
  -0.65           -2.1342e-009    -2.0913e-005    4.61e-010      
  -0.7            1.2379e-009     -2.6634e-005    -2.6568e-008   
  -0.75           2.8322e-009     -3.1773e-005    -9.858e-009    
  -0.8            -1.6926e-009    -3.7679e-005    2.187e-008     
  -0.85           -1.3755e-009    -4.4519e-005    5.965e-009     
  -0.9            -1.2992e-009    -5.1129e-005    9.212e-009     
  -0.95           -2.4859e-009    -5.7917e-005    8.737e-009     
  -1              -1.8862e-009    -6.7894e-005    1.389e-009     
  -1.05           -2.6557e-009    -7.6771e-005    -6.096e-009    
  -1.1            -8.738e-010     -8.4019e-005    -1.1081e-008   
  -1.15           1.4438e-009     -8.9522e-005    -1.4195e-008   
  -1.2            2.8089e-009     -9.8424e-005    -8.73e-009     
  -1.25           2.0338e-009     -0.000108665    1.1176e-008    
  -1.3            1.1649e-009     -0.00011624     1.0393e-008    
  -1.35           2.4609e-009     -0.0001214      -1.5873e-008   
  -1.4            1.7364e-009     -0.0001293      -4.019e-009    
  -1.45           1.2941e-009     -0.00013519     -9.143e-009    
  -1.5            2.8478e-009     -0.00014096     -9.14e-009     
  -1.55           2.6414e-009     -0.00014805     -2.6e-010      
  -1.6            6.282e-010      -0.00015385     1.0446e-008    
  -1.65           1.0084e-009     -0.00015881     1.0228e-008    
  -1.7            -1.431e-010     -0.00016324     1.1346e-008    
  -1.75           -1.3807e-009    -0.00016742     2.5329e-008    
  -1.8            -1.2997e-009    -0.00017234     9.246e-009     
END_DB

BEGIN_DB
 ICCAP_VAR VS         0              
 ICCAP_VAR VB         0              
 ICCAP_VAR VD         -1.8           

 #VG              IG              ID              IB             
  0               -9.483e-010     -4.211e-007     9.924e-009     
  -0.05           -1.3349e-009    -1.0789e-006    7.763e-009     
  -0.1            -2.6602e-009    -2.9e-006       9.567e-009     
  -0.15           1.8803e-009     -6.8861e-006    -2.1191e-008   
  -0.2            1.3452e-009     -4.8249e-006    -9.008e-009    
  -0.25           1.328e-009      -6.354e-006     -2.193e-009    
  -0.3            2.8503e-009     -1.4042e-005    -9.164e-009    
  -0.35           2.6743e-009     -1.5378e-005    3.7e-011       
  -0.4            5.81e-010       -2.5732e-005    1.0267e-008    
  -0.45           9.667e-010      -3.3167e-005    1.0285e-008    
  -0.5            -1.866e-010     -5.4933e-005    1.206e-008     
  -0.55           -1.3965e-009    -6.7589e-005    2.467e-008     
  -0.6            -1.3011e-009    -7.6986e-005    9.051e-009     
  -0.65           -2.5249e-009    -9.907e-005     8.896e-009     
  -0.7            4.638e-010      -0.00012315     -1.0607e-008   
  -0.75           1.442e-010      -0.00015162     -1.1938e-008   
  -0.8            -2.734e-010     -0.00017387     -1.0481e-008   
  -0.85           -7.569e-010     -0.00019755     -1.0811e-008   
  -0.9            1.6318e-009     -0.00024162     -1.71e-008     
  -0.95           1.2601e-009     -0.00026443     -9.03e-009     
  -1              2.8443e-009     -0.00030729     -9.525e-009    
  -1.05           1.1988e-009     -0.00034506     9.644e-009     
  -1.1            6.58e-011       -0.00040364     1.0341e-008    
  -1.15           5.112e-010      -0.00044504     1.0051e-008    
  -1.2            9.114e-010      -0.00048952     1.0153e-008    
  -1.25           1.2877e-009     -0.00054562     1.0353e-008    
  -1.3            1.7146e-009     -0.00060213     1.1978e-008    
  -1.35           6.071e-010      -0.00066477     1.0291e-008    
  -1.4            9.858e-010      -0.00071884     1.0094e-008    
  -1.45           1.383e-010      -0.00077941     -1.3052e-008   
  -1.5            -2.0793e-009    -0.00084044     1.1877e-008    
  -1.55           2.4834e-009     -0.00091714     1.911e-008     
  -1.6            2.5075e-009     -0.0009733      8.887e-009     
  -1.65           -1.3084e-009    -0.0010318      9.072e-009     
  -1.7            -2.5551e-009    -0.0011018      8.85e-009      
  -1.75           -2.0231e-009    -0.0011715      7.84e-010      
  -1.8            1.2211e-009     -0.0012457      -2.665e-008    
END_DB

BEGIN_DB
 ICCAP_VAR VS         0              
 ICCAP_VAR VB         0.9            
 ICCAP_VAR VD         -0.1           

 #VG              IG              ID              IB             
  0               1.4987e-009     1.8264e-009     -1.0824e-008   
  -0.05           -1.2888e-009    -1.3121e-009    9.781e-009     
  -0.1            1.3099e-009     -1.6188e-008    -2.2417e-008   
  -0.15           2.85e-009       -2.0859e-008    -9.195e-009    
  -0.2            6.302e-010      -1.2952e-007    9.652e-009     
  -0.25           -2.0535e-009    -2.6867e-008    1.0959e-008    
  -0.3            1.4055e-009     -1.5775e-007    -8.143e-009    
  -0.35           -2.5782e-009    -1.721e-007     -5.821e-009    
  -0.4            2.4244e-009     -4.623e-007     -1.4141e-008   
  -0.45           1.4166e-009     -1.4406e-006    1.0019e-008    
  -0.5            2.971e-010      -3.7879e-006    9.986e-009     
  -0.55           7.275e-010      -4.6668e-006    1.0493e-008    
  -0.6            1.0866e-009     -7.0679e-006    9.815e-009     
  -0.65           -7.71e-011      -1.0523e-005    1.1152e-008    
  -0.7            3.584e-010      -1.6029e-005    9.704e-009     
  -0.75           7.888e-010      -2.033e-005     1.013e-008     
  -0.8            1.1451e-009     -2.6167e-005    9.66e-009      
  -0.85           7.7e-012        -3.2948e-005    1.0611e-008    
  -0.9            4.439e-010      -4.0549e-005    9.747e-009     
  -0.95           8.588e-010      -4.7978e-005    1.0144e-008    
  -1              1.2205e-009     -5.6004e-005    1.0008e-008    
  -1.05           8.79e-011       -6.3239e-005    1.023e-008     
  -1.1            5.39e-010       -7.2751e-005    1.0014e-008    
  -1.15           9.299e-010      -8.0839e-005    1.0129e-008    
  -1.2            1.3049e-009     -8.9111e-005    1.0486e-008    
  -1.25           1.7307e-009     -9.7229e-005    1.1996e-008    
  -1.3            6.177e-010      -0.000104586    1.0284e-008    
  -1.35           9.95e-010       -0.000111648    1.0081e-008    
  -1.4            9.822e-010      -0.00011896     2.6071e-008    
  -1.45           -1.735e-010     -0.00012464     1.2164e-008    
  -1.5            2.391e-010      -0.0001318      9.913e-009     
  -1.55           6.845e-010      -0.0001378      1.0318e-008    
  -1.6            1.0445e-009     -0.00014323     9.89e-009      
  -1.65           1.448e-009      -0.00014866     1.1339e-008    
  -1.7            3.28e-010       -0.00015404     9.828e-009     
  -1.75           7.62e-010       -0.00015879     1.0613e-008    
  -1.8            1.1183e-009     -0.00016321     9.866e-009     
END_DB

BEGIN_DB
 ICCAP_VAR VS         0              
 ICCAP_VAR VB         0.9            
 ICCAP_VAR VD         -1.8           

 #VG              IG              ID              IB             
  0               1.301e-010      -5.1931e-008    9.665e-009     
  -0.05           -1.3905e-009    -2.58e-008      9.791e-009     
  -0.1            -1.299e-009     -1.4854e-007    9.129e-009     
  -0.15           -2.5064e-009    -6.1229e-007    8.677e-009     
  -0.2            1.4791e-009     -2.068e-007     -1.0359e-008   
  -0.25           -2.6463e-009    -1.7829e-006    9.414e-009     
  -0.3            -3.858e-010     -2.6386e-006    -1.0325e-008   
  -0.35           2.1546e-009     -7.6612e-006    -2.4317e-008   
  -0.4            9.714e-010      -1.1489e-005    -1.6024e-008   
  -0.45           1.2396e-009     -1.7183e-005    -2.6451e-008   
  -0.5            2.8225e-009     -2.1153e-005    -9.906e-009    
  -0.55           3.399e-010      -2.8973e-005    9.795e-009     
  -0.6            7.733e-010      -3.5854e-005    1.031e-008     
  -0.65           1.1299e-009     -4.8828e-005    9.712e-009     
  -0.7            -1.73e-011      -7.6489e-005    1.0682e-008    
  -0.75           -1.3493e-009    -9.5954e-005    2.6762e-008    
  -0.8            -1.4869e-009    -0.000105       5.74e-010      
  -0.85           -1.3316e-009    -0.0001341      8.282e-009     
  -0.9            -2.6401e-009    -0.00016872     9.533e-009     
  -0.95           -4.078e-010     -0.000206       -1.034e-008    
  -1              2.1351e-009     -0.00024702     -2.429e-008    
  -1.05           1.4828e-009     -0.00027117     -6.914e-009    
  -1.1            2.794e-009      -0.00031758     -8.639e-009    
  -1.15           1.9941e-009     -0.00036515     1.1442e-008    
  -1.2            8.65e-010       -0.00041508     1.0344e-008    
  -1.25           1.2271e-009     -0.0004649      9.958e-009     
  -1.3            9.4e-011        -0.00053163     1.03e-008      
  -1.35           5.406e-010      -0.00058238     1.0061e-008    
  -1.4            9.317e-010      -0.00063489     1.0454e-008    
  -1.45           1.3062e-009     -0.00069782     9.822e-009     
  -1.5            1.728e-009      -0.00076186     1.1735e-008    
  -1.55           2.997e-010      -0.0008239      -9.114e-009    
  -1.6            2.813e-010      -0.000891       1.1327e-008    
  -1.65           1.2913e-009     -0.0009577      1.1237e-008    
  -1.7            2.8468e-009     -0.0010127      -9.301e-009    
  -1.75           2.6065e-009     -0.0010842      -1.15e-010     
  -1.8            6.431e-010      -0.0011598      1.0402e-008    
END_DB

BEGIN_DB
 ICCAP_VAR VS         0              
 ICCAP_VAR VB         1.8            
 ICCAP_VAR VD         -0.1           

 #VG              IG              ID              IB             
  0               -7.048e-010     -7.547e-010     -2.5287e-008   
  -0.05           -1.2273e-009    -2.0589e-009    9.535e-009     
  -0.1            1.33e-009       -1.6835e-009    -2.6547e-008   
  -0.15           2.769e-009      -1.7286e-009    -9.207e-009    
  -0.2            -9.82e-011      -5.089e-010     1.1944e-008    
  -0.25           1.8671e-009     -3.7624e-008    -2.611e-008    
  -0.3            -1.683e-009     -1.14982e-007   1.6456e-008    
  -0.35           -2.34e-009      -3.3541e-008    -4.838e-009    
  -0.4            2.7851e-009     -2.3791e-007    -8.969e-009    
  -0.45           -1.2794e-009    -3.445e-007     8.871e-009     
  -0.5            1.9062e-009     -2.2463e-006    -1.8449e-008   
  -0.55           1.3591e-009     -1.6016e-006    -8.73e-009     
  -0.6            2.8399e-009     -3.8424e-006    -9.017e-009    
  -0.65           2.7213e-009     -4.4847e-006    2.4e-011       
  -0.7            -9.831e-010     -1.0883e-005    1.6074e-008    
  -0.75           -2.5913e-009    -1.3569e-005    9.315e-009     
  -0.8            -2.0943e-009    -1.7102e-005    6.95e-010      
  -0.85           -9.102e-010     -2.393e-005     -1.0835e-008   
  -0.9            1.4184e-009     -3.0416e-005    -1.3672e-008   
  -0.95           2.8243e-009     -3.7085e-005    -8.753e-009    
  -1              2.0705e-009     -4.7175e-005    1.2074e-008    
  -1.05           9.364e-010      -5.504e-005     1.038e-008     
  -1.1            -2.187e-010     -6.055e-005     1.2784e-008    
  -1.15           -1.4261e-009    -6.7998e-005    2.4055e-008    
  -1.2            -1.3135e-009    -7.7855e-005    9.016e-009     
  -1.25           -2.5608e-009    -8.4554e-005    9.016e-009     
  -1.3            -2.0248e-009    -9.563e-005     7.13e-010      
  -1.35           -9.553e-010     -0.000102853    -1.0841e-008   
  -1.4            2.192e-010      -0.000108203    -1.3163e-008   
  -1.45           -1.821e-009     -0.00011792     -1.3616e-008   
  -1.5            -8.186e-010     -0.00012377     -1.0993e-008   
  -1.55           1.5441e-009     -0.00012853     -1.5687e-008   
  -1.6            1.2359e-009     -0.00013467     -8.906e-009    
  -1.65           2.8225e-009     -0.00013981     -1.0074e-008   
  -1.7            3.367e-010      -0.00014645     9.886e-009     
  -1.75           7.708e-010      -0.00015128     1.0222e-008    
  -1.8            1.127e-009      -0.00015575     9.661e-009     
END_DB

BEGIN_DB
 ICCAP_VAR VS         0              
 ICCAP_VAR VB         1.8            
 ICCAP_VAR VD         -1.8           

 #VG              IG              ID              IB             
  0               -1.2535e-009    -1.3615e-009    -2.603e-008    
  -0.05           9.73e-011       -3.6301e-009    -1.0825e-008   
  -0.1            1.3268e-009     -2.596e-009     1.1014e-008    
  -0.15           2.8493e-009     -3.2976e-008    -9.238e-009    
  -0.2            2.8217e-009     -1.5413e-007    -1.0714e-008   
  -0.25           -2.4043e-009    -3.5641e-008    9.928e-009     
  -0.3            -2.262e-010     -2.2224e-007    2.2754e-008    
  -0.35           -1.6447e-009    -5.6e-007       9.973e-009     
  -0.4            -5.579e-010     -1.8476e-006    -1.0431e-008   
  -0.45           1.912e-009      -7.6269e-006    -2.1349e-008   
  -0.5            1.1163e-009     -7.448e-006     -9.002e-009    
  -0.55           1.9573e-009     -1.7685e-005    -1.8323e-008   
  -0.6            1.3893e-009     -1.6266e-005    -8.311e-009    
  -0.65           2.8315e-009     -2.8369e-005    -8.933e-009    
  -0.7            2.7298e-009     -3.5251e-005    1.59e-010      
  -0.75           1.4143e-009     -5.3429e-005    1.1172e-008    
  -0.8            3.041e-010      -7.9735e-005    1.0009e-008    
  -0.85           1.0237e-009     -0.0001046      -1.2845e-008   
  -0.9            1.3759e-009     -0.00013636     -2.4189e-008   
  -0.95           2.8407e-009     -0.00015525     -8.872e-009    
  -1              2.7147e-009     -0.0001826      -9.2e-011      
  -1.05           5.412e-010      -0.00022829     1.0104e-008    
  -1.1            9.322e-010      -0.00026486     1.0061e-008    
  -1.15           -2.256e-010     -0.00032231     1.2846e-008    
  -1.2            1.81e-010       -0.00036818     1.0198e-008    
  -1.25           6.327e-010      -0.00041113     1.0341e-008    
  -1.3            1.004e-009      -0.00045969     9.932e-009     
  -1.35           -1.476e-010     -0.00052751     1.1666e-008    
  -1.4            2.754e-010      -0.00058229     1.0035e-008    
  -1.45           7.129e-010      -0.00063448     1.0363e-008    
  -1.5            1.0788e-009     -0.00069331     9.8e-009       
  -1.55           1.4864e-009     -0.00075689     1.1643e-008    
  -1.6            4.582e-010      -0.0008234      -6.06e-009     
  -1.65           -1.9726e-009    -0.00088298     1.0117e-008    
  -1.7            -4.479e-010     -0.0009524      -1.1588e-008   
  -1.75           1.1421e-009     -0.0010151      9.723e-009     
  -1.8            -3e-012         -0.0010922      1.0508e-008    
END_DB

