! VERSION = 6.00
BEGIN_HEADER
 ICCAP_INPUTS
  VG         V  B GROUND SMU4 0.001 LIN        1    0          -1.8       37   -0.05     
  VS         V  E GROUND SMU2 0.1 CON        0
  VB         V  C GROUND SMU3 0.1 LIN        3    0          1.8        3    0.9       
  VD         V  S GROUND SMU1 0.1 LIN        2    -0.1       -1.8       2    -1.7      
 ICCAP_OUTPUTS
  IG         I  B GROUND SMU4 B
  ID         I  S GROUND SMU1 B
  IB         I  C GROUND SMU3 B
END_HEADER

BEGIN_DB
 ICCAP_VAR VS         0              
 ICCAP_VAR VB         0              
 ICCAP_VAR VD         -0.1           

 #VG              IG              ID              IB             
  0               -1.106e-009     -1.5687e-009    -1.9064e-008   
  -0.05           1.349e-009      -8.2245e-009    -2.6676e-008   
  -0.1            -1.3698e-009    -2.4925e-008    9.226e-009     
  -0.15           -1.2811e-009    -2.4112e-008    9.209e-009     
  -0.2            -1.3824e-009    -2.3427e-008    -1.1519e-008   
  -0.25           -2.5292e-009    -3.4247e-008    -8.336e-009    
  -0.3            2.8356e-009     -1.9644e-007    -9.075e-009    
  -0.35           2.6431e-009     -1.1767e-007    -2.4e-011      
  -0.4            5.867e-010      -3.3311e-007    1.0173e-008    
  -0.45           9.692e-010      -5.1569e-007    1.0362e-008    
  -0.5            -1.3843e-009    -7.27e-007      8.806e-009     
  -0.55           2.7349e-009     -1.49e-006      -1.1864e-008   
  -0.6            1.4e-009        -1.6784e-006    1.0143e-008    
  -0.65           2.849e-010      -2.4661e-006    9.896e-009     
  -0.7            7.204e-010      -2.9742e-006    1.0498e-008    
  -0.75           1.0818e-009     -3.7178e-006    1.0106e-008    
  -0.8            1.4802e-009     -4.6052e-006    1.054e-008     
  -0.85           -1.6589e-009    -5.7779e-006    1.7676e-008    
  -0.9            -1.3652e-009    -6.5467e-006    6.08e-009      
  -0.95           -1.2833e-009    -7.6989e-006    9.263e-009     
  -1              -2.4499e-009    -8.8895e-006    8.863e-009     
  -1.05           -1.852e-009     -1.00819e-005   1.447e-009     
  -1.1            -1.428e-010     -1.1313e-005    2.2424e-008    
  -1.15           2.776e-010      -1.2764e-005    9.889e-009     
  -1.2            7.144e-010      -1.3979e-005    1.0477e-008    
  -1.25           1.0732e-009     -1.5173e-005    1.0101e-008    
  -1.3            1.4744e-009     -1.6401e-005    1.0449e-008    
  -1.35           3.608e-010      -1.757e-005     9.807e-009     
  -1.4            7.892e-010      -1.8676e-005    1.0669e-008    
  -1.45           1.1445e-009     -1.974e-005     9.766e-009     
  -1.5            1.44e-011       -2.0706e-005    1.05e-008      
  -1.55           4.513e-010      -2.18e-005      9.829e-009     
  -1.6            8.616e-010      -2.2731e-005    1.0241e-008    
  -1.65           1.2229e-009     -2.3659e-005    9.981e-009     
  -1.7            8.88e-011       -2.451e-005     1.0204e-008    
  -1.75           5.336e-010      -2.5416e-005    1.0032e-008    
  -1.8            9.249e-010      -2.6198e-005    1.0155e-008    
END_DB

BEGIN_DB
 ICCAP_VAR VS         0              
 ICCAP_VAR VB         0              
 ICCAP_VAR VD         -1.8           

 #VG              IG              ID              IB             
  0               -1.2306e-009    -1.5211e-009    -2.6282e-008   
  -0.05           2.2094e-009     -1.00194e-008   -1.9113e-008   
  -0.1            -2.3006e-009    -2.8097e-008    -1.0832e-008   
  -0.15           2.0168e-009     -6.8895e-008    -1.2847e-008   
  -0.2            1.2987e-009     -3.267e-008     -1.0295e-008   
  -0.25           2.8245e-009     -1.4231e-007    -9.066e-009    
  -0.3            2.66e-009       -6.383e-008     -5.5e-011      
  -0.35           5.833e-010      -2.6187e-007    1.0256e-008    
  -0.4            2.7669e-009     -8.1464e-007    8.866e-009     
  -0.45           2.4264e-009     -1.619e-006     1.0936e-008    
  -0.5            1.704e-009      -1.1898e-006    -4.244e-009    
  -0.55           1.2765e-009     -2.1501e-006    -9.088e-009    
  -0.6            2.8301e-009     -3.6131e-006    -9.084e-009    
  -0.65           2.6159e-009     -4.0978e-006    -9.2e-011      
  -0.7            6.312e-010      -6.3093e-006    1.0388e-008    
  -0.75           1.0031e-009     -8.194e-006     1.0054e-008    
  -0.8            -2.74e-010      -1.1265e-005    1.0071e-008    
  -0.85           -1.4311e-009    -1.5924e-005    2.2596e-008    
  -0.9            -1.3041e-009    -1.7848e-005    8.673e-009     
  -0.95           -2.5926e-009    -2.298e-005     8.977e-009     
  -1              -2.1177e-009    -2.6089e-005    6.16e-010      
  -1.05           -8.994e-010     -3.2258e-005    -1.1009e-008   
  -1.1            1.4029e-009     -4.055e-005     -1.374e-008    
  -1.15           2.7988e-009     -4.5088e-005    -8.761e-009    
  -1.2            2.0368e-009     -5.201e-005     1.1922e-008    
  -1.25           9.201e-010      -5.9819e-005    1.0174e-008    
  -1.3            -1.3806e-009    -7.0143e-005    1.2603e-008    
  -1.35           -1.2897e-009    -7.7055e-005    9.004e-009     
  -1.4            -2.5064e-009    -8.6735e-005    8.761e-009     
  -1.45           -1.946e-009     -9.5198e-005    1.112e-009     
  -1.5            -2.6193e-009    -0.00010575     -6.355e-009    
  -1.55           -2.702e-010     -0.00011772     1.0011e-008    
  -1.6            -1.4329e-009    -0.00012874     2.2752e-008    
  -1.65           -1.3036e-009    -0.00013818     8.467e-009     
  -1.7            -2.5912e-009    -0.00014986     9.125e-009     
  -1.75           -2.112e-009     -0.00016094     7.66e-010      
  -1.8            1.2213e-009     -0.00017512     -2.6622e-008   
END_DB

BEGIN_DB
 ICCAP_VAR VS         0              
 ICCAP_VAR VB         0.9            
 ICCAP_VAR VD         -0.1           

 #VG              IG              ID              IB             
  0               2.8233e-009     -7.068e-010     -2.5579e-008   
  -0.05           -1.083e-010     1.9202e-009     1.0015e-008    
  -0.1            -1.4724e-009    9.225e-010      2.5715e-008    
  -0.15           -1.7787e-009    -1.3462e-009    8.056e-009     
  -0.2            -4.942e-010     -2.1677e-009    -1.0795e-008   
  -0.25           2.3955e-009     -1.3632e-009    -1.7914e-008   
  -0.3            2.0824e-009     -8.163e-010     -4.676e-009    
  -0.35           -1.6953e-009    -1.3733e-008    8.123e-009     
  -0.4            -1.3686e-009    -7.139e-009     5.839e-009     
  -0.45           -1.4042e-009    -1.8169e-008    -1.1643e-008   
  -0.5            -2.4954e-009    -3.6335e-008    -8.014e-009    
  -0.55           2.8215e-009     -2.3776e-007    -8.929e-009    
  -0.6            2.687e-009      -1.6765e-007    1.6e-011       
  -0.65           5.584e-010      -5.3493e-007    1.0199e-008    
  -0.7            -1.2662e-009    -9.044e-007     8.762e-009     
  -0.75           1.8027e-009     -1.9095e-006    -1.8978e-008   
  -0.8            1.3e-009        -2.0698e-006    -9.044e-009    
  -0.85           2.8219e-009     -3.0308e-006    -9.037e-009    
  -0.9            2.6625e-009     -3.8333e-006    -8e-011        
  -0.95           5.872e-010      -5.0806e-006    1.0208e-008    
  -1              9.705e-010      -6.1851e-006    1.018e-008     
  -1.05           -1.781e-010     -7.4729e-006    1.1754e-008    
  -1.1            -1.3832e-009    -8.5816e-006    2.4314e-008    
  -1.15           -1.2902e-009    -9.85e-006      8.912e-009     
  -1.2            -2.5126e-009    -1.10318e-005   8.663e-009     
  -1.25           1.2707e-009     -1.2554e-005    -2.6027e-008   
  -1.3            1.373e-010      -1.3742e-005    9.921e-009     
  -1.35           5.933e-010      -1.5018e-005    1.0325e-008    
  -1.4            9.747e-010      -1.6134e-005    1.0346e-008    
  -1.45           -1.733e-010     -1.7074e-005    1.179e-008     
  -1.5            -1.3827e-009    -1.8035e-005    2.4482e-008    
  -1.55           -1.2902e-009    -1.9166e-005    9.132e-009     
  -1.6            -2.5046e-009    -2.0073e-005    8.57e-009      
  -1.65           -1.9443e-009    -2.1216e-005    1.156e-009     
  -1.7            2.4351e-009     -2.1964e-005    -2.6881e-008   
  -1.75           1.7034e-009     -2.2971e-005    -4.254e-009    
  -1.8            1.2692e-009     -2.3766e-005    -8.954e-009    
END_DB

BEGIN_DB
 ICCAP_VAR VS         0              
 ICCAP_VAR VB         0.9            
 ICCAP_VAR VD         -1.8           

 #VG              IG              ID              IB             
  0               -8.099e-010     -8.151e-010     -2.662e-008    
  -0.05           -1.0599e-009    -2.1392e-009    8.983e-009     
  -0.1            1.4626e-009     -1.6893e-009    -1.1732e-008   
  -0.15           8.998e-010      2.2937e-009     -8.543e-009    
  -0.2            1.0504e-009     2.2313e-009     9.805e-009     
  -0.25           -1.6265e-009    1.0966e-009     1.0409e-008    
  -0.3            -1.4537e-009    -2.852e-009     6.547e-009     
  -0.35           1.7508e-009     -1.8076e-008    -1.7734e-008   
  -0.4            1.276e-009      -8.366e-009     -9.039e-009    
  -0.45           1.9306e-009     -9.39e-009      -1.213e-008    
  -0.5            1.3578e-009     -7.067e-008     -8.441e-009    
  -0.55           2.8118e-009     -3.07e-007      -8.73e-009     
  -0.6            1.0201e-009     -3.2684e-007    1.0256e-008    
  -0.65           -1.3572e-009    -5.392e-007     8.77e-009      
  -0.7            1.9649e-009     -2.6541e-006    -2.254e-008    
  -0.75           1.3667e-009     -2.2996e-006    -8.409e-009    
  -0.8            2.8124e-009     -4.196e-006     -8.883e-009    
  -0.85           1.0152e-009     -5.475e-006     1.0331e-008    
  -0.9            1.4142e-009     -8.0571e-006    1.0031e-008    
  -0.95           2.005e-010      -1.1558e-005    -1.074e-008    
  -1              1.3914e-009     -1.7144e-005    -2.2687e-008   
  -1.05           2.8098e-009     -1.964e-005     -8.686e-009    
  -1.1            2.0639e-009     -2.405e-005     1.2052e-008    
  -1.15           9.452e-010      -2.9835e-005    1.0509e-008    
  -1.2            -2.047e-010     -3.8598e-005    1.231e-008     
  -1.25           -1.395e-009     -4.4851e-005    2.3922e-008    
  -1.3            -1.2967e-009    -5.0802e-005    9.003e-009     
  -1.35           -2.5199e-009    -5.922e-005     8.516e-009     
  -1.4            -1.9762e-009    -6.6418e-005    7.59e-010      
  -1.45           -2.6263e-009    -7.5788e-005    -6.422e-009    
  -1.5            1.887e-010      -8.7763e-005    -1.2561e-008   
  -1.55           1.3745e-009     -9.68e-005      -2.2856e-008   
  -1.6            2.809e-009      -0.000105685    -8.645e-009    
  -1.65           4.597e-010      -0.00011819     -2.6029e-008   
  -1.7            1.39e-010       -0.00012913     -1.188e-008    
  -1.75           1.3328e-009     -0.00013968     -2.3775e-008   
  -1.8            2.8218e-009     -0.00014931     -8.88e-009     
END_DB

BEGIN_DB
 ICCAP_VAR VS         0              
 ICCAP_VAR VB         1.8            
 ICCAP_VAR VD         -0.1           

 #VG              IG              ID              IB             
  0               -2.01e-011      2.202e-010      9.616e-009     
  -0.05           2.2602e-009     -6.636e-010     -1.891e-008    
  -0.1            1.3221e-009     2.0302e-009     -5.954e-009    
  -0.15           -1.392e-009     1.8298e-009     1.1916e-008    
  -0.2            -1.0429e-009    -2.1437e-009    8.933e-009     
  -0.25           1.4686e-009     -1.6783e-009    -1.1694e-008   
  -0.3            8.886e-010      2.2966e-009     -8.731e-009    
  -0.35           1.0387e-009     2.2373e-009     9.721e-009     
  -0.4            -1.6359e-009    1.1886e-009     1.0213e-008    
  -0.45           -1.4573e-009    -2.7661e-009    6.467e-009     
  -0.5            1.4123e-009     -1.999e-008     -9.19e-009     
  -0.55           2.7995e-009     -1.76e-008      -8.467e-009    
  -0.6            -2.1063e-009    -2.7219e-008    9.124e-009     
  -0.65           1.6466e-009     -3.2319e-007    -2.6516e-008   
  -0.7            1.2457e-009     -2.615e-007     -9.002e-009    
  -0.75           2.8248e-009     -7.8364e-007    -9.155e-009    
  -0.8            -1.2346e-009    -9.588e-007     9.372e-009     
  -0.85           -1.739e-010     -1.7555e-006    -1.0425e-008   
  -0.9            -6.622e-010     -2.1647e-006    -1.09e-008     
  -0.95           1.7206e-009     -3.4563e-006    -1.9108e-008   
  -1              1.2677e-009     -4.0664e-006    -8.951e-009    
  -1.05           2.8246e-009     -5.2839e-006    -8.96e-009     
  -1.1            2.5874e-009     -6.5599e-006    -2.96e-010     
  -1.15           2.4674e-009     -7.894e-006     9.095e-009     
  -1.2            1.4975e-009     -9.2176e-006    1.1541e-008    
  -1.25           1.9256e-009     -1.05267e-005   1.1778e-008    
  -1.3            -2.3291e-009    -1.1722e-005    1.1036e-008    
  -1.35           -7.745e-010     -1.2937e-005    -1.0902e-008   
  -1.4            1.5616e-009     -1.3893e-005    -1.656e-008    
  -1.45           1.2263e-009     -1.5151e-005    -8.762e-009    
  -1.5            2.8088e-009     -1.6165e-005    -9.503e-009    
  -1.55           3.141e-010      -1.7409e-005    9.67e-009      
  -1.6            7.543e-010      -1.8412e-005    1.0537e-008    
  -1.65           1.1187e-009     -1.9357e-005    9.865e-009     
  -1.7            -1.73e-011      -2.0191e-005    1.0386e-008    
  -1.75           4.318e-010      -2.1176e-005    9.793e-009     
  -1.8            8.418e-010      -2.1998e-005    1.0479e-008    
END_DB

BEGIN_DB
 ICCAP_VAR VS         0              
 ICCAP_VAR VB         1.8            
 ICCAP_VAR VD         -1.8           

 #VG              IG              ID              IB             
  0               4.215e-010      5.573e-010      -1.0349e-008   
  -0.05           2.8147e-009     -1.064e-010     -1.3355e-008   
  -0.1            7.19e-011       2.0071e-009     9.874e-009     
  -0.15           2.546e-010      2.1112e-009     1.0017e-008    
  -0.2            4.372e-010      2.2003e-009     1.0439e-008    
  -0.25           6.336e-010      2.273e-009      1.0239e-008    
  -0.3            8.033e-010      2.2967e-009     1.0066e-008    
  -0.35           9.523e-010      2.2738e-009     9.736e-009     
  -0.4            -1.4962e-009    1.2944e-009     1.2041e-008    
  -0.45           -1.3852e-009    -3.5251e-009    8.074e-009     
  -0.5            1.3082e-009     -2.5701e-008    -2.1236e-008   
  -0.55           2.8289e-009     -3.2645e-008    -8.887e-009    
  -0.6            2.1071e-009     -1.085e-008     -1.3119e-008   
  -0.65           1.4512e-009     -9.045e-008     -7.14e-009     
  -0.7            2.7834e-009     -4.1653e-007    -8.612e-009    
  -0.75           -2.4693e-009    -3.189e-007     -5.905e-009    
  -0.8            -5.859e-010     -1.2884e-006    -1.052e-008    
  -0.85           1.8363e-009     -3.8818e-006    -2.1093e-008   
  -0.9            1.3077e-009     -3.5891e-006    -9.088e-009    
  -0.95           2.8252e-009     -6.3203e-006    -9.025e-009    
  -1              2.6641e-009     -7.6656e-006    7.9e-011       
  -1.05           -1.2562e-009    -1.1639e-005    2.5754e-008    
  -1.1            -7.84e-011      -1.7465e-005    -1.0664e-008   
  -1.15           -5.621e-010     -2.0843e-005    -1.0403e-008   
  -1.2            1.8721e-009     -2.7896e-005    -1.877e-008    
  -1.25           1.3196e-009     -3.165e-005     -9.012e-009    
  -1.3            2.8255e-009     -3.896e-005     -8.973e-009    
  -1.35           2.6861e-009     -4.5195e-005    1.69e-010      
  -1.4            1.4667e-009     -5.3525e-005    1.1615e-008    
  -1.45           3.537e-010      -6.2566e-005    9.622e-009     
  -1.5            7.881e-010      -7.0537e-005    1.037e-008     
  -1.55           1.1515e-009     -7.9696e-005    9.82e-009      
  -1.6            1.15e-011       -9.0664e-005    1.0165e-008    
  -1.65           4.563e-010      -9.9875e-005    9.808e-009     
  -1.7            8.705e-010      -0.000109543    1.0332e-008    
  -1.75           8.593e-010      -0.00012018     2.4295e-008    
  -1.8            1.2273e-009     -0.0001314      9.805e-009     
END_DB

