! VERSION = 6.00
BEGIN_HEADER
 ICCAP_INPUTS
  VG         V  B GROUND SMU4 0.001 LIN        1    0          -1.8       37   -0.05     
  VS         V  E GROUND SMU3 0.1 CON        0
  VB         V  C GROUND SMU1 0.1 LIN        3    0          1.8        3    0.9       
  VD         V  S GROUND SMU2 0.1 LIN        2    -0.1       -1.8       2    -1.7      
 ICCAP_OUTPUTS
  IG         I  B GROUND SMU4 B
  ID         I  S GROUND SMU2 B
  IB         I  C GROUND SMU1 B
END_HEADER

BEGIN_DB
 ICCAP_VAR VS         0              
 ICCAP_VAR VB         0              
 ICCAP_VAR VD         -0.1           

 #VG              IG              ID              IB             
  0               1.4193e-009     -5.634e-010     1.656e-010     
  -0.05           -1.5351e-009    -2.1586e-009    5.2939e-009    
  -0.1            1.4747e-009     -4.3687e-009    -4.7956e-009   
  -0.15           -1.3941e-009    -1.1823e-008    -4.239e-009    
  -0.2            1.5249e-009     -3.3977e-008    -8.109e-009    
  -0.25           6.779e-010      -9.243e-008     2.3347e-009    
  -0.3            1.4406e-009     -2.4108e-007    4.7339e-009    
  -0.35           8.069e-010      -5.1485e-007    1.6362e-009    
  -0.4            -1.5308e-009    -9.745e-007     5.4582e-009    
  -0.45           1.4084e-009     -1.6752e-006    -1.1457e-009   
  -0.5            8.835e-010      -2.5674e-006    1.2469e-009    
  -0.55           -1.5039e-009    -3.6397e-006    5.3083e-009    
  -0.6            -6.622e-010     -4.9009e-006    -5.687e-010    
  -0.65           1.4084e-009     -6.3378e-006    -4.6278e-009   
  -0.7            8.722e-010      -7.8618e-006    1.2854e-009    
  -0.75           -1.5119e-009    -9.4918e-006    5.333e-009     
  -0.8            -6.548e-010     -1.12608e-005   -6.167e-010    
  -0.85           -1.4096e-009    -1.3125e-005    1.8101e-009    
  -0.9            -8.345e-010     -1.5096e-005    2.278e-010     
  -0.95           1.5468e-009     -1.7181e-005    -3.9848e-009   
  -1              -1.5267e-009    -1.9194e-005    5.4295e-009    
  -1.05           -6.177e-010     -2.1267e-005    -8.222e-010    
  -1.1            1.4331e-009     -2.337e-005     -4.9494e-009   
  -1.15           8.256e-010      -2.5343e-005    1.5326e-009    
  -1.2            -1.5293e-009    -2.724e-005     5.4395e-009    
  -1.25           -6.08e-010      -2.9069e-005    -8.732e-010    
  -1.3            1.4374e-009     -3.09e-005      -5.0145e-009   
  -1.35           8.14e-010       -3.2501e-005    1.6016e-009    
  -1.4            -1.5287e-009    -3.4144e-005    5.4525e-009    
  -1.45           -5.965e-010     -3.5613e-005    -9.386e-010    
  -1.5            1.4434e-009     -3.705e-005     -5.118e-009    
  -1.55           8.05e-010       -3.8381e-005    1.6446e-009    
  -1.6            -1.5344e-009    -3.9607e-005    5.4762e-009    
  -1.65           -5.868e-010     -4.0768e-005    -9.861e-010    
  -1.7            1.449e-009      -4.1903e-005    -5.2254e-009   
  -1.75           7.926e-010      -4.2974e-005    1.7275e-009    
  -1.8            -1.5315e-009    -4.3879e-005    5.4849e-009    
END_DB

BEGIN_DB
 ICCAP_VAR VS         0              
 ICCAP_VAR VB         0              
 ICCAP_VAR VD         -1.8           

 #VG              IG              ID              IB             
  0               4.26e-011       -3.0217e-009    -4.732e-009    
  -0.05           1.5611e-009     -4.4529e-009    -5.59e-009     
  -0.1            1.5156e-009     -1.1871e-008    5.6472e-009    
  -0.15           6.898e-010      -3.9275e-008    2.2915e-009    
  -0.2            1.5674e-009     -1.1779e-007    5.3223e-009    
  -0.25           -1.534e-009     -2.8935e-007    5.4959e-009    
  -0.3            -5.688e-010     -6.5321e-007    -1.0703e-009   
  -0.35           -1.4034e-009    -1.3229e-006    -3.6865e-009   
  -0.4            -8.543e-010     -2.4192e-006    2.977e-010     
  -0.45           1.5334e-009     -4.0921e-006    -3.9008e-009   
  -0.5            6.668e-010      -6.3037e-006    2.4022e-009    
  -0.55           -1.4079e-009    -9.159e-006     5.5443e-009    
  -0.6            -1.4446e-009    -1.2747e-005    -5.6045e-009   
  -0.65           -7.628e-010     -1.7109e-005    -9.31e-011     
  -0.7            1.5747e-009     -2.2316e-005    -4.3053e-009   
  -0.75           -1.5302e-009    -2.8089e-005    5.5106e-009    
  -0.8            1.5642e-009     -3.492e-005     -4.4893e-009   
  -0.85           -1.4009e-009    -4.2364e-005    5.5266e-009    
  -0.9            -8.634e-010     -5.0749e-005    3.307e-010     
  -0.95           1.5257e-009     -6.017e-005     -3.8508e-009   
  -1              6.756e-010      -7.024e-005     2.3434e-009    
  -1.05           -1.4049e-009    -8.1121e-005    5.5333e-009    
  -1.1            -8.511e-010     -9.2936e-005    2.818e-010     
  -1.15           1.5365e-009     -0.000105872    -3.9275e-009   
  -1.2            1.4555e-009     -0.00011898     1.6874e-009    
  -1.25           7.738e-010      -0.00013265     1.8169e-009    
  -1.3            -1.5322e-009    -0.00014714     5.5061e-009    
  -1.35           -5.57e-010      -0.00016259     -1.1396e-009   
  -1.4            1.4695e-009     -0.00017905     -5.5442e-009   
  -1.45           7.545e-010      -0.00019517     1.9157e-009    
  -1.5            -1.5314e-009    -0.00021197     5.5132e-009    
  -1.55           1.5662e-009     -0.00022945     -4.4794e-009   
  -1.6            -1.4005e-009    -0.00024666     5.5282e-009    
  -1.65           -8.68e-010      -0.00026478     3.476e-010     
  -1.7            1.5211e-009     -0.00028448     -3.831e-009    
  -1.75           6.833e-010      -0.00030152     2.3125e-009    
  -1.8            -1.4007e-009    -0.00032052     5.5292e-009    
END_DB

BEGIN_DB
 ICCAP_VAR VS         0              
 ICCAP_VAR VB         0.9            
 ICCAP_VAR VD         -0.1           

 #VG              IG              ID              IB             
  0               -2.806e-010     -2.0962e-009    -4.503e-009    
  -0.05           9.004e-010      2.1615e-009     -4.437e-009    
  -0.1            8.334e-010      2.2203e-009     -4.467e-009    
  -0.15           1.5112e-009     -2.521e-009     -1.5036e-009   
  -0.2            -1.4032e-009    1.3333e-009     5.5036e-009    
  -0.25           -6.57e-010      -2.519e-009     -1.166e-010    
  -0.3            1.5332e-009     -2.1523e-009    -5.4339e-009   
  -0.35           -1.4145e-009    -3.4667e-009    5.5172e-009    
  -0.4            5.59e-010       -1.6518e-008    4.0382e-009    
  -0.45           -1.4503e-009    -6.8227e-008    5.6557e-009    
  -0.5            1.1519e-009     -2.1376e-007    -4.258e-010    
  -0.55           -1.5225e-009    -5.3575e-007    4.555e-009     
  -0.6            1.031e-009      -1.1437e-006    4.0518e-009    
  -0.65           1.541e-009      -2.0933e-006    -2.8265e-009   
  -0.7            -1.4096e-009    -3.3389e-006    5.5524e-009    
  -0.75           -8.241e-010     -4.892e-006     1.865e-010     
  -0.8            1.5506e-009     -6.7001e-006    -4.0781e-009   
  -0.85           -1.5275e-009    -8.6298e-006    5.4714e-009    
  -0.9            -5.985e-010     -1.07338e-005   -9.036e-010    
  -0.95           -1.4269e-009    -1.2936e-005    2.1686e-009    
  -1              -7.824e-010     -1.5199e-005    -1.5e-012      
  -1.05           1.568e-009      -1.7468e-005    -4.2643e-009   
  -1.1            -1.5341e-009    -1.9658e-005    5.5154e-009    
  -1.15           -5.563e-010     -2.1793e-005    -1.1394e-009   
  -1.2            1.4626e-009     -2.3929e-005    -5.5105e-009   
  -1.25           7.563e-010      -2.5865e-005    1.9178e-009    
  -1.3            -1.5305e-009    -2.7775e-005    5.5227e-009    
  -1.35           -5.425e-010     -2.955e-005     -1.2128e-009   
  -1.4            1.4743e-009     -3.1272e-005    -5.7169e-009   
  -1.45           7.396e-010      -3.284e-005     2.0099e-009    
  -1.5            -1.5287e-009    -3.433e-005     5.5319e-009    
  -1.55           1.5599e-009     -3.5745e-005    -4.5365e-009   
  -1.6            -1.4051e-009    -3.7054e-005    5.5456e-009    
  -1.65           -8.534e-010     -3.8297e-005    2.89e-010      
  -1.7            1.5238e-009     -3.9489e-005    -3.9225e-009   
  -1.75           6.663e-010      -4.0587e-005    2.3926e-009    
  -1.8            -1.407e-009     -4.1644e-005    5.5506e-009    
END_DB

BEGIN_DB
 ICCAP_VAR VS         0              
 ICCAP_VAR VB         0.9            
 ICCAP_VAR VD         -1.8           

 #VG              IG              ID              IB             
  0               -2.144e-010     -2.019e-009     -4.184e-009    
  -0.05           9.397e-010      2.082e-009      -4.036e-009    
  -0.1            8.794e-010      2.1623e-009     -4.236e-009    
  -0.15           8.173e-010      2.1723e-009     -4.401e-009    
  -0.2            7.954e-010      1.9459e-009     -4.417e-009    
  -0.25           -7.697e-010     -3.5939e-009    3.031e-010     
  -0.3            1.4587e-009     -6.937e-009     -4.6975e-009   
  -0.35           -1.4631e-009    -2.408e-008     -5.1114e-009   
  -0.4            -7.222e-010     -8.1333e-008    -2.931e-010    
  -0.45           1.473e-009      -2.4187e-007    5.8335e-009    
  -0.5            7.592e-010      -6.4213e-007    1.9129e-009    
  -0.55           -1.5024e-009    -1.4454e-006    -5.7747e-009   
  -0.6            1.4221e-009     -2.8872e-006    -4.722e-009    
  -0.65           8.7e-010        -5.0617e-006    1.2868e-009    
  -0.7            -1.4957e-009    -8.0666e-006    5.3071e-009    
  -0.75           -1.4669e-009    -1.2049e-005    -7.3488e-009   
  -0.8            -7.242e-010     -1.708e-005     -2.877e-010    
  -0.85           1.5481e-009     -2.3202e-005    -4.4844e-009   
  -0.9            -1.4124e-009    -3.0147e-005    5.5703e-009    
  -0.95           -8.671e-010     -3.8266e-005    3.507e-010     
  -1              1.5103e-009     -4.7597e-005    -3.7641e-009   
  -1.05           6.931e-010      -5.7567e-005    2.2745e-009    
  -1.1            -1.4169e-009    -6.8523e-005    5.5663e-009    
  -1.15           -8.539e-010     -8.0445e-005    3.19e-010      
  -1.2            1.5177e-009     -9.3449e-005    -3.8402e-009   
  -1.25           6.769e-010      -0.000106999    2.3669e-009    
  -1.3            5.809e-010      -0.00012103     5.6604e-009    
  -1.35           -1.4511e-009    -0.00013582     5.6781e-009    
  -1.4            -7.627e-010     -0.00015121     -8.85e-011     
  -1.45           1.5523e-009     -0.0001677      -4.3274e-009   
  -1.5            -1.5108e-009    -0.00018439     5.5445e-009    
  -1.55           1.5485e-009     -0.00020145     -4.5414e-009   
  -1.6            -1.4149e-009    -0.00021849     5.5725e-009    
  -1.65           -8.613e-010     -0.00023648     3.396e-010     
  -1.7            1.5116e-009     -0.00025464     -3.8262e-009   
  -1.75           6.833e-010      -0.00027399     2.3274e-009    
  -1.8            -1.4198e-009    -0.00029054     5.5843e-009    
END_DB

BEGIN_DB
 ICCAP_VAR VS         0              
 ICCAP_VAR VB         1.8            
 ICCAP_VAR VD         -0.1           

 #VG              IG              ID              IB             
  0               -2.155e-010     -2.0216e-009    -4.411e-009    
  -0.05           9.429e-010      2.0911e-009     -4.206e-009    
  -0.1            8.783e-010      2.1816e-009     -4.398e-009    
  -0.15           8.161e-010      2.2402e-009     -4.502e-009    
  -0.2            1.5103e-009     -2.4899e-009    -1.5512e-009   
  -0.25           -1.409e-009     1.3642e-009     5.5193e-009    
  -0.3            -6.389e-010     -2.2932e-009    -2.13e-010     
  -0.35           8.322e-010      2.1619e-009     -6.7177e-009   
  -0.4            -9.714e-010     -2.3568e-009    5.0958e-009    
  -0.45           1.5568e-009     -3.2412e-009    -3.7611e-009   
  -0.5            -1.4402e-009    -6.7534e-009    5.5485e-009    
  -0.55           -1.4336e-009    -3.1769e-008    3.721e-009     
  -0.6            1.4269e-009     -1.2863e-007    -1.0561e-009   
  -0.65           8.302e-010      -3.9517e-007    1.5323e-009    
  -0.7            -1.5159e-009    -9.7e-007       5.451e-009     
  -0.75           1.5581e-009     -1.9886e-006    -1.3483e-009   
  -0.8            -1.4089e-009    -3.4045e-006    5.5611e-009    
  -0.85           -8.534e-010     -5.2188e-006    2.861e-010     
  -0.9            1.52e-009       -7.3411e-006    -3.902e-009    
  -0.95           6.672e-010      -9.5724e-006    2.3938e-009    
  -1              1.4544e-009     -1.1938e-005    -5.808e-010    
  -1.05           7.68e-010       -1.4304e-005    1.8803e-009    
  -1.1            -1.525e-009     -1.6635e-005    5.5248e-009    
  -1.15           -5.497e-010     -1.8888e-005    -1.1674e-009   
  -1.2            1.4655e-009     -2.1154e-005    -5.5624e-009   
  -1.25           7.543e-010      -2.3198e-005    1.938e-009     
  -1.3            -1.5223e-009    -2.5211e-005    5.5379e-009    
  -1.35           1.562e-009      -2.71e-005      -4.5277e-009   
  -1.4            -1.4075e-009    -2.8841e-005    5.5609e-009    
  -1.45           -8.673e-010     -3.0469e-005    3.414e-010     
  -1.5            1.5026e-009     -3.2067e-005    -3.8028e-009   
  -1.55           6.896e-010      -3.3477e-005    2.2945e-009    
  -1.6            -1.4098e-009    -3.4897e-005    5.5685e-009    
  -1.65           -8.602e-010     -3.613e-005     3.154e-010     
  -1.7            1.5082e-009     -3.742e-005     -3.8514e-009   
  -1.75           6.777e-010      -3.8448e-005    2.3583e-009    
  -1.8            -1.4094e-009    -3.9546e-005    5.5611e-009    
END_DB

BEGIN_DB
 ICCAP_VAR VS         0              
 ICCAP_VAR VB         1.8            
 ICCAP_VAR VD         -1.8           

 #VG              IG              ID              IB             
  0               -1.924e-010     -2.0144e-009    -4.437e-009    
  -0.05           9.633e-010      2.0763e-009     -4.235e-009    
  -0.1            8.992e-010      2.1615e-009     -4.421e-009    
  -0.15           8.349e-010      2.2205e-009     -4.484e-009    
  -0.2            1.513e-009      -2.5076e-009    -1.4983e-009   
  -0.25           -1.4044e-009    1.376e-009      5.4906e-009    
  -0.3            -6.621e-010     -2.3449e-009    -1.065e-010    
  -0.35           8.502e-010      1.8591e-009     -4.4068e-009   
  -0.4            -1.4137e-009    -2.4446e-009    5.5223e-009    
  -0.45           -6.33e-010      -1.01558e-008   -2.486e-010    
  -0.5            1.0619e-009     -3.1323e-008    5.2253e-009    
  -0.55           1.4976e-009     -1.268e-007     5.7448e-009    
  -0.6            7.252e-010      -4.01e-007      2.1084e-009    
  -0.65           -1.5154e-009    -1.0633e-006    5.5359e-009    
  -0.7            1.3924e-009     -2.4116e-006    4.4875e-009    
  -0.75           -1.5058e-009    -4.578e-006     3.9124e-009    
  -0.8            -6.646e-010     -7.795e-006     -5.61e-010     
  -0.85           -1.0242e-009    -1.215e-005     5.0773e-009    
  -0.9            1.5566e-009     -1.7799e-005    -8.8927e-009   
  -0.95           -1.4013e-009    -2.4461e-005    5.5313e-009    
  -1              -8.49e-010      -3.2392e-005    2.735e-010     
  -1.05           1.5358e-009     -4.1493e-005    -3.9285e-009   
  -1.1            6.598e-010      -5.1509e-005    2.4359e-009    
  -1.15           -1.4049e-009    -6.246e-005     5.5431e-009    
  -1.2            -8.376e-010     -7.4486e-005    2.348e-010     
  -1.25           1.5414e-009     -8.7334e-005    -3.9816e-009   
  -1.3            -1.5252e-009    -0.000100504    5.4264e-009    
  -1.35           1.4866e-009     -0.00011523     -1.1442e-009   
  -1.4            -1.456e-009     -0.0001297      3.6231e-009    
  -1.45           -7.321e-010     -0.00014506     -2.248e-010    
  -1.5            1.5706e-009     -0.00016132     -4.3967e-009   
  -1.55           -1.5222e-009    -0.00017773     5.5234e-009    
  -1.6            1.404e-009      -0.0001947      -4.5718e-009   
  -1.65           8.914e-010      -0.00021199     1.2196e-009    
  -1.7            -1.4968e-009    -0.00022952     5.2864e-009    
  -1.75           -6.726e-010     -0.00024677     -5.178e-010    
  -1.8            1.4078e-009     -0.00026563     -4.5929e-009   
END_DB

