! VERSION = 6.00
BEGIN_HEADER
 ICCAP_INPUTS
  VG         V  B GROUND SMU4 0.001 LIN        1    0          -1.8       37   -0.05     
  VS         V  E GROUND SMU2 0.1 CON        0
  VB         V  C GROUND SMU3 0.1 LIN        3    0          1.8        3    0.9       
  VD         V  S GROUND SMU1 0.1 LIN        2    -0.1       -1.8       2    -1.7      
 ICCAP_OUTPUTS
  IG         I  B GROUND SMU4 B
  ID         I  S GROUND SMU1 B
  IB         I  C GROUND SMU3 B
END_HEADER

BEGIN_DB
 ICCAP_VAR VS         0              
 ICCAP_VAR VB         0              
 ICCAP_VAR VD         -0.1           

 #VG              IG              ID              IB             
  0               4.488e-010      -4.8489e-008    -9.564e-009    
  -0.05           1.143e-009      -1.2661e-007    1.92e-009      
  -0.1            1.1987e-009     -2.9855e-007    -1.7451e-008   
  -0.15           1.0572e-009     -6.3599e-007    -3.154e-009    
  -0.2            1.6821e-009     -1.2348e-006    2.943e-009     
  -0.25           5.609e-010      -2.2378e-006    8.621e-009     
  -0.3            9.505e-010      -3.7458e-006    1.0496e-008    
  -0.35           1.3875e-009     -5.7823e-006    1.4279e-008    
  -0.4            3.538e-010      -8.4182e-006    8.727e-009     
  -0.45           -2.3638e-009    -1.1668e-005    8.168e-009     
  -0.5            -3.305e-010     -1.5514e-005    -1.0204e-008   
  -0.55           1.1615e-009     -2.0022e-005    -1.1184e-008   
  -0.6            1.4699e-009     -2.4937e-005    -1.4614e-008   
  -0.65           1.1118e-009     -3.0367e-005    -3.373e-009    
  -0.7            1.0982e-009     -3.6306e-005    -3.877e-009    
  -0.75           1.1532e-009     -4.278e-005     -9.357e-009    
  -0.8            1.6647e-009     -4.9691e-005    -1.2716e-008   
  -0.85           1.1473e-009     -5.7156e-005    -1.822e-009    
  -0.9            1.0638e-009     -6.5123e-005    -3.303e-009    
  -0.95           1.135e-009      -7.3499e-005    -7.073e-009    
  -1              1.1493e-009     -8.1991e-005    -1.1376e-008   
  -1.05           1.2807e-009     -9.0664e-005    -1.6417e-008   
  -1.1            1.0561e-009     -9.9189e-005    -3.276e-009    
  -1.15           1.1073e-009     -0.000107676    -5.066e-009    
  -1.2            3.541e-010      -0.00011582     9.685e-009     
  -1.25           6.229e-010      -0.0001239      8.553e-009     
  -1.3            1.0624e-009     -0.00013162     1.0793e-008    
  -1.35           1.509e-009      -0.00013886     1.4722e-008    
  -1.4            4.294e-010      -0.00014584     8.736e-009     
  -1.45           7.334e-010      -0.00015263     8.712e-009     
  -1.5            1.1722e-009     -0.00015898     1.2355e-008    
  -1.55           1.5787e-009     -0.00016491     1.5265e-008    
  -1.6            4.906e-010      -0.00017069     8.732e-009     
  -1.65           8.422e-010      -0.00017626     9.69e-009      
  -1.7            1.2883e-009     -0.00018144     1.3631e-008    
  -1.75           2.914e-010      -0.00018633     8.358e-009     
  -1.8            5.526e-010      -0.00019118     8.636e-009     
END_DB

BEGIN_DB
 ICCAP_VAR VS         0              
 ICCAP_VAR VB         0              
 ICCAP_VAR VD         -1.8           

 #VG              IG              ID              IB             
  0               2.3407e-009     -6.5626e-007    -9.645e-009    
  -0.05           -1.9529e-009    -1.3262e-006    -1.293e-008    
  -0.1            1.3009e-009     -2.5383e-006    -1.5732e-008   
  -0.15           1.0565e-009     -4.4785e-006    -3.348e-009    
  -0.2            1.1049e-009     -7.5144e-006    -4.734e-009    
  -0.25           1.665e-010      -1.1826e-005    4.182e-009     
  -0.3            1.7033e-009     -1.785e-005     -1.2366e-008   
  -0.35           1.1632e-009     -2.5679e-005    -1.03e-009     
  -0.4            1.0593e-009     -3.5656e-005    -4.537e-009    
  -0.45           1.1269e-009     -4.7887e-005    -6.503e-009    
  -0.5            1.1538e-009     -6.2351e-005    -1.1703e-008   
  -0.55           1.3178e-009     -7.9152e-005    -1.6802e-008   
  -0.6            1.0551e-009     -9.8358e-005    -3.435e-009    
  -0.65           2.3544e-009     -0.00011993     8.721e-009     
  -0.7            1.6105e-009     -0.00014441     1.5801e-008    
  -0.75           4.934e-010      -0.00017173     9.365e-009     
  -0.8            8.516e-010      -0.0002022      8.873e-009     
  -0.85           1.3009e-009     -0.00023517     1.3159e-008    
  -0.9            2.768e-010      -0.00027082     8.414e-009     
  -0.95           5.634e-010      -0.00031094     8.437e-009     
  -1              9.189e-010      -0.00035416     1.0497e-008    
  -1.05           1.3833e-009     -0.00039965     1.3842e-008    
  -1.1            3.64e-010       -0.00044823     9.073e-009     
  -1.15           6.513e-010      -0.00050104     8.385e-009     
  -1.2            1.076e-009      -0.00055616     1.2333e-008    
  -1.25           1.5422e-009     -0.00061261     1.4482e-008    
  -1.3            4.33e-010       -0.00067217     8.879e-009     
  -1.35           7.402e-010      -0.00073501     8.895e-009     
  -1.4            1.1792e-009     -0.00079885     1.2145e-008    
  -1.45           1.6076e-009     -0.00086322     1.5125e-008    
  -1.5            5.018e-010      -0.00093044     8.607e-009     
  -1.55           8.494e-010      -0.00099955     9.76e-009      
  -1.6            1.2918e-009     -0.00106861     1.3227e-008    
  -1.65           2.804e-010      -0.0011376      8.509e-009     
  -1.7            -1.5148e-009    -0.0012086      1.3293e-008    
  -1.75           1.1579e-009     -0.0012815      -1.0933e-008   
  -1.8            1.3637e-009     -0.0013538      -1.5133e-008   
END_DB

BEGIN_DB
 ICCAP_VAR VS         0              
 ICCAP_VAR VB         0.9            
 ICCAP_VAR VD         -0.1           

 #VG              IG              ID              IB             
  0               -1.915e-010     6.28e-011       2.196e-009     
  -0.05           1.0739e-009     -1.129e-010     -4.024e-009    
  -0.1            1.0781e-009     -2.3326e-009    -5.774e-009    
  -0.15           -1.2462e-009    -1.1026e-008    1.3147e-008    
  -0.2            -1.9125e-009    -3.4305e-008    5.639e-009     
  -0.25           1.1502e-009     -1.05863e-007   -1.0196e-008   
  -0.3            -4.625e-010     -2.8675e-007    8.448e-009     
  -0.35           1.1513e-009     -7.1353e-007    -9.87e-009     
  -0.4            9.938e-010      -1.5346e-006    1.697e-009     
  -0.45           1.4403e-009     -2.9292e-006    1.4042e-008    
  -0.5            3.793e-010      -5.0824e-006    8.77e-009      
  -0.55           7.161e-010      -8.1491e-006    8.529e-009     
  -0.6            -2.3976e-009    -1.198e-005     8.746e-009     
  -0.65           1.479e-009      -1.6785e-005    -1.3274e-008   
  -0.7            1.0875e-009     -2.2292e-005    -3.364e-009    
  -0.75           1.1024e-009     -2.8549e-005    -3.685e-009    
  -0.8            1.1449e-009     -3.5509e-005    -8.978e-009    
  -0.85           1.705e-009      -4.3019e-005    -1.2312e-008   
  -0.9            1.1683e-009     -5.1097e-005    -1.126e-009    
  -0.95           1.0568e-009     -5.9645e-005    -3.391e-009    
  -1              1.1233e-009     -6.8431e-005    -6.388e-009    
  -1.05           1.1539e-009     -7.7224e-005    -1.1531e-008   
  -1.1            1.3267e-009     -8.6025e-005    -1.5633e-008   
  -1.15           1.0598e-009     -9.4614e-005    -3.377e-009    
  -1.2            1.1149e-009     -0.000103068    -4.439e-009    
  -1.25           1.1645e-009     -0.000111162    -1.0263e-008   
  -1.3            1.1574e-009     -0.00011912     -8.165e-009    
  -1.35           1.2434e-009     -0.00012647     -1.6925e-008   
  -1.4            1.0662e-009     -0.00013355     -3.125e-009    
  -1.45           1.1105e-009     -0.00014038     -5.312e-009    
  -1.5            1.1568e-009     -0.00014676     -1.106e-008    
  -1.55           1.4142e-009     -0.00015287     -1.4901e-008   
  -1.6            1.0754e-009     -0.00015868     -3.586e-009    
  -1.65           1.0899e-009     -0.00016421     -4.094e-009    
  -1.7            1.1566e-009     -0.00016948     -9.597e-009    
  -1.75           1.6307e-009     -0.00017447     -1.3165e-008   
  -1.8            1.1388e-009     -0.00017927     -2.078e-009    
END_DB

BEGIN_DB
 ICCAP_VAR VS         0              
 ICCAP_VAR VB         0.9            
 ICCAP_VAR VD         -1.8           

 #VG              IG              ID              IB             
  0               -6.68e-010      -1.1284e-008    -1.0883e-008   
  -0.05           -1.2303e-009    -3.222e-008     3.533e-009     
  -0.1            -1.5394e-009    -9.2865e-008    1.1265e-008    
  -0.15           2.1997e-009     -2.4814e-007    -9.796e-009    
  -0.2            9.641e-010      -6.22e-007      9.899e-009     
  -0.25           -1.2615e-009    -1.3677e-006    -9.406e-009    
  -0.3            -1.2593e-009    -2.825e-006     3.121e-009     
  -0.35           -2.0241e-009    -5.3641e-006    4.219e-009     
  -0.4            1.1766e-009     -9.5691e-006    -9.228e-009    
  -0.45           1.0801e-009     -1.5617e-005    2.338e-009     
  -0.5            1.1401e-009     -2.4014e-005    -6.483e-009    
  -0.55           1.1526e-009     -3.4972e-005    -1.1508e-008   
  -0.6            1.3323e-009     -4.8757e-005    -1.5557e-008   
  -0.65           1.0736e-009     -6.5408e-005    -3.37e-009     
  -0.7            1.117e-009      -8.5272e-005    -4.598e-009    
  -0.75           1.1687e-009     -0.000108285    -1.0565e-008   
  -0.8            -1.2811e-009    -0.00013381     2.535e-009     
  -0.85           -1.2726e-009    -0.00016323     2.617e-009     
  -0.9            -1.2659e-009    -0.00019622     1.978e-009     
  -0.95           -1.738e-009     -0.0002329      7.846e-009     
  -1              1.1641e-009     -0.00027411     -1.1206e-008   
  -1.05           1.3614e-009     -0.00031754     -1.4895e-008   
  -1.1            1.0628e-009     -0.0003642      -3.408e-009    
  -1.15           1.1084e-009     -0.000414       -4.214e-009    
  -1.2            1.168e-009      -0.00046697     -1.0022e-008   
  -1.25           1.589e-009      -0.00052196     -1.343e-008    
  -1.3            1.4895e-009     -0.00057948     1.528e-008     
  -1.35           4.064e-010      -0.00063922     9.674e-009     
  -1.4            7.114e-010      -0.0007019      8.615e-009     
  -1.45           1.1492e-009     -0.00076564     1.1864e-008    
  -1.5            1.5737e-009     -0.00082949     1.5783e-008    
  -1.55           4.645e-010      -0.00089616     9.2e-009       
  -1.6            8.068e-010      -0.00096469     9.576e-009     
  -1.65           1.2467e-009     -0.00103305     1.3303e-008    
  -1.7            2.273e-010      -0.00110115     8.878e-009     
  -1.75           -1.4811e-009    -0.0011706      1.2827e-008    
  -1.8            1.1894e-009     -0.0012429      -1.0736e-008   
END_DB

BEGIN_DB
 ICCAP_VAR VS         0              
 ICCAP_VAR VB         1.8            
 ICCAP_VAR VD         -0.1           

 #VG              IG              ID              IB             
  0               -1.2761e-009    -1.0926e-009    8.501e-009     
  -0.05           1.1616e-009     -2e-011         -1.3274e-008   
  -0.1            1.7067e-009     -2.184e-010     -1.5417e-008   
  -0.15           -1.261e-009     1.1723e-009     1.4365e-008    
  -0.2            -2.4018e-009    -2.0067e-009    2.999e-009     
  -0.25           1.1746e-009     -3.9556e-009    -1.2097e-008   
  -0.3            -2.4085e-009    -1.6393e-008    -1.8007e-008   
  -0.35           1.6143e-009     -5.6341e-008    -1.2513e-008   
  -0.4            -5.889e-010     -1.7944e-007    1.2376e-008    
  -0.45           1.0596e-009     -5.2094e-007    -8.915e-009    
  -0.5            1.6309e-009     -1.2501e-006    2.358e-009     
  -0.55           5.091e-010      -2.6754e-006    8.909e-009     
  -0.6            8.793e-010      -5.0529e-006    1.0028e-008    
  -0.65           1.3152e-009     -8.4592e-006    1.3684e-008    
  -0.7            -1.2991e-009    -1.2884e-005    1.504e-008     
  -0.75           -1.2579e-009    -1.8446e-005    2.372e-009     
  -0.8            -1.2447e-009    -2.4946e-005    2.169e-009     
  -0.85           -1.8682e-009    -3.2312e-005    5.68e-009      
  -0.9            -3.373e-010     -4.0431e-005    -9.697e-009    
  -0.95           1.1503e-009     -4.9199e-005    -1.089e-008    
  -1              1.4603e-009     -5.7994e-005    -1.4863e-008   
  -1.05           1.0912e-009     -6.6918e-005    -3.369e-009    
  -1.1            1.0831e-009     -7.5822e-005    -3.911e-009    
  -1.15           1.1432e-009     -8.4593e-005    -9.214e-009    
  -1.2            1.6515e-009     -9.3074e-005    -1.2577e-008   
  -1.25           1.4543e-009     -0.000101263    1.434e-008     
  -1.3            3.701e-010      -0.000109135    9.003e-009     
  -1.35           2.202e-009      -0.00011666     8.842e-009     
  -1.4            1.2641e-009     -0.00012394     1.3213e-008    
  -1.45           1.832e-010      -0.00013061     8.952e-009     
  -1.5            5.606e-010      -0.00013714     8.769e-009     
  -1.55           9.055e-010      -0.00014333     9.223e-009     
  -1.6            1.37e-009       -0.00014911     1.3641e-008    
  -1.65           3.222e-010      -0.0001546      9.329e-009     
  -1.7            6.111e-010      -0.00015992     8.572e-009     
  -1.75           1.016e-009      -0.00016496     1.0206e-008    
  -1.8            1.4618e-009     -0.00016969     1.4246e-008    
END_DB

BEGIN_DB
 ICCAP_VAR VS         0              
 ICCAP_VAR VB         1.8            
 ICCAP_VAR VD         -1.8           

 #VG              IG              ID              IB             
  0               1.1513e-009     7.632e-010      2.442e-009     
  -0.05           -1.774e-009     -1.7069e-009    8.993e-009     
  -0.1            1.1368e-009     -2.8018e-009    -1.0797e-008   
  -0.15           -2.387e-009     -1.2102e-008    -1.574e-008    
  -0.2            -3.934e-010     -3.9975e-008    -9.613e-009    
  -0.25           2.118e-010      -1.1925e-007    -9.313e-009    
  -0.3            5.166e-010      -3.4913e-007    8.635e-009     
  -0.35           8.566e-010      -9.0436e-007    9.863e-009     
  -0.4            -2.0451e-009    -2.0562e-006    -1.3804e-008   
  -0.45           1.2325e-009     -4.3543e-006    -1.7151e-008   
  -0.5            1.0599e-009     -8.199e-006     -3.231e-009    
  -0.55           1.0685e-009     -1.4264e-005    2.129e-009     
  -0.6            1.1347e-009     -2.3037e-005    -7.762e-009    
  -0.65           1.8082e-009     -3.4782e-005    -1.1697e-008   
  -0.7            1.2388e-009     -4.9806e-005    4.9e-010       
  -0.75           1.0603e-009     -6.85e-005      -3.083e-009    
  -0.8            1.1102e-009     -9.0927e-005    -5.105e-009    
  -0.85           -1.2498e-009    -0.0001162      4.664e-009     
  -0.9            -1.2426e-009    -0.0001459      2.035e-009     
  -0.95           -1.7955e-009    -0.00017965     6.902e-009     
  -1              1.1555e-009     -0.00021818     -9.412e-009    
  -1.05           1.4361e-009     -0.00025911     -1.4677e-008   
  -1.1            1.0817e-009     -0.00030349     -3.107e-009    
  -1.15           1.0848e-009     -0.00035132     -3.853e-009    
  -1.2            1.1477e-009     -0.00040244     -9.311e-009    
  -1.25           1.6604e-009     -0.00045547     -1.2578e-008   
  -1.3            1.4297e-009     -0.00051145     1.3796e-008    
  -1.35           3.773e-010      -0.00056922     8.776e-009     
  -1.4            6.596e-010      -0.00063033     8.572e-009     
  -1.45           1.077e-009      -0.00069269     1.1534e-008    
  -1.5            1.5179e-009     -0.00075527     1.4141e-008    
  -1.55           4.343e-010      -0.00082014     8.851e-009     
  -1.6            7.363e-010      -0.00088732     8.798e-009     
  -1.65           1.1694e-009     -0.00095457     1.2016e-008    
  -1.7            1.5959e-009     -0.00102167     1.5076e-008    
  -1.75           4.946e-010      -0.0010909      8.706e-009     
  -1.8            -9.467e-010     -0.0011579      8.492e-009     
END_DB

