! VERSION = 6.00
BEGIN_HEADER
 ICCAP_INPUTS
  VG         V  B GROUND SMU4 0.001 LIN        1    0          -1.8       37   -0.05     
  VS         V  E GROUND SMU3 0.1 CON        0
  VB         V  C GROUND SMU1 0.1 LIN        3    0          1.8        3    0.9       
  VD         V  S GROUND SMU2 0.1 LIN        2    -0.1       -1.8       2    -1.7      
 ICCAP_OUTPUTS
  IG         I  B GROUND SMU4 B
  ID         I  S GROUND SMU2 B
  IB         I  C GROUND SMU1 B
END_HEADER

BEGIN_DB
 ICCAP_VAR VS         0              
 ICCAP_VAR VB         0              
 ICCAP_VAR VD         -0.1           

 #VG              IG              ID              IB             
  0               -2.0163e-009    -4.609e-009     -3.986e-009    
  -0.05           1.7409e-009     -7.4877e-009    -3.72e-009     
  -0.1            -1.8134e-009    -2.2345e-008    2.0647e-009    
  -0.15           -1.5067e-009    -6.933e-008     1.6785e-009    
  -0.2            1.0681e-009     -1.715e-007     -4.4162e-009   
  -0.25           -1.9991e-009    -3.7566e-007    5.0701e-009    
  -0.3            -3.0789e-009    -7.326e-007     7.277e-010     
  -0.35           1.9234e-009     -1.2853e-006    3.838e-009     
  -0.4            8.622e-010      -1.9881e-006    3.4657e-009    
  -0.45           -2.0242e-009    -2.8815e-006    5.2994e-009    
  -0.5            -3.8885e-009    -3.969e-006     -1.7048e-009   
  -0.55           7.526e-010      -5.2414e-006    3.781e-010     
  -0.6            1.9642e-009     -6.593e-006     1.9738e-009    
  -0.65           6.81e-010       -8.0626e-006    3.8874e-009    
  -0.7            -1.8453e-009    -9.6567e-006    5.1766e-009    
  -0.75           -6.752e-009     -1.1413e-005    4.1064e-009    
  -0.8            -6.805e-009     -1.3292e-005    3.8407e-009    
  -0.85           -7.977e-009     -1.5315e-005    4.1203e-009    
  -0.9            -6.617e-009     -1.7465e-005    4.455e-009     
  -0.95           -6.79e-009      -1.9716e-005    3.9288e-009    
  -1              -7.102e-009     -2.2026e-005    4.1984e-009    
  -1.05           -8.989e-009     -2.4377e-005    4.4816e-009    
  -1.1            -6.784e-009     -2.672e-005     4.8197e-009    
  -1.15           -6.873e-009     -2.9031e-005    4.3419e-009    
  -1.2            -8.144e-009     -3.1309e-005    4.6195e-009    
  -1.25           -1.0271e-008    -3.3524e-005    4.9185e-009    
  -1.3            -6.846e-009     -3.566e-005     5.2159e-009    
  -1.35           -7.149e-009     -3.7696e-005    4.8049e-009    
  -1.4            -8.909e-009     -3.9658e-005    5.0955e-009    
  -1.45           -1.2084e-008    -4.1528e-005    5.4005e-009    
  -1.5            -1.6976e-008    -4.3309e-005    5.6309e-009    
  -1.55           -8.06e-009      -4.4998e-005    5.7323e-009    
  -1.6            -1.0325e-008    -4.6606e-005    5.6205e-009    
  -1.65           -1.4026e-008    -4.8143e-005    5.8966e-009    
  -1.7            -1.916e-008     -4.96e-005      6.053e-009     
  -1.75           -8.982e-009     -5.0985e-005    5.9729e-009    
  -1.8            -1.2182e-008    -5.2304e-005    6.1898e-009    
END_DB

BEGIN_DB
 ICCAP_VAR VS         0              
 ICCAP_VAR VB         0              
 ICCAP_VAR VD         -1.8           

 #VG              IG              ID              IB             
  0               8.689e-010      -1.1576e-008    4.39e-010      
  -0.05           1.1509e-009     -3.3158e-008    1.0203e-009    
  -0.1            -1.95e-009      -9.1526e-008    4.9207e-009    
  -0.15           1.1094e-009     -2.2887e-007    -4.3495e-009   
  -0.2            -1.9751e-009    -5.0279e-007    4.9798e-009    
  -0.25           -1.5928e-009    -1.02135e-006   8.833e-010     
  -0.3            -2.0702e-009    -1.8694e-006    -3.8214e-009   
  -0.35           -5.5268e-009    -3.1968e-006    -2.738e-010    
  -0.4            -2.1011e-009    -5.1046e-006    -3.8411e-009   
  -0.45           1.9471e-009     -7.6574e-006    1.0009e-009    
  -0.5            6.467e-010      -1.06507e-005   4.1014e-009    
  -0.55           9.496e-010      -1.4473e-005    -4.049e-009    
  -0.6            -2.0358e-009    -1.898e-005     5.2469e-009    
  -0.65           -6.996e-009     -2.4417e-005    -2.0072e-009   
  -0.7            -8.769e-009     -3.0573e-005    4.0713e-009    
  -0.75           -6.621e-009     -3.7651e-005    4.4414e-009    
  -0.8            -6.771e-009     -4.5614e-005    3.7918e-009    
  -0.85           -7.684e-009     -5.4558e-005    4.0766e-009    
  -0.9            -9.89e-009      -6.4515e-005    4.3947e-009    
  -0.95           -6.721e-009     -7.5506e-005    4.7415e-009    
  -1              -6.967e-009     -8.7458e-005    4.159e-009     
  -1.05           -8.708e-009     -0.000100503    4.4494e-009    
  -1.1            -6.821e-009     -0.0001145      2.3521e-009    
  -1.15           -7.759e-009     -0.00012952     4.4982e-009    
  -1.2            -9.741e-009     -0.00014547     4.7926e-009    
  -1.25           -1.2861e-008    -0.00016237     5.1011e-009    
  -1.3            -6.95e-009      -0.00018008     5.3449e-009    
  -1.35           -8.758e-009     -0.0001985      4.967e-009     
  -1.4            -1.1284e-008    -0.00021769     5.272e-009     
  -1.45           -1.5259e-008    -0.00023754     5.5255e-009    
  -1.5            -7.62e-009      -0.00025797     5.6684e-009    
  -1.55           -9.68e-009      -0.00027891     5.4799e-009    
  -1.6            -1.2794e-008    -0.00030045     5.7848e-009    
  -1.65           -1.7569e-008    -0.00032239     5.9619e-009    
  -1.7            -8.77e-009      -0.00034476     5.9693e-009    
  -1.75           -1.1174e-008    -0.00036743     6.0459e-009    
  -1.8            -1.5006e-008    -0.00039047     6.2869e-009    
END_DB

BEGIN_DB
 ICCAP_VAR VS         0              
 ICCAP_VAR VB         0.9            
 ICCAP_VAR VD         -0.1           

 #VG              IG              ID              IB             
  0               -8.932e-009     -1.8297e-009    1.5836e-009    
  -0.05           -6.97e-009      -2.0642e-009    3.5835e-009    
  -0.1            -6.602e-009     -2.2406e-009    4.1841e-009    
  -0.15           -8.073e-009     -2.0841e-009    3.9287e-009    
  -0.2            -5.611e-009     -2.081e-009     4.4678e-009    
  -0.25           -7.53e-009      -3.1446e-009    3.7891e-009    
  -0.3            -6.844e-009     -9.1589e-009    4.5973e-009    
  -0.35           -7.2505e-009    -3.3377e-008    3.268e-009     
  -0.4            -5.287e-009     -1.07683e-007   5.377e-009     
  -0.45           -9.899e-009     -2.9914e-007    2.5092e-009    
  -0.5            -1.3073e-008    -6.8652e-007    5.3856e-009    
  -0.55           -8.247e-009     -1.3346e-006    -3.2004e-009   
  -0.6            -1.0416e-008    -2.2736e-006    5.4361e-009    
  -0.65           -1.3636e-008    -3.497e-006     5.7112e-009    
  -0.7            -7.162e-009     -4.9716e-006    5.8573e-009    
  -0.75           -9.01e-009      -6.6643e-006    5.642e-009     
  -0.8            -1.193e-008     -8.5624e-006    5.9712e-009    
  -0.85           -1.5986e-008    -1.06399e-005   6.1948e-009    
  -0.9            -1.9765e-008    -1.287e-005     2.1155e-009    
  -0.95           -1.0562e-008    -1.5219e-005    5.9799e-009    
  -1              -1.3839e-008    -1.7639e-005    6.5256e-009    
  -1.05           -1.8557e-008    -2.0099e-005    6.6404e-009    
  -1.1            -2.0648e-008    -2.2554e-005    6.5097e-009    
  -1.15           -1.2086e-008    -2.4981e-005    6.1107e-009    
  -1.2            -1.6198e-008    -2.7352e-005    7.0579e-009    
  -1.25           -1.9661e-008    -2.9662e-005    7.0844e-009    
  -1.3            -2.0347e-008    -3.188e-005     6.7675e-009    
  -1.35           -1.3525e-008    -3.4007e-005    6.2031e-009    
  -1.4            -1.8323e-008    -3.604e-005     7.5487e-009    
  -1.45           -2.0711e-008    -3.7972e-005    7.4288e-009    
  -1.5            -1.9649e-008    -3.9805e-005    6.94e-009      
  -1.55           -1.5782e-008    -4.1552e-005    6.2974e-009    
  -1.6            -1.9639e-008    -4.3228e-005    7.9736e-009    
  -1.65           -2.0652e-008    -4.481e-005     7.6829e-009    
  -1.7            -1.905e-008     -4.6312e-005    7.0598e-009    
  -1.75           -1.7907e-008    -4.7742e-005    6.3829e-009    
  -1.8            -2.0622e-008    -4.91e-005      8.3258e-009    
END_DB

BEGIN_DB
 ICCAP_VAR VS         0              
 ICCAP_VAR VB         0.9            
 ICCAP_VAR VD         -1.8           

 #VG              IG              ID              IB             
  0               -8.671e-009     -1.8793e-009    1.6344e-009    
  -0.05           -6.864e-009     -2.1274e-009    3.5242e-009    
  -0.1            -4.766e-009     -1.8978e-009    4.1425e-009    
  -0.15           -6.672e-009     -2.9999e-009    3.4122e-009    
  -0.2            -1.0883e-008    -3.8831e-009    4.0848e-009    
  -0.25           -9.077e-009     -1.493e-008     -7.618e-010    
  -0.3            -1.1894e-008    -4.2999e-008    4.9603e-009    
  -0.35           -1.4535e-009    -1.3518e-007    4.6317e-009    
  -0.4            -1.3521e-008    -3.6621e-007    4.6751e-009    
  -0.45           -7.17e-009      -8.7656e-007    5.4208e-009    
  -0.5            -6.367e-009     -1.8257e-006    -6.44e-011     
  -0.55           -1.4168e-008    -3.3828e-006    4.6988e-009    
  -0.6            -7.391e-009     -5.6933e-006    5.66e-009      
  -0.65           -9.273e-009     -8.8519e-006    5.4343e-009    
  -0.7            -1.6676e-008    -1.2977e-005    2.2719e-009    
  -0.75           -8.269e-009     -1.807e-005     5.9007e-009    
  -0.8            -1.0585e-008    -2.4247e-005    5.8828e-009    
  -0.85           -1.381e-008     -3.1569e-005    6.1559e-009    
  -0.9            -1.8325e-008    -4.0034e-005    6.2756e-009    
  -0.95           -9.111e-009     -4.9686e-005    6.1768e-009    
  -1              -1.1994e-008    -6.0478e-005    6.4359e-009    
  -1.05           -1.6192e-008    -7.2453e-005    6.6708e-009    
  -1.1            -1.9636e-008    -8.5553e-005    6.685e-009     
  -1.15           -1.0302e-008    -9.9724e-005    6.4111e-009    
  -1.2            -7.276e-009     -0.00011478     3.3082e-009    
  -1.25           -2.0595e-008    -0.00013096     6.6341e-009    
  -1.3            -1.3081e-008    -0.000148       6.1703e-009    
  -1.35           -1.7806e-008    -0.00016587     7.4124e-009    
  -1.4            -2.0373e-008    -0.0001845      7.3247e-009    
  -1.45           -1.9759e-008    -0.00020382     6.8824e-009    
  -1.5            -1.5266e-008    -0.00022379     6.2427e-009    
  -1.55           -1.9286e-008    -0.00024431     7.8699e-009    
  -1.6            -2.0756e-008    -0.00026542     7.6239e-009    
  -1.65           -1.9221e-008    -0.00028695     7.0213e-009    
  -1.7            -1.754e-008     -0.00030885     6.3424e-009    
  -1.75           -2.0317e-008    -0.0003313      8.2394e-009    
  -1.8            -2.0088e-008    -0.00035398     7.8397e-009    
END_DB

BEGIN_DB
 ICCAP_VAR VS         0              
 ICCAP_VAR VB         1.8            
 ICCAP_VAR VD         -0.1           

 #VG              IG              ID              IB             
  0               -6.916e-009     -2.2657e-009    4.8443e-009    
  -0.05           -6.705e-009     -2.1794e-009    4.3777e-009    
  -0.1            -8.24e-009      -1.9528e-009    5.3361e-009    
  -0.15           -6.856e-009     -2.148e-009     6.1543e-009    
  -0.2            -9.728e-009     -1.8515e-009    5.7253e-009    
  -0.25           -7.001e-009     -2.0952e-009    6.5667e-009    
  -0.3            -6.52e-009      -2.291e-009     6.1032e-009    
  -0.35           -7.636e-009     -2.5063e-009    5.5055e-009    
  -0.4            -1.812e-008     -2.6084e-009    6.4974e-009    
  -0.45           -3.7229e-009    -1.0413e-008    2.5312e-009    
  -0.5            -2.2931e-009    -4.4003e-008    3.8439e-009    
  -0.55           -1.4539e-008    -1.583e-007     4.4409e-009    
  -0.6            -1.9013e-008    -4.4811e-007    7.7505e-009    
  -0.65           -2.0873e-008    -1.04025e-006   7.5598e-009    
  -0.7            -1.1985e-008    -2.0091e-006    4.132e-009     
  -0.75           -1.5743e-008    -3.3623e-006    8.0389e-009    
  -0.8            -1.9617e-008    -5.0694e-006    8.2027e-009    
  -0.85           -2.0816e-008    -7.0677e-006    7.9357e-009    
  -0.9            -1.919e-008     -9.2836e-006    7.3188e-009    
  -0.95           -7.921e-009     -1.1677e-005    6.033e-009     
  -1              -6.593e-009     -1.4161e-005    4.941e-009     
  -1.05           -1.0037e-009    -1.6692e-005    6.659e-009     
  -1.1            -1.8846e-008    -1.9231e-005    4.942e-009     
  -1.15           -1.8778e-008    -2.1746e-005    6.809e-009     
  -1.2            -1.8938e-008    -2.42e-005      6.983e-009     
  -1.25           -1.8933e-008    -2.658e-005     7.141e-009     
  -1.3            -1.9097e-008    -2.8871e-005    7.325e-009     
  -1.35           -1.8922e-008    -3.1069e-005    7.524e-009     
  -1.4            -1.9051e-008    -3.3158e-005    7.738e-009     
  -1.45           -1.9129e-008    -3.5143e-005    7.867e-009     
  -1.5            -1.9523e-008    -3.7033e-005    8.065e-009     
  -1.55           -1.9691e-008    -3.8828e-005    8.3e-009       
  -1.6            -1.9874e-008    -4.0534e-005    8.585e-009     
  -1.65           -1.9981e-008    -4.2151e-005    8.784e-009     
  -1.7            -2.0243e-008    -4.3682e-005    9.028e-009     
  -1.75           -2.0535e-008    -4.515e-005     9.22e-009      
  -1.8            -2.0742e-008    -4.6551e-005    9.462e-009     
END_DB

BEGIN_DB
 ICCAP_VAR VS         0              
 ICCAP_VAR VB         1.8            
 ICCAP_VAR VD         -1.8           

 #VG              IG              ID              IB             
  0               -1.2231e-008    -9.326e-010     5.7011e-009    
  -0.05           -9.026e-009     -1.8795e-009    5.4065e-009    
  -0.1            -6.955e-009     -2.1154e-009    6.1688e-009    
  -0.15           -6.468e-009     -2.201e-009     5.7697e-009    
  -0.2            -7.177e-009     -2.0585e-009    5.2146e-009    
  -0.25           -6.863e-009     -2.3035e-009    6.1356e-009    
  -0.3            -8.303e-009     -2.529e-009     5.6194e-009    
  -0.35           -1.9393e-008    -2.8198e-009    6.537e-009     
  -0.4            -1.2413e-008    -1.3753e-008    -1.6393e-009   
  -0.45           -1.7274e-008    -4.6994e-008    7.3941e-009    
  -0.5            -1.9063e-008    -1.6862e-007    7.3689e-009    
  -0.55           -2.0917e-008    -4.8851e-007    7.3134e-009    
  -0.6            -9.012e-009     -1.2222e-006    4.1518e-009    
  -0.65           -1.8812e-008    -2.5785e-006    7.5408e-009    
  -0.7            -1.7832e-008    -4.7842e-006    6.0401e-009    
  -0.75           -2.0605e-008    -8.0007e-006    7.9592e-009    
  -0.8            -2.0903e-008    -1.237e-005     -1.4222e-009   
  -0.85           -1.9508e-008    -1.7947e-005    7.5081e-009    
  -0.9            -1.8833e-008    -2.4818e-005    6.781e-009     
  -0.95           -1.9735e-008    -3.2996e-005    6.1927e-009    
  -1              -2.0804e-008    -4.2452e-005    8.2948e-009    
  -1.05           -1.8962e-008    -5.3181e-005    7.6643e-009    
  -1.1            -1.8964e-008    -6.5146e-005    6.9177e-009    
  -1.15           -2.0683e-008    -7.8285e-005    6.3596e-009    
  -1.2            -1.9952e-008    -9.2477e-005    8.4866e-009    
  -1.25           -1.885e-008     -0.00010775     7.8205e-009    
  -1.3            -1.956e-008     -0.00012395     4.3771e-009    
  -1.35           -1.8929e-008    -0.00014101     7.8889e-009    
  -1.4            -2.01e-008      -0.00015893     7.2388e-009    
  -1.45           -2.0941e-008    -0.00017754     6.6777e-009    
  -1.5            -1.9092e-008    -0.00019689     8.7332e-009    
  -1.55           -1.904e-008     -0.00021681     8.0267e-009    
  -1.6            -2.1116e-008    -0.00023734     7.4326e-009    
  -1.65           -2.0097e-008    -0.00025833     6.819e-009     
  -1.7            -1.8996e-008    -0.00027971     8.8063e-009    
  -1.75           -1.988e-008     -0.00030155     8.2284e-009    
  -1.8            -2.1395e-008    -0.00032371     7.6381e-009    
END_DB

