! VERSION = 6.00
BEGIN_HEADER
 ICCAP_INPUTS
  VG         V  B GROUND SMU4 0.001 LIN        2    0          -1.8       6    -0.36     
  VS         V  E GROUND SMU2 0.1 CON        0
  VD         V  S GROUND SMU1 0.1 LIN        1    0          -1.8       37   -0.05     
  VB         V  C GROUND SMU3 0.1 LIN        3    0          0.9        2    0.9       
 ICCAP_OUTPUTS
  ID         I  S GROUND SMU1 B
  IB         I  C GROUND SMU3 B
  IG         I  B GROUND SMU4 B
END_HEADER

BEGIN_DB
 ICCAP_VAR VG         0              
 ICCAP_VAR VS         0              
 ICCAP_VAR VB         0              

 #VD              ID              IB              IG             
  0               -6.364e-010     -2.3718e-008    2.251e-010     
  -0.05           -7.218e-010     -1.6935e-008    2.6572e-009    
  -0.1            1.2888e-009     1.0354e-008     -1.5711e-009   
  -0.15           -1.6073e-009    6.608e-009      -2.5516e-009   
  -0.2            -2.7482e-009    -1.1415e-008    -3.29e-010     
  -0.25           -2.8641e-009    -1.1097e-008    -5.294e-010    
  -0.3            -2.182e-009     -2.247e-008     2.334e-009     
  -0.35           8.321e-010      -4.358e-009     -1.2946e-009   
  -0.4            -1.733e-009     1.1129e-008     -2.4923e-009   
  -0.45           -1.7638e-009    1.305e-009      -2.288e-009    
  -0.5            -2.7176e-009    -1.2829e-008    1.6249e-009    
  -0.55           -7.369e-010     -8.778e-009     1.4296e-009    
  -0.6            -9.344e-010     -8.82e-009      1.3203e-009    
  -0.65           -1.1404e-009    -9.951e-009     2.8066e-009    
  -0.7            -2.2822e-009    1.0039e-008     -2.5868e-009   
  -0.75           -2.3538e-009    1.089e-009      -2.4118e-009   
  -0.8            -3.8062e-009    -1.1381e-008    -4.072e-010    
  -0.85           -3.1464e-009    -2.4926e-008    2.5014e-009    
  -0.9            -1.2193e-009    -3.1e-009       2.219e-009     
  -0.95           -1.4386e-009    -5.054e-009     1.9398e-009    
  -1              -1.6829e-009    -7.796e-009     1.6745e-009    
  -1.05           -1.9273e-009    -8.803e-009     1.4709e-009    
  -1.1            -2.1859e-009    -8.711e-009     1.3434e-009    
  -1.15           -2.4737e-009    -9.65e-009      2.7837e-009    
  -1.2            -5.38e-010      1.0209e-008     6.148e-010     
  -1.25           -7.092e-010     9.595e-009      7.89e-010      
  -1.3            -9.26e-010      9.233e-009      9.424e-010     
  -1.35           -1.2089e-009    9.783e-009      1.0878e-009    
  -1.4            -1.5609e-009    1.1111e-008     1.232e-009     
  -1.45           -1.9388e-009    1.0842e-008     -2.114e-010    
  -1.5            -3.2443e-009    2.5339e-008     -1.5468e-009   
  -1.55           -4.8216e-009    6.851e-009      -1.441e-009    
  -1.6            -4.9973e-009    8.455e-009      -1.3958e-009   
  -1.65           -5.1799e-009    8.993e-009      -1.3686e-009   
  -1.7            -5.3615e-009    9.124e-009      -1.3449e-009   
  -1.75           -5.576e-009     8.35e-009       -1.3162e-009   
  -1.8            -5.7964e-009    9.323e-009      -2.6067e-009   
END_DB

BEGIN_DB
 ICCAP_VAR VG         -0.36          
 ICCAP_VAR VS         0              
 ICCAP_VAR VB         0              

 #VD              ID              IB              IG             
  0               -4.399e-010     -1.2183e-008    7.912e-010     
  -0.05           -1.2106e-007    -1.1414e-008    2.8569e-009    
  -0.1            -2.0019e-007    -1.6655e-008    1.5766e-009    
  -0.15           -2.4903e-007    -1.3695e-008    1.417e-009     
  -0.2            -2.8278e-007    -2.6837e-008    2.6363e-009    
  -0.25           -3.1121e-007    -2.7463e-008    2.4481e-009    
  -0.3            -3.361e-007     -2.609e-008     2.2165e-009    
  -0.35           -3.5967e-007    -2.3252e-008    1.9648e-009    
  -0.4            -3.8066e-007    -1.1406e-008    -5.7e-010      
  -0.45           -3.9785e-007    1.9235e-008     -1.6344e-009   
  -0.5            -4.1879e-007    1.0984e-008     6.961e-010     
  -0.55           -4.4497e-007    -2.148e-008     1.5103e-009    
  -0.6            -4.6666e-007    -1.2914e-008    2.436e-010     
  -0.65           -4.7926e-007    8.635e-009      -2.6288e-009   
  -0.7            -5.0387e-007    9.875e-009      1.4414e-009    
  -0.75           -5.2556e-007    -2.2716e-008    1.9524e-009    
  -0.8            -5.4585e-007    -1.9295e-008    1.7145e-009    
  -0.85           -5.6231e-007    -1.1481e-008    -7.539e-010    
  -0.9            -5.7763e-007    2.2185e-008     -1.4946e-009   
  -0.95           -5.9935e-007    1.073e-008      8.51e-010      
  -1              -6.2482e-007    -2.4289e-008    1.3712e-009    
  -1.05           -6.3895e-007    -1.0287e-008    -1.023e-009    
  -1.1            -6.5612e-007    2.7241e-008     -1.3884e-009   
  -1.15           -6.8238e-007    9.524e-009      1.1233e-009    
  -1.2            -7.047e-007     -2.7403e-008    2.4968e-009    
  -1.25           -7.2474e-007    -2.6455e-008    2.2695e-009    
  -1.3            -7.4551e-007    -2.3937e-008    2.0218e-009    
  -1.35           -7.6306e-007    -1.1428e-008    -5.375e-010    
  -1.4            -7.7761e-007    1.843e-008      -1.6583e-009   
  -1.45           -8.0084e-007    1.0952e-008     6.602e-010     
  -1.5            -8.2825e-007    -2.0893e-008    1.5484e-009    
  -1.55           -8.503e-007     -1.3295e-008    1.4036e-009    
  -1.6            -8.706e-007     -2.7049e-008    2.6173e-009    
  -1.65           -8.9075e-007    -2.7371e-008    2.4096e-009    
  -1.7            -9.1175e-007    -2.5733e-008    2.172e-009     
  -1.75           -9.3096e-007    -1.1351e-008    -4.283e-010    
  -1.8            -9.4563e-007    1.6674e-008     -1.7716e-009   
END_DB

BEGIN_DB
 ICCAP_VAR VG         -0.72          
 ICCAP_VAR VS         0              
 ICCAP_VAR VB         0              

 #VD              ID              IB              IG             
  0               -1.3694e-009    2.3603e-008     1.2107e-009    
  -0.05           -8.2495e-007    -2.6966e-008    1.2052e-009    
  -0.1            -1.4965e-006    1.0875e-008     2.835e-009     
  -0.15           -2.033e-006     -2.0367e-008    1.7797e-009    
  -0.2            -2.4546e-006    -1.1545e-008    -5.626e-010    
  -0.25           -2.7795e-006    1.6091e-008     -1.7827e-009   
  -0.3            -3.062e-006     1.2274e-008     2.0029e-009    
  -0.35           -3.2869e-006    -1.3155e-008    1.4065e-009    
  -0.4            -3.4727e-006    -1.2853e-008    2.546e-010     
  -0.45           -3.6087e-006    9.154e-009      -1.3167e-009   
  -0.5            -3.7789e-006    1.0701e-008     1.4309e-009    
  -0.55           -3.9008e-006    -2.5622e-008    2.1722e-009    
  -0.6            -4.0194e-006    -2.5319e-008    2.1333e-009    
  -0.65           -4.1325e-006    -2.4802e-008    2.0893e-009    
  -0.7            -4.2402e-006    -2.4315e-008    2.0526e-009    
  -0.75           -4.3437e-006    -2.3703e-008    2.0119e-009    
  -0.8            -4.443e-006     -2.334e-008     1.9726e-009    
  -0.85           -4.5404e-006    -2.284e-008     1.936e-009     
  -0.9            -4.6309e-006    -1.1483e-008    -4.565e-010    
  -0.95           -4.7029e-006    1.4171e-008     -1.9134e-009   
  -1              -4.7972e-006    1.0935e-008     3.044e-010     
  -1.05           -4.9068e-006    -1.7035e-008    2.234e-009     
  -1.1            -4.9926e-006    -2.6016e-008    2.2114e-009    
  -1.15           -5.0774e-006    -2.5608e-008    2.1581e-009    
  -1.2            -5.1607e-006    -2.5145e-008    2.1199e-009    
  -1.25           -5.2416e-006    -2.4795e-008    2.0757e-009    
  -1.3            -5.3248e-006    -2.4272e-008    2.0457e-009    
  -1.35           -5.4036e-006    -2.3744e-008    2.0092e-009    
  -1.4            -5.4851e-006    -2.3131e-008    1.9636e-009    
  -1.45           -5.5641e-006    -2.273e-008     1.9274e-009    
  -1.5            -5.6429e-006    -2.2088e-008    1.8865e-009    
  -1.55           -5.7206e-006    -2.1452e-008    1.8523e-009    
  -1.6            -5.7982e-006    -2.092e-008     1.8116e-009    
  -1.65           -5.8737e-006    -2.0306e-008    1.7784e-009    
  -1.7            -5.9494e-006    -1.9674e-008    1.7384e-009    
  -1.75           -6.0245e-006    -1.8862e-008    1.7066e-009    
  -1.8            -6.1e-006       -1.8315e-008    1.673e-009     
END_DB

BEGIN_DB
 ICCAP_VAR VG         -1.08          
 ICCAP_VAR VS         0              
 ICCAP_VAR VB         0              

 #VD              ID              IB              IG             
  0               -1.7289e-009    9.77e-010       1.4331e-009    
  -0.05           -2.0849e-006    -2.561e-008     -2.6487e-009   
  -0.1            -3.9536e-006    9.099e-009      1.2486e-009    
  -0.15           -5.606e-006     -2.7053e-008    2.4608e-009    
  -0.2            -7.0505e-006    -2.7011e-008    2.4283e-009    
  -0.25           -8.2935e-006    -2.6841e-008    2.382e-009     
  -0.3            -9.3571e-006    -2.6634e-008    2.3553e-009    
  -0.35           -1.02532e-005   -2.638e-008     2.3203e-009    
  -0.4            -1.10069e-005   -2.6309e-008    2.2761e-009    
  -0.45           -1.1654e-005    -2.3619e-008    1.7139e-009    
  -0.5            -1.2186e-005    -1.2285e-008    1.959e-010     
  -0.55           -1.2595e-005    9.96e-009       -2.3028e-009   
  -0.6            -1.3041e-005    1.2216e-008     2.0242e-009    
  -0.65           -1.3406e-005    -2.1369e-008    1.5026e-009    
  -0.7            -1.372e-005     -2.6991e-008    2.4053e-009    
  -0.75           -1.3993e-005    -1.1382e-008    -5.507e-010    
  -0.8            -1.4229e-005    2.3526e-008     -1.457e-009    
  -0.85           -1.4531e-005    9.345e-009      1.1226e-009    
  -0.9            -1.4755e-005    -2.4634e-008    2.0953e-009    
  -0.95           -1.4955e-005    -1.1383e-008    -7.739e-010    
  -1              -1.5138e-005    2.6429e-008     -1.3984e-009   
  -1.05           -1.5417e-005    9.524e-009      1.2982e-009    
  -1.1            -1.5586e-005    -2.0039e-008    1.7732e-009    
  -1.15           -1.5794e-005    -1.2571e-008    2.037e-010     
  -1.2            -1.5904e-005    9.699e-009      -2.3173e-009   
  -1.25           -1.6143e-005    1.2652e-008     2.0171e-009    
  -1.3            -1.6322e-005    -2.1365e-008    1.5212e-009    
  -1.35           -1.6491e-005    -2.6945e-008    2.4263e-009    
  -1.4            -1.6652e-005    -2.052e-008     1.7908e-009    
  -1.45           -1.6823e-005    -1.2576e-008    2.076e-010     
  -1.5            -1.6911e-005    9.611e-009      -2.3264e-009   
  -1.55           -1.7126e-005    1.2645e-008     2.0115e-009    
  -1.6            -1.7286e-005    -2.1421e-008    1.5268e-009    
  -1.65           -1.7438e-005    -2.6991e-008    2.4391e-009    
  -1.7            -1.7575e-005    -2.0714e-008    1.8011e-009    
  -1.75           -1.7738e-005    -1.2647e-008    2.138e-010     
  -1.8            -1.7809e-005    9.547e-009      -2.3284e-009   
END_DB

BEGIN_DB
 ICCAP_VAR VG         -1.44          
 ICCAP_VAR VS         0              
 ICCAP_VAR VB         0              

 #VD              ID              IB              IG             
  0               -1.0096e-008    9.16e-009       1.076e-010     
  -0.05           -3.3646e-006    -1.6713e-008    -2.0893e-009   
  -0.1            -6.5367e-006    2.0825e-008     -1.5478e-009   
  -0.15           -9.5208e-006    1.1015e-008     6.571e-010     
  -0.2            -1.23e-005      -2.1191e-008    9.601e-010     
  -0.25           -1.4881e-005    -2.7231e-008    2.419e-009     
  -0.3            -1.724e-005     -1.1371e-008    -5.479e-010    
  -0.35           -1.9364e-005    2.3623e-008     -1.4541e-009   
  -0.4            -2.1332e-005    9.396e-009      1.1284e-009    
  -0.45           -2.305e-005     -2.4691e-008    2.097e-009     
  -0.5            -2.4551e-005    -1.1335e-008    -7.737e-010    
  -0.55           -2.5874e-005    2.6495e-008     -1.3954e-009   
  -0.6            -2.7107e-005    9.18e-009       1.3007e-009    
  -0.65           -2.8089e-005    -2.0003e-008    1.7817e-009    
  -0.7            -2.8975e-005    -1.2437e-008    2.076e-010     
  -0.75           -2.9659e-005    9.738e-009      -2.3217e-009   
  -0.8            -3.0401e-005    1.2681e-008     2.0122e-009    
  -0.85           -3.1005e-005    -2.1297e-008    1.5122e-009    
  -0.9            -3.1542e-005    -2.7466e-008    2.4438e-009    
  -0.95           -3.2024e-005    -2.0628e-008    1.7875e-009    
  -1              -3.2494e-005    -1.2472e-008    2.124e-010     
  -1.05           -3.2814e-005    9.482e-009      -2.3346e-009   
  -1.1            -3.3293e-005    1.2625e-008     2.0075e-009    
  -1.15           -3.3666e-005    -2.1122e-008    1.5172e-009    
  -1.2            -3.4013e-005    -2.7432e-008    2.4525e-009    
  -1.25           -3.4333e-005    -2.087e-008     1.8011e-009    
  -1.3            -3.4665e-005    -2.6171e-008    1.2911e-009    
  -1.35           -3.4954e-005    -1.1557e-008    -2.872e-010    
  -1.4            -3.5188e-005    1.9286e-008     -1.6198e-009   
  -1.45           -3.5526e-005    9.846e-009      9.327e-010     
  -1.5            -3.5826e-005    -2.7465e-008    2.4594e-009    
  -1.55           -3.6065e-005    -1.143e-008     -5.195e-010    
  -1.6            -3.6268e-005    2.2996e-008     -1.4701e-009   
  -1.65           -3.661e-005     9.292e-009      1.0987e-009    
  -1.7            -3.684e-005     -2.5191e-008    2.1447e-009    
  -1.75           -3.705e-005     -1.1378e-008    -7.458e-010    
  -1.8            -3.7236e-005    2.6281e-008     -1.4011e-009   
END_DB

BEGIN_DB
 ICCAP_VAR VG         -1.8           
 ICCAP_VAR VS         0              
 ICCAP_VAR VB         0              

 #VD              ID              IB              IG             
  0               -1.1622e-008    -1.1368e-008    -7.237e-010    
  -0.05           -4.3367e-006    8.559e-009      1.611e-009     
  -0.1            -8.533e-006     -2.1611e-008    1.8757e-009    
  -0.15           -1.2555e-005    -2.0755e-008    1.8428e-009    
  -0.2            -1.6433e-005    -1.9356e-008    1.7185e-009    
  -0.25           -2.0142e-005    -2.6776e-008    2.6398e-009    
  -0.3            -2.3685e-005    -2.4406e-008    2.0477e-009    
  -0.35           -2.7027e-005    -1.1429e-008    -8.016e-010    
  -0.4            -3.0158e-005    2.6921e-008     -1.3909e-009   
  -0.45           -3.3165e-005    9.294e-009      1.3295e-009    
  -0.5            -3.5933e-005    -1.9019e-008    1.7216e-009    
  -0.55           -3.8511e-005    -1.2143e-008    1.763e-010     
  -0.6            -4.0801e-005    1.0259e-008     -2.2744e-009   
  -0.65           -4.3009e-005    1.2647e-008     2.0458e-009    
  -0.7            -4.4982e-005    -2.1684e-008    1.4776e-009    
  -0.75           -4.6754e-005    -2.7066e-008    2.3748e-009    
  -0.8            -4.8342e-005    -1.9332e-008    1.7222e-009    
  -0.85           -4.9794e-005    -1.2082e-008    1.755e-010     
  -0.9            -5.0959e-005    1.0204e-008     -2.2793e-009   
  -0.95           -5.217e-005     1.2649e-008     2.0415e-009    
  -1              -5.3188e-005    -2.173e-008     1.4763e-009    
  -1.05           -5.4071e-005    -2.7151e-008    2.3778e-009    
  -1.1            -5.4878e-005    -1.9576e-008    1.7285e-009    
  -1.15           -5.5632e-005    -2.6737e-008    2.6437e-009    
  -1.2            -5.6282e-005    -2.4483e-008    2.0576e-009    
  -1.25           -5.6874e-005    -1.1259e-008    -7.953e-010    
  -1.3            -5.7408e-005    2.6894e-008     -1.3906e-009   
  -1.35           -5.8074e-005    9.702e-009      1.3271e-009    
  -1.4            -5.8547e-005    -1.9263e-008    1.7257e-009    
  -1.45           -5.9041e-005    -2.6797e-008    2.6523e-009    
  -1.5            -5.9481e-005    -2.4422e-008    2.0609e-009    
  -1.55           -5.9896e-005    -1.1236e-008    -7.944e-010    
  -1.6            -6.0265e-005    2.6946e-008     -1.3944e-009   
  -1.65           -6.0798e-005    9.683e-009      1.3221e-009    
  -1.7            -6.1141e-005    -1.9246e-008    1.7323e-009    
  -1.75           -6.1529e-005    -2.6654e-008    2.6534e-009    
  -1.8            -6.1874e-005    -2.4531e-008    2.0705e-009    
END_DB

BEGIN_DB
 ICCAP_VAR VG         0              
 ICCAP_VAR VS         0              
 ICCAP_VAR VB         0.9            

 #VD              ID              IB              IG             
  0               -1.3179e-009    1.0898e-008     -1.3852e-009   
  -0.05           -2.1292e-009    -1.135e-008     -2.069e-010    
  -0.1            -2.1938e-009    -1.1493e-008    -4.162e-010    
  -0.15           -1.3825e-009    -2.4632e-008    2.4874e-009    
  -0.2            2.1897e-009     -3.255e-009     1.2038e-009    
  -0.25           1.9501e-009     1.0783e-008     -2.457e-010    
  -0.3            8.933e-010      2.4807e-008     -1.5743e-009   
  -0.35           -1.4729e-009    6.74e-009       -1.7235e-009   
  -0.4            -1.5618e-009    -1.8033e-008    2.0599e-009    
  -0.45           1.9018e-009     -7.027e-009     1.4607e-009    
  -0.5            2.0663e-009     1.0716e-008     1.47e-011      
  -0.55           2.1597e-009     1.0962e-008     2.037e-010     
  -0.6            2.2434e-009     1.1075e-008     3.99e-010      
  -0.65           2.3046e-009     1.0841e-008     5.934e-010     
  -0.7            2.3359e-009     1.0017e-008     7.763e-010     
  -0.75           2.3239e-009     9.344e-009      9.361e-010     
  -0.8            2.2641e-009     9.189e-009      1.0852e-009    
  -0.85           2.1372e-009     9.922e-009      1.237e-009     
  -0.9            1.9611e-009     1.0717e-008     -2.06e-010     
  -0.95           9.114e-010      2.5446e-008     -1.543e-009    
  -1              -1.4407e-009    7.268e-009      -1.7567e-009   
  -1.05           -1.5907e-009    -1.6924e-008    1.9825e-009    
  -1.1            1.8302e-009     -7.816e-009     1.5038e-009    
  -1.15           2.0758e-009     1.0798e-008     5.92e-011      
  -1.2            2.1707e-009     1.085e-008      2.56e-010      
  -1.25           2.2461e-009     1.0823e-008     4.519e-010     
  -1.3            2.3017e-009     1.0257e-008     6.445e-010     
  -1.35           2.3194e-009     9.536e-009      8.223e-010     
  -1.4            2.2941e-009     9.189e-009      9.765e-010     
  -1.45           2.2174e-009     9.936e-009      1.1214e-009    
  -1.5            2.0666e-009     1.1378e-008     1.2816e-009    
  -1.55           1.9607e-009     1.077e-008      -1.638e-010    
  -1.6            9.225e-010      2.6136e-008     -1.5061e-009   
  -1.65           -1.4146e-009    7.831e-009      -1.7902e-009   
  -1.7            -2.238e-009     -1.1493e-008    -4.517e-010    
  -1.75           -1.4456e-009    -2.4077e-008    2.4331e-009    
  -1.8            2.1152e-009     -3.636e-009     1.2317e-009    
END_DB

BEGIN_DB
 ICCAP_VAR VG         -0.36          
 ICCAP_VAR VS         0              
 ICCAP_VAR VB         0.9            

 #VD              ID              IB              IG             
  0               1.0661e-009     -1.155e-008     1.2494e-009    
  -0.05           -1.3265e-008    -1.2832e-008    -1.5053e-009   
  -0.1            -1.5337e-008    1.2375e-008     2.0471e-009    
  -0.15           -2.1782e-008    -1.7692e-008    1.6427e-009    
  -0.2            -2.4536e-008    -2.3458e-008    1.9876e-009    
  -0.25           -2.692e-008     -2.6838e-008    2.3494e-009    
  -0.3            -3.021e-008     -1.1683e-008    7.91e-011      
  -0.35           -3.1907e-008    9.167e-009      -1.3232e-009   
  -0.4            -3.1543e-008    9.311e-009      1.1642e-009    
  -0.45           -3.8253e-008    -2.381e-008     1.3806e-009    
  -0.5            -4.2033e-008    -1.721e-008     1.6083e-009    
  -0.55           -4.4977e-008    -2.3032e-008    1.9476e-009    
