! VERSION = 6.00
BEGIN_HEADER
 ICCAP_INPUTS
  VG         V  B GROUND SMU4 0.001 LIN        1    0          -1.8       37   -0.05     
  VS         V  E GROUND SMU2 0.1 CON        0
  VB         V  C GROUND SMU3 0.1 LIN        3    0          1.8        3    0.9       
  VD         V  S GROUND SMU1 0.1 LIN        2    -0.1       -1.8       2    -1.7      
 ICCAP_OUTPUTS
  IG         I  B GROUND SMU4 B
  ID         I  S GROUND SMU1 B
  IB         I  C GROUND SMU3 B
END_HEADER

BEGIN_DB
 ICCAP_VAR VS         0              
 ICCAP_VAR VB         0              
 ICCAP_VAR VD         -0.1           

 #VG              IG              ID              IB             
  0               -8.034e-010     -2.1959e-008    -2.5786e-008   
  -0.05           -1.3341e-009    -4.1475e-008    9.064e-009     
  -0.1            -2.4265e-009    -7.2753e-008    8.558e-009     
  -0.15           -1.4427e-009    -1.162e-007     -8.352e-009    
  -0.2            -1.3613e-009    -1.7886e-007    8.754e-009     
  -0.25           -2.5968e-009    -2.5751e-007    8.147e-009     
  -0.3            -1.9864e-009    -3.5868e-007    1.161e-009     
  -0.35           -2.6668e-009    -4.8234e-007    -5.972e-009    
  -0.4            1.915e-010      -6.3349e-007    -1.2265e-008   
  -0.45           1.3858e-009     -8.0386e-007    -2.4186e-008   
  -0.5            2.8858e-009     -9.9824e-007    -9.33e-009     
  -0.55           -1.4779e-009    -1.2131e-006    -5.536e-009    
  -0.6            -1.3713e-009    -1.4588e-006    8.266e-009     
  -0.65           -1.2966e-009    -1.7271e-006    8.601e-009     
  -0.7            -2.128e-009     -2.0218e-006    1.1197e-008    
  -0.75           2.5775e-009     -2.35e-006      -2.7738e-008   
  -0.8            1.8376e-009     -2.6887e-006    -3.228e-009    
  -0.85           1.3537e-009     -3.0565e-006    -8.837e-009    
  -0.9            2.8945e-009     -3.4472e-006    -9.627e-009    
  -0.95           2.6918e-009     -3.853e-006     -3.16e-010     
  -1              2.0215e-009     -4.2796e-006    -2.337e-009    
  -1.05           1.4207e-009     -4.7133e-006    -7.818e-009    
  -1.1            2.8668e-009     -5.1506e-006    -9.091e-009    
  -1.15           2.79e-009       -5.5758e-006    1.03e-010      
  -1.2            1.444e-009      -6.0103e-006    1.0978e-008    
  -1.25           3.051e-010      -6.4106e-006    1.0892e-008    
  -1.3            7.768e-010      -6.8158e-006    1.0657e-008    
  -1.35           1.1652e-009     -7.2099e-006    9.253e-009     
  -1.4            1.584e-009      -7.5866e-006    1.212e-008     
  -1.45           2.0491e-009     -7.9411e-006    1.2113e-008    
  -1.5            9.047e-010      -8.2831e-006    1.0163e-008    
  -1.55           1.293e-009      -8.6207e-006    9.53e-009      
  -1.6            1.7371e-009     -8.9391e-006    1.2506e-008    
  -1.65           6.197e-010      -9.239e-006     1.0991e-008    
  -1.7            1.0271e-009     -9.537e-006     9.433e-009     
  -1.75           1.4353e-009     -9.8243e-006    1.0962e-008    
  -1.8            2.872e-010      -1.00885e-005   1.0872e-008    
END_DB

BEGIN_DB
 ICCAP_VAR VS         0              
 ICCAP_VAR VB         0              
 ICCAP_VAR VD         -1.8           

 #VG              IG              ID              IB             
  0               9.531e-010      -1.6636e-007    -1.1458e-008   
  -0.05           1.416e-009      -2.8676e-007    -7.978e-009    
  -0.1            2.8742e-009     -4.5392e-007    -9.152e-009    
  -0.15           2.7869e-009     -6.6949e-007    8.8e-011       
  -0.2            1.4431e-009     -9.5093e-007    1.0707e-008    
  -0.25           -1.384e-009     -1.284e-006     -1.1308e-008   
  -0.3            -1.3229e-009    -1.6963e-006    9.082e-009     
  -0.35           -2.3308e-009    -2.1882e-006    9.518e-009     
  -0.4            2.131e-010      -2.7901e-006    -1.2613e-008   
  -0.45           1.4116e-009     -3.4634e-006    -2.3389e-008   
  -0.5            2.8822e-009     -4.2408e-006    -9.249e-009    
  -0.55           2.761e-009      -5.121e-006     9.4e-011       
  -0.6            1.4731e-009     -6.1585e-006    9.929e-009     
  -0.65           3.235e-010      -7.2584e-006    1.0798e-008    
  -0.7            7.972e-010      -8.5465e-006    1.0705e-008    
  -0.75           1.1819e-009     -9.9946e-006    9.2e-009       
  -0.8            -2.2243e-009    -1.1524e-005    1.1385e-008    
  -0.85           1.635e-010      -1.3301e-005    -1.2211e-008   
  -0.9            1.3693e-009     -1.5196e-005    -2.4455e-008   
  -0.95           2.8947e-009     -1.7248e-005    -9.616e-009    
  -1              2.6984e-009     -1.9465e-005    -2.76e-010     
  -1.05           6.028e-010      -2.1864e-005    1.096e-008     
  -1.1            1.0192e-009     -2.4472e-005    9.646e-009     
  -1.15           1.4173e-009     -2.7253e-005    1.0637e-008    
  -1.2            2.671e-010      -3.0044e-005    1.0712e-008    
  -1.25           7.486e-010      -3.3103e-005    1.0814e-008    
  -1.3            1.1367e-009     -3.6337e-005    9.317e-009     
  -1.35           1.5595e-009     -3.968e-005     1.1732e-008    
  -1.4            2.0241e-009     -4.3057e-005    1.2494e-008    
  -1.45           8.739e-010      -4.6563e-005    1.0305e-008    
  -1.5            1.2578e-009     -5.0252e-005    9.354e-009     
  -1.55           1.6935e-009     -5.3949e-005    1.2337e-008    
  -1.6            5.733e-010      -5.7654e-005    1.0963e-008    
  -1.65           9.94e-010       -6.1583e-005    9.741e-009     
  -1.7            1.3906e-009     -6.559e-005     1.0351e-008    
  -1.75           1.8487e-009     -6.9558e-005    1.2696e-008    
  -1.8            7.146e-010      -7.3526e-005    1.1108e-008    
END_DB

BEGIN_DB
 ICCAP_VAR VS         0              
 ICCAP_VAR VB         0.9            
 ICCAP_VAR VD         -0.1           

 #VG              IG              ID              IB             
  0               -1.1842e-009    -1.2015e-009    1.1334e-008    
  -0.05           -1.9541e-009    -1.6557e-009    1.198e-009     
  -0.1            -8.13e-010      -3.7611e-009    -1.0406e-008   
  -0.15           1.9304e-009     -6.5938e-009    -1.582e-008    
  -0.2            -1.3824e-009    -1.4906e-008    -1.1511e-008   
  -0.25           -1.3115e-009    -3.3607e-008    9.141e-009     
  -0.3            -2.219e-009     -6.6333e-008    1.0332e-008    
  -0.35           -1.4485e-009    -1.1619e-007    -8.556e-009    
  -0.4            -1.367e-009     -1.9135e-007    8.709e-009     
  -0.45           -2.6025e-009    -2.9196e-007    8.296e-009     
  -0.5            -2.0104e-009    -4.2443e-007    1.078e-009     
  -0.55           -9.961e-010     -5.8938e-007    -1.052e-008    
  -0.6            2.116e-010      -7.9303e-007    -1.2458e-008   
  -0.65           1.4141e-009     -1.02776e-006   -2.3856e-008   
  -0.7            2.903e-009      -1.291e-006     2.8168e-008    
  -0.75           2.6733e-009     -1.5969e-006    -3.16e-010     
  -0.8            2.0017e-009     -1.9335e-006    -2.262e-009    
  -0.85           1.4204e-009     -2.3013e-006    -7.879e-009    
  -0.9            2.876e-009      -2.6969e-006    -9.151e-009    
  -0.95           2.1482e-009     -3.1121e-006    1.205e-008     
  -1              9.903e-010      -3.546e-006     9.66e-009      
  -1.05           1.3791e-009     -3.996e-006     9.561e-009     
  -1.1            1.8319e-009     -4.4396e-006    1.2602e-008    
  -1.15           7.03e-010       -4.8736e-006    1.1141e-008    
  -1.2            1.0974e-009     -5.3146e-006    9.485e-009     
  -1.25           1.5062e-009     -5.7413e-006    1.0249e-008    
  -1.3            3.616e-010      -6.1396e-006    1.0993e-008    
  -1.35           8.308e-010      -6.538e-006     1.0749e-008    
  -1.4            1.203e-009      -6.9248e-006    9.139e-009     
  -1.45           1.93e-011       -7.2819e-006    1.0835e-008    
  -1.5            5.055e-010      -7.6345e-006    1.093e-008     
  -1.55           9.386e-010      -7.9747e-006    1.003e-008     
  -1.6            1.3218e-009     -8.3048e-006    9.259e-009     
  -1.65           1.7663e-009     -8.6154e-006    1.2361e-008    
  -1.7            6.442e-010      -8.9058e-006    1.1047e-008    
  -1.75           1.0495e-009     -9.1981e-006    9.616e-009     
  -1.8            1.4426e-009     -9.4778e-006    9.805e-009     
END_DB

BEGIN_DB
 ICCAP_VAR VS         0              
 ICCAP_VAR VB         0.9            
 ICCAP_VAR VD         -1.8           

 #VG              IG              ID              IB             
  0               -4.71e-010      -2.7101e-009    -1.1556e-008   
  -0.05           -2.0302e-009    -1.1487e-008    -2.2572e-008   
  -0.1            2.5064e-009     -3.0381e-008    -2.7522e-008   
  -0.15           1.7696e-009     -7.1114e-008    -3.752e-009    
  -0.2            -5.81e-011      -1.5239e-007    8.617e-009     
  -0.25           2.5996e-009     -2.77e-007      -2.7334e-008   
  -0.3            1.8773e-009     -4.5362e-007    -3.181e-009    
  -0.35           1.3635e-009     -6.9803e-007    -8.841e-009    
  -0.4            2.8932e-009     -1.01548e-006   -9.554e-009    
  -0.45           1.3062e-009     -1.4215e-006    5.837e-009     
  -0.5            1.7616e-009     -1.9244e-006    1.2273e-008    
  -0.55           6.255e-010      -2.5195e-006    1.1158e-008    
  -0.6            1.0329e-009     -3.2657e-006    9.768e-009     
  -0.65           1.4358e-009     -4.1523e-006    9.754e-009     
  -0.7            2.868e-010      -5.1342e-006    1.0884e-008    
  -0.75           7.618e-010      -6.322e-006     1.1105e-008    
  -0.8            1.1466e-009     -7.6941e-006    9.297e-009     
  -0.85           1.5607e-009     -9.2366e-006    1.0694e-008    
  -0.9            2.0259e-009     -1.09239e-005   1.2848e-008    
  -0.95           -1.332e-009     -1.2744e-005    2.7233e-008    
  -1              2.3975e-009     -1.489e-005     -2.6879e-008   
  -1.05           1.6566e-009     -1.7152e-005    -4.701e-009    
  -1.1            2.7865e-009     -1.9601e-005    -8.926e-009    
  -1.15           8.582e-010      -2.2205e-005    1.0377e-008    
  -1.2            1.2382e-009     -2.5033e-005    9.209e-009     
  -1.25           6.39e-011       -2.7875e-005    1.0739e-008    
  -1.3            5.519e-010      -3.0978e-005    1.0936e-008    
  -1.35           9.68e-010       -3.4238e-005    9.762e-009     
  -1.4            1.3564e-009     -3.7635e-005    1.014e-008     
  -1.45           1.8149e-009     -4.1087e-005    1.2723e-008    
  -1.5            6.846e-010      -4.4548e-005    1.104e-008     
  -1.55           1.0805e-009     -4.8255e-005    9.352e-009     
  -1.6            1.4909e-009     -5.2044e-005    1.1299e-008    
  -1.65           3.476e-010      -5.5712e-005    1.0811e-008    
  -1.7            8.107e-010      -5.964e-005     1.0551e-008    
  -1.75           1.1969e-009     -6.3639e-005    9.116e-009     
  -1.8            4.8e-012        -6.7501e-005    1.0709e-008    
END_DB

BEGIN_DB
 ICCAP_VAR VS         0              
 ICCAP_VAR VB         1.8            
 ICCAP_VAR VD         -0.1           

 #VG              IG              ID              IB             
  0               1.2755e-009     1.3323e-009     -1.1563e-008   
  -0.05           1.3637e-009     2.0252e-009     1.1961e-008    
  -0.1            1.5577e-009     1.7635e-009     1.2719e-008    
  -0.15           -1.25e-010      1.916e-009      1.2512e-008    
  -0.2            -1.4807e-009    5.907e-010      2.6763e-008    
  -0.25           -2.6689e-009    -2.6464e-009    8.62e-009      
  -0.3            1.6052e-009     -7.4073e-009    -1.2614e-008   
  -0.35           -1.8854e-009    -1.8173e-008    -2.0274e-008   
  -0.4            -2.7082e-009    -4.3278e-008    -5.728e-009    
  -0.45           2.6179e-009     -8.8276e-008    -2.707e-008    
  -0.5            -8.668e-010     -1.5906e-007    1.0046e-008    
  -0.55           1.4979e-009     -2.6256e-007    -1.4795e-008   
  -0.6            2.8529e-009     -3.9935e-007    -8.853e-009    
  -0.65           2.0845e-009     -5.7878e-007    1.2383e-008    
  -0.7            9.222e-010      -8.0466e-007    1.0058e-008    
  -0.75           1.3025e-009     -1.07798e-006   9.621e-009     
  -0.8            -1.9899e-009    -1.3866e-006    -1.3097e-008   
  -0.85           -2.6779e-009    -1.7417e-006    -6.068e-009    
  -0.9            1.2926e-009     -2.1379e-006    -2.6397e-008   
  -0.95           2.8841e-009     -2.5571e-006    -1.0562e-008   
  -1              1.2395e-009     -2.9957e-006    9.196e-009     
  -1.05           6.26e-011       -3.4326e-006    1.0628e-008    
  -1.1            5.502e-010      -3.8887e-006    1.0994e-008    
  -1.15           9.724e-010      -4.344e-006     9.823e-009     
  -1.2            1.3596e-009     -4.7925e-006    1.006e-008     
  -1.25           1.8116e-009     -5.2199e-006    1.2718e-008    
  -1.3            6.797e-010      -5.6284e-006    1.1125e-008    
  -1.35           1.079e-009      -6.0356e-006    9.583e-009     
  -1.4            1.4808e-009     -6.4265e-006    1.0038e-008    
  -1.45           3.329e-010      -6.7856e-006    1.0864e-008    
  -1.5            8.013e-010      -7.1445e-006    1.0894e-008    
  -1.55           1.1829e-009     -7.4914e-006    9.163e-009     
  -1.6            1.6084e-009     -7.8207e-006    1.2083e-008    
  -1.65           2.0701e-009     -8.1311e-006    1.2414e-008    
  -1.7            9.165e-010      -8.4322e-006    1.0099e-008    
  -1.75           1.2987e-009     -8.7258e-006    9.51e-009      
  -1.8            1.7379e-009     -9.0057e-006    1.2457e-008    
END_DB

BEGIN_DB
 ICCAP_VAR VS         0              
 ICCAP_VAR VB         1.8            
 ICCAP_VAR VD         -1.8           

 #VG              IG              ID              IB             
  0               6.197e-010      -1.817e-010     1.2433e-008    
  -0.05           2.8793e-009     -8.85e-011      -1.0833e-008   
  -0.1            -1.516e-009     1.0599e-009     -9e-012        
  -0.15           -1.4259e-009    -3.2904e-009    8.03e-009      
  -0.2            -2.6015e-009    -1.1695e-008    -1.7022e-008   
  -0.25           -7.396e-010     -3.3945e-008    -1.1435e-008   
  -0.3            1.6787e-009     -8.3088e-008    -1.8115e-008   
  -0.35           -5.948e-010     -1.7366e-007    8.163e-009     
  -0.4            1.8604e-009     -3.191e-007     -2.1534e-008   
  -0.45           1.3522e-009     -5.2813e-007    -9.082e-009    
  -0.5            2.8933e-009     -8.2143e-007    -9.73e-009     
  -0.55           1.7145e-009     -1.2087e-006    8.82e-009      
  -0.6            5.903e-010      -1.6961e-006    1.1009e-008    
  -0.65           1.0039e-009     -2.3326e-006    9.86e-009      
  -0.7            1.3949e-009     -3.1238e-006    9.528e-009     
  -0.75           1.8488e-009     -4.0642e-006    1.2813e-008    
  -0.8            7.197e-010      -5.1637e-006    1.0913e-008    
  -0.85           1.1085e-009     -6.4926e-006    9.283e-009     
  -0.9            1.5195e-009     -8.0261e-006    1.1579e-008    
  -0.95           1.9871e-009     -9.7222e-006    1.2658e-008    
  -1              -2.6048e-009    -1.1599e-005    9.045e-009     
  -1.05           -2.0716e-009    -1.3694e-005    1.209e-009     
  -1.1            2.5346e-009     -1.6051e-005    -2.7039e-008   
  -1.15           1.8152e-009     -1.8532e-005    -3.278e-009    
  -1.2            1.3385e-009     -2.1196e-005    -9.161e-009    
  -1.25           2.894e-009      -2.4035e-005    -9.96e-009     
  -1.3            2.6608e-009     -2.6985e-005    -2.77e-010     
  -1.35           2.0271e-009     -3.0126e-005    -2.095e-009    
  -1.4            1.426e-009      -3.3381e-005    -7.967e-009    
  -1.45           2.8757e-009     -3.6763e-005    -9.392e-009    
  -1.5            2.7714e-009     -4.0191e-005    1.76e-010      
  -1.55           1.4389e-009     -4.3842e-005    1.0769e-008    
  -1.6            2.942e-010      -4.7372e-005    1.0751e-008    
  -1.65           7.705e-010      -5.1124e-005    1.0771e-008    
  -1.7            1.15e-009       -5.4993e-005    9.143e-009     
  -1.75           1.574e-009      -5.8898e-005    1.1887e-008    
  -1.8            2.0362e-009     -6.2768e-005    1.2689e-008    
END_DB

