! VERSION = 6.00
BEGIN_HEADER
 ICCAP_INPUTS
  VG         V  B GROUND SMU4 0.001 LIN        2    0          -1.8       6    -0.36     
  VS         V  E GROUND SMU2 0.1 CON        0
  VD         V  S GROUND SMU1 0.1 LIN        1    0          -1.8       37   -0.05     
  VB         V  C GROUND SMU3 0.1 LIN        3    0          0.9        2    0.9       
 ICCAP_OUTPUTS
  ID         I  S GROUND SMU1 B
  IB         I  C GROUND SMU3 B
  IG         I  B GROUND SMU4 B
END_HEADER

BEGIN_DB
 ICCAP_VAR VG         0              
 ICCAP_VAR VS         0              
 ICCAP_VAR VB         0              

 #VD              ID              IB              IG             
  0               4.98e-010       1.4527e-008     4.295e-010     
  -0.05           -7.8282e-009    -1.5951e-008    1.6723e-009    
  -0.1            -1.1411e-008    2.981e-009      -1.2436e-009   
  -0.15           -1.0422e-008    9.105e-009      9.249e-010     
  -0.2            -1.418e-008     -4.34e-009      1.1061e-009    
  -0.25           -1.7821e-008    -1.294e-008     1.626e-009     
  -0.3            -2.0752e-008    -1.219e-008     1.1407e-009    
  -0.35           -2.5255e-008    -9.874e-009     1.1506e-009    
  -0.4            -2.8963e-008    -1.092e-008     1.1553e-009    
  -0.45           -3.3088e-008    -1.2498e-008    1.1547e-009    
  -0.5            -3.7454e-008    -1.4269e-008    1.1487e-009    
  -0.55           -4.1252e-008    -1.6808e-008    1.2482e-009    
  -0.6            -4.625e-008     -1.5728e-008    1.3467e-009    
  -0.65           -5.1805e-008    -1.4465e-008    1.4658e-009    
  -0.7            -5.7727e-008    -1.3291e-008    1.5922e-009    
  -0.75           -6.3949e-008    -1.2465e-008    1.7185e-009    
  -0.8            -7.0464e-008    -1.1721e-008    1.1559e-009    
  -0.85           -7.9391e-008    -1.0484e-008    1.1558e-009    
  -0.9            -8.5838e-008    -9.64e-009      -1.148e-010    
  -0.95           -9.2641e-008    7.598e-009      -1.7673e-009   
  -1              -9.9344e-008    1.1248e-008     1.0573e-009    
  -1.05           -1.09709e-007   -5.571e-009     1.1405e-009    
  -1.1            -1.1808e-007    9.889e-009      -1.5297e-009   
  -1.15           -1.2605e-007    1.4885e-008     1.6182e-009    
  -1.2            -1.3974e-007    -1.6563e-008    1.2841e-009    
  -1.25           -1.4887e-007    -9.779e-009     -2.543e-010    
  -1.3            -1.5792e-007    1.628e-009      -1.2542e-009   
  -1.35           -1.6922e-007    8.663e-009      6.077e-010     
  -1.4            -1.8301e-007    -4.511e-009     1.1101e-009    
  -1.45           -1.9756e-007    -1.4342e-008    1.1658e-009    
  -1.5            -2.1038e-007    -9.878e-009     1.1496e-009    
  -1.55           -2.2242e-007    -1.2714e-008    1.6936e-009    
  -1.6            -2.3622e-007    -1.6025e-008    1.3169e-009    
  -1.65           -2.5212e-007    -1.1889e-008    1.1542e-009    
  -1.7            -2.6144e-007    -9.811e-009     -3.542e-010    
  -1.75           -2.7514e-007    2.589e-009      -1.2525e-009   
  -1.8            -2.9371e-007    8.372e-009      7.072e-010     
END_DB

BEGIN_DB
 ICCAP_VAR VG         -0.36          
 ICCAP_VAR VS         0              
 ICCAP_VAR VB         0              

 #VD              ID              IB              IG             
  0               -9.893e-009     1.0206e-008     -3.36e-011     
  -0.05           -2.2061e-006    -3.445e-009     -8.743e-010    
  -0.1            -3.4849e-006    2.766e-009      -1.2469e-009   
  -0.15           -4.3726e-006    9.496e-009      9.796e-010     
  -0.2            -4.9799e-006    -8.618e-009     1.1489e-009    
  -0.25           -5.4968e-006    -8.763e-009     1.1487e-009    
  -0.3            -5.9627e-006    -1.1077e-008    1.1673e-009    
  -0.35           -6.326e-006     -9.939e-009     -3.037e-010    
  -0.4            -6.7211e-006    8.16e-010       -1.2574e-009   
  -0.45           -7.1957e-006    9.321e-009      4.865e-010     
  -0.5            -7.616e-006     -3.1e-009       1.0568e-009    
  -0.55           -8.0291e-006    -1.256e-008     1.6864e-009    
  -0.6            -8.4377e-006    -1.4282e-008    1.4783e-009    
  -0.65           -8.8281e-006    -1.7436e-008    1.145e-009     
  -0.7            -9.2404e-006    -1.3925e-008    1.1482e-009    
  -0.75           -9.6485e-006    -1.0919e-008    1.1542e-009    
  -0.8            -9.9422e-006    -1.0283e-008    -3.006e-010    
  -0.85           -1.03063e-005   9e-010          -1.2565e-009   
  -0.9            -1.07916e-005   9.244e-009      4.859e-010     
  -0.95           -1.12127e-005   -3.241e-009     1.0596e-009    
  -1              -1.1656e-005    2.657e-009      1.1695e-009    
  -1.05           -1.2046e-005    -1.5168e-008    1.3885e-009    
  -1.1            -1.2327e-005    -9.654e-009     -3.971e-010    
  -1.15           -1.2712e-005    3.05e-009       -1.2482e-009   
  -1.2            -1.328e-005     1.2334e-008     1.2573e-009    
  -1.25           -1.3694e-005    -1.4643e-008    1.4445e-009    
  -1.3            -1.4131e-005    -1.0475e-008    1.1538e-009    
  -1.35           -1.4534e-005    -1.3802e-008    1.5245e-009    
  -1.4            -1.4992e-005    -1.0363e-008    1.152e-009     
  -1.45           -1.5393e-005    -1.4629e-008    1.4335e-009    
  -1.5            -1.5856e-005    -9.721e-009     1.1482e-009    
  -1.55           -1.6276e-005    -1.5502e-008    1.3568e-009    
  -1.6            -1.655e-005     -9.816e-009     -3.952e-010    
  -1.65           -1.696e-005     3.129e-009      -1.2479e-009   
  -1.7            -1.7593e-005    1.3425e-008     1.3e-009       
  -1.75           -1.8049e-005    -1.5277e-008    1.3722e-009    
  -1.8            -1.8539e-005    -1.1005e-008    1.1789e-009    
END_DB

BEGIN_DB
 ICCAP_VAR VG         -0.72          
 ICCAP_VAR VS         0              
 ICCAP_VAR VB         0              

 #VD              ID              IB              IG             
  0               -4.7779e-008    -1.1773e-008    -1.2004e-009   
  -0.05           -1.7524e-005    -1.5952e-008    4.202e-010     
  -0.1            -3.1783e-005    -4.322e-009     1.1311e-009    
  -0.15           -4.3113e-005    -9.798e-009     1.1524e-009    
  -0.2            -5.1974e-005    -1.2826e-008    1.6212e-009    
  -0.25           -5.8806e-005    -9.637e-009     -2.431e-010    
  -0.3            -6.4181e-005    2.56e-009       -1.2475e-009   
  -0.35           -6.9141e-005    1.192e-008      1.0664e-009    
  -0.4            -7.2859e-005    -1.053e-008     1.1547e-009    
  -0.45           -7.6032e-005    -1.438e-008     1.4369e-009    
  -0.5            -7.8985e-005    -1.0373e-008    1.1539e-009    
  -0.55           -8.1518e-005    -1.3712e-008    1.5264e-009    
  -0.6            -8.4033e-005    -1.0565e-008    1.1558e-009    
  -0.65           -8.6237e-005    -1.4379e-008    1.4354e-009    
  -0.7            -8.848e-005     -1.0258e-008    1.1566e-009    
  -0.75           -9.0465e-005    -1.3704e-008    1.5125e-009    
  -0.8            -9.2563e-005    -1.0504e-008    1.1516e-009    
  -0.85           -9.4419e-005    -1.4229e-008    1.4279e-009    
  -0.9            -9.6383e-005    -1.0465e-008    1.1602e-009    
  -0.95           -9.8132e-005    -1.286e-008     1.5047e-009    
  -1              -0.000100026    -1.0419e-008    1.1557e-009    
  -1.05           -0.00010171     -1.4492e-008    1.4316e-009    
  -1.1            -0.000103518    -1.0737e-008    1.1552e-009    
  -1.15           -0.000105132    -1.3893e-008    1.517e-009     
  -1.2            -0.00010692     -1.0502e-008    1.1566e-009    
  -1.25           -0.000108497    -1.4557e-008    1.4274e-009    
  -1.3            -0.000110195    -1.0596e-008    1.1826e-009    
  -1.35           -0.000111733    -1.4031e-008    1.5046e-009    
  -1.4            -0.000113399    -9.971e-009     1.1849e-009    
  -1.45           -0.00011444     -1.344e-008     -1.4528e-009   
  -1.5            -0.00011592     1.139e-008      -1.5264e-009   
  -1.55           -0.00011773     1.5119e-008     1.6293e-009    
  -1.6            -0.00011957     -1.6136e-008    1.2633e-009    
  -1.65           -0.0001212      -1.1195e-008    1.1554e-009    
  -1.7            -0.00012264     -1.1671e-008    1.1506e-009    
  -1.75           -0.00012409     -1.2853e-008    1.6263e-009    
  -1.8            -0.00012563     -1.6364e-008    1.2623e-009    
END_DB

BEGIN_DB
 ICCAP_VAR VG         -1.08          
 ICCAP_VAR VS         0              
 ICCAP_VAR VB         0              

 #VD              ID              IB              IG             
  0               -9.8505e-008    -1.9557e-008    -1.16e-009     
  -0.05           -4.3281e-005    -9.956e-009     -1.2554e-009   
  -0.1            -8.2347e-005    1.2222e-008     1.2654e-009    
  -0.15           -0.00011693     -8.735e-009     1.1466e-009    
  -0.2            -0.00014699     -1.4295e-008    1.4819e-009    
  -0.25           -0.00017285     -1.0013e-008    -9.89e-011     
  -0.3            -0.00019464     -5.69e-010      -1.2726e-009   
  -0.35           -0.00021371     8.834e-009      5.029e-010     
  -0.4            -0.0002293      -3.781e-009     1.0788e-009    
  -0.45           -0.00024248     -1.578e-008     1.3257e-009    
  -0.5            -0.00025308     -9.844e-009     -2.32e-010     
  -0.55           -0.00026211     1.186e-009      -1.2584e-009   
  -0.6            -0.00027107     8.65e-009       5.928e-010     
  -0.65           -0.00027816     -4.401e-009     1.1022e-009    
  -0.7            -0.0002845      -1.5308e-008    1.1457e-009    
  -0.75           -0.00029053     -1.0243e-008    1.1551e-009    
  -0.8            -0.00029552     -1.2163e-008    1.7337e-009    
  -0.85           -0.00030062     -1.5575e-008    1.3524e-009    
  -0.9            -0.00030461     -9.747e-009     -2.063e-010    
  -0.95           -0.00030862     8.59e-010       -1.2597e-009   
  -1              -0.00031367     8.659e-009      5.58e-010      
  -1.05           -0.00031759     -4.389e-009     1.1025e-009    
  -1.1            -0.00032137     -1.5983e-008    1.1415e-009    
  -1.15           -0.00032521     -1.044e-008     1.1631e-009    
  -1.2            -0.00032861     -1.2065e-008    1.7737e-009    
  -1.25           -0.00033209     -1.5225e-008    1.3874e-009    
  -1.3            -0.00033492     -9.75e-009      -1.851e-010    
  -1.35           -0.00033772     6.12e-010       -1.2621e-009   
  -1.4            -0.00034178     8.776e-009      5.48e-010      
  -1.45           -0.00034483     -4.264e-009     1.0927e-009    
  -1.5            -0.00034803     -1.6831e-008    1.2479e-009    
  -1.55           -0.00035118     -1.0832e-008    1.1598e-009    
  -1.6            -0.00035388     -1.2566e-008    1.1527e-009    
  -1.65           -0.00035671     -1.3194e-008    1.5897e-009    
  -1.7            -0.00035958     -1.6437e-008    1.1407e-009    
  -1.75           -0.00036193     -9.783e-009     -1.878e-010    
  -1.8            -0.00036419     5.97e-010       -1.2621e-009   
END_DB

BEGIN_DB
 ICCAP_VAR VG         -1.44          
 ICCAP_VAR VS         0              
 ICCAP_VAR VB         0              

 #VD              ID              IB              IG             
  0               -1.3425e-007    -9.539e-009     -2.532e-010    
  -0.05           -6.6819e-005    4.7e-010        1.1241e-009    
  -0.1            -0.00013024     -1.0304e-008    1.0575e-009    
  -0.15           -0.00018984     -1.4096e-008    1.4816e-009    
  -0.2            -0.00024563     -9.632e-009     -1.069e-010    
  -0.25           -0.00029718     -1.48e-010      -1.2674e-009   
  -0.3            -0.00034514     8.705e-009      5.071e-010     
  -0.35           -0.00038846     -3.763e-009     1.0786e-009    
  -0.4            -0.00042739     -1.6044e-008    1.3107e-009    
  -0.45           -0.00046161     -9.712e-009     -2.396e-010    
  -0.5            -0.00049184     1.373e-009      -1.2572e-009   
  -0.55           -0.00051927     8.624e-009      5.901e-010     
  -0.6            -0.00054219     -4.377e-009     1.1024e-009    
  -0.65           -0.0005617      -8.944e-009     4.33e-011      
  -0.7            -0.00057819     1.2138e-008     -1.4963e-009   
  -0.75           -0.00059347     8.231e-009      2.223e-010     
  -0.8            -0.00060751     -1.6938e-008    1.2533e-009    
  -0.85           -0.00061914     -1.0604e-008    1.1547e-009    
  -0.9            -0.00062939     -1.183e-008     1.1722e-009    
  -0.95           -0.0006375      -8.908e-009     -5.637e-010    
  -1              -0.0006461      3.071e-009      -1.2499e-009   
  -1.05           -0.00065599     1.0128e-008     9.433e-010     
  -1.1            -0.00066306     -9.475e-009     1.1538e-009    
  -1.15           -0.00067012     -1.1069e-008    1.1546e-009    
  -1.2            -0.00067628     -1.2085e-008    1.7459e-009    
  -1.25           -0.00068271     -1.5111e-008    1.3537e-009    
  -1.3            -0.0006879      -9.719e-009     -2.104e-010    
  -1.35           -0.00069299     9.32e-010       -1.2558e-009   
  -1.4            -0.00069971     8.647e-009      5.644e-010     
  -1.45           -0.00070491     -4.215e-009     1.0954e-009    
  -1.5            -0.00070995     -1.5923e-008    1.1404e-009    
  -1.55           -0.00071535     -1.034e-008     1.154e-009     
  -1.6            -0.00071972     -1.2034e-008    1.7735e-009    
  -1.65           -0.00072456     -1.4867e-008    1.3809e-009    
  -1.7            -0.00072827     -9.697e-009     -1.88e-010     
  -1.75           -0.00073204     7.28e-010       -1.2615e-009   
  -1.8            -0.00073771     8.647e-009      5.506e-010     
END_DB

BEGIN_DB
 ICCAP_VAR VG         -1.8           
 ICCAP_VAR VS         0              
 ICCAP_VAR VB         0              

 #VD              ID              IB              IG             
  0               7.4472e-007     8.532e-009      6.394e-010     
  -0.05           -8.2967e-005    -1.3519e-008    2.725e-010     
  -0.1            -0.00016356     -3.378e-009     1.0934e-009    
  -0.15           -0.00024133     -1.71e-008      1.2332e-009    
  -0.2            -0.0003162      -9.866e-009     1.1527e-009    
  -0.25           -0.00038802     -1.1273e-008    1.1503e-009    
  -0.3            -0.00045656     -1.2196e-008    1.7096e-009    
  -0.35           -0.00052156     -8.898e-009     6.42e-011      
  -0.4            -0.00058271     1.1623e-008     -1.5166e-009   
  -0.45           -0.00064052     8.004e-009      2.141e-010     
  -0.5            -0.00069473     -1.6383e-008    1.2553e-009    
  -0.55           -0.00074484     -1.0955e-008    1.1518e-009    
  -0.6            -0.00079064     -1.1726e-008    1.1496e-009    
  -0.65           -0.0008318      -9.021e-009     -5.313e-010    
  -0.7            -0.00086968     2.843e-009      -1.247e-009    
  -0.75           -0.00090517     1.0167e-008     9.144e-010     
  -0.8            -0.00093548     -9.549e-009     1.1603e-009    
  -0.85           -0.00096245     -2.1944e-008    1.0629e-009    
  -0.9            -0.00098617     -1.2825e-008    1.6115e-009    
  -0.95           -0.00100733     -1.6846e-008    1.1329e-009    
  -1              -0.00102557     -9.639e-009     -1.841e-010    
  -1.05           -0.00104173     5.16e-010       -1.2602e-009   
  -1.1            -0.0010578      8.626e-009      5.444e-010     
  -1.15           -0.00107128     -4.059e-009     1.0885e-009    
  -1.2            -0.00108392     -1.6505e-008    1.247e-009     
  -1.25           -0.00109537     -1.076e-008     1.1545e-009    
  -1.3            -0.00110556     -1.1754e-008    1.1515e-009    
  -1.35           -0.0011153      -1.2822e-008    1.5961e-009    
  -1.4            -0.00112419     -9.041e-009     -1.95e-011     
  -1.45           -0.00113178     1.3283e-008     -1.4411e-009   
  -1.5            -0.0011399      8.532e-009      -2.0179e-009   
  -1.55           -0.0011475      6.897e-009      9.08e-011      
  -1.6            -0.0011561      -1.4457e-008    1.4154e-009    
  -1.65           -0.0011625      -9.539e-009     -1.531e-010    
  -1.7            -0.0011686      3.34e-010       -1.2617e-009   
  -1.75           -0.0011766      8.619e-009      5.32e-010      
  -1.8            -0.0011829      -3.849e-009     1.0841e-009    
END_DB

BEGIN_DB
 ICCAP_VAR VG         0              
 ICCAP_VAR VS         0              
 ICCAP_VAR VB         0.9            

 #VD              ID              IB              IG             
  0               -1.784e-010     -6.108e-009     2.195e-010     
  -0.05           -1.1307e-009    2.745e-009      -1.4331e-009   
  -0.1            8.975e-010      -9.829e-009     1.9066e-009    
  -0.15           1.0269e-009     9.429e-009      -1.2472e-009   
  -0.2            -1.3338e-009    5.211e-009      -1.2526e-009   
  -0.25           -1.8631e-009    -9.479e-009     1.817e-010     
  -0.3            1.45e-011       -1.2109e-008    1.1541e-009    
  -0.35           -1.802e-010     -1.4418e-008    1.8037e-009    
  -0.4            1.6078e-009     6.4e-011        4.94e-011      
  -0.45           4.72e-010       9.024e-009      -1.2554e-009   
  -0.5            -1.2026e-009    3.186e-009      -1.5163e-009   
  -0.55           -2.078e-009     -9.524e-009     -2.498e-010    
  -0.6            -1.3204e-009    -1.2809e-008    1.1218e-009    
  -0.65           6.2e-012        -1.1334e-008    1.1475e-009    
  -0.7            -2.03e-010      -1.2603e-008    1.15e-009      
  -0.75           -4.114e-010     -1.4869e-008    1.7529e-009    
  -0.8            8.518e-010      -4.18e-010      -1.2412e-009   
  -0.85           -1.4104e-009    7.819e-009      -2.1929e-009   
  -0.9            -2.2352e-009    -9.588e-009     1.728e-010     
  -0.95           -4.299e-010     -1.2375e-008    1.1543e-009    
  -1              -6.723e-010     -1.4479e-008    1.7817e-009    
  -1.05           7.45e-010       1.3616e-008     -1.2604e-009   
  -1.1            -1.7305e-009    2.826e-009      -2.3503e-009   
  -1.15           -6.771e-010     -1.1573e-008    1.1526e-009    
  -1.2            -9.712e-010     -1.3553e-008    1.1477e-009    
  -1.25           -1.2213e-009    -1.5771e-008    1.6459e-009    
  -1.3            -1.996e-010     -1.822e-009     1.3666e-009    
  -1.35           -4.107e-010     -3.495e-009     1.1761e-009    
  -1.4            -6.597e-010     -3.271e-009     1.0806e-009    
  -1.45           -9.481e-010     -4.087e-009     1.0569e-009    
  -1.5            -1.2595e-009    -5.583e-009     1.0745e-009    
  -1.55           -1.5815e-009    -8.404e-009     1.1077e-009    
  -1.6            -1.9545e-009    -1.0553e-008    1.1368e-009    
  -1.65           -2.37e-009      -1.1802e-008    1.1527e-009    
  -1.7            -2.795e-009     -1.3579e-008    1.1509e-009    
  -1.75           -3.2109e-009    -1.59e-008      1.6262e-009    
  -1.8            -2.1128e-009    1.393e-008      1.1998e-009    
END_DB

BEGIN_DB
 ICCAP_VAR VG         -0.36          
 ICCAP_VAR VS         0              
 ICCAP_VAR VB         0.9            

 #VD              ID              IB              IG             
  0               -5.511e-010     9.857e-009      -1.3783e-009   
  -0.05           -1.8153e-007    9.837e-009      -1.4236e-009   
  -0.1            -2.5883e-007    8.504e-009      2.794e-010     
  -0.15           -3.1466e-007    -3.523e-009     1.0639e-009    
  -0.2            -3.6585e-007    -1.2175e-008    1.7714e-009    
  -0.25           -4.1584e-007    -1.4801e-008    1.3764e-009    
  -0.3            -4.5616e-007    -9.606e-009     -1.937e-010    
  -0.35           -5.0277e-007    6.06e-010       -1.2581e-009   
  -0.4            -5.6413e-007    8.587e-009      5.492e-010     
  -0.45           -6.2337e-007    -3.889e-009     1.0899e-009    
  -0.5            -6.8331e-007    -1.6393e-008    1.1329e-009    
  -0.55           -7.4469e-007    -1.0675e-008    1.1526e-009    
