! VERSION = 6.00
BEGIN_HEADER
 ICCAP_INPUTS
  VG         V  B GROUND SMU4 0.001 LIN        2    0          -1.8       6    -0.36     
  VS         V  E GROUND SMU3 0.1 CON        0
  VD         V  S GROUND SMU2 0.1 LIN        1    0          -1.8       37   -0.05     
  VB         V  C GROUND SMU1 0.1 LIN        3    0          0.9        2    0.9       
 ICCAP_OUTPUTS
  ID         I  S GROUND SMU2 B
  IB         I  C GROUND SMU1 B
  IG         I  B GROUND SMU4 B
END_HEADER

BEGIN_DB
 ICCAP_VAR VG         0              
 ICCAP_VAR VS         0              
 ICCAP_VAR VB         0              

 #VD              ID              IB              IG             
  0               -2.2702e-009    4.8155e-009     -2.559e-010    
  -0.05           -2.1145e-009    1.793e-009      -1.047e-009    
  -0.1            1.962e-009      -4.3758e-009    8.537e-010     
  -0.15           -2.2636e-009    5.1809e-009     -9.939e-010    
  -0.2            1.9493e-009     -4.1187e-009    8.105e-010     
  -0.25           -2.374e-009     5.017e-009      -9.407e-010    
  -0.3            1.9308e-009     -3.8807e-009    7.604e-010     
  -0.35           -2.48e-009      4.8859e-009     -8.988e-010    
  -0.4            1.9056e-009     -3.6473e-009    7.08e-010      
  -0.45           -1.9053e-009    4.7739e-009     -1.4254e-009   
  -0.5            -1.349e-009     -6.583e-009     1.5592e-009    
  -0.55           -2.0355e-009    4.6806e-009     -1.3635e-009   
  -0.6            -1.324e-009     -7.3169e-009    1.5619e-009    
  -0.65           -2.2438e-009    5.7849e-009     -1.2108e-009   
  -0.7            -1.2551e-009    -8.563e-009     1.4195e-009    
  -0.75           1.7453e-009     1.7604e-009     6.818e-010     
  -0.8            -2.1107e-009    4.7208e-009     -1.3978e-009   
  -0.85           -1.4849e-009    -6.9131e-009    1.5627e-009    
  -0.9            -2.3264e-009    5.8649e-009     -1.249e-009    
  -0.95           -1.4158e-009    -8.2475e-009    1.4148e-009    
  -1              1.0298e-009     1.6121e-009     -1.4814e-009   
  -1.05           -3.124e-009     -1.0182e-009    1.4383e-009    
  -1.1            -1.9445e-009    5.3403e-009     -1.5209e-009   
  -1.15           -1.9719e-009    -4.723e-009     1.4539e-009    
  -1.2            -2.0807e-009    5.1654e-009     -1.523e-009    
  -1.25           -1.9523e-009    -4.9964e-009    1.4855e-009    
  -1.3            -2.2852e-009    6.049e-009      -1.4713e-009   
  -1.35           -1.8609e-009    -5.9836e-009    1.5475e-009    
  -1.4            -2.512e-009     6.0251e-009     -1.3463e-009   
  -1.45           -1.7927e-009    -7.4776e-009    1.5652e-009    
  -1.5            -1.994e-009     5.7553e-009     -1.4725e-009   
  -1.55           -3.4222e-009    -9.593e-010     1.4265e-009    
  -1.6            -2.2394e-009    5.4003e-009     -1.5181e-009   
  -1.65           -2.3133e-009    -4.65e-009      1.4455e-009    
  -1.7            -2.4588e-009    5.9493e-009     -1.5156e-009   
  -1.75           -2.2242e-009    -5.2875e-009    1.5094e-009    
  -1.8            -2.672e-009     6.0533e-009     -1.4336e-009   
END_DB

BEGIN_DB
 ICCAP_VAR VG         -0.36          
 ICCAP_VAR VS         0              
 ICCAP_VAR VB         0              

 #VD              ID              IB              IG             
  0               1.7673e-009     -4.551e-009     -9.889e-010    
  -0.05           -4.0549e-007    -4.623e-009     -1.4596e-009   
  -0.1            -5.9353e-007    -4.183e-009     1.5389e-009    
  -0.15           -6.8475e-007    -4.15e-009      1.5577e-009    
  -0.2            -7.4119e-007    -4.175e-009     1.5671e-009    
  -0.25           -7.8382e-007    -4.345e-009     1.5668e-009    
  -0.3            -8.1936e-007    -4.515e-009     1.5499e-009    
  -0.35           -8.5131e-007    -4.593e-009     1.514e-009     
  -0.4            -8.8394e-007    -1.7359e-009    1.3592e-009    
  -0.45           -9.1475e-007    -9.0154e-009    1.4239e-009    
  -0.5            -9.4243e-007    -4.5859e-009    1.4107e-009    
  -0.55           -9.6873e-007    -4.3909e-009    1.5674e-009    
  -0.6            -9.951e-007     -7.511e-009     1.5521e-009    
  -0.65           -1.02004e-006   -6.5849e-009    1.5181e-009    
  -0.7            -1.04418e-006   -5.715e-009     1.4724e-009    
  -0.75           -1.06758e-006   -5.1284e-009    1.4382e-009    
  -0.8            -1.09029e-006   -4.7241e-009    1.4167e-009    
  -0.85           -1.11509e-006   -4.5053e-009    1.5632e-009    
  -0.9            -1.1186e-006    -8.0381e-009    -1.4044e-009   
  -0.95           -1.1379e-006    5.4939e-009     -1.4618e-009   
  -1              -1.159e-006     5.6899e-009     -1.4581e-009   
  -1.05           -1.1803e-006    5.669e-009      -1.4503e-009   
  -1.1            -1.2032e-006    5.6482e-009     -1.4441e-009   
  -1.15           -1.2247e-006    5.6273e-009     -1.4394e-009   
  -1.2            -1.2462e-006    5.6119e-009     -1.4341e-009   
  -1.25           -1.2683e-006    5.6094e-009     -1.4304e-009   
  -1.3            -1.2918e-006    5.596e-009      -1.427e-009    
  -1.35           -1.3138e-006    5.5931e-009     -1.4228e-009   
  -1.4            -1.335e-006     5.5813e-009     -1.4178e-009   
  -1.45           -1.3567e-006    5.5786e-009     -1.417e-009    
  -1.5            -1.3782e-006    5.565e-009      -1.4125e-009   
  -1.55           -1.3993e-006    5.5596e-009     -1.4106e-009   
  -1.6            -1.4206e-006    5.5544e-009     -1.4081e-009   
  -1.65           -1.4427e-006    5.5507e-009     -1.406e-009    
  -1.7            -1.4632e-006    5.5553e-009     -1.4055e-009   
  -1.75           -1.485e-006     5.5482e-009     -1.4029e-009   
  -1.8            -1.5064e-006    5.5509e-009     -1.4012e-009   
END_DB

BEGIN_DB
 ICCAP_VAR VG         -0.72          
 ICCAP_VAR VS         0              
 ICCAP_VAR VB         0              

 #VD              ID              IB              IG             
  0               1.1847e-008     -4.411e-009     -2.494e-010    
  -0.05           -4.7427e-006    -4.38e-009      -7.268e-010    
  -0.1            -8.5077e-006    -4.434e-009     1.5422e-009    
  -0.15           -1.1328e-005    -1.6084e-009    -1.363e-009    
  -0.2            -1.3557e-005    -5.7196e-009    1.479e-009     
  -0.25           -1.5145e-005    -4.5079e-009    1.5579e-009    
  -0.3            -1.6284e-005    -6.7685e-009    1.5346e-009    
  -0.35           -1.7139e-005    -4.9148e-009    1.4329e-009    
  -0.4            -1.782e-005     -4.2479e-009    1.5668e-009    
  -0.45           -1.8374e-005    -5.676e-009     1.4798e-009    
  -0.5            -1.8811e-005    -4.4974e-009    1.5603e-009    
  -0.55           -1.9211e-005    -6.8244e-009    1.539e-009     
  -0.6            -1.9542e-005    -4.942e-009     1.4326e-009    
  -0.65           -1.9852e-005    -4.2387e-009    1.5691e-009    
  -0.7            -2.0161e-005    -5.6994e-009    1.4805e-009    
  -0.75           -2.0412e-005    -4.5105e-009    1.5592e-009    
  -0.8            -2.0686e-005    -6.8335e-009    1.5385e-009    
  -0.85           -2.0943e-005    -4.9161e-009    1.4318e-009    
  -0.9            -2.1162e-005    -4.2437e-009    1.5703e-009    
  -0.95           -2.1432e-005    -5.7189e-009    1.4805e-009    
  -1              -2.1616e-005    -4.5056e-009    1.5553e-009    
  -1.05           -2.1877e-005    -6.8796e-009    1.5397e-009    
  -1.1            -2.206e-005     -4.941e-009     1.4365e-009    
  -1.15           -2.2244e-005    -4.2534e-009    1.5691e-009    
  -1.2            -2.2464e-005    -5.7298e-009    1.4834e-009    
  -1.25           -2.2653e-005    -4.5207e-009    1.5554e-009    
  -1.3            -2.2848e-005    -6.891e-009     1.5402e-009    
  -1.35           -2.3032e-005    -4.9732e-009    1.438e-009     
  -1.4            -2.3211e-005    -4.2487e-009    1.5683e-009    
  -1.45           -2.3407e-005    -5.7459e-009    1.4849e-009    
  -1.5            -2.3572e-005    -4.532e-009     1.5538e-009    
  -1.55           -2.3764e-005    -6.8944e-009    1.5397e-009    
  -1.6            -2.3929e-005    -4.9635e-009    1.4354e-009    
  -1.65           -2.4093e-005    -4.2567e-009    1.5691e-009    
  -1.7            -2.4274e-005    -5.776e-009     1.4864e-009    
  -1.75           -2.4398e-005    -4.5254e-009    1.5528e-009    
  -1.8            -2.4609e-005    -6.9399e-009    1.5405e-009    
END_DB

BEGIN_DB
 ICCAP_VAR VG         -1.08          
 ICCAP_VAR VS         0              
 ICCAP_VAR VB         0              

 #VD              ID              IB              IG             
  0               1.452e-008      -4.563e-009     -3.634e-010    
  -0.05           -1.1912e-005    2.6008e-009     1.5397e-009    
  -0.1            -2.2594e-005    -5.0377e-009    1.4332e-009    
  -0.15           -3.1995e-005    -4.3434e-009    1.5712e-009    
  -0.2            -4.0204e-005    -5.8724e-009    1.4823e-009    
  -0.25           -4.7231e-005    -4.5985e-009    1.4085e-009    
  -0.3            -5.3157e-005    -4.0346e-009    1.5428e-009    
  -0.35           -5.8041e-005    -5.0639e-009    1.4372e-009    
  -0.4            -6.2152e-005    -4.3505e-009    1.5698e-009    
  -0.45           -6.5514e-005    -5.9159e-009    1.4892e-009    
  -0.5            -6.8239e-005    -4.6084e-009    1.4073e-009    
  -0.55           -7.0334e-005    -4.0565e-009    1.5474e-009    
  -0.6            -7.2324e-005    -5.1085e-009    1.4405e-009    
  -0.65           -7.3791e-005    -4.3476e-009    1.574e-009     
  -0.7            -7.5069e-005    -5.9945e-009    1.4977e-009    
  -0.75           -7.62e-005      -4.6293e-009    1.4104e-009    
  -0.8            -7.7152e-005    -4.0515e-009    1.5528e-009    
  -0.85           -7.8067e-005    -5.1794e-009    1.4492e-009    
  -0.9            -7.8799e-005    -4.3551e-009    1.5711e-009    
  -0.95           -7.959e-005     -6.0989e-009    1.5033e-009    
  -1              -8.0251e-005    -4.6437e-009    1.4109e-009    
  -1.05           -8.0962e-005    -4.0483e-009    1.5535e-009    
  -1.1            -8.1595e-005    -5.1892e-009    1.4502e-009    
  -1.15           -8.2143e-005    -4.3636e-009    1.5698e-009    
  -1.2            -8.2933e-005    -6.1187e-009    1.5047e-009    
  -1.25           -8.3403e-005    -4.6483e-009    1.4149e-009    
  -1.3            -8.3907e-005    -4.0629e-009    1.5573e-009    
  -1.35           -8.4458e-005    -5.2034e-009    1.4496e-009    
  -1.4            -8.4909e-005    -4.3729e-009    1.5722e-009    
  -1.45           -8.5512e-005    -6.1684e-009    1.508e-009     
  -1.5            -8.5857e-005    -4.6843e-009    1.4158e-009    
  -1.55           -8.635e-005     -4.0656e-009    1.5558e-009    
  -1.6            -8.6571e-005    -5.2543e-009    1.4522e-009    
  -1.65           -8.7117e-005    -4.3689e-009    1.5709e-009    
  -1.7            -8.7738e-005    -6.185e-009     1.5087e-009    
  -1.75           -8.7936e-005    -4.687e-009     1.4143e-009    
  -1.8            -8.8356e-005    -4.0752e-009    1.5594e-009    
END_DB

BEGIN_DB
 ICCAP_VAR VG         -1.44          
 ICCAP_VAR VS         0              
 ICCAP_VAR VB         0              

 #VD              ID              IB              IG             
  0               2.0199e-008     -4.447e-009     -3.663e-010    
  -0.05           -1.8197e-005    2.5917e-009     1.5485e-009    
  -0.1            -3.535e-005     -5.1236e-009    1.4474e-009    
  -0.15           -5.1708e-005    -4.3398e-009    1.5692e-009    
  -0.2            -6.6712e-005    -5.9771e-009    1.4978e-009    
  -0.25           -8.0773e-005    -4.6032e-009    1.411e-009     
  -0.3            -9.3833e-005    -4.0201e-009    1.5515e-009    
  -0.35           -0.00010561     -5.1209e-009    1.4431e-009    
  -0.4            -0.00011603     -6.5153e-009    1.4421e-009    
  -0.45           -0.00012565     -4.7051e-009    1.4162e-009    
  -0.5            -0.00013415     -4.4655e-009    1.5672e-009    
  -0.55           -0.00014183     -8.0612e-009    1.5728e-009    
  -0.6            -0.00014786     -7.2257e-009    1.5527e-009    
  -0.65           -0.00015333     -6.3003e-009    1.5109e-009    
  -0.7            -0.00015797     -5.5286e-009    1.4666e-009    
  -0.75           -0.00016212     -4.9648e-009    1.4314e-009    
  -0.8            -0.00016534     -4.6112e-009    1.4091e-009    
  -0.85           -0.00016796     -4.4107e-009    1.5734e-009    
  -0.9            -0.00017022     -7.8606e-009    1.5696e-009    
  -0.95           -0.00017213     -6.983e-009     1.5435e-009    
  -1              -0.00017433     -6.0311e-009    1.4996e-009    
  -1.05           -0.00017577     -5.3359e-009    1.4559e-009    
  -1.1            -0.00017738     -4.8531e-009    1.4248e-009    
  -1.15           -0.0001787      -4.5421e-009    1.4043e-009    
  -1.2            -0.00018005     -4.361e-009     1.5752e-009    
  -1.25           -0.00018123     -7.6306e-009    1.5658e-009    
  -1.3            -0.00018223     -6.7104e-009    1.5315e-009    
  -1.35           -0.00018372     -5.8218e-009    1.4876e-009    
  -1.4            -0.00018467     -5.1853e-009    1.4493e-009    
  -1.45           -0.00018558     -4.7487e-009    1.4192e-009    
  -1.5            -0.00018672     -4.4924e-009    1.5646e-009    
  -1.55           -0.00018778     -8.1796e-009    1.5743e-009    
  -1.6            -0.00018871     -7.3512e-009    1.5564e-009    
  -1.65           -0.00018977     -6.4157e-009    1.5184e-009    
  -1.7            -0.00019106     -5.6299e-009    1.4744e-009    
  -1.75           -0.00019178     -5.0222e-009    1.4394e-009    
  -1.8            -0.00019232     -4.6659e-009    1.4135e-009    
END_DB

BEGIN_DB
 ICCAP_VAR VG         -1.8           
 ICCAP_VAR VS         0              
 ICCAP_VAR VB         0              

 #VD              ID              IB              IG             
  0               2.379e-008      -4.442e-009     -3.717e-010    
  -0.05           -2.2353e-005    2.5887e-009     1.5511e-009    
  -0.1            -4.3996e-005    -5.0945e-009    1.439e-009     
  -0.15           -6.4905e-005    -4.3404e-009    1.5731e-009    
  -0.2            -8.4785e-005    -5.9463e-009    1.4889e-009    
  -0.25           -0.000104615    -4.6002e-009    1.4048e-009    
  -0.3            -0.00012283     -4.6576e-009    -6.454e-010    
  -0.35           -0.00014045     4.2791e-009     -1.1801e-009   
  -0.4            -0.00015713     5.5921e-009     -1.4571e-009   
  -0.45           -0.00017366     5.5799e-009     -1.4233e-009   
  -0.5            -0.00018889     5.5379e-009     -1.4056e-009   
  -0.55           -0.00020259     5.5241e-009     -1.5334e-009   
  -0.6            -0.00021547     6.0382e-009     -1.5381e-009   
  -0.65           -0.0002273      5.9157e-009     -1.5184e-009   
  -0.7            -0.00023903     5.7625e-009     -1.4853e-009   
  -0.75           -0.00024856     5.6328e-009     -1.4413e-009   
  -0.8            -0.00025828     5.5564e-009     -1.4157e-009   
  -0.85           -0.00026471     5.5283e-009     -1.3998e-009   
  -0.9            -0.00027241     5.522e-009      -1.5357e-009   
  -0.95           -0.00027862     5.9928e-009     -1.533e-009    
  -1              -0.00028327     5.8515e-009     -1.5061e-009   
  -1.05           -0.00028791     5.6958e-009     -1.4656e-009   
  -1.1            -0.00029168     5.5948e-009     -1.4287e-009   
  -1.15           -0.00029507     5.5401e-009     -1.4085e-009   
  -1.2            -0.00029865     5.5279e-009     -1.3985e-009   
  -1.25           -0.00030197     5.5169e-009     -1.5365e-009   
  -1.3            -0.00030313     5.9451e-009     -1.5237e-009   
  -1.35           -0.00030515     5.7926e-009     -1.4919e-009   
  -1.4            -0.00030938     5.6629e-009     -1.4526e-009   
  -1.45           -0.00031145     5.5757e-009     -1.4202e-009   
  -1.5            -0.00031304     5.5388e-009     -1.406e-009    
  -1.55           -0.00031448     5.5339e-009     -1.5346e-009   
  -1.6            -0.00031605     6.0246e-009     -1.5356e-009   
  -1.65           -0.00031739     5.9014e-009     -1.5157e-009   
  -1.7            -0.00031841     5.7414e-009     -1.4785e-009   
  -1.75           -0.00031894     5.6264e-009     -1.4415e-009   
  -1.8            -0.00032087     5.5603e-009     -1.417e-009    
END_DB

BEGIN_DB
 ICCAP_VAR VG         0              
 ICCAP_VAR VS         0              
 ICCAP_VAR VB         0.9            

 #VD              ID              IB              IG             
  0               -1.9173e-009    -4.249e-009     -8.64e-011     
  -0.05           1.9854e-009     -4.548e-009     1.038e-009     
  -0.1            2.0841e-009     -4.303e-009     9.634e-010     
  -0.15           2.172e-009      -4.43e-009      8.944e-010     
  -0.2            2.2276e-009     -4.502e-009     8.307e-010     
  -0.25           -2.5034e-009    -1.5326e-009    1.518e-009     
  -0.3            1.3836e-009     5.5059e-009     -1.4099e-009   
  -0.35           -2.2843e-009    -1.321e-010     -6.557e-010    
  -0.4            2.216e-009      -6.8448e-009    8.482e-010     
  -0.45           -1.9992e-009    4.1387e-009     -9.862e-010    
  -0.5            2.2605e-009     -6.4099e-009    7.483e-010     
  -0.55           -2.134e-009     3.8454e-009     -8.912e-010    
  -0.6            1.8978e-009     -5.8968e-009    1.1079e-009    
  -0.65           -2.2175e-009    4.6951e-009     -8.007e-010    
  -0.7            2.0478e-009     -5.2874e-009    9.879e-010     
  -0.75           -2.2609e-009    4.5041e-009     -7.032e-010    
  -0.8            2.1719e-009     -7.0849e-009    8.896e-010     
  -0.85           -1.9259e-009    4.284e-009      -1.0431e-009   
  -0.9            2.2399e-009     -6.6211e-009    7.957e-010     
  -0.95           -2.0714e-009    3.9928e-009     -9.372e-010    
  -1              2.2853e-009     -6.164e-009     6.908e-010     
  -1.05           -2.1855e-009    4.7889e-009     -8.439e-010    
  -1.1            1.9723e-009     -5.5869e-009    1.046e-009     
  -1.15           -2.238e-009     4.5957e-009     -7.522e-010    
  -1.2            2.1105e-009     -7.3443e-009    9.37e-010      
  -1.25           -1.8541e-009    4.4013e-009     -1.1076e-009   
  -1.3            2.2147e-009     -6.8359e-009    8.455e-010     
  -1.35           -1.9981e-009    4.1309e-009     -9.859e-010    
  -1.4            2.261e-009      -6.3809e-009    7.456e-010     
  -1.45           -2.1322e-009    3.8514e-009     -8.884e-010    
  -1.5            1.8944e-009     -5.8883e-009    1.1068e-009    
  -1.55           -2.2177e-009    4.6859e-009     -7.995e-010    
  -1.6            2.0439e-009     -5.2706e-009    9.892e-010     
  -1.65           -2.2623e-009    4.4963e-009     -7.055e-010    
  -1.7            2.1734e-009     -7.0716e-009    8.912e-010     
  -1.75           -1.9268e-009    4.2701e-009     -1.0428e-009   
  -1.8            2.2433e-009     -6.6034e-009    7.964e-010     
END_DB

BEGIN_DB
 ICCAP_VAR VG         -0.36          
 ICCAP_VAR VS         0              
 ICCAP_VAR VB         0.9            

 #VD              ID              IB              IG             
  0               -1.8675e-009    -4.425e-009     -1.336e-010    
  -0.05           -5.2028e-009    -4.289e-009     1.567e-009     
  -0.1            -6.318e-009     -4.353e-009     1.522e-009     
  -0.15           -6.7776e-009    -4.455e-009     1.439e-009     
  -0.2            -7.8477e-009    4.752e-009      -1.3841e-009   
  -0.25           -1.0555e-008    5.5016e-009     -6.647e-010    
  -0.3            -1.037e-008     3.6247e-009     -1.4514e-009   
  -0.35           -1.1139e-008    6.0384e-009     -1.5053e-009   
  -0.4            -1.1475e-008    -6.9529e-009    -4.939e-010    
  -0.45           -1.1363e-008    5.0214e-009     -1.406e-009    
  -0.5            -1.1232e-008    5.6284e-009     -1.5333e-009   
  -0.55           -1.0901e-008    6.0672e-009     -1.5072e-009   
