! VERSION = 6.00
BEGIN_HEADER
 ICCAP_INPUTS
  VG         V  B GROUND SMU4 0.001 LIN        1    0          -1.8       37   -0.05     
  VS         V  E GROUND SMU2 0.1 CON        0
  VB         V  C GROUND SMU3 0.1 LIN        3    0          1.8        3    0.9       
  VD         V  S GROUND SMU1 0.1 LIN        2    -0.1       -1.8       2    -1.7      
 ICCAP_OUTPUTS
  IG         I  B GROUND SMU4 B
  ID         I  S GROUND SMU1 B
  IB         I  C GROUND SMU3 B
END_HEADER

BEGIN_DB
 ICCAP_VAR VS         0              
 ICCAP_VAR VB         0              
 ICCAP_VAR VD         -0.1           

 #VG              IG              ID              IB             
  0               1.2271e-009     -4.132e-010     -1.0851e-008   
  -0.05           3.677e-010      -2.4825e-009    1.035e-008     
  -0.1            -1.3766e-009    -1.3128e-008    -1.1067e-008   
  -0.15           -1.2983e-009    -2.9319e-008    9.106e-009     
  -0.2            -2.4874e-009    -6.0518e-008    8.965e-009     
  -0.25           2.8744e-009     -1.1112e-007    -1.0433e-008   
  -0.3            2.7143e-009     -1.8962e-007    -1.23e-010     
  -0.35           5.998e-010      -2.9293e-007    1.0195e-008    
  -0.4            9.919e-010      -4.248e-007     1.0224e-008    
  -0.45           -1.697e-010     -5.7912e-007    1.1711e-008    
  -0.5            -1.3923e-009    -7.5935e-007    2.4642e-008    
  -0.55           -1.3005e-009    -9.6392e-007    9.196e-009     
  -0.6            -2.719e-009     -1.1959e-006    -2.4419e-008   
  -0.65           -9.643e-010     -1.4502e-006    -1.1114e-008   
  -0.7            2.142e-010      -1.7325e-006    -1.2972e-008   
  -0.75           1.4304e-009     -2.0317e-006    -2.2352e-008   
  -0.8            2.8502e-009     -2.3512e-006    -8.61e-009     
  -0.85           2.0841e-009     -2.6955e-006    1.1266e-008    
  -0.9            9.515e-010      -3.0601e-006    1.029e-008     
  -0.95           -2.09e-010      -3.4367e-006    1.2306e-008    
  -1              -1.414e-009     -3.8266e-006    2.3862e-008    
  -1.05           -1.3091e-009    -4.2252e-006    8.893e-009     
  -1.1            -2.5681e-009    -4.6229e-006    8.716e-009     
  -1.15           -2.0091e-009    -5.0305e-006    9.66e-010      
  -1.2            2.86e-011       -5.4356e-006    -1.1066e-008   
  -1.25           -4.516e-010     -5.8184e-006    -1.0149e-008   
  -1.3            2.108e-009      -6.1962e-006    -1.7734e-008   
  -1.35           1.4386e-009     -6.5619e-006    -7.695e-009    
  -1.4            1.2212e-009     -6.9189e-006    -8.77e-009     
  -1.45           2.8167e-009     -7.2616e-006    -1.1193e-008   
  -1.5            1.3824e-009     -7.591e-006     1.0823e-008    
  -1.55           2.461e-010      -7.8966e-006    9.615e-009     
  -1.6            7.01e-010       -8.2012e-006    1.0453e-008    
  -1.65           1.0762e-009     -8.4952e-006    9.949e-009     
  -1.7            1.4876e-009     -8.7793e-006    1.1451e-008    
  -1.75           3.637e-010      -9.0388e-006    9.582e-009     
  -1.8            8.038e-010      -9.2997e-006    1.0445e-008    
END_DB

BEGIN_DB
 ICCAP_VAR VS         0              
 ICCAP_VAR VB         0              
 ICCAP_VAR VD         -1.8           

 #VG              IG              ID              IB             
  0               -1.4e-012       -2.8732e-008    1.0721e-008    
  -0.05           1.9262e-009     -6.2458e-008    -1.8904e-008   
  -0.1            2.2763e-009     -1.2278e-007    -5.76e-009     
  -0.15           1.5583e-009     -2.2133e-007    -6.158e-009    
  -0.2            1.2494e-009     -3.7963e-007    -8.758e-009    
  -0.25           2.8585e-009     -6.1096e-007    -9.491e-009    
  -0.3            3.41e-010       -9.1661e-007    9.684e-009     
  -0.35           -1.3599e-009    -1.3258e-006    -1.0288e-008   
  -0.4            -1.2959e-009    -1.8376e-006    9.386e-009     
  -0.45           -2.418e-009     -2.4562e-006    9.427e-009     
  -0.5            -7.623e-010     -3.1993e-006    -1.0903e-008   
  -0.55           1.6418e-009     -4.0615e-006    -1.7482e-008   
  -0.6            1.2636e-009     -5.0287e-006    -8.762e-009    
  -0.65           2.8654e-009     -6.1412e-006    -9.159e-009    
  -0.7            1.2237e-009     -7.3746e-006    9.901e-009     
  -0.75           7.96e-011       -8.7074e-006    9.985e-009     
  -0.8            5.394e-010      -1.02271e-005   1.0087e-008    
  -0.85           -1.9413e-009    -1.1888e-005    1.4905e-008    
  -0.9            1.253e-009      -1.3751e-005    -2.6086e-008   
  -0.95           2.8558e-009     -1.5735e-005    -9.555e-009    
  -1              3.318e-010      -1.7814e-005    9.69e-009      
  -1.05           7.792e-010      -2.0138e-005    1.0423e-008    
  -1.1            1.1433e-009     -2.2635e-005    9.724e-009     
  -1.15           -5.6e-012       -2.5177e-005    1.025e-008     
  -1.2            4.498e-010      -2.793e-005     9.764e-009     
  -1.25           8.7e-010        -3.0841e-005    1.0394e-008    
  -1.3            1.2428e-009     -3.3905e-005    1e-008         
  -1.35           9.69e-011       -3.6934e-005    1.0001e-008    
  -1.4            5.607e-010      -4.0192e-005    1.0208e-008    
  -1.45           9.596e-010      -4.3577e-005    1.0558e-008    
  -1.5            -2.075e-010     -4.6959e-005    1.2172e-008    
  -1.55           -1.4103e-009    -5.0455e-005    2.401e-008     
  -1.6            -1.3105e-009    -5.4063e-005    9.108e-009     
  -1.65           -2.5618e-009    -5.773e-005     8.709e-009     
  -1.7            -1.996e-009     -6.1493e-005    1.021e-009     
  -1.75           1.47e-011       -6.5371e-005    -1.0999e-008   
  -1.8            -4.631e-010     -6.9176e-005    -1.0185e-008   
END_DB

BEGIN_DB
 ICCAP_VAR VS         0              
 ICCAP_VAR VB         0.9            
 ICCAP_VAR VD         -0.1           

 #VG              IG              ID              IB             
  0               7.454e-010      7.984e-010      9.828e-009     
  -0.05           9.988e-010      2.3164e-009     -8.839e-009    
  -0.1            -1.48e-009      1.7288e-009     1.1513e-008    
  -0.15           -2.6476e-009    -1.4053e-009    8.399e-009     
  -0.2            1.6458e-009     -2.8989e-009    -1.2926e-008   
  -0.25           1.4158e-009     -3.8307e-009    -8.828e-009    
  -0.3            -1.2907e-009    -1.3523e-008    -1.0667e-008   
  -0.35           -2.3391e-009    -3.5213e-008    1.0277e-008    
  -0.4            2.028e-010      -8.3659e-008    -1.2808e-008   
  -0.45           -2.7013e-009    -1.6116e-007    9.767e-009     
  -0.5            1.2471e-009     -2.7996e-007    -2.638e-008    
  -0.55           2.8543e-009     -4.3187e-007    -9.928e-009    
  -0.6            3.643e-010      -6.1395e-007    9.6e-009       
  -0.65           8.036e-010      -8.3773e-007    1.0792e-008    
  -0.7            1.1755e-009     -1.09714e-006   9.713e-009     
  -0.75           -1.3319e-009    -1.3787e-006    -1.0893e-008   
  -0.8            -2.6565e-009    -1.694e-006     9.224e-009     
  -0.85           -2.2018e-009    -2.0416e-006    5.01e-010      
  -0.9            1.254e-009      -2.418e-006     -2.6108e-008   
  -0.95           2.8603e-009     -2.8061e-006    -9.493e-009    
  -1              3.374e-010      -3.1944e-006    9.649e-009     
  -1.05           7.818e-010      -3.6057e-006    1.0443e-008    
  -1.1            1.1478e-009     -4.0202e-006    9.726e-009     
  -1.15           6e-013          -4.422e-006     1.0262e-008    
  -1.2            4.553e-010      -4.8274e-006    9.833e-009     
  -1.25           8.769e-010      -5.2282e-006    1.0388e-008    
  -1.3            1.2545e-009     -5.6204e-006    9.728e-009     
  -1.35           1.124e-010      -5.9834e-006    9.929e-009     
  -1.4            5.806e-010      -6.3478e-006    1.0341e-008    
  -1.45           9.746e-010      -6.6982e-006    1.0536e-008    
  -1.5            -1.85e-010      -7.0316e-006    1.1809e-008    
  -1.55           -1.3979e-009    -7.3473e-006    2.4528e-008    
  -1.6            -1.309e-009     -7.6571e-006    9.272e-009     
  -1.65           -2.5319e-009    -7.9511e-006    8.594e-009     
  -1.7            -1.9449e-009    -8.2385e-006    1.156e-009     
  -1.75           -2.686e-009     -8.5121e-006    -6.179e-009    
  -1.8            1.2611e-009     -8.7772e-006    -2.5972e-008   
END_DB

BEGIN_DB
 ICCAP_VAR VS         0              
 ICCAP_VAR VB         0.9            
 ICCAP_VAR VD         -1.8           

 #VG              IG              ID              IB             
  0               -1.2278e-009    -1.3019e-009    -1.4281e-008   
  -0.05           -1.8775e-009    -1.9953e-009    6.86e-010      
  -0.1            1.6825e-009     -4.0688e-009    -1.3076e-008   
  -0.15           1.4359e-009     -7.1761e-009    -8.904e-009    
  -0.2            -2.6756e-009    -2.2186e-008    -1.8303e-008   
  -0.25           1.691e-010      -5.6767e-008    -1.21e-008     
  -0.3            2.8771e-009     -1.2215e-007    -1.0637e-008   
  -0.35           2.7011e-009     -2.5023e-007    -5.8e-011      
  -0.4            6.112e-010      -4.5893e-007    1.0457e-008    
  -0.45           9.981e-010      -7.7724e-007    1.0388e-008    
  -0.5            -2.3835e-009    -1.2065e-006    -1.8237e-008   
  -0.55           1.7959e-009     -1.7777e-006    -1.9844e-008   
  -0.6            1.3077e-009     -2.4773e-006    -9.138e-009    
  -0.65           2.8748e-009     -3.3277e-006    -8.891e-009    
  -0.7            2.6606e-009     -4.3125e-006    -2.32e-010     
  -0.75           6.496e-010      -5.4583e-006    1.0568e-008    
  -0.8            1.0295e-009     -6.7914e-006    1.0061e-008    
  -0.85           1.4349e-009     -8.2992e-006    1.1176e-008    
  -0.9            3.162e-010      -9.8962e-006    9.758e-009     
  -0.95           -2.2657e-009    -1.1727e-005    1.0176e-008    
  -1              -2.949e-010     -1.3746e-005    -1.0355e-008   
  -1.05           -7.867e-010     -1.589e-005     -1.0939e-008   
  -1.1            1.6066e-009     -1.8256e-005    -1.6578e-008   
  -1.15           1.2561e-009     -2.0747e-005    -8.824e-009    
  -1.2            2.8605e-009     -2.341e-005     -9.62e-009     
  -1.25           -1.5994e-009    -2.6101e-005    1.9221e-008    
  -1.3            -1.3559e-009    -2.9017e-005    7.114e-009     
  -1.35           -1.2963e-009    -3.2052e-005    9.486e-009     
  -1.4            -2.379e-009     -3.5207e-005    9.888e-009     
  -1.45           -7.937e-010     -3.8521e-005    -1.1208e-008   
  -1.5            1.5863e-009     -4.1937e-005    -1.6463e-008   
  -1.55           1.2533e-009     -4.5382e-005    -8.777e-009    
  -1.6            2.858e-009      -4.8943e-005    -9.54e-009     
  -1.65           -1.5886e-009    -5.245e-005     1.9321e-008    
  -1.7            -1.3546e-009    -5.6133e-005    7.165e-009     
  -1.75           -1.2956e-009    -5.9864e-005    9.438e-009     
  -1.8            -2.3567e-009    -6.3628e-005    1.0123e-008    
END_DB

BEGIN_DB
 ICCAP_VAR VS         0              
 ICCAP_VAR VB         1.8            
 ICCAP_VAR VD         -0.1           

 #VG              IG              ID              IB             
  0               2.8416e-009     2.1331e-009     -5.621e-009    
  -0.05           1.1782e-009     2.1991e-009     1.1231e-008    
  -0.1            -1.873e-010     1.9325e-009     1.0277e-008    
  -0.15           -2.26e-011      2.0104e-009     9.735e-009     
  -0.2            1.579e-010      2.0932e-009     9.688e-009     
  -0.25           3.538e-010      2.1001e-009     1.0363e-008    
  -0.3            5.553e-010      1.7963e-009     1.0365e-008    
  -0.35           -1.4115e-009    -2.3868e-009    1.0184e-008    
  -0.4            -1.354e-009     -7.6697e-009    9.214e-009     
  -0.45           2.8524e-009     -2.3743e-008    9.996e-009     
  -0.5            1.2226e-009     -6.3104e-008    9.829e-009     
  -0.55           2.8699e-009     -1.4354e-007    -1.048e-008    
  -0.6            2.6858e-009     -2.6878e-007    -1.04e-010     
  -0.65           6.033e-010      -4.3742e-007    1.0169e-008    
  -0.7            9.874e-010      -6.547e-007     1.0128e-008    
  -0.75           -1.713e-010     -9.0923e-007    1.1999e-008    
  -0.8            -1.8831e-009    -1.2064e-006    -1.2349e-008   
  -0.85           -2.6971e-009    -1.5413e-006    -5.792e-009    
  -0.9            1.251e-009      -1.912e-006     -2.5816e-008   
  -0.95           2.8357e-009     -2.2999e-006    -9.903e-009    
  -1              3.56e-010       -2.6929e-006    9.654e-009     
  -1.05           7.957e-010      -3.1097e-006    1.0357e-008    
  -1.1            1.1604e-009     -3.5326e-006    9.653e-009     
  -1.15           1.7e-011        -3.94e-006      1.0438e-008    
  -1.2            4.691e-010      -4.3524e-006    9.754e-009     
  -1.25           8.868e-010      -4.7584e-006    1.0374e-008    
  -1.3            1.2591e-009     -5.1564e-006    1.0136e-008    
  -1.35           1.6975e-009     -5.5383e-006    1.1943e-008    
  -1.4            5.777e-010      -5.8956e-006    1.0233e-008    
  -1.45           9.723e-010      -6.2529e-006    1.0199e-008    
  -1.5            -1.862e-010     -6.5884e-006    1.2135e-008    
  -1.55           2.278e-010      -6.9111e-006    9.811e-009     
  -1.6            6.857e-010      -7.2254e-006    1.0386e-008    
  -1.65           1.0516e-009     -7.5268e-006    9.969e-009     
  -1.7            1.4606e-009     -7.8188e-006    1.1428e-008    
  -1.75           3.355e-010      -8.0835e-006    9.69e-009      
  -1.8            7.772e-010      -8.3496e-006    1.0367e-008    
END_DB

BEGIN_DB
 ICCAP_VAR VS         0              
 ICCAP_VAR VB         1.8            
 ICCAP_VAR VD         -1.8           

 #VG              IG              ID              IB             
  0               2.72e-010       4.532e-010      1.0181e-008    
  -0.05           2.7639e-009     -3.238e-010     -1.5987e-008   
  -0.1            1.21e-009       2.1549e-009     1.1174e-008    
  -0.15           -1.673e-010     1.7858e-009     1.0068e-008    
  -0.2            -1.5463e-009    2.742e-010      2.4592e-008    
  -0.25           -1.416e-009     -2.7518e-009    7.776e-009     
  -0.3            -1.3568e-009    -8.6385e-009    8.949e-009     
  -0.35           9.249e-010      -2.4148e-008    4.93e-010      
  -0.4            1.308e-009      -7.1665e-008    1.0355e-008    
  -0.45           1.1125e-009     -1.7469e-007    -1.8903e-008   
  -0.5            1.5288e-009     -3.6583e-007    1.0513e-008    
  -0.55           1.964e-009      -6.6691e-007    1.1988e-008    
  -0.6            8.349e-010      -1.10472e-006   1.0681e-008    
  -0.65           -2.0626e-009    -1.6879e-006    -1.349e-008    
  -0.7            1.233e-009      -2.4628e-006    -2.6765e-008   
  -0.75           2.8242e-009     -3.3915e-006    -1.0887e-008   
  -0.8            1.3502e-009     -4.4984e-006    1.0574e-008    
  -0.85           2.113e-010      -5.7424e-006    9.9e-009       
  -0.9            6.67e-010       -7.2193e-006    1.0504e-008    
  -0.95           1.0412e-009     -8.8969e-006    9.922e-009     
  -1              1.4492e-009     -1.07622e-005   1.1257e-008    
  -1.05           -1.2785e-009    -1.2691e-005    2.5846e-008    
  -1.1            -7.2e-011       -1.4958e-005    -1.077e-008    
  -1.15           -5.752e-010     -1.7301e-005    -1.0594e-008   
  -1.2            1.9232e-009     -1.9834e-005    -2.1775e-008   
  -1.25           1.356e-009      -2.2508e-005    -8.734e-009    
  -1.3            2.859e-009      -2.5328e-005    -8.858e-009    
  -1.35           2.7348e-009     -2.826e-005     1.97e-010      
  -1.4            1.4684e-009     -3.1399e-005    1.1303e-008    
  -1.45           3.399e-010      -3.4478e-005    9.775e-009     
  -1.5            7.756e-010      -3.7789e-005    1.0339e-008    
  -1.55           1.1411e-009     -4.1213e-005    9.623e-009     
  -1.6            -6.3e-012       -4.4592e-005    1.0295e-008    
  -1.65           4.422e-010      -4.8156e-005    9.835e-009     
  -1.7            8.596e-010      -5.1785e-005    1.06e-008      
  -1.75           1.2308e-009     -5.5543e-005    9.588e-009     
  -1.8            8.25e-011       -5.918e-005     1.007e-008     
END_DB

