! VERSION = 6.00
BEGIN_HEADER
 ICCAP_INPUTS
  VG         V  B GROUND SMU4 0.001 LIN        1    0          -1.8       37   -0.05     
  VS         V  E GROUND SMU2 0.1 CON        0
  VB         V  C GROUND SMU3 0.1 LIN        3    0          1.8        3    0.9       
  VD         V  S GROUND SMU1 0.1 LIN        2    -0.1       -1.8       2    -1.7      
 ICCAP_OUTPUTS
  IG         I  B GROUND SMU4 B
  ID         I  S GROUND SMU1 B
  IB         I  C GROUND SMU3 B
END_HEADER

BEGIN_DB
 ICCAP_VAR VS         0              
 ICCAP_VAR VB         0              
 ICCAP_VAR VD         -0.1           

 #VG              IG              ID              IB             
  0               8.908e-010      8.161e-010      2.647e-008     
  -0.05           8.208e-010      2.3092e-009     -8.455e-009    
  -0.1            -1.6795e-009    1.6007e-009     1.4444e-008    
  -0.15           -2.5133e-009    -1.3037e-009    5.679e-009     
  -0.2            -2.115e-010     -2.8954e-009    -1.154e-008    
  -0.25           -4.157e-010     -4.8399e-009    -1.1695e-008   
  -0.3            -6.18e-010      -1.05217e-008   -1.1536e-008   
  -0.35           2.7891e-009     -2.1176e-008    2.6964e-008    
  -0.4            -1.6618e-009    -4.8037e-008    2.0907e-008    
  -0.45           -1.3803e-009    -9.0742e-008    5.785e-009     
  -0.5            6.839e-010      -1.4367e-007    -1.4134e-008   
  -0.55           -1.5618e-009    -2.134e-007     1.788e-008     
  -0.6            -1.3643e-009    -2.9612e-007    6.972e-009     
  -0.65           -1.2946e-009    -3.8933e-007    1.1269e-008    
  -0.7            -2.3921e-009    -4.9502e-007    1.2416e-008    
  -0.75           -7.514e-010     -6.1663e-007    -1.1703e-008   
  -0.8            -1.1124e-009    -7.4835e-007    -1.012e-008    
  -0.85           1.333e-010      -9.002e-007     -1.1213e-008   
  -0.9            1.3265e-009     -1.06392e-006   -2.4866e-008   
  -0.95           2.8389e-009     -1.2382e-006    2.7941e-008    
  -1              2.5602e-009     -1.4278e-006    -3.97e-010     
  -1.05           6.403e-010      -1.623e-006     1.0978e-008    
  -1.1            -1.6034e-009    -1.8229e-006    1.9112e-008    
  -1.15           -1.3701e-009    -2.0257e-006    6.549e-009     
  -1.2            -1.3014e-009    -2.2246e-006    1.0758e-008    
  -1.25           -2.443e-009     -2.4207e-006    1.207e-008     
  -1.3            -1.8342e-009    -2.6169e-006    1.78e-009      
  -1.35           -1.4287e-009    -2.8053e-006    4.102e-009     
  -1.4            -1.3364e-009    -2.9886e-006    9.241e-009     
  -1.45           -2.6164e-009    -3.1661e-006    1.1636e-008    
  -1.5            -2.1249e-009    -3.3408e-006    1.104e-009     
  -1.55           -1.5651e-009    -3.507e-006     3.026e-009     
  -1.6            -1.3653e-009    -3.6692e-006    6.942e-009     
  -1.65           -2.7016e-009    -3.8256e-006    1.1056e-008    
  -1.7            1.9816e-009     -3.9801e-006    -2.1454e-008   
  -1.75           1.4088e-009     -4.1254e-006    -7.193e-009    
  -1.8            2.8236e-009     -4.2681e-006    -8.373e-009    
END_DB

BEGIN_DB
 ICCAP_VAR VS         0              
 ICCAP_VAR VB         0              
 ICCAP_VAR VD         -1.8           

 #VG              IG              ID              IB             
  0               -9.788e-010     5.102e-010      1.0262e-008    
  -0.05           -1.6144e-009    -1.6218e-009    4.996e-009     
  -0.1            2.2711e-009     -1.5181e-009    -1.9556e-008   
  -0.15           3.233e-010      1.9588e-009     -4.458e-009    
  -0.2            -1.3944e-009    2.368e-010      1.0715e-008    
  -0.25           -1.3601e-009    -3.1643e-009    1.0005e-008    
  -0.3            -1.3326e-009    -9.4057e-009    1.1634e-008    
  -0.35           2.3349e-009     -2.4445e-008    2.5158e-008    
  -0.4            1.6759e-009     -5.9243e-008    -3.784e-009    
  -0.45           2.2603e-009     -1.2006e-007    -1.4556e-008   
  -0.5            -1.3149e-009    -2.1586e-007    2.6861e-008    
  -0.55           -2.5104e-009    -3.5247e-007    1.1436e-008    
  -0.6            -1.9153e-009    -5.3646e-007    1.401e-009     
  -0.65           -1.4669e-009    -7.7207e-007    3.586e-009     
  -0.7            -1.3503e-009    -1.0665e-006    8.5e-009       
  -0.75           -2.6224e-009    -1.4285e-006    -2.2055e-008   
  -0.8            -7.47e-010      -1.862e-006     -1.1479e-008   
  -0.85           1.6281e-009     -2.3777e-006    -1.5506e-008   
  -0.9            1.2986e-009     -2.9714e-006    -8.614e-009    
  -0.95           2.8473e-009     -3.6618e-006    -8.719e-009    
  -1              2.5694e-009     -4.4318e-006    -4.83e-010     
  -1.05           6.269e-010      -5.3086e-006    1.0777e-008    
  -1.1            -1.5981e-009    -6.2839e-006    1.9026e-008    
  -1.15           -1.3765e-009    -7.3642e-006    6.181e-009     
  -1.2            -2.7195e-009    -8.533e-006     1.1006e-008    
  -1.25           2.0407e-009     -9.8246e-006    -2.2165e-008   
  -1.3            1.4468e-009     -1.11722e-005   -6.508e-009    
  -1.35           -1.2162e-009    -1.2547e-005    2.6293e-008    
  -1.4            2.46e-011       -1.4098e-005    -1.155e-008    
  -1.45           1.2909e-009     -1.567e-005     -2.6406e-008   
  -1.5            2.8393e-009     -1.7313e-005    -8.864e-009    
  -1.55           1.1908e-009     -1.9023e-005    9.062e-009     
  -1.6            -1.3422e-009    -2.072e-005     2.8258e-008    
  -1.65           -2.6342e-009    -2.2535e-005    1.1801e-008    
  -1.7            -2.142e-009     -2.4427e-005    1.072e-009     
  -1.75           -1.587e-009     -2.6331e-005    2.767e-009     
  -1.8            -1.3765e-009    -2.8298e-005    6.316e-009     
END_DB

BEGIN_DB
 ICCAP_VAR VS         0              
 ICCAP_VAR VB         0.9            
 ICCAP_VAR VD         -0.1           

 #VG              IG              ID              IB             
  0               1.0417e-009     9.575e-010      1.5483e-008    
  -0.05           3.718e-010      2.2056e-009     1.0832e-008    
  -0.1            5.468e-010      2.2719e-009     1.0307e-008    
  -0.15           -1.3144e-009    1.4379e-009     2.1133e-008    
  -0.2            -2.6764e-009    9.14e-011       1.1702e-008    
  -0.25           2.2454e-009     -1.4666e-009    -1.8948e-008   
  -0.3            1.2854e-009     2.0427e-009     -4.562e-009    
  -0.35           -1.3676e-009    1.1786e-009     2.7541e-008    
  -0.4            -1.2205e-009    -2.1689e-009    1.147e-008     
  -0.45           2.449e-010      -2.3231e-009    -1.15e-008     
  -0.5            1.659e-009      -3.2303e-009    -2.3455e-008   
  -0.55           1.4553e-009     -8.9075e-009    -8.479e-009    
  -0.6            -1.3343e-009    -3.0108e-008    -1.1579e-008   
  -0.65           -2.6076e-009    -7.3248e-008    1.1721e-008    
  -0.7            -1.5155e-009    -1.4163e-007    -6.229e-009    
  -0.75           -1.3577e-009    -2.3748e-007    7.455e-009     
  -0.8            -2.6835e-009    -3.5426e-007    1.1596e-008    
  -0.85           1.8947e-009     -4.9755e-007    -2.0372e-008   
  -0.9            1.3719e-009     -6.5417e-007    -8.068e-009    
  -0.95           2.8269e-009     -8.3203e-007    -8.375e-009    
  -1              2.0757e-009     -1.01932e-006   9.723e-009     
  -1.05           -1.2989e-009    -1.2174e-006    -1.0668e-008   
  -1.1            -2.4235e-009    -1.4194e-006    1.2069e-008    
  -1.15           -1.8091e-009    -1.627e-006     1.793e-009     
  -1.2            -1.425e-009     -1.83e-006      4.191e-009     
  -1.25           -1.3336e-009    -2.0299e-006    9.085e-009     
  -1.3            -2.6144e-009    -2.2261e-006    1.1619e-008    
  -1.35           -2.1093e-009    -2.4202e-006    1.073e-009     
  -1.4            -1.5589e-009    -2.6058e-006    2.893e-009     
  -1.45           -1.367e-009     -2.787e-006     6.82e-009      
  -1.5            -1.298e-009     -2.9609e-006    1.104e-008     
  -1.55           -2.4116e-009    -3.1285e-006    1.2205e-008    
  -1.6            -7.264e-010     -3.2982e-006    -1.1545e-008   
  -1.65           1.6557e-009     -3.459e-006     -1.6232e-008   
  -1.7            1.2985e-009     -3.6096e-006    -8.638e-009    
  -1.75           2.8329e-009     -3.7574e-006    -8.285e-009    
  -1.8            2.585e-009      -3.9e-006       -3.32e-010     
END_DB

BEGIN_DB
 ICCAP_VAR VS         0              
 ICCAP_VAR VB         0.9            
 ICCAP_VAR VD         -1.8           

 #VG              IG              ID              IB             
  0               -7.386e-010     -7.71e-010      -2.5805e-008   
  -0.05           -1.1515e-009    -2.1271e-009    1.092e-008     
  -0.1            3.042e-010      -1.783e-009     -1.1452e-008   
  -0.15           1.7802e-009     -8.494e-010     -2.2021e-008   
  -0.2            6.513e-010      2.2971e-009     -8.413e-009    
  -0.25           -1.8964e-009    1.5222e-009     1.843e-008     
  -0.3            -1.4906e-009    -1.7696e-009    3.978e-009     
  -0.35           -1.44e-011      -2.0462e-009    -1.1673e-008   
  -0.4            -2.153e-010     -2.2249e-009    -1.1453e-008   
  -0.45           -4.223e-010     -2.6925e-009    -1.1497e-008   
  -0.5            -6.211e-010     -4.575e-009     -1.0927e-008   
  -0.55           -2.2554e-009    -1.0995e-008    2.8276e-008    
  -0.6            -1.6507e-009    -3.4162e-008    2.671e-009     
  -0.65           -1.3884e-009    -8.916e-008     5.627e-009     
  -0.7            1.2206e-009     -1.9317e-007    -2.0494e-008   
  -0.75           -1.3413e-009    -3.5798e-007    2.8269e-008    
  -0.8            -2.6163e-009    -5.9941e-007    1.1917e-008    
  -0.85           -2.0961e-009    -9.2761e-007    1.109e-009     
  -0.9            -1.8504e-009    -1.3466e-006    -8.977e-009    
  -0.95           -8.074e-010     -1.8737e-006    -1.1358e-008   
  -1              1.5451e-009     -2.5073e-006    -1.4114e-008   
  -1.05           1.2836e-009     -3.2391e-006    -8.428e-009    
  -1.1            2.8357e-009     -4.0864e-006    -8.892e-009    
  -1.15           1.21e-009       -5.0311e-006    9.057e-009     
  -1.2            -1.3443e-009    -6.0377e-006    2.8251e-008    
  -1.25           -2.627e-009     -7.1701e-006    1.2005e-008    
  -1.3            -2.114e-009     -8.4084e-006    1.021e-009     
  -1.35           -1.5548e-009    -9.7107e-006    2.9e-009       
  -1.4            -1.3722e-009    -1.10984e-005   6.678e-009     
  -1.45           2.6378e-009     -1.2581e-005    -1.1529e-008   
  -1.5            6.582e-010      -1.4106e-005    1.0984e-008    
  -1.55           -1.567e-009     -1.5694e-005    1.8279e-008    
  -1.6            -1.3731e-009    -1.7365e-005    6.709e-009     
  -1.65           -1.3023e-009    -1.9087e-005    1.1066e-008    
  -1.7            -2.4247e-009    -2.0869e-005    1.2362e-008    
  -1.75           -1.7985e-009    -2.2717e-005    1.891e-009     
  -1.8            -1.4242e-009    -2.4602e-005    4.284e-009     
END_DB

BEGIN_DB
 ICCAP_VAR VS         0              
 ICCAP_VAR VB         1.8            
 ICCAP_VAR VD         -0.1           

 #VG              IG              ID              IB             
  0               -1.2732e-009    -1.1487e-009    -8.663e-009    
  -0.05           1.3049e-009     -1.2179e-009    -2.6144e-008   
  -0.1            1.1191e-009     2.2228e-009     -8.537e-009    
  -0.15           1.2624e-009     2.0587e-009     1.0697e-008    
  -0.2            -1.3689e-009    1.184e-009      2.7898e-008    
  -0.25           -1.2119e-009    -2.0805e-009    1.1379e-008    
  -0.3            1.3549e-009     -1.131e-009     -2.6749e-008   
  -0.35           1.0198e-009     2.284e-009      -8.416e-009    
  -0.4            -1.4583e-009    9.746e-010      2.7018e-008    
  -0.45           -9.654e-010     -2.2173e-009    8.539e-009     
  -0.5            1.6148e-009     -1.6822e-009    -1.1718e-008   
  -0.55           7.638e-010      2.2288e-009     -8.474e-009    
  -0.6            -1.7264e-009    1.0868e-009     1.5255e-008    
  -0.65           -1.5356e-009    -3.2224e-009    4.799e-009     
  -0.7            -2.2607e-009    -1.3448e-008    -1.1674e-008   
  -0.75           2.0314e-009     -4.4322e-008    -2.2221e-008   
  -0.8            1.4423e-009     -1.07733e-007   -6.602e-009    
  -0.85           -1.49e-009      -2.1239e-007    2.4826e-008    
  -0.9            2.0534e-009     -3.5308e-007    -2.2665e-008   
  -0.95           1.459e-009      -5.1563e-007    -6.255e-009    
  -1              2.7922e-009     -7.0136e-007    -8.302e-009    
  -1.05           1.9786e-009     -8.9647e-007    1.0336e-008    
  -1.1            8.545e-010      -1.10134e-006   1.0454e-008    
  -1.15           -2.5127e-009    -1.3096e-006    -1.866e-008    
  -1.2            -1.9217e-009    -1.5153e-006    1.308e-009     
  -1.25           -1.4708e-009    -1.7189e-006    3.614e-009     
  -1.3            -1.3543e-009    -1.918e-006     8.346e-009     
  -1.35           -2.6653e-009    -2.1118e-006    1.1893e-008    
  -1.4            -2.2039e-009    -2.3034e-006    9.7e-010       
  -1.45           -1.6231e-009    -2.4863e-006    2.694e-009     
  -1.5            -1.3866e-009    -2.6631e-006    5.765e-009     
  -1.55           -1.3112e-009    -2.8335e-006    1.057e-008     
  -1.6            -2.4777e-009    -2.998e-006     1.1658e-008    
  -1.65           -1.8552e-009    -3.1613e-006    1.626e-009     
  -1.7            -1.4431e-009    -3.3162e-006    3.964e-009     
  -1.75           -1.3478e-009    -3.4656e-006    8.918e-009     
  -1.8            -2.6411e-009    -3.611e-006     1.1947e-008    
END_DB

BEGIN_DB
 ICCAP_VAR VS         0              
 ICCAP_VAR VB         1.8            
 ICCAP_VAR VD         -1.8           

 #VG              IG              ID              IB             
  0               -2.283e-010     -3.544e-010     -1.026e-008    
  -0.05           1.8917e-009     -8.041e-010     -2.1037e-008   
  -0.1            1.5009e-009     1.7739e-009     -7.733e-009    
  -0.15           -1.3284e-009    1.3749e-009     2.3594e-008    
  -0.2            -2.7028e-009    4.57e-011       1.1618e-008    
  -0.25           2.347e-009      -1.4279e-009    -2.0874e-008   
  -0.3            1.2481e-009     2.1049e-009     -4.014e-009    
  -0.35           -1.374e-009     1.1715e-009     2.8148e-008    
  -0.4            -1.197e-009     -2.0964e-009    1.1024e-008    
  -0.45           2.624e-010      -1.8205e-009    -1.1415e-008   
  -0.5            1.6913e-009     -9.062e-010     -2.2963e-008   
  -0.55           7.23e-010       2.2095e-009     -8.577e-009    
  -0.6            -1.7905e-009    1.0135e-009     1.6541e-008    
  -0.65           -1.5723e-009    -3.4573e-009    4.448e-009     
  -0.7            -2.36e-009      -1.4418e-008    -2.5219e-008   
  -0.75           -1.7361e-009    -4.8896e-008    2.249e-009     
  -0.8            -2.114e-010     -1.353e-007     1.076e-008     
  -0.85           -7.179e-010     -2.9344e-007    -1.1579e-008   
  -0.9            1.6514e-009     -5.475e-007     -1.6119e-008   
  -0.95           1.302e-009      -9.0081e-007    -8.56e-009     
  -1              2.6481e-009     -1.361e-006     2.2265e-008    
  -1.05           6.742e-010      -1.9368e-006    1.1015e-008    
  -1.1            -1.5542e-009    -2.6217e-006    1.7724e-008    
  -1.15           -1.3665e-009    -3.4228e-006    6.937e-009     
  -1.2            -2.7047e-009    -4.3284e-006    1.151e-008     
  -1.25           1.9185e-009     -5.3601e-006    -2.0757e-008   
  -1.3            1.3834e-009     -6.4657e-006    -7.561e-009    
  -1.35           2.8249e-009     -7.6644e-006    -8.227e-009    
  -1.4            2.0783e-009     -8.9343e-006    1.0426e-008    
  -1.45           9.534e-010      -1.02978e-005   9.908e-009     
  -1.5            2.798e-010      -1.1739e-005    1.0086e-008    
  -1.55           1.4246e-009     -1.3246e-005    -2.2595e-008   
  -1.6            2.8098e-009     -1.4822e-005    -8.365e-009    
  -1.65           2.0279e-009     -1.6448e-005    1.0366e-008    
  -1.7            9.076e-010      -1.8145e-005    1.0276e-008    
  -1.75           1.268e-009      -1.9921e-005    8.94e-009      
  -1.8            -1.3295e-009    -2.1665e-005    2.7837e-008    
END_DB

