! VERSION = 6.00
BEGIN_HEADER
 ICCAP_INPUTS
  VG         V  B GROUND SMU4 0.001 LIN        2    0          1.8        6    0.36      
  VS         V  E GROUND SMU2 0.1 CON        0
  VD         V  S GROUND SMU1 0.1 LIN        1    0          1.8        37   0.05      
  VB         V  C GROUND SMU3 0.1 LIN        3    0          -0.9       2    -0.9      
 ICCAP_OUTPUTS
  ID         I  S GROUND SMU1 B
  IB         I  C GROUND SMU3 B
  IG         I  B GROUND SMU4 B
END_HEADER

BEGIN_DB
 ICCAP_VAR VG         0              
 ICCAP_VAR VS         0              
 ICCAP_VAR VB         0              

 #VD              ID              IB              IG             
  0               1.05e-009       -1.2585e-008    9.711e-010     
  0.05            -1.1178e-009    -2.7119e-008    1.3272e-009    
  0.1             1.3603e-009     -9.101e-009     2.1885e-009    
  0.15            2.5127e-009     9.979e-009      8.115e-010     
  0.2             1.8596e-009     1.6486e-008     -1.8528e-009   
  0.25            -2.0222e-009    5.478e-009      -7.644e-010    
  0.3             -1.2255e-009    -1.0913e-008    2.6163e-009    
  0.35            1.3281e-009     -4.231e-009     2.3121e-009    
  0.4             1.4476e-009     2.9037e-008     -1.3886e-009   
  0.45            9.31e-011       1.0792e-008     -1.3921e-009   
  0.5             2.274e-010      1.2463e-008     -1.3835e-009   
  0.55            3.749e-010      1.3894e-008     -2.688e-009    
  0.6             -1.9543e-009    -1.2941e-008    -1.466e-010    
  0.65            -2.0203e-009    -1.3505e-008    -3.657e-010    
  0.7             -2.0307e-009    -1.3305e-008    -5.783e-010    
  0.75            -2.0184e-009    -1.2107e-008    -7.792e-010    
  0.8             -1.3975e-009    -1.8584e-008    2.2108e-009    
  0.85            1.3291e-009     -7.987e-009     2.5255e-009    
  0.9             1.6649e-009     2.6077e-008     -1.3873e-009   
  0.95            3.034e-010      1.3202e-008     -1.3676e-009   
  1               4.648e-010      1.5182e-008     -2.6631e-009   
  1.05            -1.8345e-009    8.41e-010       4.7e-011       
  1.1             -1.9602e-009    -1.3019e-008    -1.596e-010    
  1.15            -2.0217e-009    -1.3463e-008    -3.834e-010    
  1.2             -2.0274e-009    -1.3628e-008    -5.975e-010    
  1.25            -2.0127e-009    -1.2322e-008    -7.955e-010    
  1.3             -1.2469e-009    -1.0737e-008    1.323e-009     
  1.35            1.3322e-009     -1.1394e-008    2.3343e-009    
  1.4             1.4812e-009     2.8947e-008     -1.3846e-009   
  1.45            1.208e-010      1.1103e-008     -1.3909e-009   
  1.5             2.601e-010      1.2772e-008     -1.3794e-009   
  1.55            4.165e-010      1.4205e-008     -2.6833e-009   
  1.6             -1.9626e-009    -1.3047e-008    -1.828e-010    
  1.65            -2.0134e-009    -1.3558e-008    -4.067e-010    
  1.7             -2.0108e-009    -1.3204e-008    -6.113e-010    
  1.75            -1.9863e-009    -1.2245e-008    -8.073e-010    
  1.8             -1.2143e-009    -1.0595e-008    2.5593e-009    
END_DB

BEGIN_DB
 ICCAP_VAR VG         0.36           
 ICCAP_VAR VS         0              
 ICCAP_VAR VB         0              

 #VD              ID              IB              IG             
  0               1.323e-009      1.4858e-008     1.1387e-009    
  0.05            7.3106e-009     -1.9496e-008    2.2601e-009    
  0.1             9.7582e-009     -7.567e-009     1.9022e-009    
  0.15            1.0434e-008     1.8308e-008     2.8177e-009    
  0.2             1.1451e-008     -1.3348e-008    2.6509e-009    
  0.25            1.1261e-008     -1.0785e-008    2.002e-009     
  0.3             1.2546e-008     -2.701e-008     2.8547e-009    
  0.35            1.2192e-008     -1.0284e-008    1.679e-009     
  0.4             1.3474e-008     -2.4624e-008    2.7765e-009    
  0.45            1.3278e-008     -1.3272e-008    2.2723e-009    
  0.5             9.531e-009      -1.1949e-008    -1.7513e-009   
  0.55            1.5542e-008     2.9056e-008     -1.3874e-009   
  0.6             1.5739e-008     9.438e-009      1.0956e-009    
  0.65            1.4934e-008     -9.754e-009     1.3353e-009    
  0.7             1.2127e-008     -1.3461e-008    -8.801e-010    
  0.75            1.6933e-008     1.8204e-008     -1.9345e-009   
  0.8             1.8296e-008     2.8668e-008     -1.389e-009    
  0.85            1.8149e-008     9.863e-009      1.079e-009     
  0.9             1.7956e-008     -2.0415e-008    1.5307e-009    
  0.95            1.7739e-008     -2.1241e-008    1.8822e-009    
  1               1.8691e-008     -2.653e-008     2.3027e-009    
  1.05            1.5442e-008     -1.0929e-008    -1.7373e-009   
  1.1             2.2282e-008     2.911e-008      -1.3908e-009   
  1.15            2.1508e-008     9.715e-009      1.0851e-009    
  1.2             2.1883e-008     -2.0377e-008    1.5146e-009    
  1.25            2.1878e-008     -2.09e-008      1.8608e-009    
  1.3             2.2912e-008     -2.6537e-008    2.2836e-009    
  1.35            1.9527e-008     -1.0952e-008    -1.752e-009    
  1.4             2.7017e-008     2.9107e-008     -1.3897e-009   
  1.45            2.5592e-008     9.649e-009      1.0946e-009    
  1.5             2.6766e-008     -2.0366e-008    1.5063e-009    
  1.55            2.693e-008      -2.0665e-008    1.844e-009     
  1.6             2.8004e-008     -2.6626e-008    2.2671e-009    
  1.65            2.4499e-008     -1.0858e-008    -1.7502e-009   
  1.7             3.2585e-008     2.9132e-008     -1.3898e-009   
  1.75            3.0455e-008     9.429e-009      1.0981e-009    
  1.8             3.246e-008      -2.0568e-008    1.497e-009     
END_DB

BEGIN_DB
 ICCAP_VAR VG         0.72           
 ICCAP_VAR VS         0              
 ICCAP_VAR VB         0              

 #VD              ID              IB              IG             
  0               -1.10417e-007   9.874e-009      -2.67e-010     
  0.05            5.3568e-005     8.975e-009      -2.431e-009    
  0.1             7.508e-005      1.0729e-008     2.0545e-009    
  0.15            8.4771e-005     -1.9947e-008    1.5193e-009    
  0.2             9.202e-005      -1.0488e-008    -1.1945e-009   
  0.25            9.7311e-005     2.9161e-008     -1.3875e-009   
  0.3             9.8905e-005     1.2444e-008     7.029e-010     
  0.35            0.000101405     -8.535e-009     2.8535e-009    
  0.4             0.000105744     -1.2321e-008    2.811e-010     
  0.45            0.000111547     1.4252e-008     -2.5459e-009   
  0.5             0.00011452      2.8014e-008     -7.03e-011     
  0.55            0.00011535      -1.0351e-008    1.499e-010     
  0.6             0.00012161      1.3305e-008     -2.6147e-009   
  0.65            0.00012368      9.826e-009      1.24e-011      
  0.7             0.00012433      -1.708e-008     2.6518e-009    
  0.75            0.00012771      -2.7025e-008    2.4496e-009    
  0.8             0.0001313       -2.5787e-008    2.1922e-009    
  0.85            0.00013288      -1.3176e-008    -5.87e-010     
  0.9             0.00013961      1.8762e-008     -1.7814e-009   
  0.95            0.0001389       1.2382e-008     6.943e-010     
  1               0.00014249      -1.9949e-008    1.6017e-009    
  1.05            0.00014535      -1.292e-008     -9.225e-010    
  1.1             0.00014961      7.602e-009      -1.3861e-009   
  1.15            0.00015475      2.8679e-008     -1.3859e-009   
  1.2             0.00015788      2.3013e-008     -1.7839e-009   
  1.25            0.00015741      1.1701e-008     6.999e-010     
  1.3             0.00016122      -2.129e-008     1.604e-009     
  1.35            0.00016339      -1.5349e-008    -9.281e-010    
  1.4             0.00016851      3.327e-009      -1.3891e-009   
  1.45            0.00017414      1.0409e-008     -2.0057e-009   
  1.5             0.00017255      -1.7737e-008    -2.7478e-009   
  1.55            0.00017397      -1.016e-008     1.1464e-009    
  1.6             0.00017968      -5.6292e-008    1.3218e-009    
  1.65            0.00018254      -5.2708e-008    -2.7129e-009   
  1.7             0.00018556      -5.0434e-008    7.585e-010     
  1.75            0.00018954      -6.28e-008      5.99e-011      
  1.8             0.00019432      -1.2106e-007    -1.7754e-009   
END_DB

BEGIN_DB
 ICCAP_VAR VG         1.08           
 ICCAP_VAR VS         0              
 ICCAP_VAR VB         0              

 #VD              ID              IB              IG             
  0               -1.0935e-006    -8.602e-009     -1.5539e-009   
  0.05            0.00045663      1.0644e-008     2.1226e-009    
  0.1             0.00085049      -1.3533e-008    -6.035e-010    
  0.15            0.0011707       1.2481e-008     -1.0161e-009   
  0.2             0.0014164       7.963e-009      -1.4009e-009   
  0.25            0.0015917       2.8429e-008     -1.3811e-009   
  0.3             0.0017038       9.618e-009      1.5867e-009    
  0.35            0.0017918       -2.0085e-008    1.8462e-009    
  0.4             0.0018558       -1.3544e-008    -7.814e-010    
  0.45            0.0019036       1.9407e-008     -1.5471e-009   
  0.5             0.0019345       1.1932e-008     8.44e-010      
  0.55            0.0019577       -8.957e-009     1.3333e-009    
  0.6             0.0019834       -2.706e-008     2.3572e-009    
  0.65            0.0020091       -2.4575e-008    2.0776e-009    
  0.7             0.0020335       -1.359e-008     -6.469e-010    
  0.75            0.0020615       1.8174e-008     -1.6931e-009   
  0.8             0.0020772       1.2402e-008     7.32e-010      
  0.85            0.0020889       -2.0052e-008    1.529e-009     
  0.9             0.0021154       -1.2594e-008    -9.654e-010    
  0.95            0.0021374       7.506e-009      -1.399e-009    
  1               0.0021566       2.9068e-008     -1.3918e-009   
  1.05            0.0021571       9.26e-009       1.5191e-009    
  1.1             0.0021827       -2.255e-008     1.9661e-009    
  1.15            0.0022043       -1.3701e-008    -7.08e-010     
  1.2             0.0022264       1.8209e-008     -1.6128e-009   
  1.25            0.0022368       1.1494e-008     7.876e-010     
  1.3             0.0022489       -2.2466e-008    1.4674e-009    
  1.35            0.0022698       -1.5452e-008    -1.0101e-009   
  1.4             0.0022922       7.88e-010       -1.4016e-009   
  1.45            0.0023001       -4.059e-009     2.7265e-009    
  1.5             0.002317        -3.6914e-008    -8.453e-010    
  1.55            0.0023414       -2.1166e-008    -1.4965e-009   
  1.6             0.0023493       -6.1213e-008    2.4394e-009    
  1.65            0.0023639       -1.2288e-007    2.5527e-009    
  1.7             0.0023818       -1.8852e-007    -5.216e-010    
  1.75            0.0024022       -2.5003e-007    -1.8444e-009   
  1.8             0.0024092       -3.8589e-007    2.1796e-009    
END_DB

BEGIN_DB
 ICCAP_VAR VG         1.44           
 ICCAP_VAR VS         0              
 ICCAP_VAR VB         0              

 #VD              ID              IB              IG             
  0               -1.5726e-006    5.09e-010       -2.7338e-009   
  0.05            0.00070869      1.2485e-008     2.6807e-009    
  0.1             0.0013837       -1.3388e-008    9.415e-010     
  0.15            0.0020081       -8.512e-009     1.3396e-009    
  0.2             0.0025751       -2.5208e-008    2.1454e-009    
  0.25            0.003079        -1.3618e-008    -5.897e-010    
  0.3             0.0035133       1.7665e-008     -1.7397e-009   
  0.35            0.0038747       1.2399e-008     6.849e-010     
  0.4             0.0041629       -1.9409e-008    1.5772e-009    
  0.45            0.0044034       -1.2916e-008    -9.199e-010    
  0.5             0.0045902       6.93e-009       -1.4018e-009   
  0.55            0.0047289       2.928e-008      -1.4015e-009   
  0.6             0.0048395       2.2532e-008     -1.7431e-009   
  0.65            0.0049216       1.2395e-008     6.847e-010     
  0.7             0.0049797       -1.9288e-008    1.5813e-009    
  0.75            0.0050431       -1.2947e-008    -9.208e-010    
  0.8             0.0050964       6.886e-009      -1.402e-009    
  0.85            0.0051404       2.9369e-008     -1.4027e-009   
  0.9             0.0051772       2.2943e-008     -1.7438e-009   
  0.95            0.0052088       1.2437e-008     6.841e-010     
  1               0.0052321       -1.9222e-008    1.5851e-009    
  1.05            0.0052715       -1.294e-008     -9.147e-010    
  1.1             0.0053059       6.968e-009      -1.4015e-009   
  1.15            0.0053339       2.9311e-008     -1.4027e-009   
  1.2             0.0053617       2.2784e-008     -1.751e-009    
  1.25            0.0053855       1.2167e-008     6.834e-010     
  1.3             0.0054005       -1.9853e-008    1.5887e-009    
  1.35            0.005434        -1.4257e-008    -9.141e-010    
  1.4             0.0054655       3.874e-009      -1.4008e-009   
  1.45            0.0054899       1.1588e-008     -1.9935e-009   
  1.5             0.0055136       6.4e-010        -2.7321e-009   
  1.55            0.0055379       -4.216e-009     -2.6223e-009   
  1.6             0.0055394       -2.1009e-008    1.6316e-009    
  1.65            0.0055693       -7.1366e-008    1.7434e-009    
  1.7             0.0055982       -1.00516e-007   2.6318e-009    
  1.75            0.0056213       -1.5679e-007    8.404e-010     
  1.8             0.0056359       -2.522e-007     1.4224e-009    
END_DB

BEGIN_DB
 ICCAP_VAR VG         1.8            
 ICCAP_VAR VS         0              
 ICCAP_VAR VB         0              

 #VD              ID              IB              IG             
  0               -1.6787e-006    2.2113e-008     8.427e-010     
  0.05            0.00083686      2.121e-009      -1.4275e-009   
  0.1             0.0016544       -8.259e-009     -2.6988e-009   
  0.15            0.002439        1.0331e-008     -1.851e-010    
  0.2             0.003186        -1.2986e-008    2.8185e-009    
  0.25            0.0038889       -1.0565e-008    3.01e-011      
  0.3             0.0045441       1.4693e-008     -2.5164e-009   
  0.35            0.0051409       2.8894e-008     -1.3933e-009   
  0.4             0.0056779       2.6413e-008     -1.3611e-009   
  0.45            0.0061523       1.2384e-008     6.075e-010     
  0.5             0.0065636       -1.921e-008     1.72e-009      
  0.55            0.0069245       -1.3274e-008    -8.566e-010    
  0.6             0.0072286       2.057e-008      -1.4946e-009   
  0.65            0.0074773       1.1158e-008     9.187e-010     
  0.7             0.0076793       -8.736e-009     1.3276e-009    
  0.75            0.0078489       -2.6099e-008    2.2265e-009    
  0.8             0.0079928       -1.3374e-008    -5.574e-010    
  0.85            0.0081101       1.8175e-008     -1.8134e-009   
  0.9             0.0082002       1.2399e-008     6.702e-010     
  0.95            0.0082716       -1.9431e-008    1.6277e-009    
  1               0.0083473       -1.2983e-008    -8.984e-010    
  1.05            0.0084093       7.031e-009      -1.3919e-009   
  1.1             0.0084627       2.9304e-008     -1.3919e-009   
  1.15            0.0085105       2.4497e-008     -1.8136e-009   
  1.2             0.008548        1.2386e-008     6.661e-010     
  1.25            0.0085813       -1.9398e-008    1.6325e-009    
  1.3             0.0086267       -1.3149e-008    -9.015e-010    
  1.35            0.0086671       6.564e-009      -1.3923e-009   
  1.4             0.0087009       2.8538e-008     -1.3933e-009   
  1.45            0.0087356       2.2761e-008     -1.8034e-009   
  1.5             0.0087666       1.5386e-008     -1.5997e-009   
  1.55            0.0087985       8.186e-009      -2.5964e-009   
  1.6             0.0088269       6.337e-009      -2.2792e-009   
  1.65            0.0088397       -6.985e-009     1.9241e-009    
  1.7             0.00887         -4.3355e-008    2.749e-010     
  1.75            0.0089115       -4.3467e-008    -2.6923e-009   
  1.8             0.0089179       -7.8348e-008    1.4797e-009    
END_DB

BEGIN_DB
 ICCAP_VAR VG         0              
 ICCAP_VAR VS         0              
 ICCAP_VAR VB         -0.9           

 #VD              ID              IB              IG             
  0               1.2442e-009     2.4403e-008     1.0743e-009    
  0.05            -6.722e-010     -1.9924e-008    1.8978e-009    
  0.1             1.3278e-009     -9.258e-009     2.632e-009     
  0.15            2.3974e-009     1.0526e-008     1.3035e-009    
  0.2             1.4216e-009     2.9734e-008     -1.3966e-009   
  0.25            7.08e-011       1.0189e-008     -1.3989e-009   
  0.3             2.078e-010      1.2602e-008     -1.3948e-009   
  0.35            3.58e-010       1.4308e-008     -2.7148e-009   
  0.4             -1.9384e-009    -1.3198e-008    -1.213e-010    
  0.45            -2.0047e-009    -1.364e-008     -3.408e-010    
  0.5             -2.0116e-009    -1.3333e-008    -5.52e-010     
  0.55            -1.9991e-009    -1.2128e-008    -7.458e-010    
  0.6             -1.3798e-009    -1.8713e-008    1.3224e-009    
  0.65            -8.9e-012       -1.6937e-008    2.8704e-009    
  0.7             1.7439e-009     2.1365e-008     -1.389e-009    
  0.75            4.216e-010      1.4782e-008     -2.7047e-009   
  0.8             -1.412e-009     -1.0065e-008    2.0207e-009    
  0.85            1.3582e-009     -8.657e-009     2.5962e-009    
  0.9             1.7563e-009     2.2142e-008     -1.3919e-009   
  0.95            4.462e-010      1.4687e-008     -2.7071e-009   
  1               -1.8716e-009    -1.3514e-008    -1.609e-010    
  1.05            -1.8705e-009    -1.3762e-008    -3.821e-010    
  1.1             -1.7998e-009    -1.3354e-008    -5.875e-010    
  1.15            -7.828e-010     -1.2422e-008    1.3366e-009    
  1.2             1.6232e-009     -9.444e-009     2.8468e-009    
  1.25            1.7809e-009     -7.56e-010      2.875e-009     
  1.3             2.0645e-009     -1.749e-009     2.8794e-009    
  1.35            3.1678e-009     2.1477e-008     -1.3939e-009   
  1.4             2.4595e-009     1.2328e-008     -2.7126e-009   
  1.45            9.795e-010      -1.2899e-008    -1.1885e-009   
  1.5             2.2148e-009     -1.5531e-008    -1.3507e-009   
  1.55            3.9051e-009     -1.7997e-008    -1.5243e-009   
  1.6             6.1354e-009     -1.9911e-008    -1.7038e-009   
  1.65            1.1374e-008     -6.142e-009     2.8497e-009    
  1.7             1.0771e-008     -2.3451e-008    -1.255e-009    
  1.75            1.8085e-008     4.323e-009      -1.4353e-009   
  1.8             2.5132e-008     -1.4522e-008    2.1894e-009    
END_DB

BEGIN_DB
 ICCAP_VAR VG         0.36           
 ICCAP_VAR VS         0              
 ICCAP_VAR VB         -0.9           

 #VD              ID              IB              IG             
  0               -1.2007e-009    1.2651e-008     -1.3898e-009   
  0.05            1.548e-010      1.1082e-008     -1.396e-009    
  0.1             3.135e-010      1.2794e-008     -1.3845e-009   
  0.15            4.709e-010      1.4577e-008     -2.6868e-009   
  0.2             -1.9057e-009    -1.3146e-008    -1.775e-010    
  0.25            -1.9548e-009    -1.3659e-008    -3.941e-010    
  0.3             -1.9514e-009    -1.3197e-008    -6.104e-010    
  0.35            -1.0302e-009    -1.1818e-008    1.3275e-009    
  0.4             1.4374e-009     -8.91e-009      2.1941e-009    
  0.45            2.6016e-009     9.701e-009      8.192e-010     
  0.5             1.9704e-009     1.5763e-008     -1.824e-009    
  0.55            -1.4938e-009    5.661e-009      3.271e-010     
