! VERSION = 6.00
BEGIN_HEADER
 ICCAP_INPUTS
  VG         V  B GROUND SMU4 0.001 LIN        1    0          1.8        37   0.05      
  VS         V  E GROUND SMU2 0.1 CON        0
  VB         V  C GROUND SMU3 0.1 LIN        3    0          -1.8       3    -0.9      
  VD         V  S GROUND SMU1 0.1 LIN        2    0.1        1.8        2    1.7       
 ICCAP_OUTPUTS
  IG         I  B GROUND SMU4 B
  ID         I  S GROUND SMU1 B
  IB         I  C GROUND SMU3 B
END_HEADER

BEGIN_DB
 ICCAP_VAR VS         0              
 ICCAP_VAR VB         0              
 ICCAP_VAR VD         0.1            

 #VG              IG              ID              IB             
  0               1.0225e-009     1.1886e-009     1.8949e-008    
  0.05            1.8896e-009     1.665e-009      -8.871e-009    
  0.1             4.916e-010      2.4926e-009     1.237e-008     
  0.15            6.776e-010      2.5402e-009     1.1537e-008    
  0.2             8.492e-010      2.6124e-009     9.936e-009     
  0.25            -1.8006e-009    2.2976e-009     1.5804e-008    
  0.3             -1.5677e-009    1.4495e-009     5.875e-009     
  0.35            -1.4431e-009    7.0321e-009     7.892e-009     
  0.4             2.8344e-009     3.0706e-008     1.2243e-008    
  0.45            1.5892e-009     1.2649e-007     4.674e-009     
  0.5             1.327e-009      4.8574e-007     -9.137e-009    
  0.55            2.8774e-009     1.8493e-006     2.6631e-008    
  0.6             2.8204e-009     6.774e-006      -2.85e-010     
  0.65            -1.7296e-009    2.2285e-005     -5.15e-010     
  0.7             -1.4021e-009    5.5449e-005     6.553e-009     
  0.75            1.1558e-009     0.00011679      -8.859e-009    
  0.8             1.8403e-009     0.00020419      -1.9734e-008   
  0.85            1.3553e-009     0.00031388      -9.767e-009    
  0.9             2.8852e-009     0.00043358      -8.626e-009    
  0.95            2.7222e-009     0.00055847      -6.63e-010     
  1               2.6038e-009     0.00067687      8.496e-009     
  1.05            -1.7162e-009    0.00078831      2.1699e-008    
  1.1             -1.403e-009     0.00089183      6.74e-009      
  1.15            -2.7276e-009    0.0009855       1.0342e-008    
  1.2             2.1573e-009     0.00106851      -2.4941e-008   
  1.25            -1.556e-009     0.0011483       -2.3067e-008   
  1.3             -1.3906e-009    0.0012196       8.216e-009     
  1.35            -2.6967e-009    0.0012838       1.1971e-008    
  1.4             -4.513e-010     0.0013409       -1.2808e-008   
  1.45            -9.118e-010     0.0013941       -1.2991e-008   
  1.5             1.5304e-009     0.0014404       -1.4706e-008   
  1.55            1.3225e-009     0.0014851       -8.611e-009    
  1.6             2.8548e-009     0.0015253       -1.0652e-008   
  1.65            -1.7451e-009    0.0015623       2.2674e-008    
  1.7             -1.3985e-009    0.0015956       6.373e-009     
  1.75            -1.3851e-009    0.0016263       9.775e-009     
  1.8             -2.5579e-009    0.0016542       1.3895e-008    
END_DB

BEGIN_DB
 ICCAP_VAR VS         0              
 ICCAP_VAR VB         0              
 ICCAP_VAR VD         1.8            

 #VG              IG              ID              IB             
  0               -1.6269e-009    -1.6335e-009    -4.095e-009    
  0.05            2.116e-010      -1.6584e-009    7.007e-009     
  0.1             1.6945e-009     -7.059e-010     -2.2002e-008   
  0.15            2.7088e-009     1.4009e-009     -9.376e-009    
  0.2             3.729e-010      2.7571e-009     1.2484e-008    
  0.25            5.637e-010      3.6572e-009     1.2262e-008    
  0.3             7.472e-010      7.4166e-009     1.057e-008     
  0.35            -2.1577e-009    2.0658e-008     -2.3223e-008   
  0.4             -1.5386e-009    9.6589e-008     4.164e-009     
  0.45            -1.4364e-009    4.7511e-007     -8.76e-010     
  0.5             2.6899e-009     1.688e-006      1.7836e-008    
  0.55            1.9867e-009     6.4815e-006     -1.1515e-008   
  0.6             -1.4544e-009    2.2609e-005     -1.2445e-008   
  0.65            -1.3989e-009    6.3587e-005     -4.2886e-008   
  0.7             -9.268e-010     0.00014738      -1.01924e-007  
  0.75            -1.3768e-009    0.00028854      -1.3e-007      
  0.8             -2.4744e-009    0.00048795      -2.1102e-007   
  0.85            -1.8075e-009    0.00074014      -2.868e-007    
  0.9             -7.636e-010     0.0010423       -3.4634e-007   
  0.95            -1.1474e-009    0.0013911       -3.8184e-007   
  1               -1.5788e-009    0.0017737       -4.0057e-007   
  1.05            -1.9296e-009    0.0021684       -4.0887e-007   
  1.1             -2.2145e-009    0.0025802       -4.0272e-007   
  1.15            -2.6222e-009    0.0030128       -3.9045e-007   
  1.2             -2.7536e-009    0.0034566       -3.712e-007    
  1.25            -2.7123e-009    0.0039039       -3.4298e-007   
  1.3             -2.4211e-009    0.0043577       -3.1356e-007   
  1.35            -1.7638e-009    0.0048195       -2.8425e-007   
  1.4             -1.4037e-009    0.005277        -2.5347e-007   
  1.45            -1.39e-009      0.0057406       -2.2227e-007   
  1.5             -2.5873e-009    0.0062014       -1.8891e-007   
  1.55            -2.0193e-009    0.006657        -1.8109e-007   
  1.6             -1.478e-009     0.0071174       -1.5562e-007   
  1.65            -1.3926e-009    0.0075762       -1.3253e-007   
  1.7             1.7989e-009     0.0080199       -1.3667e-007   
  1.75            1.3395e-009     0.0084727       -1.1705e-007   
  1.8             2.8766e-009     0.0089209       -1.0157e-007   
END_DB

BEGIN_DB
 ICCAP_VAR VS         0              
 ICCAP_VAR VB         -0.9           
 ICCAP_VAR VD         0.1            

 #VG              IG              ID              IB             
  0               -1.1589e-009    -8.917e-010     -1.8007e-008   
  0.05            -1.9544e-009    9.806e-010      1.9768e-008    
  0.1             -6.99e-010      -2.0255e-009    5.188e-009     
  0.15            -8.793e-010     -2.0048e-009    -1.1159e-008   
  0.2             1.9843e-009     -1.4532e-009    -1.5503e-008   
  0.25            2.609e-009      1.325e-009      -9.452e-009    
  0.3             1.2871e-009     2.4016e-009     1.0153e-008    
  0.35            -1.3971e-009    1.4546e-009     2.8297e-008    
  0.4             -1.3907e-009    2.69e-010       1.0338e-008    
  0.45            -1.3859e-009    1.1884e-009     1.2134e-008    
  0.5             -2.7005e-009    5.1141e-009     1.3527e-008    
  0.55            2.5786e-009     2.2966e-008     1.0402e-008    
  0.6             2.8406e-009     1.03065e-007    1.2372e-008    
  0.65            -4.965e-010     4.5205e-007     1.2113e-008    
  0.7             1.3231e-009     1.9064e-006     1.2366e-008    
  0.75            2.8476e-009     7.3232e-006     -1.0848e-008   
  0.8             -1.8252e-009    2.3994e-005     -3.19e-010     
  0.85            -1.412e-009     6.0592e-005     5.704e-009     
  0.9             -1.7608e-009    0.00012742      8.546e-009     
  0.95            -1.4004e-009    0.00022116      6.449e-009     
  1               -1.3849e-009    0.00033548      9.53e-009      
  1.05            -2.5701e-009    0.00045802      1.372e-008     
  1.1             -1.9827e-009    0.00058077      1.057e-009     
  1.15            -1.4616e-009    0.00069777      5.105e-009     
  1.2             -1.3933e-009    0.00080667      8.74e-009      
  1.25            -2.6623e-009    0.00090672      1.2539e-008    
  1.3             -2.2323e-009    0.0009971       7.69e-010      
  1.35            -1.5893e-009    0.00107921      4.044e-009     
  1.4             2.613e-010      0.0011513       1.9813e-008    
  1.45            1.4575e-009     0.0012189       -2.0791e-008   
  1.5             1.3266e-009     0.0012799       -8.481e-009    
  1.55            2.8425e-009     0.001335        -1.1783e-008   
  1.6             -1.664e-009     0.0013858       2.0385e-008    
  1.65            -1.391e-009     0.0014315       7.055e-009     
  1.7             -1.3773e-009    0.0014724       1.0418e-008    
  1.75            -2.5048e-009    0.00151         1.4412e-008    
  1.8             -1.8809e-009    0.001544        1.457e-009     
END_DB

BEGIN_DB
 ICCAP_VAR VS         0              
 ICCAP_VAR VB         -0.9           
 ICCAP_VAR VD         1.8            

 #VG              IG              ID              IB             
  0               2.8136e-009     2.5926e-008     -2.3673e-008   
  0.05            2.3247e-009     2.5137e-008     -2.4763e-008   
  0.1             1.5873e-009     2.4995e-008     -2.9931e-008   
  0.15            1.3219e-009     2.4729e-008     -3.2246e-008   
  0.2             2.8726e-009     2.4792e-008     -3.2945e-008   
  0.25            2.5769e-009     2.4824e-008     -2.4201e-008   
  0.3             1.849e-009      2.5096e-008     -2.7561e-008   
  0.35            1.3568e-009     2.5183e-008     -3.2705e-008   
  0.4             2.8825e-009     2.6364e-008     -3.1587e-008   
  0.45            2.7423e-009     3.2891e-008     -2.3794e-008   
  0.5             2.1567e-009     6.5234e-008     -2.5211e-008   
  0.55            1.3978e-009     2.3917e-007     -2.3778e-008   
  0.6             1.3218e-009     9.7209e-007     -3.2595e-008   
  0.65            3.425e-010      4.1576e-006     -2.7556e-008   
  0.7             -1.6323e-009    1.5446e-005     -8.548e-009    
  0.75            -1.9675e-009    4.6396e-005     -7.21e-008     
  0.8             -2.7582e-009    0.00011562      -1.1107e-007   
  0.85            -2.722e-009     0.00024147      -1.5625e-007   
  0.9             -2.4987e-009    0.00043096      -2.1283e-007   
  0.95            -1.9049e-009    0.00068177      -2.695e-007    
  1               -1.4374e-009    0.00098495      -3.1576e-007   
  1.05            1.5763e-009     0.0013222       -3.2203e-007   
  1.1             1.321e-009      0.0016967       -3.8243e-007   
  1.15            2.8662e-009     0.0020944       -3.9002e-007   
  1.2             2.5588e-009     0.0025176       -3.786e-007    
  1.25            1.8228e-009     0.0029496       -3.7082e-007   
  1.3             1.3492e-009     0.0033906       -3.5864e-007   
  1.35            2.8795e-009     0.0038388       -3.3519e-007   
  1.4             2.7365e-009     0.0042989       -3.0308e-007   
  1.45            2.1252e-009     0.0047535       -2.8003e-007   
  1.5             1.4562e-009     0.0052123       -2.6153e-007   
  1.55            2.8677e-009     0.0056693       -2.3756e-007   
  1.6             2.8369e-009     0.0061347       -2.0575e-007   
  1.65            2.4153e-009     0.0065909       -1.8608e-007   
  1.7             1.6431e-009     0.0070467       -1.7167e-007   
  1.75            1.3262e-009     0.0074999       -1.5731e-007   
  1.8             2.8752e-009     0.0079503       -1.407e-007    
END_DB

BEGIN_DB
 ICCAP_VAR VS         0              
 ICCAP_VAR VB         -1.8           
 ICCAP_VAR VD         0.1            

 #VG              IG              ID              IB             
  0               1.2922e-009     1.4202e-009     -1.0615e-008   
  0.05            2.8054e-009     -4.2e-011       -1.8153e-008   
  0.1             2.3448e-009     1.4216e-009     8.438e-009     
  0.15            -1.3898e-009    1.5695e-009     2.8936e-008    
  0.2             -1.394e-009     2.147e-010      1.1091e-008    
  0.25            -2.7221e-009    3.619e-010      1.2854e-008    
  0.3             1.328e-009      -1.1846e-009    -2.5046e-008   
  0.35            2.3698e-009     1.4391e-009     -1.2473e-008   
  0.4             -1.3901e-009    1.6289e-009     2.8991e-008    
  0.45            -1.3951e-009    3.294e-010      1.1533e-008    
  0.5             -1.3764e-009    7.6e-010        1.3065e-008    
  0.55            -2.6757e-009    2.2814e-009     1.4571e-008    
  0.6             -2.5658e-009    7.3353e-009     4.81e-010      
  0.65            2.3665e-009     3.7045e-008     2.642e-008     
  0.7             -1.0729e-009    1.7833e-007     1.7198e-008    
  0.75            -1.4848e-009    8.3953e-007     -9.838e-009    
  0.8             2.6314e-009     3.3213e-006     1.8546e-008    
  0.85            -1.8264e-009    1.2426e-005     2.7377e-008    
  0.9             -7.062e-010     3.5474e-005     -1.372e-008    
  0.95            -1.0854e-009    8.4016e-005     -1.1389e-008   
  1               -1.8806e-009    0.00016367      -1.5311e-008   
  1.05            -7.792e-010     0.00026529      -1.3587e-008   
  1.1             -1.1506e-009    0.00038448      -1.1102e-008   
  1.15            1.302e-010      0.00050273      -1.0588e-008   
  1.2             1.3691e-009     0.00062359      -2.3719e-008   
  1.25            2.8829e-009     0.00073743      -8.733e-009    
  1.3             2.7542e-009     0.0008435       -8.4e-010      
  1.35            2.5798e-009     0.00093833      8.417e-009     
  1.4             -1.7792e-009    0.00102498      2.3141e-008    
  1.45            -1.4127e-009    0.00110266      5.895e-009     
  1.5             1.124e-010      0.0011704       1.479e-008     
  1.55            -3.777e-010     0.0012355       -1.2786e-008   
  1.6             -8.599e-010     0.0012931       -1.3357e-008   
  1.65            -1.2294e-009    0.0013453       -1.0444e-008   
  1.7             4.92e-011       0.0013903       -1.0925e-008   
  1.75            -4.599e-010     0.0014338       -1.3129e-008   
  1.8             -9.142e-010     0.0014726       -1.3529e-008   
END_DB

BEGIN_DB
 ICCAP_VAR VS         0              
 ICCAP_VAR VB         -1.8           
 ICCAP_VAR VD         1.8            

 #VG              IG              ID              IB             
  0               -1.33e-010      1.3491e-006     -1.3393e-006   
  0.05            -6.564e-010     1.3424e-006     -1.3609e-006   
  0.1             -1.0508e-009    1.3427e-006     -1.3609e-006   
  0.15            -1.4539e-009    1.3425e-006     -1.3574e-006   
  0.2             -1.8481e-009    1.342e-006      -1.3573e-006   
  0.25            -2.1026e-009    1.3443e-006     -1.3584e-006   
  0.3             -2.4922e-009    1.3441e-006     -1.3548e-006   
  0.35            -2.7508e-009    1.3448e-006     -1.3555e-006   
  0.4             -2.7411e-009    1.3437e-006     -1.3489e-006   
  0.45            -2.5911e-009    1.3461e-006     -1.3436e-006   
  0.5             -2.0741e-009    1.3498e-006     -1.3391e-006   
  0.55            -1.5101e-009    1.3717e-006     -1.332e-006    
  0.6             -1.3891e-009    1.4795e-006     -1.3262e-006   
  0.65            -2.6994e-009    1.9979e-006     -1.3238e-006   
  0.7             -2.3625e-009    4.2225e-006     -1.3414e-006   
  0.75            1.3466e-009     1.2374e-005     -1.3644e-006   
  0.8             2.885e-009      3.7175e-005     -1.3684e-006   
  0.85            2.7511e-009     9.7977e-005     -1.3994e-006   
  0.9             2.8782e-009     0.00020854      -1.4346e-006   
  0.95            2.6108e-009     0.00038662      -1.5042e-006   
  1               1.891e-009      0.00062292      -1.5576e-006   
  1.05            1.3732e-009     0.0009144       -1.607e-006    
  1.1             -1.51e-010      0.0012595       -1.6473e-006   
  1.15            2.976e-010      0.0016289       -1.641e-006    
  1.2             7.328e-010      0.0020236       -1.6451e-006   
  1.25            1.1004e-009     0.0024354       -1.6422e-006   
  1.3             1.5021e-009     0.0028572       -1.63e-006     
  1.35            1.9191e-009     0.0033022       -1.6109e-006   
  1.4             2.3134e-009     0.0037569       -1.5919e-006   
  1.45            2.6336e-009     0.0042078       -1.5685e-006   
  1.5             2.832e-009      0.0046617       -1.5478e-006   
  1.55            2.8866e-009     0.0051198       -1.5322e-006   
  1.6             2.6348e-009     0.0055768       -1.5141e-006   
  1.65            1.9277e-009     0.0060311       -1.5002e-006   
  1.7             1.3931e-009     0.006486        -1.4914e-006   
  1.75            2.8792e-009     0.0069393       -1.4835e-006   
  1.8             2.8208e-009     0.0073984       -1.4814e-006   
END_DB

