! VERSION = 6.00
BEGIN_HEADER
 ICCAP_INPUTS
  VG         V  B GROUND SMU4 0.001 LIN        2    0          1.8        6    0.36      
  VS         V  E GROUND SMU2 0.1 CON        0
  VD         V  S GROUND SMU1 0.1 LIN        1    0          1.8        37   0.05      
  VB         V  C GROUND SMU3 0.1 LIN        3    0          -0.9       2    -0.9      
 ICCAP_OUTPUTS
  ID         I  S GROUND SMU1 B
  IB         I  C GROUND SMU3 B
  IG         I  B GROUND SMU4 B
END_HEADER

BEGIN_DB
 ICCAP_VAR VG         0              
 ICCAP_VAR VS         0              
 ICCAP_VAR VB         0              

 #VD              ID              IB              IG             
  0               1.4493e-009     8.709e-009      1.3222e-009    
  0.05            1.4141e-009     -1.2894e-008    2.3663e-009    
  0.1             1.589e-009      2.9117e-008     -1.3758e-009   
  0.15            2.378e-010      1.1789e-008     -1.3768e-009   
  0.2             3.758e-010      1.2892e-008     -1.3585e-009   
  0.25            5.292e-010      1.432e-008      -2.6703e-009   
  0.3             -1.7151e-009    7.16e-010       6.49e-011      
  0.35            -7.881e-010     -2.4713e-008    1.5189e-009    
  0.4             1.3447e-009     -8.638e-009     2.7432e-009    
  0.45            2.5438e-009     1.2386e-008     4.842e-010     
  0.5             2.5826e-009     1.1536e-008     6.543e-010     
  0.55            2.5975e-009     9.75e-009       8.128e-010     
  0.6             1.9346e-009     1.6738e-008     -1.8403e-009   
  0.65            -1.9328e-009    5.462e-009      -7.657e-010    
  0.7             -1.1326e-009    -1.0789e-008    1.324e-009     
  0.75            1.4229e-009     -1.0565e-008    2.2663e-009    
  0.8             2.6028e-009     9.197e-009      9.03e-010      
  0.85            2.0096e-009     1.3849e-008     -1.7007e-009   
  0.9             -1.561e-009     6.549e-009      2.513e-010     
  0.95            -6.335e-010     -2.1375e-008    1.834e-009     
  1               1.3926e-009     -9.654e-009     2.6211e-009    
  1.05            2.4233e-009     9.597e-009      1.3185e-009    
  1.1             1.5063e-009     2.8612e-008     -1.3821e-009   
  1.15            1.729e-010      1.0579e-008     -1.3793e-009   
  1.2             2.949e-010      1.2202e-008     -1.3704e-009   
  1.25            4.32e-010       1.3216e-008     -2.6996e-009   
  1.3             -1.8218e-009    -1.2479e-008    -9.47e-011     
  1.35            -1.9028e-009    -1.3132e-008    -3.097e-010    
  1.4             -1.9338e-009    -1.3239e-008    -5.224e-010    
  1.45            -1.9335e-009    -1.2562e-008    -7.172e-010    
  1.5             -1.0955e-009    -1.1208e-008    1.3254e-009    
  1.55            1.435e-009      -9.926e-009     2.239e-009     
  1.6             2.6058e-009     9.466e-009      8.656e-010     
  1.65            1.9869e-009     1.4879e-008     -1.7465e-009   
  1.7             -1.5266e-009    6.064e-009      2.83e-010      
  1.75            -5.914e-010     -2.08e-008      1.9052e-009    
  1.8             1.4164e-009     -9.716e-009     2.5947e-009    
END_DB

BEGIN_DB
 ICCAP_VAR VG         0.36           
 ICCAP_VAR VS         0              
 ICCAP_VAR VB         0              

 #VD              ID              IB              IG             
  0               1.0032e-009     1.0073e-008     7.399e-010     
  0.05            2.4936e-009     -1.6166e-008    2.8724e-009    
  0.1             4.5223e-009     2.5013e-008     -1.3749e-009   
  0.15            3.3686e-009     1.3026e-008     -1.3518e-009   
  0.2             3.617e-009      1.4494e-008     -2.6538e-009   
  0.25            2.5975e-009     6.45e-010       -2.5157e-009   
  0.3             2.6758e-009     1.212e-009      -2.3144e-009   
  0.35            2.8432e-009     2.684e-009      -2.0736e-009   
  0.4             3.0373e-009     4.445e-009      -1.7996e-009   
  0.45            3.1994e-009     5.594e-009      -1.5861e-009   
  0.5             3.4469e-009     7.653e-009      -1.4508e-009   
  0.55            3.5943e-009     8.825e-009      -1.388e-009    
  0.6             3.8005e-009     1.0053e-008     -1.3804e-009   
  0.65            3.9942e-009     1.1885e-008     -1.3778e-009   
  0.7             4.1995e-009     1.2967e-008     -2.7163e-009   
  0.75            2.5354e-009     -2.3565e-008    1.3239e-009    
  0.8             4.0235e-009     -1.2809e-008    2.8789e-009    
  0.85            5.676e-009      2.7069e-008     -1.3802e-009   
  0.9             4.5611e-009     1.2553e-008     -1.3656e-009   
  0.95            4.6633e-009     1.3654e-008     -2.6804e-009   
  1               2.8361e-009     -1.9914e-008    2.2918e-009    
  1.05            5.0095e-009     -7.248e-009     1.9514e-009    
  1.1             5.0015e-009     -9.067e-009     1.6631e-009    
  1.15            5.0156e-009     -9.493e-009     1.463e-009     
  1.2             4.9459e-009     -8.339e-009     1.3587e-009    
  1.25            4.9459e-009     -8.609e-009     1.3287e-009    
  1.3             4.8724e-009     -9.811e-009     2.8679e-009    
  1.35            6.2899e-009     2.8753e-008     -1.381e-009    
  1.4             5.0788e-009     1.1582e-008     -1.3799e-009   
  1.45            5.2908e-009     1.2639e-008     -1.3639e-009   
  1.5             5.5392e-009     1.386e-008      -2.6825e-009   
  1.55            4.4616e-009     6.74e-010       -2.57e-009     
  1.6             4.5955e-009     9.19e-010       -2.3921e-009   
  1.65            4.813e-009      1.984e-009      -2.1603e-009   
  1.7             4.9718e-009     3.908e-009      -1.8959e-009   
  1.75            5.1892e-009     5.233e-009      -1.6505e-009   
  1.8             5.4212e-009     6.878e-009      -1.4879e-009   
END_DB

BEGIN_DB
 ICCAP_VAR VG         0.72           
 ICCAP_VAR VS         0              
 ICCAP_VAR VB         0              

 #VD              ID              IB              IG             
  0               -1.7939e-008    3.436e-009      1.8306e-009    
  0.05            1.4044e-005     1.2151e-008     -2.7538e-009   
  0.1             2.0235e-005     1.5453e-008     -1.4948e-009   
  0.15            2.2219e-005     9.286e-009      1.1163e-009    
  0.2             2.3605e-005     -2.5951e-008    2.2728e-009    
  0.25            2.4472e-005     -1.3313e-008    -8.171e-010    
  0.3             2.5343e-005     8.567e-009      -1.3798e-009   
  0.35            2.5067e-005     9.331e-009      1.5489e-009    
  0.4             2.6007e-005     -1.4524e-008    1.5348e-009    
  0.45            2.6897e-005     -1.0503e-008    -1.2023e-009   
  0.5             2.7631e-005     2.8645e-008     -1.3697e-009   
  0.55            2.7614e-005     1.2314e-008     6.989e-010     
  0.6             2.7776e-005     -8.518e-009     1.3256e-009    
  0.65            2.8523e-005     -1.3063e-008    -5.55e-010     
  0.7             2.9397e-005     2.0619e-008     -1.5221e-009   
  0.75            2.9133e-005     9.627e-009      1.0836e-009    
  0.8             2.9727e-005     -2.6317e-008    2.3387e-009    
  0.85            3.0247e-005     -1.329e-008     -7.781e-010    
  0.9             3.0962e-005     8.298e-009      -1.3799e-009   
  0.95            3.1539e-005     2.1312e-008     -1.6895e-009   
  1               3.1362e-005     1.1018e-008     9.553e-010     
  1.05            3.1799e-005     -2.6808e-008    1.3252e-009    
  1.1             3.2335e-005     -1.318e-008     -6.003e-010    
  1.15            3.3244e-005     2.1221e-008     -1.4893e-009   
  1.2             3.2826e-005     9.355e-009      1.1211e-009    
  1.25            3.3494e-005     -2.6008e-008    2.2726e-009    
  1.3             3.4012e-005     -1.3516e-008    -8.221e-010    
  1.35            3.4771e-005     8.183e-009      -1.3803e-009   
  1.4             3.528e-005      1.9301e-008     -1.6411e-009   
  1.45            3.504e-005      9.19e-009       9.914e-010     
  1.5             3.5502e-005     -2.8989e-008    1.3252e-009    
  1.55            3.668e-005      -1.4383e-008    -1.7164e-009   
  1.6             3.7029e-005     1.125e-008      -2.0884e-009   
  1.65            3.7466e-005     4.513e-009      -2.636e-009    
  1.7             3.7841e-005     5.719e-009      -2.0153e-009   
  1.75            3.7674e-005     -6.42e-009      2.2846e-009    
  1.8             3.8146e-005     -3.4969e-008    -4.619e-010    
END_DB

BEGIN_DB
 ICCAP_VAR VG         1.08           
 ICCAP_VAR VS         0              
 ICCAP_VAR VB         0              

 #VD              ID              IB              IG             
  0               -1.11484e-007   -2.5179e-008    -1.7143e-009   
  0.05            9.6362e-005     -1.5727e-008    2.688e-010     
  0.1             0.00017965      -1.8655e-008    -4.037e-010    
  0.15            0.00024842      1.6964e-008     -2.0221e-009   
  0.2             0.00030054      1.0952e-008     2.0599e-009    
  0.25            0.00033856      -1.0568e-008    1.155e-010     
  0.3             0.0003671       1.2931e-008     -2.5821e-009   
  0.35            0.00038405      1.0183e-008     3.68e-011      
  0.4             0.00039376      -1.6894e-008    2.6184e-009    
  0.45            0.00040243      -2.6466e-008    2.4119e-009    
  0.5             0.0004086       -2.4937e-008    2.1506e-009    
  0.55            0.00041432      -1.3223e-008    -6.144e-010    
  0.6             0.0004197       1.8287e-008     -1.7439e-009   
  0.65            0.00042276      1.2213e-008     6.965e-010     
  0.7             0.00042492      -2.048e-008     1.5964e-009    
  0.75            0.00042962      -1.2715e-008    -9.361e-010    
  0.8             0.00043348      7.764e-009      -1.3788e-009   
  0.85            0.00043682      2.8605e-008     -1.3738e-009   
  0.9             0.00043977      2.2946e-008     -1.7466e-009   
  0.95            0.00044155      1.2131e-008     6.972e-010     
  1               0.0004429       -2.0461e-008    1.5998e-009    
  1.05            0.00044725      -1.2706e-008    -9.4e-010      
  1.1             0.00045073      7.746e-009      -1.3791e-009   
  1.15            0.00045352      2.8675e-008     -1.3737e-009   
  1.2             0.00045597      2.2972e-008     -1.7497e-009   
  1.25            0.0004576       1.2101e-008     7.008e-010     
  1.3             0.00045897      -2.0638e-008    1.5978e-009    
  1.35            0.00046264      -1.3047e-008    -9.435e-010    
  1.4             0.00046602      7.081e-009      -1.3791e-009   
  1.45            0.00046861      1.5736e-008     -1.9765e-009   
  1.5             0.00047085      1.9798e-008     -1.7471e-009   
  1.55            0.00047355      7.089e-009      -2.6561e-009   
  1.6             0.00047572      5.327e-009      -2.4099e-009   
  1.65            0.00047819      1.291e-009      -2.0136e-009   
  1.7             0.00047798      -1.4514e-008    2.0734e-009    
  1.75            0.00047992      -5.0321e-008    1.159e-010     
  1.8             0.0004853       -4.6823e-008    -2.5885e-009   
END_DB

BEGIN_DB
 ICCAP_VAR VG         1.44           
 ICCAP_VAR VS         0              
 ICCAP_VAR VB         0              

 #VD              ID              IB              IG             
  0               8.7291e-007     -1.3725e-008    1.1108e-009    
  0.05            0.00014063      -8.508e-009     1.6321e-009    
  0.1             0.00027514      -1.3177e-008    -9.191e-010    
  0.15            0.0004013       7.415e-009      -1.3818e-009   
  0.2             0.00051783      2.863e-008      -1.3773e-009   
  0.25            0.00062313      2.3515e-008     -1.7732e-009   
  0.3             0.00071549      1.2211e-008     6.84e-010      
  0.35            0.00079428      -2.0424e-008    1.618e-009     
  0.4             0.00086098      -1.2758e-008    -9.266e-010    
  0.45            0.00091459      7.522e-009      -1.3811e-009   
  0.5             0.00095639      2.8612e-008     -1.376e-009    
  0.55            0.00098805      2.3282e-008     -1.758e-009    
  0.6             0.00101085      1.2178e-008     6.856e-010     
  0.65            0.00102714      -2.0407e-008    1.6031e-009    
  0.7             0.00104233      -1.2753e-008    -9.338e-010    
  0.75            0.00105404      7.668e-009      -1.3795e-009   
  0.8             0.00106316      2.8662e-008     -1.3737e-009   
  0.85            0.0010706       2.2988e-008     -1.7529e-009   
  0.9             0.00107611      1.2199e-008     6.941e-010     
  0.95            0.00108087      -2.0489e-008    1.5991e-009    
  1               0.00108786      -1.269e-008     -9.407e-010    
  1.05            0.00109395      7.768e-009      -1.3797e-009   
  1.1             0.00109923      2.8703e-008     -1.3728e-009   
  1.15            0.00110371      2.2522e-008     -1.7441e-009   
  1.2             0.00110733      1.2217e-008     7.043e-010     
  1.25            0.00111004      -2.0414e-008    1.5914e-009    
  1.3             0.00111617      -1.2684e-008    -9.466e-010    
  1.35            0.00112128      7.661e-009      -1.3794e-009   
  1.4             0.00112594      2.8415e-008     -1.3716e-009   
  1.45            0.00112966      2.2058e-008     -1.7292e-009   
  1.5             0.00113234      1.1467e-008     7.118e-010     
  1.55            0.00113464      -2.198e-008     1.5782e-009    
  1.6             0.0011388       1.1008e-008     2.3433e-009    
  1.65            0.001145        -1.6991e-008    -1.9581e-009   
  1.7             0.0011489       9.099e-009      -1.9055e-009   
  1.75            0.001152        -1.9224e-008    -2.7453e-009   
  1.8             0.0011538       -1.5393e-008    1.1747e-009    
END_DB

BEGIN_DB
 ICCAP_VAR VG         1.8            
 ICCAP_VAR VS         0              
 ICCAP_VAR VB         0              

 #VD              ID              IB              IG             
  0               8.9314e-007     3.7e-011        6.855e-010     
  0.05            0.00015667      1.8942e-008     6.476e-010     
  0.1             0.0003101       -1.9978e-008    1.6731e-009    
  0.15            0.00045912      -1.3046e-008    -8.983e-010    
  0.2             0.00060288      7.104e-009      -1.3768e-009   
  0.25            0.00074079      2.8636e-008     -1.3753e-009   
  0.3             0.00087124      2.4822e-008     -1.8201e-009   
  0.35            0.00099343      1.2324e-008     6.512e-010     
  0.4             0.00110614      -1.9941e-008    1.6562e-009    
  0.45            0.0012097       8.384e-009      2.8726e-009    
  0.5             0.0013025       -1.263e-008     2.677e-010     
  0.55            0.0013857       1.2182e-008     -2.6739e-009   
  0.6             0.0014558       9.858e-009      -1.267e-010    
  0.65            0.001514        -1.4178e-008    2.7716e-009    
  0.7             0.0015667       -1.1976e-008    -1.7252e-009   
  0.75            0.0016064       2.1141e-008     -1.6984e-009   
  0.8             0.0016383       1.2198e-008     7.455e-010     
  0.85            0.001663        -2.0711e-008    1.5377e-009    
  0.9             0.0016853       -1.2413e-008    -9.778e-010    
  0.95            0.0017027       8.185e-009      -1.3758e-009   
  1               0.0017165       2.8694e-008     -1.3669e-009   
  1.05            0.0017241       1.0151e-008     1.515e-009     
  1.1             0.0017359       -2.2298e-008    1.9705e-009    
  1.15            0.0017453       -1.3295e-008    -7.384e-010    
  1.2             0.0017542       1.941e-008      -1.6188e-009   
  1.25            0.0017598       1.195e-008      7.997e-010     
  1.3             0.0017653       -9.57e-009      1.3283e-009    
  1.35            0.0017717       -2.6745e-008    1.3202e-009    
  1.4             0.0017785       -1.2544e-008    -4.116e-010    
  1.45            0.0017853       1.7343e-008     -2.0061e-009   
  1.5             0.0017885       1.0219e-008     2.0783e-009    
  1.55            0.0017932       -1.0659e-008    1.094e-010     
  1.6             0.001802        1.2869e-008     -2.5772e-009   
  1.65            0.0018065       2.6928e-008     -1.3775e-009   
  1.7             0.0018109       1.6526e-008     -1.834e-009    
  1.75            0.0018155       1.6922e-008     -1.6274e-009   
  1.8             0.0018202       7.829e-009      -2.5891e-009   
END_DB

BEGIN_DB
 ICCAP_VAR VG         0              
 ICCAP_VAR VS         0              
 ICCAP_VAR VB         -0.9           

 #VD              ID              IB              IG             
  0               1.298e-009      2.0959e-008     1.0526e-009    
  0.05            1.3655e-009     -9.044e-009     2.7272e-009    
  0.1             2.551e-009      1.208e-008      4.656e-010     
  0.15            2.5958e-009     1.1364e-008     6.511e-010     
  0.2             2.6125e-009     9.742e-009      8.234e-010     
  0.25            1.9627e-009     1.6023e-008     -1.8014e-009   
  0.3             -1.5082e-009    5.535e-009      2.987e-010     
  0.35            -1.644e-009     -1.1501e-008    1.345e-010     
  0.4             -7.18e-010      -2.3538e-008    1.612e-009     
  0.45            1.3734e-009     -9.178e-009     2.7116e-009    
  0.5             2.5452e-009     1.2193e-008     4.401e-010     
  0.55            2.5916e-009     1.1468e-008     6.302e-010     
  0.6             2.6128e-009     9.919e-009      8.042e-010     
  0.65            1.9515e-009     1.6743e-008     -1.8389e-009   
  0.7             -1.9183e-009    5.648e-009      -7.835e-010    
  0.75            -1.1402e-009    -1.0623e-008    1.3233e-009    
  0.8             1.4338e-009     -1.143e-008     2.3115e-009    
  0.85            1.5628e-009     2.8748e-008     -1.3774e-009   
  0.9             2.377e-010      1.1354e-008     -1.3773e-009   
  0.95            3.904e-010      1.2625e-008     -1.3613e-009   
  1               5.634e-010      1.4072e-008     -2.6669e-009   
  1.05            -1.6479e-009    8.37e-010       5.33e-011      
  1.1             -6.98e-010      -2.5026e-008    1.5043e-009    
  1.15            1.4781e-009     -8.628e-009     2.7629e-009    
  1.2             2.766e-009      1.1824e-008     5.383e-010     
  1.25            2.0311e-009     2.5542e-008     -1.3774e-009   
  1.3             8.309e-010      1.2491e-008     -1.3537e-009   
  1.35            1.183e-009      1.4137e-008     -2.646e-009    
  1.4             3.697e-010      -1.8e-010       -2.5025e-009   
  1.45            2.067e-009      -1.318e-008     1.7637e-009    
  1.5             2.4149e-009     -1.1596e-008    1.5085e-009    
  1.55            2.9493e-009     -1.1079e-008    1.3692e-009    
  1.6             3.671e-009      -1.1691e-008    1.3242e-009    
  1.65            4.6394e-009     -1.3939e-008    1.3211e-009    
  1.7             5.9401e-009     -1.8348e-008    2.874e-009     
  1.75            8.7401e-009     -8.688e-009     2.8389e-009    
  1.8             1.147e-008      2.288e-009      2.3465e-009    
END_DB

BEGIN_DB
 ICCAP_VAR VG         0.36           
 ICCAP_VAR VS         0              
 ICCAP_VAR VB         -0.9           

 #VD              ID              IB              IG             
  0               1.3252e-009     2.3735e-008     1.0532e-009    
  0.05            1.3947e-009     -9.426e-009     2.6895e-009    
  0.1             2.5445e-009     1.2238e-008     3.881e-010     
  0.15            2.5938e-009     1.1713e-008     5.86e-010      
  0.2             2.6215e-009     1.0277e-008     7.643e-010     
  0.25            1.9303e-009     1.7971e-008     -1.346e-009    
  0.3             6.295e-010      1.5333e-008     -2.6149e-009   
