! VERSION = 6.00
BEGIN_HEADER
 ICCAP_INPUTS
  VG         V  B GROUND SMU4 0.001 LIN        1    0          1.8        37   0.05      
  VS         V  E GROUND SMU2 0.1 CON        0
  VB         V  C GROUND SMU3 0.1 LIN        3    0          -1.8       3    -0.9      
  VD         V  S GROUND SMU1 0.1 LIN        2    0.1        1.8        2    1.7       
 ICCAP_OUTPUTS
  IG         I  B GROUND SMU4 B
  ID         I  S GROUND SMU1 B
  IB         I  C GROUND SMU3 B
END_HEADER

BEGIN_DB
 ICCAP_VAR VS         0              
 ICCAP_VAR VB         0              
 ICCAP_VAR VD         0.1            

 #VG              IG              ID              IB             
  0               -1.3959e-009    -1.2839e-009    1.236e-008     
  0.05            -1.396e-009     -4.23e-011      1.1441e-008    
  0.1             -1.3805e-009    1.12e-010       1.2807e-008    
  0.15            -2.6831e-009    3.105e-010      1.4575e-008    
  0.2             6.83e-011       -1.7877e-009    6.52e-010      
  0.25            1.5163e-009     -1.97e-010      -2.4549e-008   
  0.3             1.3689e-009     3.8319e-009     -8.587e-009    
  0.35            -2.1158e-009    1.3106e-008     -8.677e-009    
  0.4             -1.1167e-009    6.0505e-008     -1.1377e-008   
  0.45            -2.0123e-009    2.5991e-007     2.8569e-008    
  0.5             -9.806e-010     1.08735e-006    -1.2803e-008   
  0.55            2.8489e-009     4.1845e-006     9.685e-009     
  0.6             -1.8199e-009    1.5311e-005     2.7872e-008    
  0.65            -6.926e-010     4.5161e-005     -1.343e-008    
  0.7             1.214e-009      0.00011287      1.0215e-008    
  0.75            2.1478e-009     0.0002284       -1.9422e-008   
  0.8             1.4572e-009     0.00039109      -8.406e-009    
  0.85            2.8769e-009     0.00058013      -8.465e-009    
  0.9             2.8384e-009     0.00077723      -1.43e-010     
  0.95            -1.6685e-009    0.00096091      2.0331e-008    
  1               -1.3994e-009    0.00112645      7.082e-009     
  1.05            1.3263e-009     0.0012673       2.2374e-008    
  1.1             2.874e-009      0.0013928       -9.677e-009    
  1.15            -1.8198e-009    0.0015051       2.431e-008     
  1.2             -1.4205e-009    0.0016          5.927e-009     
  1.25            -1.3933e-009    0.0016827       9.248e-009     
  1.3             -2.5997e-009    0.0017551       1.3273e-008    
  1.35            -2.0517e-009    0.0018176       8.58e-010      
  1.4             -1.4982e-009    0.0018736       4.733e-009     
  1.45            -1.3968e-009    0.0019229       8.314e-009     
  1.5             -2.6881e-009    0.0019674       1.2398e-008    
  1.55            -2.2999e-009    0.0020066       7.1e-010       
  1.6             -1.6604e-009    0.0020415       3.185e-009     
  1.65            -1.4009e-009    0.0020729       6.996e-009     
  1.7             -2.7288e-009    0.0021017       1.068e-008     
  1.75            2.1022e-009     0.0021269       -2.4516e-008   
  1.8             1.4432e-009     0.0021496       -8.597e-009    
END_DB

BEGIN_DB
 ICCAP_VAR VS         0              
 ICCAP_VAR VB         0              
 ICCAP_VAR VD         1.8            

 #VG              IG              ID              IB             
  0               1.3729e-009     1.6404e-009     -1.3239e-008   
  0.05            1.0851e-009     2.3726e-009     -8.368e-009    
  0.1             -1.489e-009     1.1288e-009     2.5549e-008    
  0.15            5.15e-011       -1.8497e-009    8.49e-009      
  0.2             -1.52e-010      -1.5364e-009    -1.3063e-008   
  0.25            2.8855e-009     2.5273e-009     -1.3423e-008   
  0.3             2.2028e-009     1.2117e-008     9.979e-009     
  0.35            1.0405e-009     4.8826e-008     9.994e-009     
  0.4             2.8277e-009     2.039e-007      -1.2806e-008   
  0.45            2.5284e-009     8.7403e-007     6.78e-009      
  0.5             -2.517e-009     3.819e-006      -1.5082e-008   
  0.55            2.5358e-009     1.3534e-005     -2.7787e-008   
  0.6             1.7799e-009     4.4449e-005     -4.8278e-008   
  0.65            -8.158e-010     0.00012402      -1.0967e-007   
  0.7             -1.1902e-009    0.00028553      -1.9522e-007   
  0.75            -1.6176e-009    0.00055381      -3.0147e-007   
  0.8             -1.9553e-009    0.00092254      -4.0428e-007   
  0.85            1.987e-009      0.0013819       -4.6891e-007   
  0.9             1.3974e-009     0.001934        -5.2864e-007   
  0.95            1.3291e-009     0.0025514       -5.4171e-007   
  1               2.8275e-009     0.003221        -5.2818e-007   
  1.05            2.3135e-009     0.0039401       -4.8191e-007   
  1.1             1.5507e-009     0.0046806       -4.3675e-007   
  1.15            1.3282e-009     0.0054439       -3.809e-007    
  1.2             2.8737e-009     0.0062207       -3.2199e-007   
  1.25            2.5754e-009     0.0070265       -2.5972e-007   
  1.3             1.8272e-009     0.0078279       -2.1373e-007   
  1.35            1.3518e-009     0.0086376       -1.7638e-007   
  1.4             2.8776e-009     0.0094487       -1.3857e-007   
  1.45            2.7609e-009     0.010275        -1.0137e-007   
  1.5             9.82e-010       0.011105        -5.5254e-008   
  1.55            1.0197e-009     0.011918        -4.4814e-008   
  1.6             1.4162e-009     0.012717        -3.16e-008     
  1.65            1.8491e-009     0.013529        -1.9016e-008   
  1.7             2.2601e-009     0.014359        -1.3584e-008   
  1.75            2.609e-009      0.015168        -7.703e-009    
  1.8             2.827e-009      0.015965        -3.891e-009    
END_DB

BEGIN_DB
 ICCAP_VAR VS         0              
 ICCAP_VAR VB         -0.9           
 ICCAP_VAR VD         0.1            

 #VG              IG              ID              IB             
  0               -1.3992e-009    -1.156e-009     1.1298e-008    
  0.05            -1.3779e-009    1.338e-010      1.3053e-008    
  0.1             -2.6707e-009    2.982e-010      1.5234e-008    
  0.15            -1.0627e-009    -2.1624e-009    6.5e-010       
  0.2             1.6154e-009     -1.709e-009     -1.117e-008    
  0.25            1.8298e-009     1.5883e-009     -9.119e-009    
  0.3             4.182e-010      2.3351e-009     1.243e-008     
  0.35            6.083e-010      2.4361e-009     1.1753e-008    
  0.4             7.869e-010      2.7788e-009     1.0313e-008    
  0.45            -1.3694e-009    3.8114e-009     1.7572e-008    
  0.5             1.4145e-009     1.1176e-008     -6.193e-009    
  0.55            1.3297e-009     4.9344e-008     -8.306e-009    
  0.6             -1.9158e-009    2.3338e-007     2.8494e-008    
  0.65            -8.369e-010     1.05725e-006    -1.3533e-008   
  0.7             2.8833e-009     4.326e-006      1.1343e-008    
  0.75            -1.8661e-009    1.6674e-005     -2.35e-010     
  0.8             -1.4265e-009    5.0538e-005     5.559e-009     
  0.85            -1.8221e-009    0.00012621      8.384e-009     
  0.9             -1.4171e-009    0.00025234      5.772e-009     
  0.95            -1.3979e-009    0.00042481      8.908e-009     
  1               -2.6191e-009    0.00061947      1.32e-008      
  1.05            -2.0773e-009    0.00081366      4.63e-010      
  1.1             -1.5061e-009    0.00099388      4.654e-009     
  1.15            1.3312e-009     0.0011505       2.12e-008      
  1.2             2.883e-009      0.00129         -9.32e-009     
  1.25            -1.8923e-009    0.0014154       2.583e-008     
  1.3             -1.436e-009     0.0015196       5.375e-009     
  1.35            -1.4013e-009    0.0016103       8.73e-009      
  1.4             -2.649e-009     0.0016888       1.3013e-008    
  1.45            -2.1518e-009    0.0017563       6.73e-010      
  1.5             -1.5496e-009    0.0018166       4.25e-009      
  1.55            -1.3959e-009    0.0018698       7.967e-009     
  1.6             -2.7184e-009    0.0019167       1.1758e-008    
  1.65            -4.195e-010     0.0019575       -1.2752e-008   
  1.7             -8.906e-010     0.0019947       -1.3203e-008   
  1.75            1.5665e-009     0.0020263       -1.5488e-008   
  1.8             1.3278e-009     0.0020572       -8.807e-009    
END_DB

BEGIN_DB
 ICCAP_VAR VS         0              
 ICCAP_VAR VB         -0.9           
 ICCAP_VAR VD         1.8            

 #VG              IG              ID              IB             
  0               2.8711e-009     1.3487e-008     -1.6628e-008   
  0.05            2.8583e-009     1.2895e-008     -1.1721e-008   
  0.1             2.4685e-009     1.3033e-008     -1.2981e-008   
  0.15            1.6976e-009     1.3092e-008     -1.7199e-008   
  0.2             1.3304e-009     1.2873e-008     -2.1196e-008   
  0.25            2.8849e-009     1.3035e-008     -2.049e-008    
  0.3             2.6975e-009     1.3135e-008     -1.244e-008    
  0.35            2.0198e-009     1.3997e-008     -1.4814e-008   
  0.4             1.4065e-009     1.6803e-008     -2.0399e-008   
  0.45            1.3283e-009     3.2106e-008     -1.9891e-008   
  0.5             -1.1122e-009    1.0708e-007     5.905e-009     
  0.55            -1.5319e-009    4.8377e-007     -2.2436e-008   
  0.6             1.7325e-009     2.1017e-006     -5.201e-009    
  0.65            1.3358e-009     8.6427e-006     -3.1126e-008   
  0.7             -1.4414e-009    3.2595e-005     -4.1625e-008   
  0.75            1.274e-010      9.5454e-005     -1.0665e-007   
  0.8             5.96e-011       0.00023421      -1.6505e-007   
  0.85            -4.559e-010     0.00047601      -2.6394e-007   
  0.9             -9.149e-010     0.00083332      -3.5864e-007   
  0.95            2.851e-010      0.0012997       -4.3114e-007   
  1               7.343e-010      0.0018455       -4.5357e-007   
  1.05            1.1107e-009     0.0024618       -4.6953e-007   
  1.1             1.5223e-009     0.0031252       -4.5586e-007   
  1.15            1.9548e-009     0.0038464       -4.1959e-007   
  1.2             2.3446e-009     0.0046093       -3.7615e-007   
  1.25            2.661e-009      0.0053777       -3.2754e-007   
  1.3             2.861e-009      0.0061626       -2.7808e-007   
  1.35            2.8807e-009     0.006965        -2.3545e-007   
  1.4             2.5884e-009     0.0077719       -1.9305e-007   
  1.45            1.8619e-009     0.0085789       -1.5747e-007   
  1.5             1.3688e-009     0.0093939       -1.3094e-007   
  1.55            2.8921e-009     0.0102107       -1.0341e-007   
  1.6             1.051e-009      0.011048        -5.7064e-008   
  1.65            6.002e-010      0.011869        -4.2204e-008   
  1.7             9.966e-010      0.012676        -3.1077e-008   
  1.75            1.3828e-009     0.013474        -2.3405e-008   
  1.8             1.8274e-009     0.014277        -1.3423e-008   
END_DB

BEGIN_DB
 ICCAP_VAR VS         0              
 ICCAP_VAR VB         -1.8           
 ICCAP_VAR VD         0.1            

 #VG              IG              ID              IB             
  0               1.3353e-009     1.5077e-009     -1.3529e-008   
  0.05            1.174e-009      2.3543e-009     -8.77e-009     
  0.1             -2.527e-010     2.0268e-009     9.486e-009     
  0.15            -1.7387e-009    9.491e-010      2.1099e-008    
  0.2             -1.7861e-009    -1.5566e-009    6.511e-009     
  0.25            -3.188e-010     -2.156e-009     -1.3433e-008   
  0.3             -5.359e-010     -2.1774e-009    -1.3654e-008   
  0.35            -7.47e-010      -2.1641e-009    -1.2952e-008   
  0.4             -9.11e-010      -2.1182e-009    -1.1331e-008   
  0.45            1.9369e-009     -1.4582e-009    -1.4991e-008   
  0.5             2.6432e-009     1.8906e-009     -9.623e-009    
  0.55            -1.384e-009     5.3225e-009     2.0396e-008    
  0.6             1.5019e-009     1.7033e-008     7.831e-009     
  0.65            2.8703e-009     8.8253e-008     -8.551e-009    
  0.7             6.76e-011       4.2065e-007     8.033e-009     
  0.75            1.5391e-009     1.8761e-006     1.0456e-008    
  0.8             1.3251e-009     7.6231e-006     -8.951e-009    
  0.85            -1.5112e-009    2.7311e-005     -8.506e-009    
  0.9             -1.3961e-009    7.6388e-005     8.238e-009     
  0.95            -1.6047e-009    0.00017305      9.136e-009     
  1               -1.3928e-009    0.00032117      7.284e-009     
  1.05            -1.374e-009     0.00050546      1.0723e-008    
  1.1             -2.4732e-009    0.00070168      1.5171e-008    
  1.15            -1.8163e-009    0.00089027      1.791e-009     
  1.2             -1.4193e-009    0.00106101      5.688e-009     
  1.25            1.5178e-009     0.0012077       2.4053e-008    
  1.3             1.3258e-009     0.001339        -8.675e-009    
  1.35            2.8681e-009     0.0014512       -1.0637e-008   
  1.4             -1.75e-009      0.0015511       2.2528e-008    
  1.45            -1.4044e-009    0.0016353       6.267e-009     
  1.5             -1.3909e-009    0.0017086       9.407e-009     
  1.55            -2.5872e-009    0.0017727       1.3688e-008    
  1.6             -2.0015e-009    0.0018278       7.92e-010      
  1.65            -1.4751e-009    0.0018777       4.999e-009     
  1.7             -1.3973e-009    0.0019213       8.213e-009     
  1.75            -2.6848e-009    0.0019604       1.2376e-008    
  1.8             -2.2745e-009    0.0019949       5.15e-010      
END_DB

BEGIN_DB
 ICCAP_VAR VS         0              
 ICCAP_VAR VB         -1.8           
 ICCAP_VAR VD         1.8            

 #VG              IG              ID              IB             
  0               -2.7611e-009    8.0713e-007     -8.0002e-007   
  0.05            -2.7087e-009    8.1048e-007     -8.1294e-007   
  0.1             -2.3839e-009    8.1019e-007     -8.0988e-007   
  0.15            -1.7218e-009    8.101e-007      -8.0597e-007   
  0.2             -1.4075e-009    8.1066e-007     -8.0167e-007   
  0.25            -1.3964e-009    8.1099e-007     -7.9793e-007   
  0.3             -2.5903e-009    8.108e-007      -7.9367e-007   
  0.35            -1.9903e-009    8.1038e-007     -8.0836e-007   
  0.4             -1.4686e-009    8.1097e-007     -8.0303e-007   
  0.45            -1.4031e-009    8.1336e-007     -7.9911e-007   
  0.5             -2.6922e-009    8.2378e-007     -7.947e-007    
  0.55            -2.2753e-009    8.7605e-007     -8.0886e-007   
  0.6             2.3352e-009     1.1303e-006     -8.0469e-007   
  0.65            1.5733e-009     2.3088e-006     -8.1766e-007   
  0.7             1.3301e-009     7.2862e-006     -8.2461e-007   
  0.75            -1.8457e-009    2.635e-005      -8.293e-007    
  0.8             -1.4225e-009    7.9895e-005     -8.6251e-007   
  0.85            -2.3882e-009    0.00020413      -9.1795e-007   
  0.9             -1.7114e-009    0.00042526      -1.0021e-006   
  0.95            -1.4057e-009    0.00076268      -1.07587e-006  
  1               2.8715e-009     0.0012028       -1.1277e-006   
  1.05            2.853e-009      0.0017389       -1.1603e-006   
  1.1             2.4035e-009     0.0023469       -1.1531e-006   
  1.15            1.6279e-009     0.0030129       -1.1181e-006   
  1.2             1.3303e-009     0.0037232       -1.0644e-006   
  1.25            -2.7422e-009    0.0044792       -9.9753e-007   
  1.3             -2.7438e-009    0.005246        -9.1581e-007   
  1.35            -2.6455e-009    0.0060286       -8.3265e-007   
  1.4             -2.1327e-009    0.006828        -7.5491e-007   
  1.45            -1.5256e-009    0.0076355       -6.8048e-007   
  1.5             -1.4006e-009    0.0084474       -6.1465e-007   
  1.55            -2.7119e-009    0.0092647       -5.5402e-007   
  1.6             -2.4082e-009    0.0100696       -5.1793e-007   
  1.65            -1.7572e-009    0.0108897       -4.7157e-007   
  1.7             1.356e-009      0.0117          -4.3559e-007   
  1.75            2.886e-009      0.012499        -4.0874e-007   
  1.8             2.7818e-009     0.013315        -3.7293e-007   
END_DB

