! VERSION = 6.00
BEGIN_HEADER
 ICCAP_INPUTS
  VG         V  B GROUND SMU4 0.001 LIN        2    0          1.8        6    0.36      
  VS         V  E GROUND SMU2 0.1 CON        0
  VD         V  S GROUND SMU1 0.1 LIN        1    0          1.8        37   0.05      
  VB         V  C GROUND SMU3 0.1 LIN        3    0          -0.9       2    -0.9      
 ICCAP_OUTPUTS
  ID         I  S GROUND SMU1 B
  IB         I  C GROUND SMU3 B
  IG         I  B GROUND SMU4 B
END_HEADER

BEGIN_DB
 ICCAP_VAR VG         0              
 ICCAP_VAR VS         0              
 ICCAP_VAR VB         0              

 #VD              ID              IB              IG             
  0               6.507e-010      2.39e-008       4.875e-010     
  0.05            -1.767e-009     -1.0633e-008    1.5317e-009    
  0.1             1.4696e-009     -8.657e-009     1.9234e-009    
  0.15            2.3407e-009     1.2294e-008     5.204e-010     
  0.2             2.3679e-009     1.1398e-008     6.998e-010     
  0.25            2.3725e-009     9.746e-009      8.684e-010     
  0.3             1.7652e-009     1.5012e-008     -1.7771e-009   
  0.35            -1.6188e-009    6.236e-009      -1.7695e-009   
  0.4             -2.185e-009     -1.3216e-008    -2.926e-010    
  0.45            -2.2132e-009    -1.3311e-008    -5.175e-010    
  0.5             -2.2084e-009    -1.254e-008     -7.299e-010    
  0.55            -2.1872e-009    -1.1143e-008    -8.946e-010    
  0.6             -1.6313e-009    -1.5299e-008    1.9652e-009    
  0.65            1.8817e-009     -9.37e-009      1.6359e-009    
  0.7             1.6014e-009     1.0826e-008     1.8195e-009    
  0.75            2.3194e-009     1.2372e-008     3.995e-010     
  0.8             2.3567e-009     1.2026e-008     5.988e-010     
  0.85            2.3744e-009     1.0545e-008     7.742e-010     
  0.9             1.6831e-009     1.816e-008      -1.9436e-009   
  0.95            -1.7525e-009    5.137e-009      -1.6655e-009   
  1               -1.4648e-009    -2.4165e-008    2.5076e-009    
  1.05            2.2276e-009     -5.286e-009     1.3162e-009    
  1.1             1.2708e-009     2.8396e-008     -1.4033e-009   
  1.15            -2.0962e-009    1.067e-008      -1.2708e-009   
  1.2             -1.8558e-009    -1.0898e-008    2.381e-010     
  1.25            -8.995e-010     -2.1498e-008    1.7906e-009    
  1.3             1.7421e-009     -9.63e-009      1.74e-009      
  1.35            2.2948e-009     1.2239e-008     3.175e-010     
  1.4             2.3423e-009     1.2311e-008     5.135e-010     
  1.45            2.3718e-009     1.1391e-008     6.987e-010     
  1.5             2.38e-009       9.727e-009      8.62e-010      
  1.55            1.7668e-009     1.5226e-008     -1.7824e-009   
  1.6             -1.6255e-009    6.193e-009      -1.7614e-009   
  1.65            -2.1755e-009    -1.328e-008     -2.912e-010    
  1.7             -2.2023e-009    -1.3381e-008    -5.059e-010    
  1.75            -2.1947e-009    -1.2583e-008    -7.267e-010    
  1.8             -2.1661e-009    -1.1209e-008    -8.934e-010    
END_DB

BEGIN_DB
 ICCAP_VAR VG         0.36           
 ICCAP_VAR VS         0              
 ICCAP_VAR VB         0              

 #VD              ID              IB              IG             
  0               -1.6978e-009    1.3008e-008     -2.2892e-009   
  0.05            1.7627e-008     1.2185e-008     2.8858e-009    
  0.1             1.7282e-008     -1.1221e-008    -1.0879e-009   
  0.15            2.2296e-008     1.9612e-008     -1.6091e-009   
  0.2             2.3509e-008     1.0799e-008     2.0278e-009    
  0.25            2.199e-008      -1.8882e-008    1.7763e-009    
  0.3             2.2964e-008     -2.5318e-008    2.1901e-009    
  0.35            2.2997e-008     -1.148e-008     -1.271e-010    
  0.4             2.5791e-008     1.2495e-008     -2.6821e-009   
  0.45            2.8672e-008     1.7794e-008     -1.5876e-009   
  0.5             2.8895e-008     1.0674e-008     2.0525e-009    
  0.55            2.7463e-008     -1.82e-008      1.7403e-009    
  0.6             2.8818e-008     -2.5106e-008    2.1519e-009    
  0.65            2.8739e-008     -1.1618e-008    -1.435e-010    
  0.7             3.2098e-008     1.2673e-008     -2.6732e-009   
  0.75            3.5052e-008     1.7395e-008     -1.5661e-009   
  0.8             3.4811e-008     1.0445e-008     2.0653e-009    
  0.85            3.4009e-008     -1.7711e-008    1.7083e-009    
  0.9             3.5257e-008     -2.4922e-008    2.1136e-009    
  0.95            3.5393e-008     -1.1707e-008    -1.718e-010    
  1               3.9532e-008     1.259e-008      -2.666e-009    
  1.05            4.2382e-008     1.6657e-008     -1.5443e-009   
  1.1             4.1841e-008     1.0328e-008     2.0858e-009    
  1.15            4.15e-008       -1.7138e-008    1.6854e-009    
  1.2             4.3132e-008     -2.4354e-008    2.0871e-009    
  1.25            4.314e-008      -1.1736e-008    -2.002e-010    
  1.3             4.7767e-008     1.2808e-008     -2.6553e-009   
  1.35            5.139e-008      1.6091e-008     -1.532e-009    
  1.4             5.0381e-008     1.0303e-008     2.1029e-009    
  1.45            5.0388e-008     -1.6647e-008    1.6503e-009    
  1.5             5.2277e-008     -2.3935e-008    2.0475e-009    
  1.55            5.2445e-008     -1.1916e-008    -2.263e-010    
  1.6             5.805e-008      1.2986e-008     -2.6474e-009   
  1.65            6.1901e-008     1.558e-008      -1.5159e-009   
  1.7             6.016e-008      9.825e-009      2.1177e-009    
  1.75            6.0767e-008     -1.631e-008     1.6233e-009    
  1.8             6.1773e-008     -1.3301e-008    -5.233e-010    
END_DB

BEGIN_DB
 ICCAP_VAR VG         0.72           
 ICCAP_VAR VS         0              
 ICCAP_VAR VB         0              

 #VD              ID              IB              IG             
  0               -1.1046e-007    -1.3222e-008    1.0065e-009    
  0.05            0.00010528      -1.6417e-008    8.8e-012       
  0.1             0.00015581      1.4824e-008     -2.4787e-009   
  0.15            0.00017647      2.8525e-008     -1.3965e-009   
  0.2             0.00018829      2.5027e-008     -1.8539e-009   
  0.25            0.00019301      1.228e-008      6.538e-010     
  0.3             0.00019868      -1.9755e-008    1.6653e-009    
  0.35            0.00020603      -1.3404e-008    -8.976e-010    
  0.4             0.00021411      7.205e-009      -1.399e-009    
  0.45            0.00022094      2.8516e-008     -1.3936e-009   
  0.5             0.00022684      2.4302e-008     -1.8178e-009   
  0.55            0.0002293       1.2307e-008     6.812e-010     
  0.6             0.00023278      -1.9796e-008    1.638e-009     
  0.65            0.00024049      -1.3314e-008    -9.171e-010    
  0.7             0.00024772      7.599e-009      -1.3973e-009   
  0.75            0.00025555      2.8739e-008     -1.3931e-009   
  0.8             0.00026078      2.3364e-008     -1.7871e-009   
  0.85            0.00026168      1.223e-008      7.013e-010     
  0.9             0.000266        -2.004e-008     1.6011e-009    
  0.95            0.00027322      -1.2797e-008    -9.381e-010    
  1               0.00028176      7.707e-009      -1.3985e-009   
  1.05            0.00028865      2.8611e-008     -1.3911e-009   
  1.1             0.00029428      2.245e-008      -1.7515e-009   
  1.15            0.00029573      1.2029e-008     7.243e-010     
  1.2             0.00029976      -2.0805e-008    1.5713e-009    
  1.25            0.00030797      -1.3707e-008    -9.532e-010    
  1.3             0.00031627      5.609e-009      -1.3979e-009   
  1.35            0.00032354      1.3757e-008     -1.9516e-009   
  1.4             0.00032976      3.996e-009      -2.704e-009    
  1.45            0.00033624      3.87e-010       -2.5492e-009   
  1.5             0.00032979      -1.1274e-008    1.7244e-009    
  1.55            0.00034207      -5.2314e-008    1.6758e-009    
  1.6             0.00034868      -6.3663e-008    -2.2645e-009   
  1.65            0.00035817      -6.9271e-008    1.701e-010     
  1.7             0.00036145      -1.3237e-007    7.592e-010     
  1.75            0.00036567      -1.8452e-007    1.5292e-009    
  1.8             0.00037419      -2.3595e-007    -2.3674e-009   
END_DB

BEGIN_DB
 ICCAP_VAR VG         1.08           
 ICCAP_VAR VS         0              
 ICCAP_VAR VB         0              

 #VD              ID              IB              IG             
  0               -1.6428e-006    -5.348e-009     -2.3609e-009   
  0.05            0.00070407      2.6078e-008     1.0781e-009    
  0.1             0.0013448       -1.0816e-008    2.854e-010     
  0.15            0.0018974       -1.9034e-008    2.2891e-009    
  0.2             0.0023637       -1.303e-008     -5.235e-010    
  0.25            0.0027332       1.8559e-008     -1.8684e-009   
  0.3             0.0030046       1.2292e-008     6.529e-010     
  0.35            0.003187        -1.9585e-008    1.6775e-009    
  0.4             0.0033371       -1.3061e-008    -8.904e-010    
  0.45            0.0034419       7.244e-009      -1.3993e-009   
  0.5             0.0035167       2.8622e-008     -1.3954e-009   
  0.55            0.0035757       2.4386e-008     -1.827e-009    
  0.6             0.003617        1.2208e-008     6.744e-010     
  0.65            0.0036507       -1.98e-008      1.6483e-009    
  0.7             0.0037035       -1.3065e-008    -9.107e-010    
  0.75            0.003748        7.488e-009      -1.3988e-009   
  0.8             0.0037875       2.8654e-008     -1.3937e-009   
  0.85            0.0038205       2.3477e-008     -1.785e-009    
  0.9             0.003845        1.233e-008      7.013e-010     
  0.95            0.0038678       -1.9966e-008    1.6094e-009    
  1               0.00391         -1.2867e-008    -9.358e-010    
  1.05            0.0039507       7.708e-009      -1.3977e-009   
  1.1             0.003984        2.866e-008      -1.3906e-009   
  1.15            0.0040125       2.2506e-008     -1.7569e-009   
  1.2             0.0040332       1.1982e-008     7.273e-010     
  1.25            0.004051        -2.0722e-008    1.5749e-009    
  1.3             0.0040936       -1.3862e-008    -9.577e-010    
  1.35            0.0041297       5.28e-009       -1.3987e-009   
  1.4             0.0041596       1.263e-008      -1.9519e-009   
  1.45            0.0041898       3.89e-010       -2.7063e-009   
  1.5             0.0041871       -1.1215e-008    1.4314e-009    
  1.55            0.0042257       -6.2663e-008    2.1799e-009    
  1.6             0.0042652       -7.7448e-008    -2.0512e-009   
  1.65            0.004295        -1.02092e-007   1.3026e-009    
  1.7             0.0043124       -1.8763e-007    2.8905e-009    
  1.75            0.0043551       -2.9738e-007    -1.3741e-009   
  1.8             0.0043805       -4.1437e-007    -1.3943e-009   
END_DB

BEGIN_DB
 ICCAP_VAR VG         1.44           
 ICCAP_VAR VS         0              
 ICCAP_VAR VB         0              

 #VD              ID              IB              IG             
  0               -2.2141e-006    -2.0393e-008    -1.0968e-009   
  0.05            0.0009659       2.17e-010       2.5795e-009    
  0.1             0.0019079       2.357e-009      1.4672e-009    
  0.15            0.0028157       -1.2318e-008    -1.0302e-009   
  0.2             0.0036819       8.665e-009      -1.3981e-009   
  0.25            0.0045005       2.7791e-008     -1.3753e-009   
  0.3             0.0052578       1.2092e-008     5.541e-010     
  0.35            0.0059475       -1.9709e-008    1.8264e-009    
  0.4             0.0065732       -1.3418e-008    -8.131e-010    
  0.45            0.0071194       2.0365e-008     -1.5478e-009   
  0.5             0.0075793       1.1433e-008     8.88e-010      
  0.55            0.0079569       -8.904e-009     1.3304e-009    
  0.6             0.0082649       -2.619e-008     2.289e-009     
  0.65            0.0085198       -1.309e-008     -5.24e-010     
  0.7             0.0087207       1.8542e-008     -1.8634e-009   
  0.75            0.0088695       1.2272e-008     6.514e-010     
  0.8             0.0089781       -1.968e-008     1.6718e-009    
  0.85            0.0090935       -1.3068e-008    -8.952e-010    
  0.9             0.0091865       7.24e-009       -1.399e-009    
  0.95            0.0092645       2.8456e-008     -1.3942e-009   
  1               0.009331        2.4271e-008     -1.8246e-009   
  1.05            0.0093847       1.2301e-008     6.837e-010     
  1.1             0.0094291       -1.9769e-008    1.633e-009     
  1.15            0.0094971       -1.292e-008     -9.215e-010    
  1.2             0.0095597       7.574e-009      -1.3975e-009   
  1.25            0.0096124       2.8666e-008     -1.3923e-009   
  1.3             0.0096576       2.3036e-008     -1.7764e-009   
  1.35            0.0096961       1.2051e-008     7.156e-010     
  1.4             0.0097278       -2.0571e-008    1.5877e-009    
  1.45            0.0097864       -1.3965e-008    -9.471e-010    
  1.5             0.009837        5.323e-009      -1.3973e-009   
  1.55            0.0098815       1.2991e-008     -1.9713e-009   
  1.6             0.0099282       1.391e-009      -2.7078e-009   
  1.65            0.0099334       -9.038e-009     1.4189e-009    
  1.7             0.0099885       -5.8765e-008    2.1862e-009    
  1.75            0.0100401       -7.061e-008     -2.0464e-009   
  1.8             0.0100843       -9.1658e-008    -1.226e-010    
END_DB

BEGIN_DB
 ICCAP_VAR VG         1.8            
 ICCAP_VAR VS         0              
 ICCAP_VAR VB         0              

 #VD              ID              IB              IG             
  0               -2.2724e-006    -1.1365e-008    1.3746e-009    
  0.05            0.0010775       -1.3212e-008    1.0018e-009    
  0.1             0.0021437       -2.4838e-008    1.3414e-009    
  0.15            0.0031922       -1.0304e-008    -1.232e-009    
  0.2             0.0042196       2.7934e-008     -1.3982e-009   
  0.25            0.0052221       2.8119e-008     -1.3821e-009   
  0.3             0.0061921       1.2204e-008     5.268e-010     
  0.35            0.007131        -1.9482e-008    1.8816e-009    
  0.4             0.0080327       -1.3326e-008    -7.892e-010    
  0.45            0.0088917       1.9913e-008     -1.5728e-009   
  0.5             0.0096974       1.1744e-008     8.68e-010      
  0.55            0.010451        -9.169e-009     1.3262e-009    
  0.6             0.0111495       -2.6409e-008    2.3409e-009    
  0.65            0.011802        4.394e-009      -1.5627e-009   
  0.7             0.012368        1.1721e-008     8.623e-010     
  0.75            0.012873        -9.034e-009     1.3265e-009    
  0.8             0.013313        -2.6517e-008    1.3208e-009    
  0.85            0.0137          -1.3075e-008    -4.905e-010    
  0.9             0.014028        1.8316e-008     -1.9092e-009   
  0.95            0.014288        1.2182e-008     6.217e-010     
  1               0.014502        -1.9604e-008    1.7107e-009    
  1.05            0.0147          -1.3289e-008    -8.719e-010    
  1.1             0.014858        7.026e-009      -1.3954e-009   
  1.15            0.014997        2.8847e-008     -1.3989e-009   
  1.2             0.015109        2.5524e-008     -1.867e-009    
  1.25            0.015203        1.2412e-008     6.494e-010     
  1.3             0.015279        -1.9539e-008    1.666e-009     
  1.35            0.015374        -1.3419e-008    -8.976e-010    
  1.4             0.015454        7.138e-009      -1.3951e-009   
  1.45            0.015531        2.8949e-008     -1.3985e-009   
  1.5             0.015594        2.4173e-008     -1.8123e-009   
  1.55            0.015647        1.2055e-008     6.887e-010     
  1.6             0.015695        -2.0414e-008    1.6194e-009    
  1.65            0.015765        -1.4917e-008    -9.202e-010    
  1.7             0.015831        4.37e-009       -1.3955e-009   
  1.75            0.015885        1.1434e-008     -2.0111e-009   
  1.8             0.01593         -1.6876e-008    -2.7513e-009   
END_DB

BEGIN_DB
 ICCAP_VAR VG         0              
 ICCAP_VAR VS         0              
 ICCAP_VAR VB         -0.9           

 #VD              ID              IB              IG             
  0               -2.1756e-009    1.6153e-008     -2.4181e-009   
  0.05            -2.0714e-009    2.494e-009      -1.3455e-009   
  0.1             -1.8816e-009    -1.2185e-008    -1.5418e-009   
  0.15            -1.3759e-009    -2.6413e-008    1.3345e-009    
  0.2             6e-011          -1.0942e-008    1.3297e-009    
  0.25            -1.108e-010     -1.5093e-008    2.8914e-009    
  0.3             1.5506e-009     2.3609e-008     -1.401e-009    
  0.35            2.019e-010      1.3987e-008     -2.7246e-009   
  0.4             -1.5286e-009    -2.0529e-008    2.3181e-009    
  0.45            2.1123e-009     -6.967e-009     1.4333e-009    
  0.5             1.3788e-009     2.8699e-008     -1.4046e-009   
  0.55            1.66e-011       1.2463e-008     -1.4017e-009   
  0.6             1.78e-010       1.3756e-008     -2.7251e-009   
  0.65            -2.112e-009     -1.3177e-008    -1.154e-010    
  0.7             -2.1839e-009    -1.3466e-008    -3.565e-010    
  0.75            -2.1947e-009    -1.3173e-008    -5.84e-010     
  0.8             -2.1858e-009    -1.1701e-008    -7.99e-010     
  0.85            -2.1695e-009    -1.0444e-008    -9.63e-010     
  0.9             -1.6483e-009    -1.296e-008     1.7765e-009    
  0.95            1.7335e-009     -9.553e-009     1.7372e-009    
  1               2.3285e-009     1.227e-008      3.465e-010     
  1.05            2.3918e-009     1.2076e-008     5.415e-010     
  1.1             2.4593e-009     1.0634e-008     7.303e-010     
  1.15            1.7934e-009     1.8047e-008     -1.9542e-009   
  1.2             -1.9786e-009    4.944e-009      -7.045e-010    
  1.25            -1.0448e-009    -1.1501e-008    1.3353e-009    
  1.3             1.6454e-009     -1.1473e-008    2.31e-009      
  1.35            1.9702e-009     2.8296e-008     -1.403e-009    
  1.4             9.122e-010      1.0262e-008     -1.4069e-009   
  1.45            1.4769e-009     1.1824e-008     -1.3917e-009   
  1.5             2.1911e-009     1.2403e-008     -2.7062e-009   
  1.55            5.921e-010      -1.3e-008       -1.2556e-009   
  1.6             1.7345e-009     -1.5517e-008    -1.4437e-009   
  1.65            3.2711e-009     -1.7288e-008    -1.6375e-009   
  1.7             5.2278e-009     -1.8758e-008    -1.808e-009    
  1.75            7.672e-009      -1.9731e-008    -1.9415e-009   
  1.8             1.0996e-008     -1.1925e-008    2.5138e-009    
END_DB

BEGIN_DB
 ICCAP_VAR VG         0.36           
 ICCAP_VAR VS         0              
 ICCAP_VAR VB         -0.9           

 #VD              ID              IB              IG             
  0               6.23e-010       2.4201e-008     4.746e-010     
  0.05            -1.7056e-009    -1.0542e-008    3.375e-010     
  0.1             -7.324e-010     -2.057e-008     1.896e-009     
  0.15            1.9335e-009     -9.387e-009     1.6697e-009    
  0.2             1.6491e-009     9.737e-009      1.8593e-009    
  0.25            2.4579e-009     1.2055e-008     4.54e-010      
  0.3             2.5111e-009     1.125e-008      6.716e-010     
  0.35            2.549e-009      9.828e-009      8.629e-010     
  0.4             1.9332e-009     1.4804e-008     -1.7648e-009   
  0.45            -1.9948e-009    5.716e-009      -8.368e-010    
  0.5             -1.3802e-009    -1.6248e-008    2.0596e-009    
  0.55            1.3848e-009     -8.772e-009     2.5877e-009    
