! VERSION = 6.00
BEGIN_HEADER
 ICCAP_INPUTS
  VG         V  B GROUND SMU4 0.001 LIN        1    0          1.8        37   0.05      
  VS         V  E GROUND SMU2 0.1 CON        0
  VB         V  C GROUND SMU3 0.1 LIN        3    0          -1.8       3    -0.9      
  VD         V  S GROUND SMU1 0.1 LIN        2    0.1        1.8        2    1.7       
 ICCAP_OUTPUTS
  IG         I  B GROUND SMU4 B
  ID         I  S GROUND SMU1 B
  IB         I  C GROUND SMU3 B
END_HEADER

BEGIN_DB
 ICCAP_VAR VS         0              
 ICCAP_VAR VB         0              
 ICCAP_VAR VD         0.1            

 #VG              IG              ID              IB             
  0               1.0254e-009     1.2353e-009     1.9495e-008    
  0.05            1.8738e-009     1.7103e-009     -8.844e-009    
  0.1             4.88e-010       2.5279e-009     1.231e-008     
  0.15            6.762e-010      2.5815e-009     1.1498e-008    
  0.2             8.476e-010      2.6644e-009     9.88e-009      
  0.25            -1.7821e-009    2.3545e-009     1.543e-008     
  0.3             -1.5465e-009    1.5567e-009     6.234e-009     
  0.35            -1.4264e-009    7.3074e-009     8.181e-009     
  0.4             -7.971e-010     2.7654e-008     -4.96e-010     
  0.45            -2.5336e-009    1.2326e-007     1.0171e-008    
  0.5             -1.9418e-009    5.2284e-007     1.087e-009     
  0.55            -2.4954e-009    2.0385e-006     -1.9203e-008   
  0.6             1.9409e-009     7.4215e-006     -2.2226e-008   
  0.65            -1.386e-009     2.306e-005      -5.225e-009    
  0.7             -2.6608e-009    5.715e-005      1.2373e-008    
  0.75            -1.6393e-009    0.00011718      6.59e-010      
  0.8             -1.3882e-009    0.00020054      7.171e-009     
  0.85            -1.3627e-009    0.00029898      1.0906e-008    
  0.9             -2.4659e-009    0.00040074      1.4529e-008    
  0.95            -1.8272e-009    0.00049873      1.978e-009     
  1               -1.4175e-009    0.00058847      5.629e-009     
  1.05            -1.3821e-009    0.00066919      9.394e-009     
  1.1             -2.6047e-009    0.00074037      1.3151e-008    
  1.15            -2.0647e-009    0.00080233      6.74e-010      
  1.2             -1.4936e-009    0.00085742      4.748e-009     
  1.25            -1.3839e-009    0.00090558      8.301e-009     
  1.3             -2.6795e-009    0.00094829      1.2077e-008    
  1.35            -2.2878e-009    0.00098536      8.06e-010      
  1.4             -1.6406e-009    0.00101884      3.357e-009     
  1.45            -1.3827e-009    0.00104847      7.069e-009     
  1.5             -2.7194e-009    0.00107488      1.0507e-008    
  1.55            2.0743e-009     0.00109821      -2.43e-008     
  1.6             1.4104e-009     0.00111925      -8.807e-009    
  1.65            2.8704e-009     0.00113838      -8.296e-009    
  1.7             -1.5079e-009    0.0011567       -1.9686e-008   
  1.75            -1.3852e-009    0.0011721       8.252e-009     
  1.8             -2.6848e-009    0.0011859       1.2138e-008    
END_DB

BEGIN_DB
 ICCAP_VAR VS         0              
 ICCAP_VAR VB         0              
 ICCAP_VAR VD         1.8            

 #VG              IG              ID              IB             
  0               6.241e-010      9.839e-010      9.491e-009     
  0.05            1.7638e-009     -1.4208e-009    -1.2756e-008   
  0.1             2.6771e-009     1.3795e-009     -9.565e-009    
  0.15            3.326e-010      2.5707e-009     1.2223e-008    
  0.2             5.293e-010      2.8311e-009     1.2223e-008    
  0.25            7.136e-010      3.7624e-009     1.1173e-008    
  0.3             -1.3637e-009    7.2204e-009     1.9635e-008    
  0.35            2.2463e-009     2.3848e-008     2.4579e-008    
  0.4             1.5284e-009     9.8857e-008     -7.644e-009    
  0.45            2.3085e-009     4.3413e-007     -6.5e-011      
  0.5             -1.9098e-009    1.8572e-006     -1.3885e-008   
  0.55            -2.0246e-009    6.668e-006      -2.0022e-008   
  0.6             2.7939e-009     2.1682e-005     -3.124e-008    
  0.65            2.2684e-009     5.936e-005      -5.0195e-008   
  0.7             -9.16e-011      0.00013763      -1.0057e-007   
  0.75            -6.373e-010     0.0002639       -1.5814e-007   
  0.8             -1.044e-009     0.00044458      -2.101e-007    
  0.85            -1.4517e-009    0.00067673      -2.5149e-007   
  0.9             -1.8498e-009    0.00094558      -2.8349e-007   
  0.95            1.2727e-009     0.0012416       -2.9523e-007   
  1               2.4733e-009     0.0015624       -3.0308e-007   
  1.05            1.6922e-009     0.0019096       -2.7944e-007   
  1.1             1.3316e-009     0.002269        -2.6379e-007   
  1.15            2.8766e-009     0.0026391       -2.3799e-007   
  1.2             2.6514e-009     0.0030256       -2.0268e-007   
  1.25            1.9625e-009     0.0034106       -1.7759e-007   
  1.3             1.3906e-009     0.0038032       -1.5691e-007   
  1.35            1.3182e-009     0.0041969       -1.3203e-007   
  1.4             2.7934e-009     0.0045925       -1.1475e-007   
  1.45            -1.892e-009     0.005006        -6.3612e-008   
  1.5             -1.4312e-009    0.0054038       -6.162e-008    
  1.55            -1.3821e-009    0.0058062       -4.4464e-008   
  1.6             -2.6249e-009    0.0062069       -2.9419e-008   
  1.65            -2.1119e-009    0.0066036       -3.278e-008    
  1.7             -1.526e-009     0.0070015       -2.2101e-008   
  1.75            -2.7294e-009    0.0073952       -2.4494e-008   
  1.8             -2.5376e-009    0.0077897       -1.6086e-008   
END_DB

BEGIN_DB
 ICCAP_VAR VS         0              
 ICCAP_VAR VB         -0.9           
 ICCAP_VAR VD         0.1            

 #VG              IG              ID              IB             
  0               1.328e-009      1.6296e-009     6.431e-009     
  0.05            2.2002e-009     1.4201e-009     -9.355e-009    
  0.1             8.246e-010      2.5745e-009     9.815e-009     
  0.15            -1.8263e-009    1.9273e-009     1.6263e-008    
  0.2             -7.847e-010     -1.97e-009      5.73e-009      
  0.25            1.322e-009      -1.1922e-009    -1.0593e-008   
  0.3             2.3378e-009     1.3939e-009     -1.1515e-008   
  0.35            -1.3871e-009    1.5559e-009     2.8588e-008    
  0.4             -1.3852e-009    3.56e-010       1.1241e-008    
  0.45            -2.7251e-009    1.2043e-009     1.2587e-008    
  0.5             2.5302e-009     2.9851e-009     -2.4825e-008   
  0.55            -2.575e-009     2.0553e-008     -1.2783e-008   
  0.6             -2.0145e-009    9.5105e-008     8.57e-010      
  0.65            9.959e-010      4.3421e-007     -1.9201e-008   
  0.7             -2.7038e-009    1.8829e-006     -2.6608e-008   
  0.75            1.9989e-009     7.1295e-006     -2.3076e-008   
  0.8             -1.3867e-009    2.3001e-005     -4.633e-009    
  0.85            -2.6784e-009    5.8212e-005     1.2209e-008    
  0.9             -1.366e-009     0.00011993      7.416e-009     
  0.95            -2.4888e-009    0.0002056       1.4495e-008    
  1               -1.8675e-009    0.00030469      1.726e-009     
  1.05            -1.4288e-009    0.00040735      5.271e-009     
  1.1             -1.3843e-009    0.00050543      9.179e-009     
  1.15            -2.6249e-009    0.00059441      1.2854e-008    
  1.2             -2.1401e-009    0.00067299      8.6e-010       
  1.25            -1.5484e-009    0.00074238      4.218e-009     
  1.3             -1.3846e-009    0.00080331      8.067e-009     
  1.35            -2.699e-009     0.00085627      1.1664e-008    
  1.4             1.9202e-009     0.00090143      -2.1815e-008   
  1.45            1.3708e-009     0.00094231      -9.475e-009    
  1.5             2.8808e-009     0.00097826      -8.624e-009    
  1.55            2.7711e-009     0.0010105       -6.07e-010     
  1.6             2.56e-009       0.00103869      8.631e-009     
  1.65            -1.7977e-009    0.00106416      2.3736e-008    
  1.7             -1.4082e-009    0.00108649      5.914e-009     
  1.75            -1.3789e-009    0.00110677      9.345e-009     
  1.8             -2.585e-009     0.00112504      1.3242e-008    
END_DB

BEGIN_DB
 ICCAP_VAR VS         0              
 ICCAP_VAR VB         -0.9           
 ICCAP_VAR VD         1.8            

 #VG              IG              ID              IB             
  0               -2.415e-010     1.3793e-008     -2.532e-008    
  0.05            -2.7208e-009    1.3713e-008     -1.8117e-008   
  0.1             -2.2094e-009    1.3683e-008     -2.4135e-008   
  0.15            -2.6095e-009    1.3493e-008     -2.3785e-008   
  0.2             -2.7571e-009    1.3423e-008     -2.1571e-008   
  0.25            -1.973e-009     1.2821e-008     -2.6642e-008   
  0.3             -2.272e-009     1.3695e-008     -2.3643e-008   
  0.35            -2.6569e-009    1.37e-008       -2.372e-008    
  0.4             -2.7549e-009    1.4908e-008     -2.1041e-008   
  0.45            -2.0101e-009    2.0683e-008     -2.6248e-008   
  0.5             -2.3424e-009    5.1015e-008     -2.3881e-008   
  0.55            -1.3847e-009    2.0326e-007     -1.5881e-008   
  0.6             -2.4032e-009    8.5241e-007     -1.5121e-008   
  0.65            -5.402e-010     3.5805e-006     -1.8745e-008   
  0.7             2.4634e-009     1.3039e-005     -3.8047e-008   
  0.75            2.7395e-009     3.9964e-005     -3.617e-008    
  0.8             2.8718e-009     0.00010033      -7.363e-008    
  0.85            2.5004e-009     0.00021004      -1.1286e-007   
  0.9             2.7694e-009     0.00037398      -1.6334e-007   
  0.95            2.8786e-009     0.00059145      -2.1084e-007   
  1               2.7733e-009     0.00085443      -2.4648e-007   
  1.05            -2.838e-010     0.001155        -2.7374e-007   
  1.1             -7.961e-010     0.0014807       -2.7619e-007   
  1.15            -1.1652e-009    0.0018315       -2.6396e-007   
  1.2             -1.5868e-009    0.0022          -2.4681e-007   
  1.25            -1.9338e-009    0.0025724       -2.2591e-007   
  1.3             -2.2132e-009    0.0029506       -1.9897e-007   
  1.35            -2.6094e-009    0.0033421       -1.7419e-007   
  1.4             -2.7565e-009    0.0037381       -1.4867e-007   
  1.45            -2.7043e-009    0.0041355       -1.2255e-007   
  1.5             -2.2222e-009    0.0045373       -1.0002e-007   
  1.55            1.4925e-009     0.0049297       -1.0475e-007   
  1.6             1.3233e-009     0.0053319       -7.8755e-008   
  1.65            2.8467e-009     0.0057304       -6.903e-008    
  1.7             2.4533e-009     0.006136        -4.956e-008    
  1.75            1.7104e-009     0.0065346       -4.5695e-008   
  1.8             1.334e-009      0.0069323       -4.3479e-008   
END_DB

BEGIN_DB
 ICCAP_VAR VS         0              
 ICCAP_VAR VB         -1.8           
 ICCAP_VAR VD         0.1            

 #VG              IG              ID              IB             
  0               1.1346e-009     1.3884e-009     2.842e-008     
  0.05            2.2441e-009     -4.527e-010     -1.9753e-008   
  0.1             2.5033e-009     1.4318e-009     -7.647e-009    
  0.15            -1.3844e-009    1.7449e-009     2.6316e-008    
  0.2             -2.7153e-009    3.946e-010      1.2885e-008    
  0.25            2.4829e-009     -1.1918e-009    -2.4054e-008   
  0.3             2.3881e-009     1.4478e-009     -5.443e-009    
  0.35            -1.3845e-009    1.643e-009      2.8461e-008    
  0.4             -1.3809e-009    3.143e-010      1.1871e-008    
  0.45            -1.36e-009      5.142e-010      1.2797e-008    
  0.5             -2.6507e-009    9.161e-010      1.4807e-008    
  0.55            -2.5174e-009    9.503e-010      5.76e-010      
  0.6             -2.312e-009     6.4127e-009     1.006e-009     
  0.65            2.2159e-009     3.3688e-008     2.3844e-008    
  0.7             -1.1507e-009    1.5925e-007     1.7835e-008    
  0.75            1.237e-010      7.2218e-007     -1.0736e-008   
  0.8             2.8803e-009     3.0118e-006     2.8003e-008    
  0.85            8.897e-010      1.0842e-005     -1.9897e-008   
  0.9             -1.4698e-009    3.2332e-005     1.3801e-008    
  0.95            -1.3847e-009    7.617e-005      8.417e-009     
  1               -1.5433e-009    0.00014655      1.0105e-008    
  1.05            -1.3818e-009    0.00023759      7.689e-009     
  1.1             -2.6974e-009    0.00033921      1.1312e-008    
  1.15            -1.4248e-009    0.00044054      -9.923e-009    
  1.2             -1.827e-010     0.00053224      -1.1932e-008   
  1.25            -6.987e-010     0.00061818      -1.3585e-008   
  1.3             -1.0854e-009    0.00069355      -1.1838e-008   
  1.35            1.889e-010      0.00075716      -1.1298e-008   
  1.4             1.4038e-009     0.00081481      -2.2731e-008   
  1.45            2.8726e-009     0.00086504      -8.578e-009    
  1.5             2.8012e-009     0.00090938      -6.84e-010     
  1.55            2.5313e-009     0.00094765      8.187e-009     
  1.6             -1.8507e-009    0.00098219      2.5241e-008    
  1.65            -1.4217e-009    0.00101218      5.378e-009     
  1.7             -1.3813e-009    0.00103875      8.673e-009     
  1.75            -2.618e-009     0.00106263      1.2708e-008    
  1.8             -2.1088e-009    0.00108331      5.83e-010      
END_DB

BEGIN_DB
 ICCAP_VAR VS         0              
 ICCAP_VAR VB         -1.8           
 ICCAP_VAR VD         1.8            

 #VG              IG              ID              IB             
  0               1.3211e-009     8.7353e-007     -8.9649e-007   
  0.05            2.8486e-009     8.7505e-007     -8.7933e-007   
  0.1             2.4613e-009     8.7357e-007     -8.7202e-007   
  0.15            1.7051e-009     8.7392e-007     -8.7459e-007   
  0.2             1.3318e-009     8.7346e-007     -8.7699e-007   
  0.25            2.8766e-009     8.7332e-007     -8.7609e-007   
  0.3             2.6808e-009     8.7146e-007     -8.7052e-007   
  0.35            2.0205e-009     8.7159e-007     -8.7085e-007   
  0.4             1.4159e-009     8.7104e-007     -8.7487e-007   
  0.45            1.321e-009      8.721e-007      -8.7333e-007   
  0.5             2.818e-009      8.7564e-007     -8.7773e-007   
  0.55            2.3351e-009     8.9204e-007     -8.6802e-007   
  0.6             1.5882e-009     9.8277e-007     -8.7157e-007   
  0.65            2.4532e-009     1.4138e-006     -8.471e-007    
  0.7             2.7332e-009     3.2651e-006     -8.6278e-007   
  0.75            2.8708e-009     1.01074e-005    -8.731e-007    
  0.8             -1.3854e-009    3.1553e-005     -8.739e-007    
  0.85            -2.647e-009     8.2322e-005     -9.0099e-007   
  0.9             -2.4707e-009    0.00017846      -9.4836e-007   
  0.95            -1.8523e-009    0.00032826      -9.8986e-007   
  1               -1.4238e-009    0.00053374      -1.01823e-006  
  1.05            -1.3826e-009    0.00078712      -1.03509e-006  
  1.1             9.074e-010      0.0010737       -1.03624e-006  
  1.15            2.1595e-009     0.0013906       -1.0655e-006   
  1.2             1.4692e-009     0.0017323       -1.0237e-006   
  1.25            2.8604e-009     0.0020914       -9.983e-007    
  1.3             -1.4655e-009    0.0024777       -9.6987e-007   
  1.35            -1.8561e-009    0.0028598       -9.3758e-007   
  1.4             -2.1154e-009    0.0032406       -9.0268e-007   
  1.45            -2.5036e-009    0.0036337       -8.6896e-007   
  1.5             -2.7472e-009    0.0040324       -8.3964e-007   
  1.55            -2.7315e-009    0.0044309       -8.1018e-007   
  1.6             -2.5503e-009    0.0048305       -7.8536e-007   
  1.65            -1.9917e-009    0.0052343       -7.6739e-007   
  1.7             -1.4759e-009    0.0056345       -7.5373e-007   
  1.75            -1.3853e-009    0.0060346       -7.4633e-007   
  1.8             -2.6679e-009    0.0064348       -7.4619e-007   
END_DB

