,VD,IB,ID,IG,IS,VG,VB,VS
0,0.0,1.8094e-07,-5.0579e-08,4.192e-13,-2.7e-15,1.2,0.0,0.0
1,0.0225,-0.000329,0.00032908,4.576e-13,6.5e-15,1.2,0.0,0.0
2,0.045,-0.0006563,0.00065652,4.369e-13,4.2e-15,1.2,0.0,0.0
3,0.0675,-0.00098342,0.0009841,3.796e-13,1e-16,1.2,0.0,0.0
4,0.09,-0.0013096,0.0013098,3.339e-13,-2.1e-15,1.2,0.0,0.0
5,0.1125,-0.0016332,0.0016328,4.846e-13,-1.8e-15,1.2,0.0,0.0
6,0.135,-0.001956,0.001956,4.022e-13,-7.6e-15,1.2,0.0,0.0
7,0.1575,-0.0022768,0.0022764,4.352e-13,-2.2e-15,1.2,0.0,0.0
8,0.18,-0.0025946,0.0025956,4.338e-13,-2.9e-15,1.2,0.0,0.0
9,0.2025,-0.0029098,0.0029108,4.474e-13,-6.2e-15,1.2,0.0,0.0
10,0.225,-0.0032224,0.0032238,4.385e-13,2e-15,1.2,0.0,0.0
11,0.2475,-0.003533,0.0035336,4.211e-13,2.7e-15,1.2,0.0,0.0
12,0.27,-0.0038394,0.0038406,3.617e-13,-3.3e-15,1.2,0.0,0.0
13,0.2925,-0.0041438,0.004144,3.354e-13,-7e-16,1.2,0.0,0.0
14,0.315,-0.0044444,0.004444,3.229e-13,4.8e-15,1.2,0.0,0.0
15,0.3375,-0.0047402,0.0047388,2.986e-13,-8e-16,1.2,0.0,0.0
16,0.36,-0.0050268,0.0050306,3.001e-13,2.6e-15,1.2,0.0,0.0
17,0.3825,-0.0053118,0.0053114,2.785e-13,-4.4e-15,1.2,0.0,0.0
18,0.405,-0.0055912,0.0055904,3.189e-13,-1.1e-15,1.2,0.0,0.0
19,0.4275,-0.0058618,0.005862,3.364e-13,1e-16,1.2,0.0,0.0
20,0.45,-0.006122,0.0061236,3.455e-13,5e-16,1.2,0.0,0.0
21,0.4725,-0.006374,0.0063738,3.847e-13,-5e-15,1.2,0.0,0.0
22,0.495,-0.0066158,0.0066146,3.975e-13,2e-15,1.2,0.0,0.0
23,0.5175,-0.006841,0.0068406,3.911e-13,-2.4e-15,1.2,0.0,0.0
24,0.54,-0.0070478,0.0070524,3.708e-13,-6.8e-15,1.2,0.0,0.0
25,0.5625,-0.0072148,0.0072402,3.692e-13,9e-16,1.2,0.0,0.0
26,0.585,-0.0073816,0.0073884,3.975e-13,-5.7e-15,1.2,0.0,0.0
27,0.6075,-0.0075332,0.0075366,3.718e-13,4.6e-15,1.2,0.0,0.0
28,0.63,-0.007663,0.0076668,3.438e-13,5.1e-15,1.2,0.0,0.0
29,0.6525,-0.0077718,0.0077748,3.39e-13,-1.06e-14,1.2,0.0,0.0
30,0.675,-0.0078612,0.007864,3.228e-13,5e-16,1.2,0.0,0.0
31,0.6975,-0.0079364,0.007936,3.376e-13,-4.5e-15,1.2,0.0,0.0
32,0.72,-0.007995,0.0079966,4.38e-13,-6.6e-15,1.2,0.0,0.0
33,0.7425,-0.0080284,0.0080434,4.316e-13,-3.2e-15,1.2,0.0,0.0
34,0.765,-0.0079752,0.008066,1.884e-13,4.9e-15,1.2,0.0,0.0
35,0.7875,-0.0080246,0.008027,2.353e-13,-9.6e-15,1.2,0.0,0.0
36,0.81,-0.0080614,0.0080674,5.063e-13,1.4e-15,1.2,0.0,0.0
37,0.8325,-0.008097,0.0080978,4.293e-13,-5e-15,1.2,0.0,0.0
38,0.855,-0.0081278,0.008127,4.969e-13,-3e-16,1.2,0.0,0.0
39,0.8775,-0.0081516,0.0081534,5.175e-13,-4.3e-15,1.2,0.0,0.0
40,0.9,-0.008176,0.008175,5.259e-13,-1.3e-15,1.2,0.0,0.0
41,0.9225,-0.0081954,0.0081958,2.641e-13,0.0,1.2,0.0,0.0
42,0.945,-0.0082138,0.008214,3.371e-13,-1.99e-14,1.2,0.0,0.0
43,0.9675,-0.00823,0.0082306,2.955e-13,-7.4e-15,1.2,0.0,0.0
44,0.99,-0.008246,0.0082468,3.676e-13,6.8e-15,1.2,0.0,0.0
45,1.0125,-0.008261,0.0082618,2.978e-13,-2.7e-15,1.2,0.0,0.0
46,1.035,-0.0082748,0.0082764,3.625e-13,-1.27e-14,1.2,0.0,0.0
47,1.0575,-0.0082888,0.008289,5.405e-13,-4.9e-15,1.2,0.0,0.0
48,1.08,-0.0083024,0.0083022,2.584e-13,-3.6e-15,1.2,0.0,0.0
49,1.1025,-0.008316,0.0083162,3.279e-13,-6e-16,1.2,0.0,0.0
50,1.125,-0.0083284,0.0083286,5.223e-13,9.3e-15,1.2,0.0,0.0
51,1.1475,-0.0083406,0.0083414,2.305e-13,-6.7e-15,1.2,0.0,0.0
52,1.17,-0.0083534,0.0083532,3.06e-13,-2.5e-15,1.2,0.0,0.0
53,1.1925,-0.0083652,0.0083658,1.816e-13,-6.9e-15,1.2,0.0,0.0
54,1.215,-0.0083774,0.0083774,2.055e-13,-2.9e-15,1.2,0.0,0.0
55,1.2375,-0.008389,0.0083888,1.582e-13,-9e-16,1.2,0.0,0.0
56,1.26,-0.0083998,0.0084008,2.83e-13,-1.6e-15,1.2,0.0,0.0
57,1.2825,-0.0084116,0.0084112,2.061e-13,5.3e-15,1.2,0.0,0.0
58,1.305,-0.0084224,0.0084226,2.568e-13,-9.2e-15,1.2,0.0,0.0
59,1.3275,-0.0084336,0.008433,1.942e-13,-1.96e-14,1.2,0.0,0.0
60,1.35,-0.0084444,0.0084446,2.471e-13,1.2e-14,1.2,0.0,0.0
61,1.3725,-0.0084544,0.008455,1.693e-13,-1.6e-15,1.2,0.0,0.0
62,1.395,-0.0084652,0.0084654,2.904e-13,6e-15,1.2,0.0,0.0
63,1.4175,-0.0084752,0.0084758,2.156e-13,-4.8e-15,1.2,0.0,0.0
64,1.44,-0.0084856,0.008486,2.656e-13,-1.27e-14,1.2,0.0,0.0
65,1.4625,-0.0084964,0.0084962,2.155e-13,-8.2e-15,1.2,0.0,0.0
66,1.485,-0.0085068,0.0085068,3.757e-13,-3.6e-15,1.2,0.0,0.0
67,1.5075,-0.0085162,0.0085168,2.324e-13,-4.1e-15,1.2,0.0,0.0
68,1.53,-0.0085264,0.0085268,3.779e-13,-8.6e-15,1.2,0.0,0.0
69,1.5525,-0.0085364,0.0085366,2.703e-13,2e-15,1.2,0.0,0.0
70,1.575,-0.0085462,0.0085462,3.906e-13,-7.8e-15,1.2,0.0,0.0
71,1.5975,-0.008556,0.0085564,2.709e-13,2.5e-15,1.2,0.0,0.0
72,1.62,-0.0085652,0.008566,3.809e-13,-8.4e-15,1.2,0.0,0.0
73,1.6425,-0.0085748,0.0085752,2.713e-13,3.1e-15,1.2,0.0,0.0
74,1.665,-0.0085852,0.008585,3.59e-13,2.9e-15,1.2,0.0,0.0
75,1.6875,-0.0085948,0.0085944,2.527e-13,9e-16,1.2,0.0,0.0
76,1.71,-0.0086038,0.0086038,2.706e-13,-4.5e-15,1.2,0.0,0.0
77,1.7325,-0.0086122,0.0086132,2.053e-13,-6.3e-15,1.2,0.0,0.0
78,1.755,-0.0086216,0.0086218,2.517e-13,-4.7e-15,1.2,0.0,0.0
79,1.7775,-0.0086306,0.0086306,4.437e-13,8.4e-15,1.2,0.0,0.0
80,1.8,-0.0086396,0.00864,1.65e-13,-9.9e-15,1.2,0.0,0.0
