,VD,IB,ID,IG,IS,VG,VB,VS
0,0.0,1.6484e-07,-5.842e-08,3.4681e-12,8e-16,1.8,0.0,0.0
1,0.0225,-0.00030306,0.0003032,3.5211e-12,-1.2e-15,1.8,0.0,0.0
2,0.045,-0.00060512,0.00060562,3.3292e-12,5.5e-15,1.8,0.0,0.0
3,0.0675,-0.00090696,0.00090818,3.2702e-12,-3.9e-15,1.8,0.0,0.0
4,0.09,-0.00121,0.0012096,3.1377e-12,-7e-15,1.8,0.0,0.0
5,0.1125,-0.0015088,0.0015112,2.9745e-12,-5.9e-15,1.8,0.0,0.0
6,0.135,-0.0018098,0.00181,2.8931e-12,0.0,1.8,0.0,0.0
7,0.1575,-0.0021102,0.0021104,2.8283e-12,2.6e-15,1.8,0.0,0.0
8,0.18,-0.0024112,0.0024088,2.7336e-12,-9.1e-15,1.8,0.0,0.0
9,0.2025,-0.0027086,0.0027094,2.6553e-12,-1.02e-14,1.8,0.0,0.0
10,0.225,-0.0030014,0.003007,2.6865e-12,2e-15,1.8,0.0,0.0
11,0.2475,-0.0032944,0.0032984,2.6018e-12,2.4e-15,1.8,0.0,0.0
12,0.27,-0.0035834,0.0035904,2.5414e-12,-5.3e-15,1.8,0.0,0.0
13,0.2925,-0.0038726,0.0038778,2.4105e-12,1.7e-15,1.8,0.0,0.0
14,0.315,-0.0041656,0.0041668,2.2836e-12,1.2e-15,1.8,0.0,0.0
15,0.3375,-0.0044592,0.004456,2.2316e-12,1e-15,1.8,0.0,0.0
16,0.36,-0.0047448,0.0047532,2.1374e-12,-5.9e-15,1.8,0.0,0.0
17,0.3825,-0.005033,0.005038,2.1129e-12,8e-15,1.8,0.0,0.0
18,0.405,-0.005328,0.0053258,2.0228e-12,-6.2e-15,1.8,0.0,0.0
19,0.4275,-0.0056144,0.0056178,1.9596e-12,-7.8e-15,1.8,0.0,0.0
20,0.45,-0.005906,0.005903,1.9493e-12,-6.6e-15,1.8,0.0,0.0
21,0.4725,-0.0061944,0.006193,1.9005e-12,-1.44e-14,1.8,0.0,0.0
22,0.495,-0.0064784,0.0064808,1.8765e-12,2e-16,1.8,0.0,0.0
23,0.5175,-0.0067564,0.0067628,1.8701e-12,-2.9e-15,1.8,0.0,0.0
24,0.54,-0.0070432,0.0070372,1.8536e-12,4.4e-15,1.8,0.0,0.0
25,0.5625,-0.0073236,0.0073252,1.7464e-12,-3.7e-15,1.8,0.0,0.0
26,0.585,-0.0076024,0.0076036,1.7126e-12,-7.5e-15,1.8,0.0,0.0
27,0.6075,-0.0078788,0.0078826,1.6513e-12,-8.5e-15,1.8,0.0,0.0
28,0.63,-0.0081536,0.008159,1.5836e-12,-3.4e-15,1.8,0.0,0.0
29,0.6525,-0.0084394,0.0084348,1.563e-12,-1.04e-14,1.8,0.0,0.0
30,0.675,-0.0087166,0.008713,1.4614e-12,-1e-15,1.8,0.0,0.0
31,0.6975,-0.0090002,0.0089916,1.4282e-12,1.1e-15,1.8,0.0,0.0
32,0.72,-0.0092708,0.0092696,1.3687e-12,3.1e-15,1.8,0.0,0.0
33,0.7425,-0.0095784,0.009543,1.3953e-12,2.8e-15,1.8,0.0,0.0
34,0.765,-0.00989,0.0098596,1.3467e-12,4e-16,1.8,0.0,0.0
35,0.7875,-0.0101942,0.010163,1.2802e-12,1.3e-15,1.8,0.0,0.0
36,0.81,-0.0104904,0.0104506,1.2708e-12,-5.7e-15,1.8,0.0,0.0
37,0.8325,-0.0108294,0.01077,1.1767e-12,-7.7e-15,1.8,0.0,0.0
38,0.855,-0.0110692,0.0111024,1.3052e-12,3.7e-15,1.8,0.0,0.0
39,0.8775,-0.0113316,0.0113376,1.3069e-12,-1.19e-14,1.8,0.0,0.0
40,0.9,-0.011588,0.011596,1.1196e-12,-1.6e-15,1.8,0.0,0.0
41,0.9225,-0.011832,0.011858,1.1205e-12,-3.6e-15,1.8,0.0,0.0
42,0.945,-0.012102,0.0121,1.0929e-12,-3.6e-15,1.8,0.0,0.0
43,0.9675,-0.012358,0.012362,1.0739e-12,-6.1e-15,1.8,0.0,0.0
44,0.99,-0.01261,0.012622,1.0114e-12,-6.9e-15,1.8,0.0,0.0
45,1.0125,-0.012832,0.012872,1.0039e-12,7.3e-15,1.8,0.0,0.0
46,1.035,-0.013088,0.013092,1.153e-12,-5.3e-15,1.8,0.0,0.0
47,1.0575,-0.013364,0.013354,1.1591e-12,6e-16,1.8,0.0,0.0
48,1.08,-0.013616,0.013634,1.0982e-12,-2.5e-15,1.8,0.0,0.0
49,1.1025,-0.013856,0.013874,1.0198e-12,-7.7e-15,1.8,0.0,0.0
50,1.125,-0.01414,0.014118,1.0761e-12,-3.5e-15,1.8,0.0,0.0
51,1.1475,-0.01441,0.01438,1.0511e-12,-1e-15,1.8,0.0,0.0
52,1.17,-0.01467,0.014662,8.173e-13,5.6e-15,1.8,0.0,0.0
53,1.1925,-0.014948,0.01494,1.0671e-12,-3.5e-15,1.8,0.0,0.0
54,1.215,-0.015174,0.015184,9.28e-13,-3.1e-15,1.8,0.0,0.0
55,1.2375,-0.015428,0.015414,9.005e-13,1.1e-15,1.8,0.0,0.0
56,1.26,-0.015684,0.015684,9.033e-13,-8.9e-15,1.8,0.0,0.0
57,1.2825,-0.015926,0.01593,9.346e-13,2.5e-15,1.8,0.0,0.0
58,1.305,-0.016108,0.016164,8.029e-13,-7.2e-15,1.8,0.0,0.0
59,1.3275,-0.016342,0.016348,7.838e-13,4.7e-15,1.8,0.0,0.0
60,1.35,-0.01655,0.01656,7.883e-13,-1.3e-15,1.8,0.0,0.0
61,1.3725,-0.016762,0.016772,8.504e-13,-2.7e-15,1.8,0.0,0.0
62,1.395,-0.016936,0.016982,7.806e-13,-1.7e-15,1.8,0.0,0.0
63,1.4175,-0.017118,0.017154,9.105e-13,-6.9e-15,1.8,0.0,0.0
64,1.44,-0.01732,0.017348,7.003e-13,2.7e-15,1.8,0.0,0.0
65,1.4625,-0.01751,0.017514,7.345e-13,6e-16,1.8,0.0,0.0
66,1.485,-0.017668,0.017696,7.255e-13,-5.4e-15,1.8,0.0,0.0
67,1.5075,-0.017892,0.017854,6.628e-13,1.7e-15,1.8,0.0,0.0
68,1.53,-0.018022,0.018074,8.44e-13,-1e-15,1.8,0.0,0.0
69,1.5525,-0.018136,0.018194,6.964e-13,-1.1e-15,1.8,0.0,0.0
70,1.575,-0.018302,0.018314,1.0493e-12,-4.6e-15,1.8,0.0,0.0
71,1.5975,-0.018462,0.018468,6.709e-13,2.3e-15,1.8,0.0,0.0
72,1.62,-0.018658,0.01861,9.91e-13,-9e-15,1.8,0.0,0.0
73,1.6425,-0.018784,0.0188,6.919e-13,9.7e-15,1.8,0.0,0.0
74,1.665,-0.01894,0.018934,7.153e-13,-8.1e-15,1.8,0.0,0.0
75,1.6875,-0.019076,0.019068,6.043e-13,-1e-14,1.8,0.0,0.0
76,1.71,-0.019184,0.019178,1.0464e-12,-4.2e-15,1.8,0.0,0.0
77,1.7325,-0.0193,0.01929,8.337e-13,3.2e-15,1.8,0.0,0.0
78,1.755,-0.019396,0.019378,5.149e-13,-4e-16,1.8,0.0,0.0
79,1.7775,-0.019464,0.019468,9.433e-13,-1.2e-15,1.8,0.0,0.0
80,1.8,-0.019758,0.019528,8.931e-13,-1.9e-15,1.8,0.0,0.0
