,VD,IB,ID,IG,IS,VG,VB,VS
0,0.0,1.08544e-07,-6.7322e-08,5.97e-14,4.3e-15,0.6,0.0,0.0
1,0.0225,-9.9098e-05,9.9298e-05,2.33e-14,-4e-16,0.6,0.0,0.0
2,0.045,-0.00017042,0.00017052,2.191e-13,-4.5e-15,0.6,0.0,0.0
3,0.0675,-0.00021862,0.00021868,3.073e-13,4e-16,0.6,0.0,0.0
4,0.09,-0.00024926,0.00024938,3.58e-13,4.3e-15,0.6,0.0,0.0
5,0.1125,-0.00026802,0.000268,4.018e-13,-1.32e-14,0.6,0.0,0.0
6,0.135,-0.0002794,0.00027954,1.107e-13,1.3e-14,0.6,0.0,0.0
7,0.1575,-0.00028658,0.00028662,2.006e-13,-9.1e-15,0.6,0.0,0.0
8,0.18,-0.00029128,0.00029144,4.93e-14,2.7e-15,0.6,0.0,0.0
9,0.2025,-0.00029482,0.00029488,6.46e-14,7.8e-15,0.6,0.0,0.0
10,0.225,-0.00029764,0.00029774,1.746e-13,-1.02e-14,0.6,0.0,0.0
11,0.2475,-0.00030002,0.00030012,5.38e-14,-1.22e-14,0.6,0.0,0.0
12,0.27,-0.0003022,0.00030226,1.094e-13,2.28e-14,0.6,0.0,0.0
13,0.2925,-0.00030416,0.00030442,1.16e-14,4.6e-15,0.6,0.0,0.0
14,0.315,-0.00030612,0.00030604,1.159e-13,-4.4e-15,0.6,0.0,0.0
15,0.3375,-0.00030786,0.00030794,1.96e-14,-5e-16,0.6,0.0,0.0
16,0.36,-0.00030954,0.00030964,1.167e-13,-1.2e-14,0.6,0.0,0.0
17,0.3825,-0.00031122,0.00031124,1.7e-15,-9.1e-15,0.6,0.0,0.0
18,0.405,-0.00031284,0.00031284,1.017e-13,-9.9e-15,0.6,0.0,0.0
19,0.4275,-0.00031442,0.00031442,1.59e-14,-3.6e-15,0.6,0.0,0.0
20,0.45,-0.00031572,0.00031588,1.654e-13,-2.9e-15,0.6,0.0,0.0
21,0.4725,-0.00031716,0.00031736,3.5e-14,6.2e-15,0.6,0.0,0.0
22,0.495,-0.00031864,0.00031878,1.418e-13,-6.4e-15,0.6,0.0,0.0
23,0.5175,-0.00032004,0.00032016,5.92e-14,-5.3e-15,0.6,0.0,0.0
24,0.54,-0.00032144,0.00032148,1.783e-13,-1e-14,0.6,0.0,0.0
25,0.5625,-0.00032272,0.0003228,8.24e-14,-9e-16,0.6,0.0,0.0
26,0.585,-0.00032406,0.00032396,2.258e-13,-1.6e-15,0.6,0.0,0.0
27,0.6075,-0.00032526,0.00032548,1.001e-13,-5.8e-15,0.6,0.0,0.0
28,0.63,-0.00032648,0.00032664,2.054e-13,-6e-16,0.6,0.0,0.0
29,0.6525,-0.0003277,0.00032782,9.3e-14,-2e-15,0.6,0.0,0.0
30,0.675,-0.00032894,0.00032894,2.395e-13,-1.81e-14,0.6,0.0,0.0
31,0.6975,-0.00033,0.00033014,8.74e-14,-8e-16,0.6,0.0,0.0
32,0.72,-0.00033136,0.00033128,1.848e-13,-5.8e-15,0.6,0.0,0.0
33,0.7425,-0.00033236,0.00033236,7.03e-14,3.1e-15,0.6,0.0,0.0
34,0.765,-0.0003334,0.00033346,1.535e-13,-6.1e-15,0.6,0.0,0.0
35,0.7875,-0.0003345,0.00033456,5.28e-14,-3e-15,0.6,0.0,0.0
36,0.81,-0.00033554,0.00033562,4.64e-14,2.2e-15,0.6,0.0,0.0
37,0.8325,-0.00033656,0.0003368,1.196e-13,-7.9e-15,0.6,0.0,0.0
38,0.855,-0.00033758,0.00033752,3.04e-14,-3.4e-15,0.6,0.0,0.0
39,0.8775,-0.0003386,0.00033858,1.64e-14,5.2e-15,0.6,0.0,0.0
40,0.9,-0.00033964,0.0003396,1.196e-13,-1.03e-14,0.6,0.0,0.0
41,0.9225,-0.0003406,0.00034064,-3.63e-14,-9.8e-15,0.6,0.0,0.0
42,0.945,-0.0003415,0.00034162,1.238e-13,-6.7e-15,0.6,0.0,0.0
43,0.9675,-0.00034244,0.00034252,8.7e-15,-1.8e-15,0.6,0.0,0.0
44,0.99,-0.00034352,0.0003435,1.412e-13,-1.69e-14,0.6,0.0,0.0
45,1.0125,-0.00034424,0.00034442,2.73e-14,1.16e-14,0.6,0.0,0.0
46,1.035,-0.00034514,0.00034526,1.92e-13,-9.7e-15,0.6,0.0,0.0
47,1.0575,-0.00034608,0.00034616,3.77e-14,-5.6e-15,0.6,0.0,0.0
48,1.08,-0.00034698,0.00034704,1.821e-13,7.8e-15,0.6,0.0,0.0
49,1.1025,-0.00034788,0.0003479,9.92e-14,1.8e-15,0.6,0.0,0.0
50,1.125,-0.00034874,0.00034888,2.343e-13,7e-16,0.6,0.0,0.0
51,1.1475,-0.00034948,0.0003496,1.151e-13,-1.54e-14,0.6,0.0,0.0
52,1.17,-0.0003504,0.00035044,2.591e-13,-2.92e-14,0.6,0.0,0.0
53,1.1925,-0.00035124,0.0003513,1.254e-13,2.06e-14,0.6,0.0,0.0
54,1.215,-0.00035202,0.00035208,2.397e-13,-1.35e-14,0.6,0.0,0.0
55,1.2375,-0.00035278,0.00035292,1.146e-13,-7.3e-15,0.6,0.0,0.0
56,1.26,-0.00035348,0.00035368,2e-15,-5.1e-15,0.6,0.0,0.0
57,1.2825,-0.00035434,0.00035444,9.09e-14,-8.9e-15,0.6,0.0,0.0
58,1.305,-0.00035512,0.00035524,1.267e-13,3.7e-15,0.6,0.0,0.0
59,1.3275,-0.00035586,0.00035598,8.83e-14,6.9e-15,0.6,0.0,0.0
60,1.35,-0.00035658,0.00035672,3.94e-14,-2e-16,0.6,0.0,0.0
61,1.3725,-0.0003574,0.00035746,1.51e-13,-9.7e-15,0.6,0.0,0.0
62,1.395,-0.00035812,0.00035818,1.95e-14,-6e-15,0.6,0.0,0.0
63,1.4175,-0.00035886,0.00035904,1.13e-14,6.6e-15,0.6,0.0,0.0
64,1.44,-0.00035952,0.00035956,1.402e-13,-4.4e-15,0.6,0.0,0.0
65,1.4625,-0.00036028,0.00036032,-9.8e-15,-6.2e-15,0.6,0.0,0.0
66,1.485,-0.00036098,0.00036106,9.74e-14,6.6e-15,0.6,0.0,0.0
67,1.5075,-0.00036182,0.00036176,-1.35e-14,-4.7e-15,0.6,0.0,0.0
68,1.53,-0.00036236,0.00036238,1.58e-13,-6.6e-15,0.6,0.0,0.0
69,1.5525,-0.00036308,0.00036316,7.16e-14,9e-16,0.6,0.0,0.0
70,1.575,-0.00036376,0.00036378,2.044e-13,-1.44e-14,0.6,0.0,0.0
71,1.5975,-0.00036438,0.00036442,7.91e-14,3.4e-15,0.6,0.0,0.0
72,1.62,-0.00036506,0.00036516,1.939e-13,-8e-15,0.6,0.0,0.0
73,1.6425,-0.0003657,0.00036596,1.102e-13,3e-15,0.6,0.0,0.0
74,1.665,-0.00036636,0.00036646,2.349e-13,-5.9e-15,0.6,0.0,0.0
75,1.6875,-0.00036702,0.00036714,4.43e-14,-4.8e-15,0.6,0.0,0.0
76,1.71,-0.0003677,0.00036778,2.066e-13,-6.9e-15,0.6,0.0,0.0
77,1.7325,-0.00036832,0.00036842,8.71e-14,-2.1e-15,0.6,0.0,0.0
78,1.755,-0.00036904,0.00036906,1.796e-13,1e-16,0.6,0.0,0.0
79,1.7775,-0.00036964,0.00036976,3.27e-14,3.8e-15,0.6,0.0,0.0
80,1.8,-0.00037024,0.00037028,1.566e-13,-6.2e-15,0.6,0.0,0.0
