,VG,IB,ID,IG,IS,VD,VS,VB
0,0.0,-1.6619e-10,1.5016e-10,4.1e-13,-1.02e-14,1.8,0,0.0
1,0.0225,-1.2876e-10,1.2992e-10,1.409e-12,1.06e-14,1.8,0,0.0
2,0.045,-1.4072e-10,1.2327e-10,1.35e-13,1.2e-15,1.8,0,0.0
3,0.0675,-1.5509e-10,1.2908e-10,1.223e-12,-2.3e-15,1.8,0,0.0
4,0.09,-1.7592e-10,1.7859e-10,-7.4e-14,-4.7e-15,1.8,0,0.0
5,0.1125,-2.807e-10,2.6709e-10,2.42e-13,-3.6e-15,1.8,0,0.0
6,0.135,-4.5721e-10,4.6538e-10,6.17e-13,-1.74e-14,1.8,0,0.0
7,0.1575,-8.6038e-10,8.5568e-10,1.3e-13,4.8e-15,1.8,0,0.0
8,0.18,-1.6193e-09,1.6155e-09,7.11e-13,4.73e-14,1.8,0,0.0
9,0.2025,-3.1994e-09,3.1077e-09,-9.2e-14,4.68e-14,1.8,0,0.0
10,0.225,-5.9767e-09,6.0285e-09,6.06e-13,4.67e-14,1.8,0,0.0
11,0.2475,-1.1777e-08,1.1752e-08,4.93e-13,1.72e-14,1.8,0,0.0
12,0.27,-2.2902e-08,2.2912e-08,2.03e-13,3.5e-15,1.8,0,0.0
13,0.2925,-4.4907e-08,4.4907e-08,-1.6e-14,2.06e-14,1.8,0,0.0
14,0.315,-8.8127e-08,8.8123e-08,9.65e-13,-5e-15,1.8,0,0.0
15,0.3375,-1.727e-07,1.7276e-07,5.8e-14,3.1e-15,1.8,0,0.0
16,0.36,-3.388e-07,3.393e-07,6.61e-13,1.49e-14,1.8,0,0.0
17,0.3825,-6.6492e-07,6.655e-07,1.27e-13,-1.3e-15,1.8,0,0.0
18,0.405,-1.2982e-06,1.3014e-06,-8e-15,-5.1e-15,1.8,0,0.0
19,0.4275,-2.5276e-06,2.5281e-06,1.2e-13,6.5e-15,1.8,0,0.0
20,0.45,-4.8738e-06,4.8739e-06,6.58e-13,9e-16,1.8,0,0.0
21,0.4725,-9.2494e-06,9.2588e-06,5.18e-13,-1.39e-14,1.8,0,0.0
22,0.495,-1.7278e-05,1.7286e-05,6.24e-13,-2.09e-14,1.8,0,0.0
23,0.5175,-3.1416e-05,3.1422e-05,2.91e-13,-3.17e-14,1.8,0,0.0
24,0.54,-5.5268e-05,5.5276e-05,3.25e-13,-7.4e-15,1.8,0,0.0
25,0.5625,-9.3672e-05,9.3688e-05,6.76e-13,-9.3e-15,1.8,0,0.0
26,0.585,-0.00015194,0.00015196,1.615e-12,-7.8e-15,1.8,0,0.0
27,0.6075,-0.00023482,0.00023484,7.19e-13,-8e-16,1.8,0,0.0
28,0.63,-0.0003466,0.00034662,5.97e-13,-8.6e-15,1.8,0,0.0
29,0.6525,-0.00048852,0.00048856,1.765e-12,5e-15,1.8,0,0.0
30,0.675,-0.00066006,0.00066048,8.08e-13,-8.5e-15,1.8,0,0.0
31,0.6975,-0.00085992,0.00086,1.02e-13,-5.7e-15,1.8,0,0.0
32,0.72,-0.0010858,0.0010862,4.49e-13,-1.1e-15,1.8,0,0.0
33,0.7425,-0.0013342,0.0013344,1.563e-12,-4e-16,1.8,0,0.0
34,0.765,-0.0016032,0.0016034,5.65e-13,-1.24e-14,1.8,0,0.0
35,0.7875,-0.0018884,0.0018886,1.083e-12,-2.7e-15,1.8,0,0.0
36,0.81,-0.0021904,0.00219,5.64e-13,-1.62e-14,1.8,0,0.0
37,0.8325,-0.0025054,0.0025052,1.513e-12,-4.3e-15,1.8,0,0.0
38,0.855,-0.002832,0.0028318,9.62e-13,-3.6e-15,1.8,0,0.0
39,0.8775,-0.0031676,0.003168,7.13e-13,-7.2e-15,1.8,0,0.0
40,0.9,-0.0035142,0.0035138,5.26e-13,-5.7e-15,1.8,0,0.0
41,0.9225,-0.0038684,0.0038686,2.136e-12,4.5e-15,1.8,0,0.0
42,0.945,-0.0042302,0.00423,8.79e-13,-1.04e-14,1.8,0,0.0
43,0.9675,-0.0045956,0.0045964,8e-13,-1.83e-14,1.8,0,0.0
44,0.99,-0.0049698,0.0049694,5.64e-13,-4.7e-15,1.8,0,0.0
45,1.0125,-0.0053488,0.0053486,1.528e-12,-2.7e-15,1.8,0,0.0
46,1.035,-0.0057308,0.0057306,1.021e-12,-3.6e-15,1.8,0,0.0
47,1.0575,-0.0061186,0.0061182,5.37e-13,-5.7e-15,1.8,0,0.0
48,1.08,-0.0065098,0.00651,8.96e-13,-3.4e-15,1.8,0,0.0
49,1.1025,-0.006903,0.0069028,1.365e-12,-5.6e-15,1.8,0,0.0
50,1.125,-0.0072996,0.0072998,1.118e-12,-8e-16,1.8,0,0.0
51,1.1475,-0.0076996,0.0077014,1.288e-12,-4.6e-15,1.8,0,0.0
52,1.17,-0.0081012,0.0081012,4.46e-13,-9e-16,1.8,0,0.0
53,1.1925,-0.0085058,0.0085068,1.171e-12,-1.2e-14,1.8,0,0.0
54,1.215,-0.0089124,0.0089132,9.01e-13,-3.8e-15,1.8,0,0.0
55,1.2375,-0.0093222,0.009322,8.42e-13,-2e-15,1.8,0,0.0
56,1.26,-0.009731,0.0097324,1.36e-12,-4.6e-15,1.8,0,0.0
57,1.2825,-0.0101436,0.010144,1.395e-12,-5.7e-15,1.8,0,0.0
58,1.305,-0.0105576,0.010558,7.8e-13,-4e-15,1.8,0,0.0
59,1.3275,-0.0109714,0.010974,1.126e-12,1.6e-15,1.8,0,0.0
60,1.35,-0.011382,0.011382,1.018e-12,-1.24e-14,1.8,0,0.0
61,1.3725,-0.011728,0.01177,1.242e-12,-6e-16,1.8,0,0.0
62,1.395,-0.012146,0.01215,8.26e-13,4.5e-15,1.8,0,0.0
63,1.4175,-0.01256,0.012564,7.77e-13,-1.3e-14,1.8,0,0.0
64,1.44,-0.012954,0.012966,1.575e-12,-6.5e-15,1.8,0,0.0
65,1.4625,-0.013478,0.013424,1.692e-12,-3.1e-15,1.8,0,0.0
66,1.485,-0.013726,0.013886,1.056e-12,-5.6e-15,1.8,0,0.0
67,1.5075,-0.014344,0.014348,8.84e-13,-4e-16,1.8,0,0.0
68,1.53,-0.014766,0.014772,1.867e-12,-5.7e-15,1.8,0,0.0
69,1.5525,-0.015192,0.015196,1.174e-12,-5.1e-15,1.8,0,0.0
70,1.575,-0.015612,0.015618,1.293e-12,-4.4e-15,1.8,0,0.0
71,1.5975,-0.016024,0.016028,7.45e-13,-4.1e-15,1.8,0,0.0
72,1.62,-0.016404,0.016394,2.427e-12,-8.1e-15,1.8,0,0.0
73,1.6425,-0.016828,0.016832,1.4e-12,-1.25e-14,1.8,0,0.0
74,1.665,-0.01725,0.017254,1.187e-12,-5.8e-15,1.8,0,0.0
75,1.6875,-0.01766,0.017664,1.352e-12,-1.8e-15,1.8,0,0.0
76,1.71,-0.018062,0.018078,2.385e-12,5.3e-15,1.8,0,0.0
77,1.7325,-0.01839,0.018438,1.668e-12,-6.3e-15,1.8,0,0.0
78,1.755,-0.018742,0.018758,1.274e-12,-1.54e-14,1.8,0,0.0
79,1.7775,-0.019156,0.019126,8.58e-13,-6.8e-15,1.8,0,0.0
80,1.8,-0.019382,0.019496,9.23e-13,1e-16,1.8,0,0.0
