,VG,IB,ID,IG,IS,VD,VS,VB
0,0.0,-1.3176e-11,5.7065e-12,1.05e-13,-1e-14,0.05,0,0.0
1,0.0225,-2.0359e-11,1.07605e-11,1.78e-13,8.4e-15,0.05,0,0.0
2,0.045,-3.3358e-11,2.0795e-11,-1.377e-12,-1.05e-14,0.05,0,0.0
3,0.0675,-4.831e-11,3.7606e-11,1.329e-12,-1.14e-14,0.05,0,0.0
4,0.09,-7.9191e-11,7.0821e-11,2.31e-13,2.7e-15,0.05,0,0.0
5,0.1125,-1.3396e-10,1.3319e-10,-5.41e-13,3.7e-15,0.05,0,0.0
6,0.135,-2.7268e-10,2.5313e-10,-1.62e-13,-8.4e-15,0.05,0,0.0
7,0.1575,-4.5047e-10,4.7729e-10,1.403e-12,8.7e-15,0.05,0,0.0
8,0.18,-9.1296e-10,9.1983e-10,3.09e-13,-4.4e-15,0.05,0,0.0
9,0.2025,-1.7578e-09,1.7588e-09,8.8e-14,-5.6e-15,0.05,0,0.0
10,0.225,-3.381e-09,3.3761e-09,-1.2e-14,-8.6e-15,0.05,0,0.0
11,0.2475,-6.4576e-09,6.4843e-09,1.397e-12,-3e-15,0.05,0,0.0
12,0.27,-1.2507e-08,1.2477e-08,5.14e-13,-1.04e-14,0.05,0,0.0
13,0.2925,-2.3998e-08,2.407e-08,1.78e-13,-2.3e-15,0.05,0,0.0
14,0.315,-4.6443e-08,4.6481e-08,2.73e-13,-6.2e-15,0.05,0,0.0
15,0.3375,-8.9662e-08,8.9658e-08,1.7e-13,-7.3e-15,0.05,0,0.0
16,0.36,-1.7332e-07,1.7314e-07,7.38e-13,-2.9e-15,0.05,0,0.0
17,0.3825,-3.342e-07,3.3418e-07,1.95e-13,8e-15,0.05,0,0.0
18,0.405,-6.4158e-07,6.4218e-07,4.78e-13,-3.1e-15,0.05,0,0.0
19,0.4275,-1.2306e-06,1.2332e-06,1.145e-12,-1.7e-15,0.05,0,0.0
20,0.45,-2.3378e-06,2.3382e-06,8.56e-13,0.0,0.05,0,0.0
21,0.4725,-4.3876e-06,4.3886e-06,1.07e-13,-2.2e-15,0.05,0,0.0
22,0.495,-8.1271e-06,8.1266e-06,3.62e-13,-5.9e-15,0.05,0,0.0
23,0.5175,-1.474e-05,1.4738e-05,1.21e-13,-8.2e-15,0.05,0,0.0
24,0.54,-2.5958e-05,2.5964e-05,5.38e-13,2.6e-15,0.05,0,0.0
25,0.5625,-4.4288e-05,4.4286e-05,3.72e-13,1.2e-15,0.05,0,0.0
26,0.585,-7.272e-05,7.2732e-05,8.2e-13,-1.8e-15,0.05,0,0.0
27,0.6075,-0.00011418,0.00011418,2.55e-13,-5.5e-15,0.05,0,0.0
28,0.63,-0.00017152,0.00017156,3.77e-13,-2.9e-15,0.05,0,0.0
29,0.6525,-0.00024568,0.00024572,8.2e-13,-6.6e-15,0.05,0,0.0
30,0.675,-0.0003356,0.00033572,1.87e-13,-6.7e-15,0.05,0,0.0
31,0.6975,-0.00043752,0.00043776,1.311e-12,9.3e-15,0.05,0,0.0
32,0.72,-0.00054688,0.00054706,9.15e-13,3.1e-15,0.05,0,0.0
33,0.7425,-0.0006574,0.0006576,4.26e-13,-3.3e-15,0.05,0,0.0
34,0.765,-0.00076358,0.00076362,6.83e-13,-2.5e-15,0.05,0,0.0
35,0.7875,-0.00086046,0.00086054,1.242e-12,2.2e-15,0.05,0,0.0
36,0.81,-0.00094674,0.00094708,8.79e-13,-2.09e-14,0.05,0,0.0
37,0.8325,-0.00102148,0.00102168,7.24e-13,-6e-16,0.05,0,0.0
38,0.855,-0.00108472,0.00108504,5.29e-13,-1.72e-14,0.05,0,0.0
39,0.8775,-0.0011379,0.00113836,1.986e-12,-2.4e-15,0.05,0,0.0
40,0.9,-0.0011828,0.001183,9.25e-13,-6.5e-15,0.05,0,0.0
41,0.9225,-0.0012208,0.001221,6.3e-13,-1.36e-14,0.05,0,0.0
42,0.945,-0.0012526,0.0012528,6.19e-13,-1.12e-14,0.05,0,0.0
43,0.9675,-0.0012796,0.00128,1.002e-12,-8e-15,0.05,0,0.0
44,0.99,-0.0013026,0.0013026,7.27e-13,-1.41e-14,0.05,0,0.0
45,1.0125,-0.0013222,0.0013226,7.05e-13,-1.86e-14,0.05,0,0.0
46,1.035,-0.0013392,0.0013392,1.049e-12,4.8e-15,0.05,0,0.0
47,1.0575,-0.0013542,0.0013544,4.77e-13,-2.7e-15,0.05,0,0.0
48,1.08,-0.0013672,0.0013672,7.02e-13,-5e-15,0.05,0,0.0
49,1.1025,-0.0013786,0.0013784,1.764e-12,5e-16,0.05,0,0.0
50,1.125,-0.0013884,0.0013888,8.57e-13,3e-15,0.05,0,0.0
51,1.1475,-0.0013976,0.0013978,1.151e-12,-2.5e-15,0.05,0,0.0
52,1.17,-0.0014054,0.0014054,5.49e-13,-1.03e-14,0.05,0,0.0
53,1.1925,-0.0014128,0.0014126,1.886e-12,-2.6e-15,0.05,0,0.0
54,1.215,-0.0014192,0.0014192,9.97e-13,-3e-15,0.05,0,0.0
55,1.2375,-0.0014254,0.0014252,8.97e-13,1.9e-15,0.05,0,0.0
56,1.26,-0.0014304,0.0014306,1.167e-12,-1.27e-14,0.05,0,0.0
57,1.2825,-0.0014354,0.0014356,1.606e-12,-1.8e-15,0.05,0,0.0
58,1.305,-0.0014402,0.0014404,9.65e-13,1e-16,0.05,0,0.0
59,1.3275,-0.001444,0.0014438,1.493e-12,-2.7e-15,0.05,0,0.0
60,1.35,-0.001448,0.0014478,9.73e-13,-9.7e-15,0.05,0,0.0
61,1.3725,-0.0014512,0.0014514,2.603e-12,3.8e-15,0.05,0,0.0
62,1.395,-0.0014546,0.0014548,1.35e-12,3e-15,0.05,0,0.0
63,1.4175,-0.0014576,0.0014576,1.146e-12,3.7e-15,0.05,0,0.0
64,1.44,-0.0014602,0.0014602,1.466e-12,1.5e-15,0.05,0,0.0
65,1.4625,-0.0014626,0.0014632,2.494e-12,-6.4e-15,0.05,0,0.0
66,1.485,-0.0014652,0.001465,1.618e-12,1.9e-15,0.05,0,0.0
67,1.5075,-0.0014676,0.001468,1.626e-12,-8.8e-15,0.05,0,0.0
68,1.53,-0.0014698,0.0014698,1.414e-12,2e-16,0.05,0,0.0
69,1.5525,-0.0014716,0.0014716,2.991e-12,-1.63e-14,0.05,0,0.0
70,1.575,-0.0014738,0.0014736,1.622e-12,-5.7e-15,0.05,0,0.0
71,1.5975,-0.0014752,0.0014754,2.208e-12,-6.2e-15,0.05,0,0.0
72,1.62,-0.0014768,0.0014772,2.104e-12,-1.34e-14,0.05,0,0.0
73,1.6425,-0.0014788,0.0014786,2.764e-12,-5.4e-15,0.05,0,0.0
74,1.665,-0.00148,0.0014802,2.183e-12,-3.3e-15,0.05,0,0.0
75,1.6875,-0.0014814,0.001482,2.573e-12,-1.09e-14,0.05,0,0.0
76,1.71,-0.0014828,0.0014826,2.881e-12,2e-15,0.05,0,0.0
77,1.7325,-0.001484,0.0014838,2.705e-12,-1e-14,0.05,0,0.0
78,1.755,-0.001485,0.0014856,3.363e-12,-1.42e-14,0.05,0,0.0
79,1.7775,-0.0014862,0.0014864,3.761e-12,3e-15,0.05,0,0.0
80,1.8,-0.0014872,0.0014874,3.531e-12,-7e-16,0.05,0,0.0
