,VD,IB,ID,IG,IS,VG,VB,VS
0,0.0,9.241e-11,9.955e-11,-3.66e-14,-4.6e-15,0.3,0.0,0.0
1,0.0225,-6.6716e-08,6.666e-08,4.8e-15,-2.7e-15,0.3,0.0,0.0
2,0.045,-9.5242e-08,9.5259e-08,-9.76e-14,-2.22e-14,0.3,0.0,0.0
3,0.0675,-1.07963e-07,1.07951e-07,1e-14,7e-15,0.3,0.0,0.0
4,0.09,-1.13891e-07,1.1392e-07,-5.82e-14,-1.5e-15,0.3,0.0,0.0
5,0.1125,-1.1742e-07,1.1682e-07,1.75e-14,-6e-15,0.3,0.0,0.0
6,0.135,-1.1918e-07,1.1896e-07,1.691e-13,-1.2e-15,0.3,0.0,0.0
7,0.1575,-1.2038e-07,1.204e-07,-5.04e-14,-2.56e-14,0.3,0.0,0.0
8,0.18,-1.2138e-07,1.2154e-07,-1.89e-14,-3.9e-15,0.3,0.0,0.0
9,0.2025,-1.2256e-07,1.2266e-07,9.1e-15,-7e-16,0.3,0.0,0.0
10,0.225,-1.2368e-07,1.237e-07,-8.5e-15,7.8e-15,0.3,0.0,0.0
11,0.2475,-1.246e-07,1.2462e-07,1.579e-13,-5.4e-15,0.3,0.0,0.0
12,0.27,-1.2544e-07,1.2554e-07,8.2e-15,-6.6e-15,0.3,0.0,0.0
13,0.2925,-1.2598e-07,1.2646e-07,7.54e-14,8.3e-15,0.3,0.0,0.0
14,0.315,-1.2734e-07,1.2738e-07,-2.43e-14,-3.3e-15,0.3,0.0,0.0
15,0.3375,-1.2826e-07,1.2828e-07,-5.3e-14,0.0,0.3,0.0,0.0
16,0.36,-1.2924e-07,1.2912e-07,5.08e-14,4.3e-15,0.3,0.0,0.0
17,0.3825,-1.2988e-07,1.2992e-07,-7.78e-14,-4e-15,0.3,0.0,0.0
18,0.405,-1.3028e-07,1.3078e-07,2.1e-14,-5.3e-15,0.3,0.0,0.0
19,0.4275,-1.3178e-07,1.3152e-07,-1.282e-13,-1.95e-14,0.3,0.0,0.0
20,0.45,-1.323e-07,1.3236e-07,-2.24e-14,-3e-16,0.3,0.0,0.0
21,0.4725,-1.3312e-07,1.3314e-07,-1.067e-13,-1.78e-14,0.3,0.0,0.0
22,0.495,-1.3402e-07,1.339e-07,-1.87e-14,-1.14e-14,0.3,0.0,0.0
23,0.5175,-1.3466e-07,1.3464e-07,-1.236e-13,-8.9e-15,0.3,0.0,0.0
24,0.54,-1.3522e-07,1.3542e-07,-1.13e-14,1.05e-14,0.3,0.0,0.0
25,0.5625,-1.3582e-07,1.3614e-07,-9e-14,1.21e-14,0.3,0.0,0.0
26,0.585,-1.3708e-07,1.369e-07,1.04e-14,-4e-15,0.3,0.0,0.0
27,0.6075,-1.3742e-07,1.3762e-07,-6.58e-14,-5.1e-15,0.3,0.0,0.0
28,0.63,-1.3822e-07,1.3834e-07,-6e-14,3.3e-15,0.3,0.0,0.0
29,0.6525,-1.3868e-07,1.39e-07,1.191e-13,2.8e-15,0.3,0.0,0.0
30,0.675,-1.3956e-07,1.396e-07,-5.4e-15,1.6e-15,0.3,0.0,0.0
31,0.6975,-1.4026e-07,1.4038e-07,-7e-15,3.6e-15,0.3,0.0,0.0
32,0.72,-1.4102e-07,1.4094e-07,1.53e-13,-3.8e-15,0.3,0.0,0.0
33,0.7425,-1.4142e-07,1.4162e-07,-2.29e-14,1.11e-14,0.3,0.0,0.0
34,0.765,-1.4232e-07,1.4222e-07,1.157e-13,-7.5e-15,0.3,0.0,0.0
35,0.7875,-1.4296e-07,1.4288e-07,-2.11e-14,8e-16,0.3,0.0,0.0
36,0.81,-1.4374e-07,1.435e-07,9.42e-14,4.3e-15,0.3,0.0,0.0
37,0.8325,-1.4404e-07,1.441e-07,-5.49e-14,-1.5e-15,0.3,0.0,0.0
38,0.855,-1.4478e-07,1.4472e-07,4.8e-14,-4.2e-15,0.3,0.0,0.0
39,0.8775,-1.4544e-07,1.4528e-07,-5.05e-14,1e-16,0.3,0.0,0.0
40,0.9,-1.4568e-07,1.4594e-07,5.28e-14,-1.07e-14,0.3,0.0,0.0
41,0.9225,-1.4658e-07,1.4648e-07,-3.56e-14,-1.14e-14,0.3,0.0,0.0
42,0.945,-1.4712e-07,1.4704e-07,-3.35e-14,-1.08e-14,0.3,0.0,0.0
43,0.9675,-1.4768e-07,1.4772e-07,-8.95e-14,3e-16,0.3,0.0,0.0
44,0.99,-1.4822e-07,1.481e-07,1.24e-14,-2.3e-15,0.3,0.0,0.0
45,1.0125,-1.4876e-07,1.4868e-07,-1.049e-13,-6e-16,0.3,0.0,0.0
46,1.035,-1.4982e-07,1.4926e-07,1.52e-14,-6e-16,0.3,0.0,0.0
47,1.0575,-1.499e-07,1.4982e-07,-1.195e-13,-5.7e-15,0.3,0.0,0.0
48,1.08,-1.5036e-07,1.504e-07,1.11e-14,-1.52e-14,0.3,0.0,0.0
49,1.1025,-1.5084e-07,1.5088e-07,-1.033e-13,0.0,0.3,0.0,0.0
50,1.125,-1.5134e-07,1.5138e-07,2.38e-14,1.9e-15,0.3,0.0,0.0
51,1.1475,-1.5166e-07,1.5196e-07,-1.072e-13,-1.76e-14,0.3,0.0,0.0
52,1.17,-1.5224e-07,1.5244e-07,6.58e-14,1.51e-14,0.3,0.0,0.0
53,1.1925,-1.5264e-07,1.5294e-07,-2.8e-14,2.2e-15,0.3,0.0,0.0
54,1.215,-1.5342e-07,1.5344e-07,-1.51e-14,1.28e-14,0.3,0.0,0.0
55,1.2375,-1.5382e-07,1.5396e-07,1.289e-13,-1.52e-14,0.3,0.0,0.0
56,1.26,-1.5438e-07,1.5452e-07,5.81e-14,-9e-15,0.3,0.0,0.0
57,1.2825,-1.545e-07,1.5508e-07,1.57e-14,2.1e-15,0.3,0.0,0.0
58,1.305,-1.5546e-07,1.5546e-07,1.172e-13,1.56e-14,0.3,0.0,0.0
59,1.3275,-1.5584e-07,1.5592e-07,5.11e-14,-3.9e-15,0.3,0.0,0.0
60,1.35,-1.564e-07,1.564e-07,1.081e-13,-8.5e-15,0.3,0.0,0.0
61,1.3725,-1.5682e-07,1.5684e-07,3.4e-15,2.32e-14,0.3,0.0,0.0
62,1.395,-1.5732e-07,1.5738e-07,1.077e-13,2.1e-15,0.3,0.0,0.0
63,1.4175,-1.5768e-07,1.5778e-07,4.2e-15,-7.6e-15,0.3,0.0,0.0
64,1.44,-1.5812e-07,1.5822e-07,1.044e-13,1.05e-14,0.3,0.0,0.0
65,1.4625,-1.589e-07,1.587e-07,1.12e-14,2.33e-14,0.3,0.0,0.0
66,1.485,-1.5924e-07,1.5912e-07,-4.65e-14,1.4e-15,0.3,0.0,0.0
67,1.5075,-1.5962e-07,1.5964e-07,9.22e-14,-1.13e-14,0.3,0.0,0.0
68,1.53,-1.6e-07,1.6004e-07,-4.75e-14,-6e-15,0.3,0.0,0.0
69,1.5525,-1.603e-07,1.6062e-07,-3.74e-14,-1.52e-14,0.3,0.0,0.0
70,1.575,-1.6064e-07,1.6084e-07,-8.82e-14,-4.5e-15,0.3,0.0,0.0
71,1.5975,-1.6148e-07,1.6132e-07,3.41e-14,9.7e-15,0.3,0.0,0.0
72,1.62,-1.6188e-07,1.618e-07,-6.93e-14,-2e-16,0.3,0.0,0.0
73,1.6425,-1.6224e-07,1.6222e-07,-4.5e-15,-7.2e-15,0.3,0.0,0.0
74,1.665,-1.627e-07,1.6272e-07,-1.027e-13,-1e-16,0.3,0.0,0.0
75,1.6875,-1.6322e-07,1.6312e-07,2.54e-14,-2.2e-15,0.3,0.0,0.0
76,1.71,-1.6324e-07,1.6354e-07,-1.038e-13,-4.1e-15,0.3,0.0,0.0
77,1.7325,-1.6386e-07,1.64e-07,9.83e-14,-1.57e-14,0.3,0.0,0.0
78,1.755,-1.6432e-07,1.6444e-07,-2.51e-14,4.4e-15,0.3,0.0,0.0
79,1.7775,-1.6468e-07,1.6478e-07,1.25e-13,-2.4e-14,0.3,0.0,0.0
80,1.8,-1.652e-07,1.652e-07,3.17e-14,3.3e-15,0.3,0.0,0.0
