,VD,IB,ID,IG,IS,VG,VB,VS
0,0.0,5.1936e-07,-1.13245e-07,4.301e-13,-4.2e-15,1.2,0.0,0.0
1,0.0225,-0.00056536,0.00056598,4.615e-13,-6.1e-15,1.2,0.0,0.0
2,0.045,-0.00112652,0.00112698,3.731e-13,-6.7e-15,1.2,0.0,0.0
3,0.0675,-0.0016862,0.0016864,4.571e-13,-5.1e-15,1.2,0.0,0.0
4,0.09,-0.0022414,0.0022412,3.639e-13,4.3e-15,1.2,0.0,0.0
5,0.1125,-0.0027896,0.0027904,2.997e-13,4e-16,1.2,0.0,0.0
6,0.135,-0.0033344,0.003334,2.592e-13,-8.9e-15,1.2,0.0,0.0
7,0.1575,-0.003872,0.0038718,2.678e-13,-9e-16,1.2,0.0,0.0
8,0.18,-0.0044018,0.004402,3.052e-13,-1.34e-14,1.2,0.0,0.0
9,0.2025,-0.0049222,0.0049224,2.415e-13,-1e-15,1.2,0.0,0.0
10,0.225,-0.0054344,0.005434,3.071e-13,-5.4e-15,1.2,0.0,0.0
11,0.2475,-0.0059342,0.0059348,2.965e-13,2.9e-15,1.2,0.0,0.0
12,0.27,-0.0064192,0.006419,3.111e-13,-1.37e-14,1.2,0.0,0.0
13,0.2925,-0.00689,0.00689,3.11e-13,-9e-16,1.2,0.0,0.0
14,0.315,-0.0073418,0.0073422,3.383e-13,-5.6e-15,1.2,0.0,0.0
15,0.3375,-0.0077712,0.0077708,3.645e-13,7e-16,1.2,0.0,0.0
16,0.36,-0.0081762,0.0081766,3.536e-13,-7e-16,1.2,0.0,0.0
17,0.3825,-0.0085542,0.0085534,3.722e-13,-9.3e-15,1.2,0.0,0.0
18,0.405,-0.0088974,0.0088986,3.781e-13,9e-16,1.2,0.0,0.0
19,0.4275,-0.0092064,0.0092058,3.645e-13,-2.1e-15,1.2,0.0,0.0
20,0.45,-0.009477,0.0094764,3.659e-13,-1.04e-14,1.2,0.0,0.0
21,0.4725,-0.0097086,0.009709,3.688e-13,-2.7e-15,1.2,0.0,0.0
22,0.495,-0.0099026,0.0099032,3.796e-13,8e-16,1.2,0.0,0.0
23,0.5175,-0.0100632,0.0100628,3.509e-13,-2.9e-15,1.2,0.0,0.0
24,0.54,-0.0101922,0.0101926,3.283e-13,4.6e-15,1.2,0.0,0.0
25,0.5625,-0.0102984,0.0102976,3.041e-13,1e-16,1.2,0.0,0.0
26,0.585,-0.0103836,0.0103838,3.024e-13,-1.42e-14,1.2,0.0,0.0
27,0.6075,-0.0104542,0.0104546,5.139e-13,-5.4e-15,1.2,0.0,0.0
28,0.63,-0.0105144,0.0105146,4.615e-13,1.2e-15,1.2,0.0,0.0
29,0.6525,-0.0105656,0.0105662,4.085e-13,3.2e-15,1.2,0.0,0.0
30,0.675,-0.0106114,0.0106116,4.518e-13,-2e-15,1.2,0.0,0.0
31,0.6975,-0.0106512,0.0106514,4.539e-13,5.9e-15,1.2,0.0,0.0
32,0.72,-0.0106886,0.0106884,4.458e-13,-5.2e-15,1.2,0.0,0.0
33,0.7425,-0.010724,0.0107234,4.473e-13,1e-15,1.2,0.0,0.0
34,0.765,-0.0107566,0.0107568,4.556e-13,-3.5e-15,1.2,0.0,0.0
35,0.7875,-0.010787,0.0107874,4.444e-13,0.0,1.2,0.0,0.0
36,0.81,-0.010817,0.0108178,4.814e-13,1.28e-14,1.2,0.0,0.0
37,0.8325,-0.010846,0.0108464,4.355e-13,-5.8e-15,1.2,0.0,0.0
38,0.855,-0.010873,0.0108744,1.96e-13,-1.1e-15,1.2,0.0,0.0
39,0.8775,-0.0109002,0.010901,2.88e-13,-4.8e-15,1.2,0.0,0.0
40,0.9,-0.0109262,0.0109268,5.042e-13,-8.4e-15,1.2,0.0,0.0
41,0.9225,-0.0109526,0.0109534,5.127e-13,5.3e-15,1.2,0.0,0.0
42,0.945,-0.010978,0.0109786,2.576e-13,-3.2e-15,1.2,0.0,0.0
43,0.9675,-0.0110026,0.011003,3.233e-13,-1.77e-14,1.2,0.0,0.0
44,0.99,-0.0110272,0.0110282,2.35e-13,-2.26e-14,1.2,0.0,0.0
45,1.0125,-0.0110516,0.0110514,3.587e-13,3e-15,1.2,0.0,0.0
46,1.035,-0.0110752,0.0110758,5.428e-13,-7e-15,1.2,0.0,0.0
47,1.0575,-0.011099,0.0111,2.372e-13,3.1e-15,1.2,0.0,0.0
48,1.08,-0.0111232,0.0111232,3.366e-13,-1.03e-14,1.2,0.0,0.0
49,1.1025,-0.0111448,0.0111462,6.083e-13,8e-15,1.2,0.0,0.0
50,1.125,-0.0111676,0.0111678,2.753e-13,1.83e-14,1.2,0.0,0.0
51,1.1475,-0.0111904,0.0111916,3.429e-13,4.8e-15,1.2,0.0,0.0
52,1.17,-0.0112132,0.011213,5.229e-13,-1.2e-15,1.2,0.0,0.0
53,1.1925,-0.0112354,0.0112356,2.694e-13,-4.2e-15,1.2,0.0,0.0
54,1.215,-0.0112582,0.0112582,3.044e-13,-1.3e-15,1.2,0.0,0.0
55,1.2375,-0.0112802,0.0112806,2.049e-13,-7.1e-15,1.2,0.0,0.0
56,1.26,-0.0113016,0.0113024,2.943e-13,-4.1e-15,1.2,0.0,0.0
57,1.2825,-0.0113222,0.011324,4.903e-13,3.8e-15,1.2,0.0,0.0
58,1.305,-0.0113456,0.0113452,4.726e-13,-3.6e-15,1.2,0.0,0.0
59,1.3275,-0.0113652,0.0113668,4.531e-13,3.2e-15,1.2,0.0,0.0
60,1.35,-0.0113876,0.0113876,1.774e-13,-2.7e-15,1.2,0.0,0.0
61,1.3725,-0.0114084,0.0114088,2.583e-13,-2.2e-15,1.2,0.0,0.0
62,1.395,-0.0114292,0.0114296,4.43e-13,2.6e-15,1.2,0.0,0.0
63,1.4175,-0.01145,0.0114508,4.297e-13,6.1e-15,1.2,0.0,0.0
64,1.44,-0.0114702,0.011471,1.424e-13,-3.9e-15,1.2,0.0,0.0
65,1.4625,-0.0114912,0.011491,2.073e-13,3e-16,1.2,0.0,0.0
66,1.485,-0.0115122,0.011514,1.827e-13,-1.2e-14,1.2,0.0,0.0
67,1.5075,-0.011532,0.011534,1.899e-13,7.2e-15,1.2,0.0,0.0
68,1.53,-0.0115538,0.011554,1.866e-13,1.1e-15,1.2,0.0,0.0
69,1.5525,-0.011573,0.011576,1.641e-13,1.9e-15,1.2,0.0,0.0
70,1.575,-0.0115934,0.011598,2.032e-13,3.8e-15,1.2,0.0,0.0
71,1.5975,-0.0116142,0.011616,3.946e-13,-1.7e-15,1.2,0.0,0.0
72,1.62,-0.0116348,0.011636,1.667e-13,-6.8e-15,1.2,0.0,0.0
73,1.6425,-0.011654,0.011658,2.165e-13,-3.9e-15,1.2,0.0,0.0
74,1.665,-0.0116736,0.011676,4.437e-13,6.5e-15,1.2,0.0,0.0
75,1.6875,-0.011693,0.011692,1.801e-13,-8e-15,1.2,0.0,0.0
76,1.71,-0.01171,0.011716,1.752e-13,5e-15,1.2,0.0,0.0
77,1.7325,-0.01173,0.011736,2.478e-13,-8e-16,1.2,0.0,0.0
78,1.755,-0.01175,0.011752,4.028e-13,8e-16,1.2,0.0,0.0
79,1.7775,-0.011772,0.011774,1.506e-13,9.1e-15,1.2,0.0,0.0
80,1.8,-0.01179,0.011792,1.375e-13,9.4e-15,1.2,0.0,0.0
