,VG,ID,VD,VS
0,0.0,3.511e-11,0.05,0.0
1,0.01,1.005e-11,0.05,0.0
2,0.02,3.780000000000001e-12,0.05,0.0
3,0.03,2.9920000000000005e-11,0.05,0.0
4,0.04,6.779e-11,0.05,0.0
5,0.05,8.666e-11,0.05,0.0
6,0.06,8.154000000000001e-11,0.05,0.0
7,0.07,8.007e-11,0.05,0.0
8,0.08,1.1572000000000002e-10,0.05,0.0
9,0.09,1.8811e-10,0.05,0.0
10,0.1,2.6818e-10,0.05,0.0
11,0.11,3.3645e-10,0.05,0.0
12,0.12,4.139e-10,0.05,0.0
13,0.13,5.447600000000001e-10,0.05,0.0
14,0.14,7.5573e-10,0.05,0.0
15,0.15,1.04106e-09,0.05,0.0
16,0.16,1.3982e-09,0.05,0.0
17,0.17,1.8512e-09,0.05,0.0
18,0.18,2.4565e-09,0.05,0.0
19,0.19,3.295e-09,0.05,0.0
20,0.2,4.4465e-09,0.05,0.0
21,0.21,6.0093e-09,0.05,0.0
22,0.22,8.1204e-09,0.05,0.0
23,0.23,1.09209e-08,0.05,0.0
24,0.24,1.46374e-08,0.05,0.0
25,0.25,1.97672e-08,0.05,0.0
26,0.26,2.66678e-08,0.05,0.0
27,0.27,3.59776e-08,0.05,0.0
28,0.28,4.864259999999999e-08,0.05,0.0
29,0.29,6.55944e-08,0.05,0.0
30,0.3,8.8475e-08,0.05,0.0
31,0.31,1.1964e-07,0.05,0.0
32,0.32,1.6132e-07,0.05,0.0
33,0.33,2.176e-07,0.05,0.0
34,0.34,2.9418e-07,0.05,0.0
35,0.35,3.9674e-07,0.05,0.0
36,0.36,5.3426e-07,0.05,0.0
37,0.37,7.1914e-07,0.05,0.0
38,0.38,9.6974e-07,0.05,0.0
39,0.39,1.3022000000000002e-06,0.05,0.0
40,0.4,1.7454000000000005e-06,0.05,0.0
41,0.41,2.3389e-06,0.05,0.0
42,0.42,3.119e-06,0.05,0.0
43,0.43,4.1452000000000006e-06,0.05,0.0
44,0.44,5.486900000000001e-06,0.05,0.0
45,0.45,7.2428e-06,0.05,0.0
46,0.46,9.4968e-06,0.05,0.0
47,0.47,1.237e-05,0.05,0.0
48,0.48,1.6028e-05,0.05,0.0
49,0.49,2.0598e-05,0.05,0.0
50,0.5,2.6242e-05,0.05,0.0
51,0.51,3.3166e-05,0.05,0.0
52,0.52,4.1602e-05,0.05,0.0
53,0.53,5.1612e-05,0.05,0.0
54,0.54,6.3432e-05,0.05,0.0
55,0.55,7.7298e-05,0.05,0.0
56,0.56,9.3134e-05,0.05,0.0
57,0.57,0.000111112,0.05,0.0
58,0.58,0.00013118,0.05,0.0
59,0.59,0.00015362,0.05,0.0
60,0.6,0.00017798,0.05,0.0
61,0.61,0.0002043,0.05,0.0
62,0.62,0.00023268,0.05,0.0
63,0.63,0.00026234,0.05,0.0
64,0.64,0.00029338,0.05,0.0
65,0.65,0.00032588,0.05,0.0
66,0.66,0.00035882,0.05,0.0
67,0.67,0.00039236,0.05,0.0
68,0.68,0.00042634,0.05,0.0
69,0.69,0.00046002,0.05,0.0
70,0.7,0.00049356,0.05,0.0
71,0.71,0.00052684,0.05,0.0
72,0.72,0.00055918,0.05,0.0
73,0.73,0.00059092,0.05,0.0
74,0.74,0.00062154,0.05,0.0
75,0.75,0.00065116,0.05,0.0
76,0.76,0.00067986,0.05,0.0
77,0.77,0.00070714,0.05,0.0
78,0.78,0.00073332,0.05,0.0
79,0.79,0.00075844,0.05,0.0
80,0.8,0.00078224,0.05,0.0
81,0.81,0.00080506,0.05,0.0
82,0.82,0.00082686,0.05,0.0
83,0.83,0.00084726,0.05,0.0
84,0.84,0.00086678,0.05,0.0
85,0.85,0.00088566,0.05,0.0
86,0.86,0.00090314,0.05,0.0
87,0.87,0.00092016,0.05,0.0
88,0.88,0.00093604,0.05,0.0
89,0.89,0.00095106,0.05,0.0
90,0.9,0.00096588,0.05,0.0
91,0.91,0.0009794,0.05,0.0
92,0.92,0.00099254,0.05,0.0
93,0.93,0.00100516,0.05,0.0
94,0.94,0.001017,0.05,0.0
95,0.95,0.00102844,0.05,0.0
96,0.96,0.00103922,0.05,0.0
97,0.97,0.00104948,0.05,0.0
98,0.98,0.00105944,0.05,0.0
99,0.99,0.00106896,0.05,0.0
100,1.0,0.00107804,0.05,0.0
101,1.01,0.00108666,0.05,0.0
102,1.02,0.0010949,0.05,0.0
103,1.03,0.00110306,0.05,0.0
104,1.04,0.0011108,0.05,0.0
105,1.05,0.00111806,0.05,0.0
106,1.06,0.00112528,0.05,0.0
107,1.07,0.00113198,0.05,0.0
108,1.08,0.00113878,0.05,0.0
109,1.09,0.001145,0.05,0.0
110,1.1,0.0011508,0.05,0.0
111,1.11,0.001157,0.05,0.0
112,1.12,0.0011626,0.05,0.0
113,1.13,0.001168,0.05,0.0
114,1.14,0.001173,0.05,0.0
115,1.15,0.0011782,0.05,0.0
116,1.16,0.0011832,0.05,0.0
117,1.1700000000000002,0.0011882,0.05,0.0
118,1.1800000000000002,0.0011932,0.05,0.0
119,1.19,0.0011974,0.05,0.0
120,1.2,0.0012016,0.05,0.0
121,1.21,0.001206,0.05,0.0
122,1.22,0.0012102,0.05,0.0
123,1.23,0.001214,0.05,0.0
124,1.24,0.001218,0.05,0.0
125,1.25,0.0012216,0.05,0.0
126,1.26,0.0012252,0.05,0.0
127,1.27,0.0012288,0.05,0.0
128,1.28,0.001232,0.05,0.0
129,1.29,0.0012356,0.05,0.0
130,1.3,0.0012386,0.05,0.0
131,1.31,0.0012416,0.05,0.0
132,1.32,0.001245,0.05,0.0
133,1.33,0.0012478,0.05,0.0
134,1.34,0.0012508,0.05,0.0
135,1.35,0.0012536,0.05,0.0
136,1.36,0.0012564,0.05,0.0
137,1.37,0.0012592,0.05,0.0
138,1.38,0.0012616,0.05,0.0
139,1.39,0.001264,0.05,0.0
140,1.4,0.0012672,0.05,0.0
141,1.41,0.0012692,0.05,0.0
142,1.4200000000000002,0.001272,0.05,0.0
143,1.4300000000000002,0.0012738,0.05,0.0
144,1.4400000000000002,0.0012764,0.05,0.0
145,1.4500000000000002,0.0012782,0.05,0.0
146,1.46,0.0012806,0.05,0.0
147,1.47,0.0012826,0.05,0.0
148,1.48,0.0012848,0.05,0.0
149,1.49,0.0012866,0.05,0.0
150,1.5,0.0012886,0.05,0.0
151,1.51,0.0012908,0.05,0.0
152,1.52,0.0012926,0.05,0.0
153,1.53,0.0012942,0.05,0.0
154,1.54,0.0012962,0.05,0.0
155,1.55,0.0012982,0.05,0.0
156,1.56,0.0012998,0.05,0.0
157,1.57,0.0013014,0.05,0.0
158,1.58,0.0013032,0.05,0.0
159,1.59,0.0013044,0.05,0.0
160,1.6,0.0013062,0.05,0.0
161,1.61,0.0013076,0.05,0.0
162,1.62,0.0013094,0.05,0.0
163,1.63,0.0013108,0.05,0.0
164,1.64,0.0013122,0.05,0.0
165,1.65,0.0013134,0.05,0.0
166,1.66,0.001315,0.05,0.0
167,1.6700000000000002,0.0013164,0.05,0.0
168,1.6800000000000002,0.0013178,0.05,0.0
169,1.6900000000000002,0.001319,0.05,0.0
170,1.7000000000000002,0.00132,0.05,0.0
171,1.7100000000000002,0.0013216,0.05,0.0
172,1.72,0.0013228,0.05,0.0
173,1.73,0.0013238,0.05,0.0
174,1.74,0.0013254,0.05,0.0
175,1.75,0.0013266,0.05,0.0
176,1.76,0.0013274,0.05,0.0
177,1.77,0.0013286,0.05,0.0
178,1.78,0.0013298,0.05,0.0
179,1.79,0.001331,0.05,0.0
180,1.8,0.001332,0.05,0.0
181,0.0,8.467e-11,1.8,0.0
182,0.01,5.915000000000001e-11,1.8,0.0
183,0.02,5.278e-11,1.8,0.0
184,0.03,8.071000000000001e-11,1.8,0.0
185,0.04,1.2307000000000002e-10,1.8,0.0
186,0.05,1.4833000000000002e-10,1.8,0.0
187,0.06,1.5421e-10,1.8,0.0
188,0.07,1.6681000000000002e-10,1.8,0.0
189,0.08,2.2058000000000003e-10,1.8,0.0
190,0.09,3.1800000000000004e-10,1.8,0.0
191,0.1,4.3778e-10,1.8,0.0
192,0.11,5.576800000000001e-10,1.8,0.0
193,0.12,7.062300000000001e-10,1.8,0.0
194,0.13,9.3115e-10,1.8,0.0
195,0.14,1.2566e-09,1.8,0.0
196,0.15,1.711e-09,1.8,0.0
197,0.16,2.3195e-09,1.8,0.0
198,0.17,3.1065e-09,1.8,0.0
199,0.18,4.1494e-09,1.8,0.0
200,0.19,5.5721e-09,1.8,0.0
201,0.2,7.5007e-09,1.8,0.0
202,0.21,1.01364e-08,1.8,0.0
203,0.22,1.37184e-08,1.8,0.0
204,0.23,1.85242e-08,1.8,0.0
205,0.24,2.49888e-08,1.8,0.0
206,0.25,3.3810199999999994e-08,1.8,0.0
207,0.26,4.5663e-08,1.8,0.0
208,0.27,6.172959999999999e-08,1.8,0.0
209,0.28,8.36906e-08,1.8,0.0
210,0.29,1.1318980000000001e-07,1.8,0.0
211,0.3,1.5316e-07,1.8,0.0
212,0.31,2.0758e-07,1.8,0.0
213,0.32,2.8088e-07,1.8,0.0
214,0.33,3.7986e-07,1.8,0.0
215,0.34,5.1494e-07,1.8,0.0
216,0.35,6.9622e-07,1.8,0.0
217,0.36,9.406e-07,1.8,0.0
218,0.37,1.2698e-06,1.8,0.0
219,0.38,1.7159000000000002e-06,1.8,0.0
220,0.39,2.3113e-06,1.8,0.0
221,0.4,3.1058000000000004e-06,1.8,0.0
222,0.41,4.173500000000001e-06,1.8,0.0
223,0.42,5.580700000000001e-06,1.8,0.0
224,0.43,7.434000000000002e-06,1.8,0.0
225,0.44,9.8691e-06,1.8,0.0
226,0.45,1.3062e-05,1.8,0.0
227,0.46,1.7164e-05,1.8,0.0
228,0.47,2.241e-05,1.8,0.0
229,0.48,2.9136e-05,1.8,0.0
230,0.49,3.753e-05,1.8,0.0
231,0.5,4.7996e-05,1.8,0.0
232,0.51,6.0874e-05,1.8,0.0
233,0.52,7.667e-05,1.8,0.0
234,0.53,9.5562e-05,1.8,0.0
235,0.54,0.000118,1.8,0.0
236,0.55,0.00014466,1.8,0.0
237,0.56,0.00017544,1.8,0.0
238,0.57,0.0002109,1.8,0.0
239,0.58,0.00025126,1.8,0.0
240,0.59,0.00029708,1.8,0.0
241,0.6,0.00034794,1.8,0.0
242,0.61,0.00040418,1.8,0.0
243,0.62,0.00046642,1.8,0.0
244,0.63,0.00053364,1.8,0.0
245,0.64,0.00060624,1.8,0.0
246,0.65,0.0006849,1.8,0.0
247,0.66,0.00076822,1.8,0.0
248,0.67,0.00085674,1.8,0.0
249,0.68,0.00095094,1.8,0.0
250,0.69,0.00104934,1.8,0.0
251,0.7,0.0011528,1.8,0.0
252,0.71,0.0012606,1.8,0.0
253,0.72,0.0013728,1.8,0.0
254,0.73,0.0014896,1.8,0.0
255,0.74,0.00161,1.8,0.0
256,0.75,0.0017338,1.8,0.0
257,0.76,0.001862,1.8,0.0
258,0.77,0.0019934,1.8,0.0
259,0.78,0.0021276,1.8,0.0
260,0.79,0.0022662,1.8,0.0
261,0.8,0.0024068,1.8,0.0
262,0.81,0.0025506,1.8,0.0
263,0.82,0.002698,1.8,0.0
264,0.83,0.002847,1.8,0.0
265,0.84,0.0029988,1.8,0.0
266,0.85,0.0031538,1.8,0.0
267,0.86,0.0033104,1.8,0.0
268,0.87,0.0034704,1.8,0.0
269,0.88,0.003631,1.8,0.0
270,0.89,0.003794,1.8,0.0
271,0.9,0.0039604,1.8,0.0
272,0.91,0.004127,1.8,0.0
273,0.92,0.0042956,1.8,0.0
274,0.93,0.0044676,1.8,0.0
275,0.94,0.0046398,1.8,0.0
276,0.95,0.0048134,1.8,0.0
277,0.96,0.0049902,1.8,0.0
278,0.97,0.0051668,1.8,0.0
279,0.98,0.0053452,1.8,0.0
280,0.99,0.005525,1.8,0.0
281,1.0,0.0057072,1.8,0.0
282,1.01,0.00589,1.8,0.0
283,1.02,0.0060736,1.8,0.0
284,1.03,0.0062594,1.8,0.0
285,1.04,0.0064456,1.8,0.0
286,1.05,0.006633,1.8,0.0
287,1.06,0.0068224,1.8,0.0
288,1.07,0.0070116,1.8,0.0
289,1.08,0.0072022,1.8,0.0
290,1.09,0.0073928,1.8,0.0
291,1.1,0.0075864,1.8,0.0
292,1.11,0.0077794,1.8,0.0
293,1.12,0.0079736,1.8,0.0
294,1.13,0.00817,1.8,0.0
295,1.14,0.0083656,1.8,0.0
296,1.15,0.008562,1.8,0.0
297,1.16,0.0087594,1.8,0.0
298,1.1700000000000002,0.008959,1.8,0.0
299,1.1800000000000002,0.0091576,1.8,0.0
300,1.19,0.009357,1.8,0.0
301,1.2,0.0095586,1.8,0.0
302,1.21,0.009759,1.8,0.0
303,1.22,0.0099604,1.8,0.0
304,1.23,0.0101624,1.8,0.0
305,1.24,0.0103666,1.8,0.0
306,1.25,0.01057,1.8,0.0
307,1.26,0.0107748,1.8,0.0
308,1.27,0.0109792,1.8,0.0
309,1.28,0.011184,1.8,0.0
310,1.29,0.0113902,1.8,0.0
311,1.3,0.011594,1.8,0.0
312,1.31,0.0118,1.8,0.0
313,1.32,0.01201,1.8,0.0
314,1.33,0.012216,1.8,0.0
315,1.34,0.012424,1.8,0.0
316,1.35,0.012636,1.8,0.0
317,1.36,0.01284,1.8,0.0
318,1.37,0.01305,1.8,0.0
319,1.38,0.01326,1.8,0.0
320,1.39,0.013468,1.8,0.0
321,1.4,0.013676,1.8,0.0
322,1.41,0.013886,1.8,0.0
323,1.4200000000000002,0.014096,1.8,0.0
324,1.4300000000000002,0.014308,1.8,0.0
325,1.4400000000000002,0.01452,1.8,0.0
326,1.4500000000000002,0.014734,1.8,0.0
327,1.46,0.014944,1.8,0.0
328,1.47,0.01516,1.8,0.0
329,1.48,0.015366,1.8,0.0
330,1.49,0.01558,1.8,0.0
331,1.5,0.015792,1.8,0.0
332,1.51,0.016004,1.8,0.0
333,1.52,0.01622,1.8,0.0
334,1.53,0.01643,1.8,0.0
335,1.54,0.016644,1.8,0.0
336,1.55,0.016858,1.8,0.0
337,1.56,0.017072,1.8,0.0
338,1.57,0.017284,1.8,0.0
339,1.58,0.017496,1.8,0.0
340,1.59,0.017712,1.8,0.0
341,1.6,0.017924,1.8,0.0
342,1.61,0.018138,1.8,0.0
343,1.62,0.01835,1.8,0.0
344,1.63,0.018566,1.8,0.0
345,1.64,0.018782,1.8,0.0
346,1.65,0.018994,1.8,0.0
347,1.66,0.019206,1.8,0.0
348,1.6700000000000002,0.01942,1.8,0.0
349,1.6800000000000002,0.019636,1.8,0.0
350,1.6900000000000002,0.019846,1.8,0.0
351,1.7000000000000002,0.020062,1.8,0.0
352,1.7100000000000002,0.020278,1.8,0.0
353,1.72,0.02049,1.8,0.0
354,1.73,0.020704,1.8,0.0
355,1.74,0.020916,1.8,0.0
356,1.75,0.02113,1.8,0.0
357,1.76,0.021344,1.8,0.0
358,1.77,0.021558,1.8,0.0
359,1.78,0.021772,1.8,0.0
360,1.79,0.021988,1.8,0.0
361,1.8,0.022198,1.8,0.0
