! VERSION = 6.00
BEGIN_HEADER
 ICCAP_INPUTS
  VG         V  B GROUND SMU4 0.001 LIN        1    0          3          101  0.03      
  VS         V  E GROUND SMU2 0.1 CON        0
  VB         V  C GROUND SMU3 0.1 LIN        3    0          -3         3    -1.5      
  VD         V  S GROUND SMU1 0.1 LIN        2    0.1        3          2    2.9       
 ICCAP_OUTPUTS
  IG         I  B GROUND SMU4 B
  ID         I  S GROUND SMU1 B
  IB         I  C GROUND SMU3 B
END_HEADER

BEGIN_DB
 ICCAP_VAR VS         0              
 ICCAP_VAR VB         0              
 ICCAP_VAR VD         0.1            

 #VG              IG              ID              IB             
  0               6.205e-010      6.3637e-006     9.062e-009     
  0.03            1.3967e-009     1.08052e-005    -1.2541e-008   
  0.06            -1.5955e-009    1.7733e-005     -8.756e-009    
  0.09            -1.3493e-009    2.6257e-005     6.136e-009     
  0.12            -1.2622e-009    3.6562e-005     1.0517e-008    
  0.15            -2.3441e-009    4.8218e-005     1.1104e-008    
  0.18            -1.7772e-009    6.0543e-005     1.167e-009     
  0.21            -1.4094e-009    7.3784e-005     4.098e-009     
  0.24            -1.2953e-009    8.6747e-005     8.905e-009     
  0.27            -2.5034e-009    9.9597e-005     1.0747e-008    
  0.3             -2.02e-009      0.000111931     3.77e-010      
  0.33            -1.3322e-009    0.00012447      2.989e-009     
  0.36            -2.6003e-009    0.0001361       1.0951e-008    
  0.39            1.7094e-009     0.00014683      -1.9508e-008   
  0.42            1.3019e-009     0.00015761      -8.8e-009      
  0.45            2.77e-009       0.00016796      -8.02e-009     
  0.48            2.5161e-009     0.00017842      4.9e-011       
  0.51            6.045e-010      0.00018814      1.0598e-008    
  0.54            -1.6084e-009    0.00019762      1.9543e-008    
  0.57            -1.3463e-009    0.00020662      6.074e-009     
  0.6             -1.2618e-009    0.00021539      1.0289e-008    
  0.63            -2.3463e-009    0.00022418      1.1181e-008    
  0.66            -6.666e-010     0.00023213      -1.1134e-008   
  0.69            1.6848e-009     0.00024         -1.6554e-008   
  0.72            1.2975e-009     0.00024781      -8.808e-009    
  0.75            2.781e-009      0.00025559      -8.145e-009    
  0.78            2.5116e-009     0.00026322      2.7e-011       
  0.81            6.013e-010      0.00027053      1.0408e-008    
  0.84            -1.6006e-009    0.00027772      1.9209e-008    
  0.87            -1.3547e-009    0.00028469      5.879e-009     
  0.9             -1.2675e-009    0.00029175      1.0305e-008    
  0.93            -2.3712e-009    0.00029852      1.1006e-008    
  0.96            -1.7877e-009    0.00030486      1.226e-009     
  0.99            -1.4165e-009    0.00031134      4.048e-009     
  1.02            -1.3091e-009    0.00031789      8.63e-009      
  1.05            -2.5554e-009    0.00032419      1.138e-008     
  1.08            -2.056e-009     0.00033011      5.4e-010       
  1.11            -1.533e-009     0.00033621      2.443e-009     
  1.14            -1.3452e-009    0.00034223      6.516e-009     
  1.17            -2.6454e-009    0.00034822      1.09e-008      
  1.2             1.925e-009      0.0003538       -2.0201e-008   
  1.23            1.3976e-009     0.00035946      -7.349e-009    
  1.26            2.7725e-009     0.00036499      -8.482e-009    
  1.29            2.0045e-009     0.00037059      1.0207e-008    
  1.32            9.023e-010      0.00037621      9.882e-009     
  1.35            1.2468e-009     0.00038145      9.204e-009     
  1.38            -1.8952e-009    0.00038718      1.4573e-008    
  1.41            -1.4371e-009    0.00039225      3.802e-009     
  1.44            -1.3206e-009    0.00039766      8.1e-009       
  1.47            -2.5987e-009    0.00040282      1.1475e-008    
  1.5             -2.1587e-009    0.00040773      4.44e-010      
  1.53            -1.5869e-009    0.00041277      2.358e-009     
  1.56            -1.3529e-009    0.00041778      5.702e-009     
  1.59            -1.2777e-009    0.00042282      9.938e-009     
  1.62            -2.4097e-009    0.00042774      1.132e-008     
  1.65            -1.8107e-009    0.00043234      1.118e-009     
  1.68            -1.4085e-009    0.00043713      4.047e-009     
  1.71            -1.3096e-009    0.00044198      8.471e-009     
  1.74            -2.5691e-009    0.00044667      1.1174e-008    
  1.77            -2.0969e-009    0.00045103      4.91e-010      
  1.8             -1.5392e-009    0.00045563      2.577e-009     
  1.83            -1.3381e-009    0.00046022      6.434e-009     
  1.86            -1.2649e-009    0.0004648       1.0689e-008    
  1.89            -2.3526e-009    0.00046933      1.1802e-008    
  1.92            -1.7518e-009    0.00047345      1.529e-009     
  1.95            -1.3905e-009    0.00047787      4.459e-009     
  1.98            -1.298e-009     0.00048217      8.926e-009     
  2.01            -2.5235e-009    0.00048659      1.1183e-008    
  2.04            -2.0215e-009    0.00049059      4.16e-010      
  2.07            -1.5047e-009    0.00049476      3.068e-009     
  2.1             -1.3287e-009    0.00049899      7.176e-009     
  2.13            -2.621e-009     0.00050315      1.1071e-008    
  2.16            1.8743e-009     0.0005071       -1.9797e-008   
  2.19            1.3586e-009     0.0005111       -7.955e-009    
  2.22            2.7793e-009     0.00051496      -8.282e-009    
  2.25            2.0465e-009     0.00051893      9.795e-009     
  2.28            -1.3189e-009    0.00052312      2.6797e-008    
  2.31            -2.5958e-009    0.00052693      1.1073e-008    
  2.34            -2.1911e-009    0.00053057      4.07e-010      
  2.37            -1.6187e-009    0.00053436      2.203e-009     
  2.4             -1.3556e-009    0.0005383       5.769e-009     
  2.43            -1.2765e-009    0.0005421       1.0054e-008    
  2.46            -2.4183e-009    0.0005458       1.1118e-008    
  2.49            -1.846e-009     0.00054919      9.31e-010      
  2.52            -1.4239e-009    0.00055285      4.085e-009     
  2.55            -1.3093e-009    0.00055657      8.638e-009     
  2.58            -2.567e-009     0.00056018      1.107e-008     
  2.61            -2.1109e-009    0.00056346      4.77e-010      
  2.64            -1.558e-009     0.000567        2.466e-009     
  2.67            -1.3408e-009    0.0005705       6.448e-009     
  2.7             -1.2655e-009    0.00057397      1.0735e-008    
  2.73            -2.3607e-009    0.00057748      1.1659e-008    
  2.76            -1.7716e-009    0.00058057      1.435e-009     
  2.79            -1.397e-009     0.00058397      4.459e-009     
  2.82            -1.2976e-009    0.00058731      9.125e-009     
  2.85            -2.5262e-009    0.00059065      1.0946e-008    
  2.88            -2.0266e-009    0.00059361      3.69e-010      
  2.91            -1.5083e-009    0.00059691      3.078e-009     
  2.94            -1.3313e-009    0.00060012      7.133e-009     
  2.97            -2.6195e-009    0.00060331      1.0914e-008    
  3               1.8836e-009     0.00060631      -1.9747e-008   
END_DB

BEGIN_DB
 ICCAP_VAR VS         0              
 ICCAP_VAR VB         0              
 ICCAP_VAR VD         3              

 #VG              IG              ID              IB             
  0               -2.341e-009     9.2924e-005     -6.2049e-008   
  0.03            -2.6267e-009    0.00011707      -1.1142e-007   
  0.06            -2.6352e-009    0.00014451      -1.2392e-007   
  0.09            -2.3213e-009    0.00017349      -1.401e-007    
  0.12            -1.7406e-009    0.00020463      -1.591e-007    
  0.15            -1.3904e-009    0.0002375       -1.7574e-007   
  0.18            -1.2948e-009    0.0002718       -1.9098e-007   
  0.21            -2.5112e-009    0.0003085       -2.0925e-007   
  0.24            -1.9871e-009    0.00034479      -2.391e-007    
  0.27            -1.4903e-009    0.00038309      -2.5443e-007   
  0.3             -1.3295e-009    0.00042237      -2.6725e-007   
  0.33            -2.6153e-009    0.00046352      -2.8075e-007   
  0.36            -2.2417e-009    0.00050378      -3.0699e-007   
  0.39            -1.6637e-009    0.00054581      -3.2018e-007   
  0.42            -1.3678e-009    0.00058827      -3.2999e-007   
  0.45            -1.2842e-009    0.00063143      -3.3828e-007   
  0.48            -2.4598e-009    0.00067644      -3.4857e-007   
  0.51            -1.9011e-009    0.00071996      -3.694e-007    
  0.54            -1.4451e-009    0.00076484      -3.757e-007    
  0.57            -1.3155e-009    0.00081043      -3.7959e-007   
  0.6             -2.5876e-009    0.00085636      -3.8374e-007   
  0.63            -2.1614e-009    0.00090277      -4.0096e-007   
  0.66            -1.5965e-009    0.00094972      -4.0438e-007   
  0.69            -1.3515e-009    0.00099669      -4.0488e-007   
  0.72            -2.6499e-009    0.00104416      -4.0431e-007   
  0.75            -2.379e-009     0.00109202      -4.1695e-007   
  0.78            1.7554e-009     0.0011385       -4.1785e-007   
  0.81            1.3196e-009     0.001187        -4.285e-007    
  0.84            2.788e-009      0.0012354       -4.2843e-007   
  0.87            2.5956e-009     0.0012848       -4.1945e-007   
  0.9             2.0158e-009     0.0013343       -4.1965e-007   
  0.93            1.4421e-009     0.0013832       -4.2314e-007   
  0.96            2.7517e-009     0.0014324       -4.2256e-007   
  0.99            2.7272e-009     0.001483        -4.1069e-007   
  1.02            2.3005e-009     0.0015335       -4.0832e-007   
  1.05            1.6569e-009     0.0015831       -4.0799e-007   
  1.08            1.2934e-009     0.0016331       -4.0863e-007   
  1.11            2.7877e-009     0.001683        -4.0323e-007   
  1.14            2.5322e-009     0.0017345       -3.9023e-007   
  1.17            1.9159e-009     0.0017857       -3.8645e-007   
  1.2             1.3893e-009     0.0018363       -3.8662e-007   
  1.23            1.2272e-009     0.0018866       -3.8149e-007   
  1.26            2.7007e-009     0.0019369       -3.7714e-007   
  1.29            2.1994e-009     0.0019891       -3.6122e-007   
  1.32            1.5617e-009     0.0020415       -3.5876e-007   
  1.35            1.27e-009       0.0020924       -3.5599e-007   
  1.38            2.7752e-009     0.0021429       -3.4904e-007   
  1.41            2.4606e-009     0.0021955       -3.339e-007    
  1.44            1.8169e-009     0.0022479       -3.2919e-007   
  1.47            1.3491e-009     0.0022989       -3.2813e-007   
  1.5             2.7825e-009     0.0023506       -3.2103e-007   
  1.53            2.644e-009      0.002403        -3.0526e-007   
  1.56            2.1049e-009     0.0024543       -2.994e-007    
  1.59            1.5037e-009     0.0025067       -2.9708e-007   
  1.62            1.2543e-009     0.0025585       -2.9284e-007   
  1.65            2.7557e-009     0.0026095       -2.8631e-007   
  1.68            2.3777e-009     0.0026627       -2.7076e-007   
  1.71            1.7246e-009     0.0027154       -2.6648e-007   
  1.74            1.3149e-009     0.002767        -2.6538e-007   
  1.77            2.7871e-009     0.0028187       -2.5834e-007   
  1.8             2.5901e-009     0.0028714       -2.433e-007    
  1.83            2.0044e-009     0.0029229       -2.3832e-007   
  1.86            1.4379e-009     0.0029758       -2.3691e-007   
  1.89            1.2413e-009     0.0030275       -2.3233e-007   
  1.92            2.7345e-009     0.003079        -2.271e-007    
  1.95            2.2983e-009     0.003132        -2.1223e-007   
  1.98            1.6423e-009     0.0031832       -2.0981e-007   
  2.01            1.291e-009      0.0032365       -2.0871e-007   
  2.04            2.7864e-009     0.003288        -2.0229e-007   
  2.07            2.5236e-009     0.0033408       -1.8877e-007   
  2.1             1.9046e-009     0.0033922       -1.8502e-007   
  2.13            1.3919e-009     0.003445        -1.8527e-007   
  2.16            1.2302e-009     0.0034965       -1.8076e-007   
  2.19            2.6993e-009     0.0035479       -1.7765e-007   
  2.22            2.1972e-009     0.0036004       -1.632e-007    
  2.25            1.5581e-009     0.003652        -1.6226e-007   
  2.28            1.2672e-009     0.0037046       -1.6149e-007   
  2.31            2.7697e-009     0.0037557       -1.5683e-007   
  2.34            2.4609e-009     0.0038082       -1.4423e-007   
  2.37            1.8178e-009     0.0038595       -1.4205e-007   
  2.4             1.3514e-009     0.0039123       -1.438e-007    
  2.43            2.7793e-009     0.0039634       -1.3963e-007   
  2.46            2.6405e-009     0.0040157       -1.2706e-007   
  2.49            2.1036e-009     0.0040666       -1.2431e-007   
  2.52            1.499e-009      0.0041177       -1.2536e-007   
  2.55            1.2561e-009     0.0041696       -1.2438e-007   
  2.58            2.7565e-009     0.0042204       -1.2109e-007   
  2.61            2.3718e-009     0.0042727       -1.0925e-007   
  2.64            1.7272e-009     0.0043234       -1.0881e-007   
  2.67            1.3195e-009     0.0043742       -1.1105e-007   
  2.7             2.7857e-009     0.0044261       -1.0732e-007   
  2.73            2.5862e-009     0.0044778       -9.606e-008    
  2.76            -1.7048e-009    0.0045301       -7.4995e-008   
  2.79            5.822e-010      0.0045793       -7.914e-008    
  2.82            1.6516e-009     0.0046292       -7.6787e-008   
  2.85            2.0439e-009     0.0046813       -7.4958e-008   
  2.88            2.3395e-009     0.0047322       -7.314e-008    
  2.91            2.6242e-009     0.0047825       -7.0279e-008   
  2.94            2.7919e-009     0.0048327       -7.1549e-008   
  2.97            2.6081e-009     0.0048844       -7.4438e-008   
  3               2.0311e-009     0.004934        -7.3358e-008   
END_DB

BEGIN_DB
 ICCAP_VAR VS         0              
 ICCAP_VAR VB         -1.5           
 ICCAP_VAR VD         0.1            

 #VG              IG              ID              IB             
  0               -1.4317e-009    8.5491e-008     1.0347e-008    
  0.03            3.735e-010      2.0009e-007     -9.277e-009    
  0.06            7.882e-010      4.5083e-007     1.012e-008     
  0.09            1.1351e-009     9.7397e-007     8.68e-009      
  0.12            -2.183e-009     2.165e-006      -1.0136e-008   
  0.15            -1.6077e-009    4.2019e-006     2.304e-009     
  0.18            -1.3568e-009    7.7865e-006     5.809e-009     
  0.21            1.3207e-009     1.3111e-005     4.85e-010      
  0.24            2.7933e-009     2.0538e-005     -8.213e-009    
  0.27            2.5854e-009     3.0059e-005     1.44e-010      
  0.3             5.718e-010      4.1085e-005     1.0616e-008    
  0.33            9.426e-010      5.2979e-005     9.707e-009     
  0.36            -2.066e-010     6.5695e-005     1.1869e-008    
  0.39            -1.3916e-009    7.8384e-005     2.3816e-008    
  0.42            -1.295e-009     9.0706e-005     9.26e-009      
  0.45            -2.5066e-009    0.000102739     1.0983e-008    
  0.48            2.7843e-009     0.00011433      4.51e-010      
  0.51            2.0421e-009     0.00012546      9.917e-009     
  0.54            -1.325e-009     0.00013662      2.6521e-008    
  0.57            -2.6034e-009    0.00014695      1.1072e-008    
  0.6             -2.2074e-009    0.00015674      2.45e-010      
  0.63            -1.6327e-009    0.00016665      2.087e-009     
  0.66            -1.363e-009     0.00017599      5.605e-009     
  0.69            -1.2814e-009    0.000185        9.804e-009     
  0.72            -2.4333e-009    0.00019376      1.0886e-008    
  0.75            -1.8662e-009    0.00020219      8.68e-010      
  0.78            -1.4376e-009    0.00021042      3.85e-009      
  0.81            -1.3149e-009    0.00021841      8.53e-009      
  0.84            -2.5769e-009    0.0002262       1.1093e-008    
  0.87            -2.1333e-009    0.00023361      4.78e-010      
  0.9             -1.5756e-009    0.00024125      2.333e-009     
  0.93            -1.3499e-009    0.00024848      6.26e-009      
  0.96            -2.6482e-009    0.00025562      1.0491e-008    
  0.99            2.0009e-009     0.00026229      -2.1301e-008   
  1.02            1.4207e-009     0.00026923      -6.767e-009    
  1.05            2.7617e-009     0.00027578      -8.198e-009    
  1.08            1.977e-009      0.00028238      1.0389e-008    
  1.11            8.67e-010       0.0002888       1.009e-008     
  1.14            1.2179e-009     0.00029494      8.716e-009     
  1.17            -1.3012e-009    0.0003017       2.6739e-008    
  1.2             -2.5164e-009    0.00030782      1.1076e-008    
  1.23            -1.9863e-009    0.0003136       3.32e-010      
  1.26            -1.496e-009     0.00031955      3.15e-009      
  1.29            -1.3303e-009    0.00032545      7.418e-009     
  1.32            -2.6169e-009    0.00033129      1.1181e-008    
  1.35            1.8434e-009     0.00033673      -1.9168e-008   
  1.38            1.3541e-009     0.00034228      -8.173e-009    
  1.41            2.787e-009      0.00034774      -8.304e-009    
  1.44            -1.8549e-009    0.0003536       1.6011e-008    
  1.47            -1.4229e-009    0.00035885      4.297e-009     
  1.5             -1.3109e-009    0.00036409      8.576e-009     
  1.53            -2.5629e-009    0.00036944      1.0959e-008    
  1.56            -2.0964e-009    0.00037439      4.86e-010      
  1.59            -1.5526e-009    0.00037963      2.59e-009      
  1.62            -1.3445e-009    0.00038478      6.554e-009     
  1.65            -2.6431e-009    0.00038974      1.0526e-008    
  1.68            1.7675e-009     0.00039447      -1.8682e-008   
  1.71            1.3253e-009     0.00039941      -8.569e-009    
  1.74            2.7937e-009     0.00040421      -8.405e-009    
  1.77            2.6073e-009     0.00040914      1.59e-010      
  1.8             5.462e-010      0.00041378      1.0662e-008    
  1.83            -1.6603e-009    0.00041853      2.0789e-008    
  1.86            -1.3649e-009    0.00042322      5.449e-009     
  1.89            -1.2847e-009    0.0004278       9.598e-009     
  1.92            -2.4476e-009    0.00043234      1.1082e-008    
  1.95            -1.8769e-009    0.00043666      7.49e-010      
  1.98            -1.4415e-009    0.00044104      3.901e-009     
  2.01            -1.3189e-009    0.00044558      8.296e-009     
  2.04            -2.58e-009      0.00044995      1.1302e-008    
  2.07            -2.1508e-009    0.00045403      3.87e-010      
  2.1             -1.5918e-009    0.00045834      2.407e-009     
  2.13            -1.3544e-009    0.00046269      5.973e-009     
  2.16            -2.6492e-009    0.00046686      1.032e-008     
  2.19            2.02e-009       0.00047085      -2.1708e-008   
  2.22            1.4324e-009     0.00047489      -6.639e-009    
  2.25            2.7586e-009     0.00047886      -8.451e-009    
  2.28            1.9693e-009     0.00048292      1.0327e-008    
  2.31            8.593e-010      0.00048691      1.0168e-008    
  2.34            1.2098e-009     0.00049076      8.653e-009     
  2.37            -1.9796e-009    0.00049495      1.462e-008     
  2.4             -1.4783e-009    0.00049868      3.218e-009     
  2.43            -1.329e-009     0.00050258      7.688e-009     
  2.46            -2.6121e-009    0.00050633      1.1242e-008    
  2.49            1.814e-009      0.00050988      -1.8891e-008   
