! VERSION = 6.00
BEGIN_HEADER
 ICCAP_INPUTS
  VG         V  B GROUND SMU4 0.001 LIN        2    0          3          6    0.6       
  VS         V  E GROUND SMU3 0.1 CON        0
  VD         V  S GROUND SMU2 0.1 LIN        1    0          3          61   0.05      
  VB         V  C GROUND SMU1 0.1 LIN        3    0          -1.5       2    -1.5      
 ICCAP_OUTPUTS
  ID         I  S GROUND SMU2 B
  IB         I  C GROUND SMU1 B
  IG         I  B GROUND SMU4 B
END_HEADER

BEGIN_DB
 ICCAP_VAR VG         0              
 ICCAP_VAR VS         0              
 ICCAP_VAR VB         0              

 #VD              ID              IB              IG             
  0               1.2987e-007     1.694e-009      -1.136e-010    
  0.05            8.1978e-006     1.5828e-008     2.4357e-009    
  0.1             1.1799e-005     1.0604e-008     -9.34e-011     
  0.15            1.4211e-005     -1.5005e-008    2.276e-009     
  0.2             1.638e-005      -1.614e-008     2.0409e-009    
  0.25            1.8465e-005     -1.6874e-008    1.7837e-009    
  0.3             2.0557e-005     -1.7e-008       1.5333e-009    
  0.35            2.2656e-005     -1.8201e-008    2.7228e-009    
  0.4             2.4729e-005     -8.972e-009     2.679e-009     
  0.45            2.6915e-005     -1.1512e-008    2.5857e-009    
  0.5             2.9255e-005     -1.561e-008     1.6186e-009    
  0.55            3.1403e-005     -1.7756e-008    1.4053e-009    
  0.6             3.3623e-005     -1.9044e-008    2.6957e-009    
  0.65            3.5817e-005     -1.0383e-008    2.6249e-009    
  0.7             3.8156e-005     -1.3403e-008    2.5014e-009    
  0.75            4.0572e-005     -1.3449e-008    1.4783e-009    
  0.8             4.2832e-005     -1.8367e-008    2.7142e-009    
  0.85            4.5102e-005     -9.689e-009     2.6606e-009    
  0.9             4.7734e-005     -1.8502e-008    1.8189e-009    
  0.95            4.9949e-005     -1.6814e-008    1.5628e-009    
  1               5.2319e-005     -1.7915e-008    2.7286e-009    
  1.05            5.4625e-005     -8.777e-009     2.6875e-009    
  1.1             5.707e-005      -1.1188e-008    2.6006e-009    
  1.15            5.9752e-005     -1.6308e-008    1.6563e-009    
  1.2             6.2113e-005     -1.7579e-008    1.4423e-009    
  1.25            6.4451e-005     -1.8892e-008    2.7038e-009    
  1.3             6.6811e-005     -1.0052e-008    2.6355e-009    
  1.35            6.973e-005      -1.2605e-008    2.5259e-009    
  1.4             7.1933e-005     -1.401e-008     1.5177e-009    
  1.45            7.4311e-005     -1.8265e-008    2.7222e-009    
  1.5             7.6663e-005     -9.288e-009     2.6737e-009    
  1.55            7.9166e-005     -1.2028e-008    2.5764e-009    
  1.6             8.187e-005      -1.5539e-008    1.6082e-009    
  1.65            8.4195e-005     -1.7948e-008    1.3988e-009    
  1.7             8.6639e-005     -1.9535e-008    2.6939e-009    
  1.75            8.901e-005      -1.1155e-008    2.6161e-009    
  1.8             9.1814e-005     -1.7521e-008    1.7043e-009    
  1.85            9.4085e-005     -1.8184e-008    1.4673e-009    
  1.9             9.657e-005      -1.9894e-008    2.7155e-009    
  1.95            9.9637e-005     -2.3025e-008    2.0732e-009    
  2               0.000101525     -1.0792e-008    9.15e-011      
  2.05            0.000104904     -1.285e-008     -8.24e-010     
  2.1             0.000108192     -1.2506e-008    -1.5926e-009   
  2.15            0.000110332     1.829e-009      -2.6196e-009   
  2.2             0.000112823     1.188e-009      -2.5943e-009   
  2.25            0.00011467      -6.627e-009     -1.2367e-009   
  2.3             0.0001177       1.577e-009      -2.1819e-009   
  2.35            0.00012018      1.88e-009       -1.8015e-009   
  2.4             0.00012199      -2.0512e-008    -2.6142e-009   
  2.45            0.00012498      3.656e-009      -2.1124e-009   
  2.5             0.00012746      -1.6843e-008    -1.123e-010    
  2.55            0.00012884      -2.9401e-008    2.7328e-009    
  2.6             0.00013108      -5.8454e-008    2.0265e-009    
  2.65            0.00013312      -5.3003e-008    -3.79e-011     
  2.7             0.00013636      -5.3906e-008    -2.5086e-009   
  2.75            0.00013972      -4.2382e-008    -1.617e-009    
  2.8             0.00014184      -6.5114e-008    1.973e-010     
  2.85            0.00014351      -9.6224e-008    2.7113e-009    
  2.9             0.00014605      -1.2065e-007    -2.147e-010    
  2.95            0.00014808      -1.1345e-007    2.7379e-009    
  3               0.00015042      -1.5928e-007    2.2235e-009    
END_DB

BEGIN_DB
 ICCAP_VAR VG         0.6            
 ICCAP_VAR VS         0              
 ICCAP_VAR VB         0              

 #VD              ID              IB              IG             
  0               2.3446e-006     -1.9398e-008    -9.48e-010     
  0.05            0.00016632      1.8856e-008     1.5759e-009    
  0.1             0.00031713      -7.74e-009      2.7359e-009    
  0.15            0.00045089      -1.0369e-008    2.6393e-009    
  0.2             0.00056672      -1.4234e-008    1.531e-009     
  0.25            0.00066144      -1.9476e-008    2.6813e-009    
  0.3             0.00073676      -1.3409e-008    2.4766e-009    
  0.35            0.00079491      -1.6084e-008    2.0938e-009    
  0.4             0.00083892      -1.6975e-008    1.6066e-009    
  0.45            0.00087258      -1.9063e-008    2.7004e-009    
  0.5             0.00089916      -1.274e-008     2.5272e-009    
  0.55            0.00092166      -1.1376e-008    2.6864e-009    
  0.6             0.00094146      -1.6604e-008    1.6972e-009    
  0.65            0.00095779      -1.8584e-008    2.7185e-009    
  0.7             0.00097298      -1.2049e-008    2.5713e-009    
  0.75            0.00098772      -1.2197e-008    2.7044e-009    
  0.8             0.00100026      -1.2396e-008    2.5364e-009    
  0.85            0.00101305      -1.1515e-008    2.6879e-009    
  0.9             0.00102531      -1.6782e-008    1.7062e-009    
  0.95            0.00103587      -1.857e-008     2.7147e-009    
  1               0.00104631      -1.1922e-008    2.5797e-009    
  1.05            0.00105737      -1.2515e-008    2.7063e-009    
  1.1             0.00106644      -1.2377e-008    2.5463e-009    
  1.15            0.00107635      -1.1797e-008    2.6942e-009    
  1.2             0.00108526      -1.2927e-008    2.5075e-009    
  1.25            0.00109442      -1.1047e-008    2.6748e-009    
  1.3             0.00110379      -1.6159e-008    1.6569e-009    
  1.35            0.00111162      -1.8892e-008    2.7118e-009    
  1.4             0.00111959      -1.2336e-008    2.5522e-009    
  1.45            0.00112821      -1.1934e-008    2.6995e-009    
  1.5             0.00113536      -1.303e-008     2.5178e-009    
  1.55            0.0011447       -1.1966e-008    9.109e-010     
  1.6             0.0011505       -1.7154e-008    1.7629e-009    
  1.65            0.0011578       -1.8462e-008    2.7278e-009    
  1.7             0.0011646       -1.1288e-008    2.6005e-009    
  1.75            0.0011725       -1.3649e-008    2.7118e-009    
  1.8             0.0011793       -1.9578e-008    1.8507e-009    
  1.85            0.0011855       -1.9029e-008    1.4111e-009    
  1.9             0.0011919       -2.2255e-008    2.6319e-009    
  1.95            0.0011987       -1.7386e-008    1.5389e-009    
  2               0.0012054       -1.3879e-008    -3.311e-010    
  2.05            0.0012143       -1.441e-008     -1.276e-009    
  2.1             0.0012186       -1.7254e-008    -2.0432e-009   
  2.15            0.001226        2.92e-010       -2.0903e-009   
  2.2             0.0012314       -9.609e-009     -1.026e-010    
  2.25            0.0012356       -2.354e-008     2.7264e-009    
  2.3             0.0012406       -5.2929e-008    1.989e-009     
  2.35            0.0012455       -5.0775e-008    -5.48e-011     
  2.4             0.0012531       -5.5435e-008    -2.4957e-009   
  2.45            0.0012598       -5.0754e-008    -1.5794e-009   
  2.5             0.0012646       -7.9602e-008    2.191e-010     
  2.55            0.0012686       -1.1371e-007    -1.219e-009    
  2.6             0.0012733       -1.2771e-007    9.066e-010     
  2.65            0.0012774       -1.7317e-007    2.5004e-009    
  2.7             0.0012826       -2.2194e-007    1.3922e-009    
  2.75            0.0012886       -2.5613e-007    -4.422e-010    
  2.8             0.0012944       -2.9507e-007    -2.1696e-009   
  2.85            0.0013005       -3.4318e-007    -2.4221e-009   
  2.9             0.0013057       -4.0327e-007    -1.4317e-009   
  2.95            0.0013097       -4.8474e-007    3.384e-010     
  3               0.0013131       -5.8061e-007    2.4269e-009    
END_DB

BEGIN_DB
 ICCAP_VAR VG         1.2            
 ICCAP_VAR VS         0              
 ICCAP_VAR VB         0              

 #VD              ID              IB              IG             
  0               3.5195e-006     7.737e-009      1.2648e-009    
  0.05            0.0002534       -1.3594e-008    -9.58e-011     
  0.1             0.00049411      -1.6124e-008    2.0785e-009    
  0.15            0.00072397      -1.6829e-008    1.5809e-009    
  0.2             0.00094173      -1.8944e-008    2.698e-009     
  0.25            0.0011457       9.997e-009      -1.7091e-009   
  0.3             0.0013327       9.804e-009      -2.5547e-009   
  0.35            0.0015027       1.1399e-008     -2.4045e-009   
  0.4             0.0016554       1.4573e-008     -1.3999e-009   
  0.45            0.0017894       1.0911e-008     -2.4675e-009   
  0.5             0.001906        1.708e-008      -1.4966e-009   
  0.55            0.0020059       1.0399e-008     -2.5163e-009   
  0.6             0.0020897       1.2162e-008     -2.3171e-009   
  0.65            0.0021595       1.4614e-008     -1.9672e-009   
  0.7             0.0022175       1.6476e-008     -1.5609e-009   
  0.75            0.0022654       1.9135e-008     -1.2997e-009   
  0.8             0.0023056       1.1811e-008     -2.3666e-009   
  0.85            0.0023394       1.4099e-008     -2.0384e-009   
  0.9             0.0023687       1.6282e-008     -1.6319e-009   
  0.95            0.0023945       1.8614e-008     -1.3297e-009   
  1               0.0024177       1.1569e-008     -2.4059e-009   
  1.05            0.0024378       1.4934e-008     -1.4112e-009   
  1.1             0.0024569       1.1118e-008     -2.4745e-009   
  1.15            0.0024743       1.7391e-008     -1.5026e-009   
  1.2             0.0024903       1.9768e-008     -1.2821e-009   
  1.25            0.0025054       1.1775e-008     -2.3237e-009   
  1.3             0.0025196       1.4547e-008     -1.9835e-009   
  1.35            0.0025332       1.6579e-008     -1.5778e-009   
  1.4             0.002546        1.9241e-008     -1.3092e-009   
  1.45            0.0025585       1.1515e-008     -2.372e-009    
  1.5             0.0025698       1.3779e-008     -1.373e-009    
  1.55            0.0025813       1.1053e-008     -2.4468e-009   
  1.6             0.0025918       1.631e-008      -1.462e-009    
  1.65            0.0026028       1.069e-008      -2.5045e-009   
  1.7             0.0026127       1.8894e-008     -1.5792e-009   
  1.75            0.0026222       1.9125e-008     -1.3066e-009   
  1.8             0.0026317       1.1367e-008     -2.3667e-009   
  1.85            0.0026408       1.3515e-008     -1.3691e-009   
  1.9             0.0026497       1.0436e-008     -2.4427e-009   
  1.95            0.0026582       1.2349e-008     -2.1749e-009   
  2               0.0026662       1.4555e-008     -1.7845e-009   
  2.05            0.0026742       1.5499e-008     -1.4209e-009   
  2.1             0.0026826       7.85e-009       -2.4779e-009   
  2.15            0.0026898       7.609e-009      -2.2387e-009   
  2.2             0.0026972       8.044e-009      -1.8605e-009   
  2.25            0.0027045       6.903e-009      -1.4799e-009   
  2.3             0.0027101       -1.6206e-008    -2.5564e-009   
  2.35            0.0027186       2.412e-009      -1.7749e-009   
  2.4             0.0027247       -1.99e-008      9.21e-011      
  2.45            0.0027298       -3.8186e-008    2.656e-009     
  2.5             0.0027355       -6.5909e-008    1.6031e-009    
  2.55            0.002742        -7.5537e-008    -2.832e-010    
  2.6             0.0027497       -8.5825e-008    -2.3329e-009   
  2.65            0.0027553       -1.0601e-007    -2.2206e-009   
  2.7             0.0027629       -1.3048e-007    -1.2858e-009   
  2.75            0.0027679       -1.6775e-007    5.291e-010     
  2.8             0.002772        -2.2282e-007    2.1467e-009    
  2.85            0.002777        -2.8123e-007    3.6e-011       
  2.9             0.0027849       -3.3606e-007    -2.5495e-009   
  2.95            0.0027919       -3.8568e-007    -1.7344e-009   
  3               0.0027965       -4.8423e-007    1.188e-010     
END_DB

BEGIN_DB
 ICCAP_VAR VG         1.8            
 ICCAP_VAR VS         0              
 ICCAP_VAR VB         0              

 #VD              ID              IB              IG             
  0               4.3606e-006     -6.528e-009     -1.9358e-009   
  0.05            0.0003131       1.7015e-008     6.365e-010     
  0.1             0.00061506      1.0404e-008     -2.5047e-009   
  0.15            0.00090819      1.2056e-008     -2.2905e-009   
  0.2             0.001192        -1.7248e-008    -1.2857e-009   
  0.25            0.0014639       1.2034e-008     -2.3244e-009   
  0.3             0.0017231       1.4315e-008     -1.9873e-009   
  0.35            0.0019685       1.653e-008      -1.5874e-009   
  0.4             0.0021994       1.9207e-008     -1.3146e-009   
  0.45            0.0024144       1.1505e-008     -2.3795e-009   
  0.5             0.0026133       1.4047e-008     -1.3819e-009   
  0.55            0.0027955       1.111e-008      -2.4512e-009   
  0.6             0.0029616       1.6501e-008     -1.4747e-009   
  0.65            0.003111        2.0325e-008     -1.2707e-009   
  0.7             0.0032445       1.192e-008      -2.2912e-009   
  0.75            0.0033621       1.4614e-008     -1.9375e-009   
  0.8             0.0034662       1.6704e-008     -1.5426e-009   
  0.85            0.0035573       1.9651e-008     -1.2953e-009   
  0.9             0.0036361       1.1836e-008     -2.3516e-009   
  0.95            0.003704        1.3194e-008     -1.3551e-009   
  1               0.003763        1.1294e-008     -2.4327e-009   
  1.05            0.0038139       1.548e-008      -1.4414e-009   
  1.1             0.0038578       1.0587e-008     -2.4955e-009   
  1.15            0.0038964       1.8155e-008     -1.5504e-009   
  1.2             0.0039297       1.9566e-008     -1.2991e-009   
  1.25            0.0039599       1.1874e-008     -2.3532e-009   
  1.3             0.0039865       1.4017e-008     -2.028e-009    
  1.35            0.0040107       1.656e-008      -1.6248e-009   
  1.4             0.0040324       1.8922e-008     -1.3343e-009   
  1.45            0.004053        1.1191e-008     -2.403e-009    
  1.5             0.0040718       1.4707e-008     -1.411e-009    
  1.55            0.0040891       1.0989e-008     -2.4719e-009   
  1.6             0.0041055       1.7184e-008     -1.5055e-009   
  1.65            0.0041203       2.0021e-008     -1.2828e-009   
  1.7             0.0041348       1.2074e-008     -2.3238e-009   
  1.75            0.0041482       1.4423e-008     -1.9819e-009   
  1.8             0.0041613       1.6597e-008     -1.5815e-009   
  1.85            0.0041731       1.9328e-008     -1.3129e-009   
  1.9             0.0041852       1.1334e-008     -2.3736e-009   
  1.95            0.0041965       1.3621e-008     -1.3734e-009   
  2               0.004207        1.0948e-008     -2.4504e-009   
  2.05            0.0042172       1.5722e-008     -1.4687e-009   
  2.1             0.0042273       1.01e-008       -2.5089e-009   
  2.15            0.0042363       1.1018e-008     -2.2841e-009   
  2.2             0.0042454       1.2935e-008     -1.9254e-009   
  2.25            0.0042539       1.3987e-008     -1.5326e-009   
  2.3             0.0042628       6.096e-009      -2.5349e-009   
  2.35            0.0042709       5.504e-009      -2.3382e-009   
  2.4             0.0042785       4.995e-009      -2.003e-009    
  2.45            0.0042858       3.549e-009      -1.6024e-009   
  2.5             0.0042927       -9.728e-009     1.904e-010     
  2.55            0.0042985       -2.6099e-008    2.5743e-009    
  2.6             0.0043042       -4.7077e-008    2.7166e-009    
  2.65            0.0043112       -6.4703e-008    1.8118e-009    
  2.7             0.0043174       -7.0259e-008    -1.453e-010    
  2.75            0.0043258       -8.0795e-008    -2.4428e-009   
  2.8             0.0043317       -1.2202e-007    -5.853e-010    
  2.85            0.0043369       -1.2712e-007    2.6004e-009    
  2.9             0.0043415       -1.8967e-007    2.6986e-009    
  2.95            0.0043482       -2.3123e-007    1.7154e-009    
  3               0.0043537       -2.766e-007     -1.996e-010    
END_DB

BEGIN_DB
 ICCAP_VAR VG         2.4            
 ICCAP_VAR VS         0              
 ICCAP_VAR VB         0              

 #VD              ID              IB              IG             
  0               4.9521e-006     1.4469e-008     1.0979e-009    
  0.05            0.00035921      -1.2372e-008    -1.7683e-009   
  0.1             0.00070788      1.0333e-008     -2.5202e-009   
  0.15            0.00104945      1.9905e-008     -1.6165e-009   
  0.2             0.0013828       6.161e-009      2.7455e-009    
  0.25            0.0017056       -8.102e-009     2.7007e-009    
  0.3             0.0020181       -1.2718e-008    2.5245e-009    
  0.35            0.0023192       -1.132e-008     2.6864e-009    
  0.4             0.0026069       -1.6618e-008    1.6796e-009    
  0.45            0.0028803       -1.8542e-008    2.719e-009     
  0.5             0.0031403       -1.8984e-008    1.8493e-009    
  0.55            0.0033845       -1.769e-008     1.3981e-009    
  0.6             0.0036139       -1.0274e-008    2.6351e-009    
  0.65            0.0038283       -1.4032e-008    1.5257e-009    
  0.7             0.0040261       -8.588e-009     2.6821e-009    
  0.75            0.0042096       -1.6461e-008    1.668e-009     
  0.8             0.0043767       -1.8671e-008    2.7183e-009    
  0.85            0.0045298       -1.2088e-008    2.5643e-009    
  0.9             0.0046691       -1.2021e-008    2.6999e-009    
  0.95            0.0047938       -1.2712e-008    2.5281e-009    
  1               0.0049072       -1.1316e-008    2.6887e-009    
  1.05            0.0050084       -1.6707e-008    1.6825e-009    
  1.1             0.0050975       -1.8518e-008    2.7161e-009    
  1.15            0.0051768       -1.19e-008      2.5662e-009    
  1.2             0.0052476       -1.2207e-008    2.7035e-009    
  1.25            0.0053094       -1.2504e-008    2.5322e-009    
  1.3             0.005365        -1.1472e-008    2.6901e-009    
  1.35            0.0054143       -1.6846e-008    1.7043e-009    
  1.4             0.0054569       -1.8544e-008    2.7199e-009    
  1.45            0.0054948       -1.1908e-008    2.5777e-009    
  1.5             0.0055304       -1.2481e-008    2.707e-009     
  1.55            0.0055614       -1.8061e-008    1.7872e-009    
  1.6             0.0055886       -1.7948e-008    1.3658e-009    
  1.65            0.0056138       -1.0572e-008    2.6172e-009    
  1.7             0.0056376       -1.3489e-008    2.7198e-009    
  1.75            0.0056581       -1.1511e-008    2.5843e-009    
