! VERSION = 6.00
BEGIN_HEADER
 ICCAP_INPUTS
  VG         V  B GROUND SMU4 0.001 LIN        2    0          3          6    0.6       
  VS         V  E GROUND SMU2 0.1 CON        0
  VD         V  S GROUND SMU1 0.1 LIN        1    0          3          101  0.03      
  VB         V  C GROUND SMU3 0.1 LIN        3    0          -1.5       2    -1.5      
 ICCAP_OUTPUTS
  ID         I  S GROUND SMU1 B
  IB         I  C GROUND SMU3 B
  IG         I  B GROUND SMU4 B
END_HEADER

BEGIN_DB
 ICCAP_VAR VG         0              
 ICCAP_VAR VS         0              
 ICCAP_VAR VB         0              

 #VD              ID              IB              IG             
  0               6.052e-009      9.387e-009      1.2066e-009    
  0.03            2.0673e-007     -1.9049e-008    1.2226e-009    
  0.06            3.2716e-007     -1.0367e-008    2.612e-009     
  0.09            4.0336e-007     -1.0379e-008    -1.173e-010    
  0.12            4.6801e-007     1.4141e-008     -1.9238e-009   
  0.15            5.0156e-007     8.569e-009      1.9773e-009    
  0.18            5.4191e-007     -1.9349e-008    2.732e-009     
  0.21            5.7764e-007     -2.3374e-008    2.6346e-009    
  0.24            6.1361e-007     -1.0463e-008    -1.028e-010    
  0.27            6.6299e-007     1.3984e-008     -1.9562e-009   
  0.3             6.8421e-007     8.446e-009      1.9662e-009    
  0.33            7.1618e-007     -1.9045e-008    1.4967e-009    
  0.36            7.5213e-007     -2.4064e-008    2.5336e-009    
  0.39            7.8742e-007     -2.3377e-008    2.1719e-009    
  0.42            8.2062e-007     -1.7426e-008    1.7269e-009    
  0.45            8.6081e-007     -9.77e-009      -8.364e-010    
  0.48            9.0331e-007     7.979e-009      -2.586e-009    
  0.51            9.407e-007      1.9853e-008     -1.4072e-009   
  0.54            9.7736e-007     2.5419e-008     -2.3247e-009   
  0.57            1.01053e-006    1.5425e-008     -1.7735e-009   
  0.6             1.03301e-006    9.556e-009      6.355e-010     
  0.63            1.06138e-006    -2.1149e-008    2.7087e-009    
  0.66            1.09483e-006    -2.4084e-008    2.5379e-009    
  0.69            1.1361e-006     -1.5118e-008    -2.1624e-009   
  0.72            1.1855e-006     2.1819e-008     -1.3311e-009   
  0.75            1.2206e-006     1.1464e-008     -2.3401e-009   
  0.78            1.2583e-006     2.5406e-008     -2.3078e-009   
  0.81            1.2896e-006     2.578e-008      -2.2749e-009   
  0.84            1.3265e-006     2.5926e-008     -2.2443e-009   
  0.87            1.3615e-006     2.6099e-008     -2.2125e-009   
  0.9             1.3942e-006     2.6128e-008     -2.1754e-009   
  0.93            1.434e-006      2.6109e-008     -2.1372e-009   
  0.96            1.4617e-006     2.5982e-008     -2.1033e-009   
  0.99            1.4968e-006     1.4288e-008     -1.8794e-009   
  1.02            1.528e-006      1.641e-008      -1.6635e-009   
  1.05            1.5385e-006     8.583e-009      1.916e-009     
  1.08            1.5707e-006     -1.097e-008     2.029e-010     
  1.11            1.6295e-006     1.1074e-008     -2.5654e-009   
  1.14            1.6617e-006     1.3586e-008     -2.4931e-009   
  1.17            1.7006e-006     1.1325e-008     -2.3613e-009   
  1.2             1.7319e-006     2.5489e-008     -2.3309e-009   
  1.23            1.7652e-006     2.5614e-008     -2.2991e-009   
  1.26            1.7964e-006     2.5716e-008     -2.2652e-009   
  1.29            1.8285e-006     2.5977e-008     -2.2337e-009   
  1.32            1.8607e-006     2.6229e-008     -2.2008e-009   
  1.35            1.893e-006      2.6215e-008     -2.1721e-009   
  1.38            1.9262e-006     2.6136e-008     -2.1331e-009   
  1.41            1.9631e-006     2.6103e-008     -2.0957e-009   
  1.44            1.9944e-006     1.4258e-008     -1.877e-009    
  1.47            2.0232e-006     1.643e-008      -1.662e-009    
  1.5             2.0219e-006     8.591e-009      1.9071e-009    
  1.53            2.055e-006      -1.0966e-008    2.058e-010     
  1.56            2.1169e-006     1.0977e-008     -2.5627e-009   
  1.59            2.1484e-006     1.3497e-008     -2.4966e-009   
  1.62            2.1839e-006     1.1344e-008     -2.3713e-009   
  1.65            2.2152e-006     2.5512e-008     -2.339e-009    
  1.68            2.2458e-006     2.5701e-008     -2.3032e-009   
  1.71            2.2741e-006     2.5813e-008     -2.2716e-009   
  1.74            2.3009e-006     2.6082e-008     -2.2384e-009   
  1.77            2.3386e-006     2.6173e-008     -2.2047e-009   
  1.8             2.3659e-006     2.6314e-008     -2.1649e-009   
  1.83            2.3903e-006     1.0015e-008     1.264e-010     
  1.86            2.3872e-006     -1.3321e-008    2.4646e-009    
  1.89            2.4197e-006     -2.4718e-008    2.4335e-009    
  1.92            2.4503e-006     -2.4714e-008    2.3985e-009    
  1.95            2.4833e-006     -2.4711e-008    2.3623e-009    
  1.98            2.5117e-006     -1.053e-008     -1.066e-010    
  2.01            2.5813e-006     1.1802e-008     -2.2808e-009   
  2.04            2.6134e-006     2.5971e-008     -2.2496e-009   
  2.07            2.6403e-006     2.6134e-008     -2.2134e-009   
  2.1             2.6608e-006     9.921e-009      9.25e-011      
  2.13            2.6553e-006     -1.2694e-008    2.5011e-009    
  2.16            2.6957e-006     -2.4565e-008    2.466e-009     
  2.19            2.7233e-006     -2.4727e-008    2.4385e-009    
  2.22            2.7537e-006     -1.0594e-008    -5.27e-011     
  2.25            2.8218e-006     1.1382e-008     -2.3542e-009   
  2.28            2.85e-006       2.5468e-008     -2.3234e-009   
  2.31            2.8828e-006     2.5484e-008     -2.2909e-009   
  2.34            2.9135e-006     1.2661e-008     -2.0907e-009   
  2.37            2.9453e-006     1.4048e-008     -1.8762e-009   
  2.4             2.9695e-006     1.627e-008      -1.6519e-009   
  2.43            2.9586e-006     7.996e-009      1.9258e-009    
  2.46            2.9899e-006     -1.1466e-008    2.008e-010     
  2.49            3.0539e-006     1.0726e-008     -2.5652e-009   
  2.52            3.0778e-006     1.2915e-008     -2.4896e-009   
  2.55            3.1203e-006     1.0672e-008     -2.3634e-009   
  2.58            3.1478e-006     1.1833e-008     -2.1825e-009   
  2.61            3.1728e-006     1.2918e-008     -1.9648e-009   
  2.64            3.1968e-006     1.4736e-008     -1.7379e-009   
  2.67            3.2296e-006     1.6777e-008     -1.5465e-009   
  2.7             3.2225e-006     7.037e-009      2.0023e-009    
  2.73            3.2465e-006     -1.1787e-008    1.269e-010     
  2.76            3.3168e-006     1.0102e-008     -2.5222e-009   
  2.79            3.3476e-006     9.746e-009      -2.4158e-009   
  2.82            3.3783e-006     1.012e-008      -2.2501e-009   
  2.85            3.4052e-006     1.1304e-008     -2.0466e-009   
  2.88            3.4268e-006     1.2521e-008     -1.8207e-009   
  2.91            3.4574e-006     1.469e-008      -1.6156e-009   
  2.94            3.4506e-006     6.027e-009      1.9507e-009    
  2.97            3.4723e-006     -1.3587e-008    1.768e-010     
  3               3.5397e-006     8.028e-009      -2.5484e-009   
END_DB

BEGIN_DB
 ICCAP_VAR VG         0.6            
 ICCAP_VAR VS         0              
 ICCAP_VAR VB         0              

 #VD              ID              IB              IG             
  0               5.6513e-008     -1.4505e-008    2.6299e-009    
  0.03            2.8064e-006     2.5381e-008     2.7235e-009    
  0.06            5.4119e-006     -1.5935e-008    1.6215e-009    
  0.09            7.8807e-006     -1.017e-008     -6.675e-010    
  0.12            1.01959e-005    1.7575e-008     -1.6221e-009   
  0.15            1.2313e-005     1.6384e-008     -7.857e-010    
  0.18            1.4314e-005     2.5222e-008     -2.3021e-009   
  0.21            1.6035e-005     8.768e-009      1.9601e-009    
  0.24            1.7575e-005     -2.2425e-008    2.6571e-009    
  0.27            1.8936e-005     -2.1666e-008    2.0501e-009    
  0.3             2.0106e-005     -1.1596e-008    2.342e-010     
  0.33            2.1195e-005     1.2781e-008     -2.1698e-009   
  0.36            2.2047e-005     2.0754e-008     -1.3769e-009   
  0.39            2.2783e-005     1.6125e-008     -1.7397e-009   
  0.42            2.3407e-005     2.4735e-008     -2.3639e-009   
  0.45            2.3883e-005     8.946e-009      1.9082e-009    
  0.48            2.4337e-005     -9.072e-009     2.6831e-009    
  0.51            2.4764e-005     -2.2624e-008    2.136e-009     
  0.54            2.5161e-005     -1.0045e-008    -8.381e-010    
  0.57            2.5521e-005     2.5629e-008     -2.2369e-009   
  0.6             2.5768e-005     8.743e-009      2.0093e-009    
  0.63            2.6036e-005     -2.3061e-008    2.6185e-009    
  0.66            2.6299e-005     -1.8085e-008    1.7591e-009    
  0.69            2.6547e-005     -2.3999e-008    2.4499e-009    
  0.72            2.6788e-005     -1.6571e-008    1.6687e-009    
  0.75            2.7e-005        -2.4127e-008    2.3841e-009    
  0.78            2.7241e-005     -1.0124e-008    -6.553e-010    
  0.81            2.7495e-005     8.871e-009      -2.5996e-009   
  0.84            2.7695e-005     2.4448e-008     -2.3967e-009   
  0.87            2.7878e-005     1.8131e-008     -1.558e-009    
  0.9             2.807e-005      2.5726e-008     -2.1985e-009   
  0.93            2.8249e-005     2.0434e-008     -1.3897e-009   
  0.96            2.8428e-005     1.5893e-008     -1.7685e-009   
  0.99            2.8585e-005     2.4614e-008     -2.3775e-009   
  1.02            2.874e-005      1.8291e-008     -1.542e-009    
  1.05            2.8829e-005     8.178e-009      1.0251e-009    
  1.08            2.897e-005      -1.0556e-008    2.6041e-009    
  1.11            2.9141e-005     -1.8097e-008    1.7208e-009    
  1.14            2.9276e-005     -2.4118e-008    2.4256e-009    
  1.17            2.9433e-005     -1.6196e-008    1.6447e-009    
  1.2             2.964e-005      -8.908e-009     -1.0841e-009   
  1.23            2.98e-005       1.1183e-008     -2.4281e-009   
  1.26            2.9919e-005     1.7745e-008     -1.609e-009    
  1.29            3.0048e-005     2.5494e-008     -2.2431e-009   
  1.32            3.0107e-005     8.777e-009      2.0075e-009    
  1.35            3.0225e-005     -2.299e-008     2.6207e-009    
  1.38            3.0347e-005     -1.791e-008     1.7645e-009    
  1.41            3.0547e-005     -9.165e-009     -1.0207e-009   
  1.44            3.0692e-005     1.1477e-008     -2.4853e-009   
  1.47            3.0792e-005     1.6599e-008     -1.7045e-009   
  1.5             3.0922e-005     2.4942e-008     -2.3319e-009   
  1.53            3.0947e-005     8.768e-009      1.9368e-009    
  1.56            3.104e-005      -2.2204e-008    2.6683e-009    
  1.59            3.1163e-005     -2.2168e-008    2.0848e-009    
  1.62            3.1258e-005     -1.182e-008     2.6375e-009    
  1.65            3.1368e-005     -1.7601e-008    1.7933e-009    
  1.68            3.1468e-005     -2.3988e-008    2.4862e-009    
  1.71            3.1594e-005     -1.7299e-008    1.7163e-009    
  1.74            3.1684e-005     -2.4143e-008    2.4181e-009    
  1.77            3.1795e-005     -1.6043e-008    1.6316e-009    
  1.8             3.188e-005      -2.4219e-008    2.3455e-009    
  1.83            3.2017e-005     -1.0116e-008    -6.957e-010    
  1.86            3.2172e-005     2.437e-008      -2.3889e-009   
  1.89            3.2257e-005     1.8216e-008     -1.5603e-009   
  1.92            3.2283e-005     8.109e-009      1.0117e-009    
  1.95            3.2342e-005     -1.0536e-008    2.6153e-009    
  1.98            3.2457e-005     -1.8075e-008    1.7448e-009    
  2.01            3.2553e-005     -2.4209e-008    2.4444e-009    
  2.04            3.2661e-005     -1.6792e-008    1.6614e-009    
  2.07            3.2731e-005     -2.4403e-008    2.3742e-009    
  2.1             3.2864e-005     -1.045e-008     -6.677e-010    
  2.13            3.3008e-005     8.666e-009      -2.6012e-009   
  2.16            3.3098e-005     1.1278e-008     -2.2591e-009   
  2.19            3.3096e-005     7.868e-009      1.9872e-009    
  2.22            3.3166e-005     -2.3421e-008    2.6314e-009    
  2.25            3.3261e-005     -2.1715e-008    1.9914e-009    
  2.28            3.3319e-005     -1.2029e-008    2.008e-010     
  2.31            3.3509e-005     1.2273e-008     -2.129e-009    
  2.34            3.3594e-005     1.0154e-008     -2.48e-009     
  2.37            3.3666e-005     1.5505e-008     -1.689e-009    
  2.4             3.3756e-005     1.1139e-008     -2.181e-009    
  2.43            3.3832e-005     1.9045e-008     -1.3791e-009   
  2.46            3.3917e-005     1.4073e-008     -1.7516e-009   
  2.49            3.3999e-005     9.705e-009      -2.2296e-009   
  2.52            3.4057e-005     1.7679e-008     -1.4137e-009   
  2.55            3.4144e-005     1.2439e-008     -1.8072e-009   
  2.58            3.4223e-005     8.314e-009      -2.2773e-009   
  2.61            3.4279e-005     1.574e-008      -1.4447e-009   
  2.64            3.4382e-005     1.0635e-008     -1.8653e-009   
  2.67            3.4453e-005     6.542e-009      -2.3217e-009   
  2.7             3.4509e-005     1.3706e-008     -1.4792e-009   
  2.73            3.4614e-005     8.247e-009      -1.9237e-009   
  2.76            3.4685e-005     4.42e-009       -2.3617e-009   
  2.79            3.4735e-005     1.0908e-008     -1.5227e-009   
  2.82            3.4816e-005     5.242e-009      -1.9783e-009   
  2.85            3.4894e-005     1.602e-009      -2.4057e-009   
  2.88            3.4931e-005     -1.9335e-008    -1.9987e-009   
  2.91            3.5052e-005     -2.45e-010      -2.349e-009    
  2.94            3.5076e-005     -1.8027e-008    -2.6004e-009   
  2.97            3.5193e-005     -2.702e-009     -2.2913e-009   
  3               3.5213e-005     -2.0282e-008    -2.6037e-009   
END_DB

BEGIN_DB
 ICCAP_VAR VG         1.2            
 ICCAP_VAR VS         0              
 ICCAP_VAR VB         0              

 #VD              ID              IB              IG             
  0               8.814e-008      1.2238e-008     1.0075e-009    
  0.03            4.3907e-006     2.5317e-008     2.7136e-009    
  0.06            8.5934e-006     -9.05e-009      -1.0146e-009   
  0.09            1.2681e-005     1.8045e-008     -8.888e-010    
  0.12            1.666e-005      2.6314e-008     -2.1595e-009   
  0.15            2.0489e-005     9.591e-009      6.353e-010     
  0.18            2.4255e-005     -2.3916e-008    2.5786e-009    
  0.21            2.7786e-005     -1.8222e-008    1.633e-009     
  0.24            3.1144e-005     -2.4578e-008    2.3716e-009    
  0.27            3.4327e-005     -1.4865e-008    2.725e-009     
  0.3             3.734e-005      -2.4337e-008    2.2935e-009    
  0.33            4.0245e-005     -1.0151e-008    -7.377e-010    
  0.36            4.2903e-005     2.5294e-008     -2.3664e-009   
  0.39            4.5315e-005     8.539e-009      1.9075e-009    
  0.42            4.7568e-005     -2.1918e-008    2.6926e-009    
  0.45            4.9657e-005     -1.6439e-008    1.92e-009      
  0.48            5.1607e-005     -2.3767e-008    2.5733e-009    
  0.51            5.3356e-005     -1.9094e-008    1.825e-009     
  0.54            5.4915e-005     -2.4072e-008    2.5194e-009    
  0.57            5.6358e-005     -1.777e-008     1.7304e-009    
  0.6             5.7687e-005     -9.043e-009     -1.0319e-009   
  0.63            5.889e-005      1.1341e-008     -2.4894e-009   
  0.66            5.9921e-005     1.6472e-008     -1.6818e-009   
  0.69            6.0852e-005     2.537e-008      -2.3319e-009   
  0.72            6.1618e-005     8.708e-009      1.9437e-009    
  0.75            6.2355e-005     -2.2275e-008    2.6745e-009    
  0.78            6.3046e-005     -1.6691e-008    1.8547e-009    
  0.81            6.3656e-005     -2.4119e-008    2.5366e-009    
  0.84            6.4225e-005     -1.8313e-008    1.7638e-009    
  0.87            6.4784e-005     -9.168e-009     -1.0123e-009   
  0.9             6.5277e-005     1.1462e-008     -2.5006e-009   
  0.93            6.5716e-005     1.6245e-008     -1.7073e-009   
  0.96            6.6135e-005     2.5383e-008     -2.3506e-009   
  0.99            6.6423e-005     8.827e-009      1.9212e-009    
  1.02            6.6769e-005     -2.2003e-008    2.6845e-009    
  1.05            6.7119e-005     -1.6661e-008    1.8947e-009    
  1.08            6.7435e-005     -2.3847e-008    2.5616e-009    
  1.11            6.7739e-005     -1.8347e-008    1.6101e-009    
  1.14            6.8037e-005     -2.457e-008     2.349e-009     
  1.17            6.8305e-005     -1.4456e-008    2.723e-009     
  1.2             6.8583e-005     -2.4103e-008    2.2667e-009    
  1.23            6.884e-005      -1.33e-008      2.7067e-009    
  1.26            6.9091e-005     -2.3497e-008    2.1846e-009    
  1.29            6.9357e-005     -1.0043e-008    -8.166e-010    
  1.32            6.9633e-005     2.5921e-008     -2.2848e-009   
  1.35            6.9782e-005     8.722e-009      1.9771e-009    
  1.38            6.999e-005      -2.2901e-008    2.6528e-009    
  1.41            7.0199e-005     -1.739e-008     1.7866e-009    
  1.44            7.0472e-005     -9.322e-009     -1.0003e-009   
  1.47            7.0699e-005     1.1555e-008     -2.5146e-009   
  1.5             7.0879e-005     1.5893e-008     -1.7313e-009   
  1.53            7.1073e-005     2.5097e-008     -2.366e-009    
  1.56            7.1163e-005     8.832e-009      1.909e-009     
  1.59            7.133e-005      -2.1899e-008    2.6978e-009    
  1.62            7.1523e-005     -2.2977e-008    2.128e-009     
  1.65            7.1675e-005     -1.1847e-008    2.6644e-009    
  1.68            7.1852e-005     -1.7186e-008    1.8287e-009    
  1.71            7.2005e-005     -2.4203e-008    2.5204e-009    
  1.74            7.2185e-005     -1.7888e-008    1.7248e-009    
  1.77            7.2409e-005     -9.142e-009     -1.0314e-009   
  1.8             7.2593e-005     1.1428e-008     -2.4917e-009   
  1.83            7.2734e-005     1.6467e-008     -1.6859e-009   
  1.86            7.2883e-005     2.5397e-008     -2.333e-009    
  1.89            7.2943e-005     8.813e-009      1.9439e-009    
  1.92            7.3069e-005     -2.2332e-008    2.6799e-009    
  1.95            7.3214e-005     -1.6888e-008    1.8616e-009    
  1.98            7.3352e-005     -2.3987e-008    2.5349e-009    
  2.01            7.3506e-005     -1.8356e-008    1.7648e-009    
  2.04            7.3601e-005     -2.4453e-008    2.4756e-009    
  2.07            7.3751e-005     -1.6934e-008    1.6824e-009    
  2.1             7.3861e-005     -2.4664e-008    2.4087e-009    
  2.13            7.4041e-005     -1.0333e-008    -6.42e-010     
  2.16            7.4222e-005     8.461e-009      -2.5997e-009   
  2.19            7.4353e-005     2.4435e-008     -2.4251e-009   
  2.22            7.4467e-005     1.7517e-008     -1.5683e-009   
  2.25            7.4598e-005     1.3113e-008     -2.0603e-009   
  2.28            7.4661e-005     9.157e-009      7.059e-010     
  2.31            7.471e-005      -2.4776e-008    2.5023e-009    
  2.34            7.4839e-005     -1.8098e-008    1.7059e-009    
  2.37            7.4944e-005     -2.5274e-008    2.4378e-009    
  2.4             7.5082e-005     -1.1015e-008    -6.187e-010    
  2.43            7.526e-005      7.358e-009      -2.5959e-009   
  2.46            7.5394e-005     1.02e-008       -2.3193e-009   
  2.49            7.5392e-005     6.87e-009       1.9568e-009    
