! VERSION = 6.00
BEGIN_HEADER
 ICCAP_INPUTS
  VG         V  B GROUND SMU4 0.001 LIN        2    0          3          6    0.6       
  VS         V  E GROUND SMU2 0.1 CON        0
  VD         V  S GROUND SMU1 0.1 LIN        1    0          3          101  0.03      
  VB         V  C GROUND SMU3 0.1 LIN        3    0          -1.5       2    -1.5      
 ICCAP_OUTPUTS
  ID         I  S GROUND SMU1 B
  IB         I  C GROUND SMU3 B
  IG         I  B GROUND SMU4 B
END_HEADER

BEGIN_DB
 ICCAP_VAR VG         0              
 ICCAP_VAR VS         0              
 ICCAP_VAR VB         0              

 #VD              ID              IB              IG             
  0               3.3068e-009     -8.35e-009      -1.2347e-009   
  0.03            1.4605e-007     4.2e-011        -1.3916e-009   
  0.06            2.2605e-007     2.5814e-008     -1.3092e-009   
  0.09            2.6471e-007     1.0413e-008     1.5037e-009    
  0.12            3.0168e-007     -1.4255e-008    1.5934e-009    
  0.15            3.328e-007      -2.5398e-008    1.3099e-009    
  0.18            3.6322e-007     -2.1838e-008    2.0697e-009    
  0.21            3.8991e-007     -1.1389e-008    -6.157e-010    
  0.24            4.2921e-007     2.1947e-008     -1.4873e-009   
  0.27            4.4406e-007     9.621e-009      9.422e-010     
  0.3             4.7356e-007     -2.5742e-008    1.2837e-009    
  0.33            5.0245e-007     -1.962e-008     1.9162e-009    
  0.36            5.3287e-007     -1.1292e-008    -7.29e-010     
  0.39            5.7078e-007     2.3838e-008     -1.4345e-009   
  0.42            5.8086e-007     9.234e-009      1.0236e-009    
  0.45            6.1297e-007     -2.5138e-008    2.3959e-009    
  0.48            6.4401e-007     -2.0193e-008    1.9594e-009    
  0.51            6.7426e-007     -1.1321e-008    -6.951e-010    
  0.54            7.1542e-007     2.3369e-008     -1.4471e-009   
  0.57            7.2286e-007     9.2e-009        1.0034e-009    
  0.6             7.5633e-007     -2.5568e-008    2.4343e-009    
  0.63            7.8706e-007     -2.0917e-008    1.9985e-009    
  0.66            8.1777e-007     -1.1404e-008    -6.673e-010    
  0.69            8.6385e-007     2.2853e-008     -1.459e-009    
  0.72            8.6862e-007     9.417e-009      9.844e-010     
  0.75            9.0355e-007     -2.5679e-008    1.2701e-009    
  0.78            9.503e-007      -9.342e-009     -1.4109e-009   
  0.81            9.8243e-007     2.0968e-008     -1.7155e-009   
  0.84            9.9758e-007     1.049e-008      7.196e-010     
  0.87            1.02002e-006    -2.4127e-008    1.3805e-009    
  0.9             1.07012e-006    -9.648e-009     -1.1241e-009   
  0.93            1.1064e-006     2.6487e-008     -1.3209e-009   
  0.96            1.13269e-006    1.8852e-008     -1.6147e-009   
  0.99            1.1438e-006     1.3221e-008     1.9948e-009    
  1.02            1.1727e-006     -1.1817e-008    2.882e-010     
  1.05            1.2259e-006     1.1311e-008     -2.6737e-009   
  1.08            1.2265e-006     8.608e-009      1.1873e-009    
  1.11            1.2641e-006     -2.59e-008      1.2707e-009    
  1.14            1.3151e-006     -9.317e-009     -1.1674e-009   
  1.17            1.352e-006      2.7007e-008     -1.3621e-009   
  1.2             1.3513e-006     9.09e-009       1.039e-009     
  1.23            1.3836e-006     -2.5365e-008    1.324e-009     
  1.26            1.4323e-006     -1.0147e-008    -1.0121e-009   
  1.29            1.4753e-006     2.5245e-008     -1.4011e-009   
  1.32            1.4824e-006     9.91e-009       8.925e-010     
  1.35            1.5071e-006     -2.3164e-008    1.4139e-009    
  1.38            1.5375e-006     -1.1813e-008    1.3997e-009    
  1.41            1.5692e-006     -2.5288e-008    1.3247e-009    
  1.44            1.6191e-006     -1.0193e-008    -1.0072e-009   
  1.47            1.662e-006      2.5318e-008     -1.4016e-009   
  1.5             1.6885e-006     2.6882e-008     -1.3673e-009   
  1.53            1.6922e-006     9.102e-009      1.0099e-009    
  1.56            1.7193e-006     -2.5264e-008    1.3337e-009    
  1.59            1.7507e-006     -2.5954e-008    1.2845e-009    
  1.62            1.7835e-006     -2.5345e-008    1.2531e-009    
  1.65            1.8166e-006     -2.2637e-008    2.1075e-009    
  1.68            1.8476e-006     -2.1975e-008    2.0671e-009    
  1.71            1.8786e-006     -2.1521e-008    2.0287e-009    
  1.74            1.9067e-006     -1.1315e-008    -3.474e-010    
  1.77            1.967e-006      1.4218e-008     -2.0212e-009   
  1.8             1.9942e-006     1.6091e-008     -1.8043e-009   
  1.83            1.995e-006      1.023e-008      1.9266e-009    
  1.86            2.0213e-006     -1.2004e-008    1.417e-009     
  1.89            2.0672e-006     -1.0639e-008    -8.543e-010    
  1.92            2.115e-006      2.138e-008      -1.4744e-009   
  1.95            2.1263e-006     1.0366e-008     7.208e-010     
  1.98            2.1424e-006     -1.9652e-008    1.5865e-009    
  2.01            2.1826e-006     -1.1471e-008    -6.979e-010    
  2.04            2.2377e-006     1.8513e-008     -1.6312e-009   
  2.07            2.2354e-006     9.593e-009      2.0618e-009    
  2.1             2.2613e-006     -1.7754e-008    1.8442e-009    
  2.13            2.2962e-006     -1.1442e-008    -4.876e-010    
  2.16            2.3532e-006     1.5773e-008     -1.8572e-009   
  2.19            2.3837e-006     1.7814e-008     -1.6674e-009   
  2.22            2.3912e-006     9.568e-009      2.0391e-009    
  2.25            2.4032e-006     -1.1574e-008    2.51e-010      
  2.28            2.473e-006      1.1056e-008     -2.6516e-009   
  2.31            2.4963e-006     1.25e-008       -1.4186e-009   
  2.34            2.5332e-006     2.533e-008      -1.3731e-009   
  2.37            2.5282e-006     9.208e-009      9.514e-010     
  2.4             2.552e-006      -2.4441e-008    1.3593e-009    
  2.43            2.6045e-006     -1.1126e-008    -9.315e-010    
  2.46            2.6504e-006     2.2617e-008     -1.4294e-009   
  2.49            2.6829e-006     1.0938e-008     -2.4338e-009   
  2.52            2.7017e-006     1.0002e-008     -6.77e-011     
  2.55            2.6906e-006     -1.249e-008     2.6923e-009    
  2.58            2.7719e-006     -1.0808e-008    -1.4835e-009   
  2.61            2.8002e-006     1.0207e-008     -2.5915e-009   
  2.64            2.828e-006      1.0223e-008     -2.4641e-009   
  2.67            2.8569e-006     2.5517e-008     -1.357e-009    
  2.7             2.8416e-006     7.587e-009      1.0325e-009    
  2.73            2.8715e-006     -2.6535e-008    1.315e-009     
  2.76            2.9288e-006     -1.161e-008     -1.0066e-009   
  2.79            2.9666e-006     6.146e-009      -1.3403e-009   
  2.82            3.0021e-006     1.2954e-008     -1.9515e-009   
  2.85            3.0284e-006     1.5233e-008     -1.7449e-009   
  2.88            3.019e-006      7.635e-009      1.985e-009     
  2.91            3.0437e-006     -1.4427e-008    3.029e-010     
  2.94            3.1113e-006     8.331e-009      -2.6659e-009   
  2.97            3.1486e-006     8.014e-009      -2.5953e-009   
  3               3.1776e-006     7.933e-009      -2.4654e-009   
END_DB

BEGIN_DB
 ICCAP_VAR VG         0.6            
 ICCAP_VAR VS         0              
 ICCAP_VAR VB         0              

 #VD              ID              IB              IG             
  0               5.1142e-008     -2.1768e-008    -1.0414e-009   
  0.03            2.7748e-006     1.179e-009      7.664e-010     
  0.06            5.3474e-006     -1.9982e-008    1.5457e-009    
  0.09            7.7771e-006     -1.1306e-008    -7.467e-010    
  0.12            1.00495e-005    1.927e-008      -1.5849e-009   
  0.15            1.2107e-005     1.4117e-008     -1.9763e-009   
  0.18            1.4058e-005     2.4993e-008     -1.3833e-009   
  0.21            1.5751e-005     2.1956e-008     -1.7302e-009   
  0.24            1.7202e-005     9.735e-009      9.302e-010     
  0.27            1.8457e-005     -2.3547e-008    1.2291e-009    
  0.3             1.9608e-005     -1.1003e-008    -8.107e-010    
  0.33            2.0601e-005     2.7272e-008     -1.3399e-009   
  0.36            2.1382e-005     1.0861e-008     5.382e-010     
  0.39            2.2011e-005     -2.4589e-008    1.331e-009     
  0.42            2.2607e-005     -1.1226e-008    -3.274e-010    
  0.45            2.3155e-005     2.1482e-008     -1.4639e-009   
  0.48            2.3604e-005     1.5827e-008     -1.8302e-009   
  0.51            2.4003e-005     2.6411e-008     -1.3639e-009   
  0.54            2.4334e-005     1.0514e-008     4.035e-010     
  0.57            2.4595e-005     -2.2743e-008    1.4046e-009    
  0.6             2.4908e-005     -2.167e-008     2.0229e-009    
  0.63            2.5176e-005     -2.5132e-008    1.3154e-009    
  0.66            2.5459e-005     -1.1282e-008    -3.886e-010    
  0.69            2.5761e-005     2.2687e-008     -1.439e-009    
  0.72            2.6005e-005     2.5173e-008     -1.2929e-009   
  0.75            2.6223e-005     2.6946e-008     -1.3582e-009   
  0.78            2.6325e-005     1.0453e-008     1.4896e-009    
  0.81            2.656e-005      -1.1464e-008    2.96e-010      
  0.84            2.6843e-005     1.333e-008      -2.1935e-009   
  0.87            2.7e-005        1.0688e-008     6.401e-010     
  0.9             2.7129e-005     -2.5747e-008    1.3014e-009    
  0.93            2.7345e-005     -1.123e-008     -4.448e-010    
  0.96            2.758e-005      2.3921e-008     -1.4222e-009   
  0.99            2.7635e-005     8.942e-009      1.2461e-009    
  1.02            2.7827e-005     -1.4436e-008    1.604e-009     
  1.05            2.7987e-005     -2.5201e-008    1.2524e-009    
  1.08            2.8187e-005     -1.1298e-008    -7.116e-010    
  1.11            2.8389e-005     2.7067e-008     -1.3676e-009   
  1.14            2.8524e-005     1.063e-008      4.292e-010     
  1.17            2.859e-005      -2.3664e-008    1.3975e-009    
  1.2             2.876e-005      -1.1455e-008    -2.048e-010    
  1.23            2.8973e-005     2.0096e-008     -1.5426e-009   
  1.26            2.9012e-005     8.759e-009      1.072e-009     
  1.29            2.9172e-005     -1.8878e-008    1.8848e-009    
  1.32            2.9361e-005     -9.993e-009     -9.466e-010    
  1.35            2.9519e-005     2.6046e-008     -1.3139e-009   
  1.38            2.9606e-005     1.037e-008      7.074e-010     
  1.41            2.9682e-005     -2.5977e-008    1.2866e-009    
  1.44            2.9839e-005     -1.1181e-008    -5.358e-010    
  1.47            3.0019e-005     2.5415e-008     -1.403e-009    
  1.5             3.0142e-005     2.1924e-008     -1.7567e-009   
  1.53            3.0264e-005     2.6959e-008     -1.3649e-009   
  1.56            3.0253e-005     1.0395e-008     1.4815e-009    
  1.59            3.041e-005      -1.1766e-008    2.971e-010     
  1.62            3.061e-005      1.307e-008      -2.1941e-009   
  1.65            3.0692e-005     1.0559e-008     6.307e-010     
  1.68            3.0739e-005     -2.5697e-008    1.3111e-009    
  1.71            3.0877e-005     -1.121e-008     -4.4e-010      
  1.74            3.105e-005      2.3965e-008     -1.4306e-009   
  1.77            3.1034e-005     8.774e-009      1.2405e-009    
  1.8             3.1179e-005     -1.458e-008     1.6126e-009    
  1.83            3.1279e-005     -2.5312e-008    1.2543e-009    
  1.86            3.141e-005      -1.1326e-008    -7.014e-010    
  1.89            3.1569e-005     2.6854e-008     -1.3697e-009   
  1.92            3.165e-005      1.0354e-008     4.126e-010     
  1.95            3.168e-005      -2.3621e-008    1.4118e-009    
  1.98            3.1789e-005     -2.0703e-008    1.9912e-009    
  2.01            3.1859e-005     -2.5712e-008    1.3218e-009    
  2.04            3.2079e-005     -1.0939e-008    -1.4854e-009   
  2.07            3.2127e-005     1.3039e-008     -1.4405e-009   
  2.1             3.2233e-005     1.6266e-008     -1.7405e-009   
  2.13            3.2264e-005     9.325e-009      9.207e-010     
  2.16            3.2327e-005     -2.39e-008      2.1986e-009    
  2.19            3.2467e-005     -1.1618e-008    -7.945e-010    
  2.22            3.2599e-005     2.6744e-008     -1.3528e-009   
  2.25            3.2686e-005     2.2184e-008     -1.4454e-009   
  2.28            3.2768e-005     1.5643e-008     -1.7419e-009   
  2.31            3.287e-005      2.606e-008      -1.3633e-009   
  2.34            3.294e-005      2.0522e-008     -1.4693e-009   
  2.37            3.3021e-005     1.4107e-008     -1.8106e-009   
  2.4             3.3124e-005     1.0532e-008     -2.3259e-009   
  2.43            3.3135e-005     8.093e-009      2.0549e-009    
  2.46            3.3212e-005     -1.3815e-008    -2.99e-010     
  2.49            3.3356e-005     1.8872e-008     -1.4842e-009   
  2.52            3.3437e-005     1.1839e-008     -1.8475e-009   
  2.55            3.3526e-005     8.6e-009        -2.3628e-009   
  2.58            3.3535e-005     5.662e-009      2.0292e-009    
  2.61            3.3611e-005     -1.5971e-008    -2.644e-010    
  2.64            3.3751e-005     1.69e-010       -1.3903e-009   
  2.67            3.383e-005      1.3184e-008     -1.5833e-009   
  2.7             3.392e-005      7.231e-009      -2.0535e-009   
  2.73            3.3996e-005     4.054e-009      -2.5236e-009   
  2.76            3.4069e-005     2.178e-009      -1.2962e-009   
  2.79            3.4078e-005     -5.209e-009     2.8365e-009    
  2.82            3.4239e-005     -2.1106e-008    -1.6344e-009   
  2.85            3.4299e-005     5.76e-009       -1.7343e-009   
  2.88            3.4318e-005     -3.286e-009     2.3608e-009    
  2.91            3.4406e-005     -2.4662e-008    -7.736e-010    
  2.94            3.4486e-005     -2.1639e-008    -2.6754e-009   
  2.97            3.4606e-005     -5.315e-009     -2.508e-009    
  3               3.4627e-005     -2.4704e-008    -2.6821e-009   
END_DB

BEGIN_DB
 ICCAP_VAR VG         1.2            
 ICCAP_VAR VS         0              
 ICCAP_VAR VB         0              

 #VD              ID              IB              IG             
  0               8.8092e-008     2.7121e-008     8.781e-010     
  0.03            4.4176e-006     -4.803e-009     -1.0536e-009   
  0.06            8.6427e-006     2.521e-008      -1.3825e-009   
  0.09            1.2758e-005     2.5667e-008     -1.2573e-009   
  0.12            1.6751e-005     1.9149e-008     -1.6255e-009   
  0.15            2.0593e-005     8.933e-009      1.0162e-009    
  0.18            2.4384e-005     -2.1362e-008    2.0324e-009    
  0.21            2.7933e-005     -1.0471e-008    -8.862e-010    
  0.24            3.1308e-005     2.6949e-008     -1.3246e-009   
  0.27            3.448e-005      1.0683e-008     6.392e-010     
  0.3             3.7457e-005     -2.5077e-008    1.3001e-009    
  0.33            4.0345e-005     -1.1092e-008    -4.507e-010    
  0.36            4.2989e-005     2.3606e-008     -1.4262e-009   
  0.39            4.5352e-005     8.825e-009      1.2485e-009    
  0.42            4.7595e-005     -1.4939e-008    1.6206e-009    
  0.45            4.9643e-005     -2.5041e-008    1.2474e-009    
  0.48            5.1578e-005     -1.1283e-008    -7.154e-010    
  0.51            5.331e-005      2.622e-008      -1.3598e-009   
  0.54            5.4857e-005     1.0456e-008     4.3e-010       
  0.57            5.6177e-005     -2.3056e-008    1.4015e-009    
  0.6             5.738e-005      -2.1162e-008    2.0017e-009    
  0.63            5.8493e-005     -2.4852e-008    1.3094e-009    
  0.66            5.9507e-005     -1.1169e-008    -4.197e-010    
  0.69            6.0453e-005     2.2906e-008     -1.4384e-009   
  0.72            6.1137e-005     8.72e-009       1.2268e-009    
  0.75            6.1874e-005     -1.5614e-008    1.6644e-009    
  0.78            6.2616e-005     -9.767e-009     -1.0935e-009   
  0.81            6.321e-005      1.1168e-008     -2.5056e-009   
  0.84            6.3659e-005     1.0473e-008     1.9139e-009    
  0.87            6.4132e-005     -2.2082e-008    1.4389e-009    
  0.9             6.4608e-005     -2.2161e-008    2.084e-009     
  0.93            6.51e-005       -1.215e-008     1.4028e-009    
  0.96            6.5517e-005     -2.1279e-008    2.0074e-009    
  0.99            6.5806e-005     -2.4838e-008    1.3102e-009    
  1.02            6.619e-005      -1.112e-008     -4.161e-010    
  1.05            6.6592e-005     2.2959e-008     -1.4371e-009   
  1.08            6.6863e-005     8.569e-009      1.2208e-009    
  1.11            6.7195e-005     -1.5657e-008    1.6623e-009    
  1.14            6.7565e-005     -9.676e-009     -1.0915e-009   
  1.17            6.7868e-005     1.1158e-008     -2.508e-009    
  1.2             6.8025e-005     1.0504e-008     1.9156e-009    
  1.23            6.8286e-005     -2.1888e-008    1.4415e-009    
  1.26            6.8545e-005     -2.2141e-008    2.0886e-009    
  1.29            6.8773e-005     -1.0678e-008    -8.632e-010    
  1.32            6.911e-005      2.7016e-008     -1.3292e-009   
  1.35            6.9228e-005     1.0751e-008     6.051e-010     
  1.38            6.9445e-005     -2.4907e-008    1.3096e-009    
  1.41            6.9704e-005     -1.1184e-008    -4.103e-010    
  1.44            6.9974e-005     2.2626e-008     -1.4397e-009   
  1.47            7.0045e-005     8.613e-009      1.2183e-009    
  1.5             7.028e-005      -1.5682e-008    1.6589e-009    
  1.53            7.0471e-005     -2.5309e-008    1.2519e-009    
  1.56            7.0702e-005     -1.1331e-008    -6.808e-010    
  1.59            7.0887e-005     2.6031e-008     -1.3664e-009   
  1.62            7.1034e-005     1.0475e-008     3.936e-010     
  1.65            7.1121e-005     -2.2519e-008    1.4212e-009    
  1.68            7.1371e-005     -1.8113e-008    1.8442e-009    
  1.71            7.1613e-005     -1.0024e-008    -9.804e-010    
  1.74            7.1814e-005     1.1221e-008     -2.6057e-009   
  1.77            7.1952e-005     1.0554e-008     2.389e-010     
  1.8             7.2034e-005     -2.0078e-008    1.5618e-009    
  1.83            7.22e-005       -2.4517e-008    1.2367e-009    
  1.86            7.24e-005       -1.1319e-008    -7.579e-010    
  1.89            7.2607e-005     2.6512e-008     -1.3512e-009   
  1.92            7.2707e-005     1.0544e-008     4.791e-010     
  1.95            7.277e-005      -2.365e-008     1.3697e-009    
  1.98            7.3054e-005     -9.34e-009      -1.3779e-009   
  2.01            7.3153e-005     1.5847e-008     -1.5178e-009   
  2.04            7.3249e-005     1.52e-008       -1.9288e-009   
  2.07            7.3389e-005     2.5219e-008     -1.3775e-009   
  2.1             7.3513e-005     2.0909e-008     -1.6919e-009   
  2.13            7.3619e-005     9.33e-009       9.674e-010     
  2.16            7.3692e-005     -2.2801e-008    2.1292e-009    
  2.19            7.3865e-005     -1.1398e-008    -8.374e-010    
  2.22            7.4031e-005     2.6735e-008     -1.3338e-009   
  2.25            7.4174e-005     1.0321e-008     5.83e-010      
  2.28            7.423e-005      -2.5226e-008    1.319e-009     
  2.31            7.4487e-005     -1.1234e-008    -1.4781e-009   
  2.34            7.4567e-005     1.3318e-008     -1.4515e-009   
  2.37            7.4636e-005     1.6134e-008     -1.7807e-009   
  2.4             7.4821e-005     2.5232e-008     -1.3543e-009   
  2.43            7.4895e-005     9.212e-009      4.572e-010     
  2.46            7.4927e-005     -2.4951e-008    1.3848e-009    
  2.49            7.5186e-005     -1.145e-008     -1.3529e-009   
