! VERSION = 6.00
BEGIN_HEADER
 ICCAP_INPUTS
  VG         V  B GROUND SMU4 0.001 LIN        1    0          3          61   0.05      
  VS         V  E GROUND SMU3 0.1 CON        0
  VB         V  C GROUND SMU1 0.1 LIN        3    0          -3         3    -1.5      
  VD         V  S GROUND SMU2 0.1 LIN        2    0.1        3          2    2.9       
 ICCAP_OUTPUTS
  IG         I  B GROUND SMU4 B
  ID         I  S GROUND SMU2 B
  IB         I  C GROUND SMU1 B
END_HEADER

BEGIN_DB
 ICCAP_VAR VS         0              
 ICCAP_VAR VB         0              
 ICCAP_VAR VD         0.1            

 #VG              IG              ID              IB             
  0               2.0673e-009     9.5379e-008     2.163e-009     
  0.05            2.63e-011       3.2523e-007     6.155e-009     
  0.1             2.4463e-009     9.4384e-007     -1.4787e-008   
  0.15            -1.9567e-009    2.1054e-006     -1.0633e-008   
  0.2             1.3834e-009     3.6708e-006     -1.7008e-008   
  0.25            -2.1866e-009    5.5253e-006     1.3426e-008    
  0.3             1.5815e-009     7.325e-006      -1.6433e-008   
  0.35            -2.3464e-009    9.1918e-006     1.2422e-008    
  0.4             1.8429e-009     1.08862e-005    -1.6377e-008   
  0.45            1.824e-009      1.255e-005      -1.5594e-008   
  0.5             -1.5811e-009    1.4203e-005     1.5942e-008    
  0.55            2.5839e-009     1.5679e-005     -1.2604e-008   
  0.6             -1.7887e-009    1.7174e-005     1.5303e-008    
  0.65            2.7236e-009     1.8547e-005     -1.2261e-008   
  0.7             5.16e-011       1.9934e-005     7.875e-009     
  0.75            -2.1292e-009    2.1225e-005     1.3649e-008    
  0.8             1.7603e-009     2.2463e-005     -1.8199e-008   
  0.85            7.865e-010      2.3705e-005     9.153e-009     
  0.9             -2.6167e-009    2.4903e-005     6.612e-009     
  0.95            2.7031e-009     2.6043e-005     -1.0842e-008   
  1               -2.0983e-009    2.7177e-005     1.4066e-008    
  1.05            1.703e-009      2.8271e-005     -1.7493e-008   
  1.1             8.119e-010      2.9357e-005     9.032e-009     
  1.15            -2.6113e-009    3.0422e-005     6.814e-009     
  1.2             2.6904e-009     3.1439e-005     -1.0355e-008   
  1.25            -2.0608e-009    3.2454e-005     1.3919e-008    
  1.3             1.6694e-009     3.3443e-005     -1.6929e-008   
  1.35            8.294e-010      3.4427e-005     9.213e-009     
  1.4             -2.6146e-009    3.5394e-005     7.133e-009     
  1.45            2.116e-010      3.633e-005      -1.016e-008    
  1.5             2.6566e-009     3.7234e-005     -1.0678e-008   
  1.55            -1.9514e-009    3.8174e-005     1.4825e-008    
  1.6             1.5567e-009     3.9081e-005     -1.5075e-008   
  1.65            8.804e-010      3.996e-005      9.107e-009     
  1.7             -2.6062e-009    4.0822e-005     7.601e-009     
  1.75            2.6361e-009     4.1681e-005     -1.0912e-008   
  1.8             -1.9192e-009    4.2556e-005     1.4807e-008    
  1.85            1.5256e-009     4.341e-005      -1.4469e-008   
  1.9             9.013e-010      4.4233e-005     8.837e-009     
  1.95            -2.6027e-009    4.5e-005        7.675e-009     
  2               2.6168e-009     4.5842e-005     -1.1436e-008   
  2.05            -1.888e-009     4.6659e-005     1.5191e-008    
  2.1             1.4867e-009     4.7472e-005     -1.3874e-008   
  2.15            -2.2591e-009    4.8235e-005     1.2544e-008    
  2.2             1.7121e-009     4.8992e-005     -1.6645e-008   
  2.25            -2.4057e-009    4.9778e-005     1.1806e-008    
  2.3             1.9774e-009     5.052e-005      -1.6554e-008   
  2.35            -1.4013e-009    5.1322e-005     1.4987e-008    
  2.4             -1.0258e-009    5.2031e-005     -9.093e-009    
  2.45            2.7464e-009     5.2744e-005     -7.453e-009    
  2.5             -2.3774e-009    5.3475e-005     1.1744e-008    
  2.55            1.9258e-009     5.417e-005      -1.6544e-008   
  2.6             -2.4849e-009    5.4896e-005     1.1028e-008    
  2.65            2.1803e-009     5.5564e-005     -1.5559e-008   
  2.7             -1.5313e-009    5.6315e-005     1.8298e-008    
  2.75            -9.411e-010     5.6955e-005     -9.713e-009    
  2.8             2.7407e-009     5.7621e-005     -6.945e-009    
  2.85            -2.4685e-009    5.8293e-005     1.123e-008     
  2.9             2.1407e-009     5.893e-005      -1.5952e-008   
  2.95            -1.5009e-009    5.964e-005      1.7478e-008    
  3               -9.568e-010     6.0245e-005     -9.512e-009    
END_DB

BEGIN_DB
 ICCAP_VAR VS         0              
 ICCAP_VAR VB         0              
 ICCAP_VAR VD         3              

 #VG              IG              ID              IB             
  0               -2.2708e-009    1.8888e-007     1.4484e-008    
  0.05            1.9866e-009     6.6101e-007     -2.1652e-008   
  0.1             2.3569e-009     1.8028e-006     1.3256e-008    
  0.15            -2.3333e-009    3.9173e-006     9.007e-009     
  0.2             -1.8312e-009    6.9554e-006     -1.4213e-008   
  0.25            7.22e-011       1.0805e-005     -1.5031e-008   
  0.3             2.7208e-009     1.5561e-005     -2.539e-009    
  0.35            -2.2169e-009    2.1143e-005     1.603e-009     
  0.4             -1.8915e-009    2.7165e-005     -2.2498e-008   
  0.45            -1.61e-011      3.3608e-005     -2.3086e-008   
  0.5             2.3691e-009     4.0763e-005     -3.144e-008    
  0.55            4.789e-010      4.8406e-005     -8.409e-009    
  0.6             -2.522e-009     5.625e-005      -1.9849e-008   
  0.65            -1.6421e-009    6.4656e-005     -2.8523e-008   
  0.7             2.7089e-009     7.2876e-005     -3.2498e-008   
  0.75            1.5391e-009     8.1554e-005     -1.2577e-008   
  0.8             -1.3839e-009    9.1027e-005     -6.621e-009    
  0.85            -2.3368e-009    0.000100248     -2.7819e-008   
  0.9             -6.473e-010     0.000109789     -3.0806e-008   
  0.95            -8.953e-010     0.00011959      -3.8626e-008   
  1               2.6433e-009     0.00012934      -4.0506e-008   
  1.05            1.6766e-009     0.00013933      -1.0422e-008   
  1.1             -2.4684e-009    0.00015004      -8.148e-009    
  1.15            -1.7243e-009    0.00016065      -2.7048e-008   
  1.2             1.919e-010      0.00017084      -2.6825e-008   
  1.25            2.6526e-009     0.00018162      -2.6707e-008   
  1.3             1.6695e-009     0.00019237      -6.171e-009    
  1.35            -1.8581e-009    0.00020386      1.091e-009     
  1.4             -2.0313e-009    0.00021483      -2.111e-008    
  1.45            -2.756e-010     0.00022599      -2.1676e-008   
  1.5             1.9661e-009     0.00023731      -2.8067e-008   
  1.55            -2.2809e-009    0.00024889      -1.7767e-008   
  1.6             -5.999e-010     0.00026042      -1.9991e-008   
  1.65            1.4521e-009     0.00027192      -2.645e-008    
  1.7             -2.2248e-009    0.00028394      4.681e-009     
  1.75            -1.8931e-009    0.00029569      -1.7123e-008   
  1.8             -1.47e-011      0.00030732      -1.5167e-008   
  1.85            2.3817e-009     0.0003192       -2.1324e-008   
  1.9             -1.5317e-009    0.00033156      1.0734e-008    
  1.95            -9.404e-010     0.00034348      -1.4951e-008   
  2               2.6035e-009     0.00035544      -2.6093e-008   
  2.05            -1.8624e-009    0.00036791      1.111e-008     
  2.1             -7.642e-010     0.00038007      -1.3965e-008   
  2.15            2.7044e-009     0.00039216      -1.1473e-008   
  2.2             -2.5632e-009    0.00040484      6.328e-009     
  2.25            -2.02e-011      0.00041679      -1.0907e-008   
  2.3             2.3965e-009     0.0004294       -1.7e-008      
  2.35            -1.5563e-009    0.00044216      1.3956e-008    
  2.4             -9.361e-010     0.00045452      -1.148e-008    
  2.45            2.6104e-009     0.00046683      -2.3048e-008   
  2.5             -1.8757e-009    0.00047969      1.3632e-008    
  2.55            -7.528e-010     0.00049208      -1.1466e-008   
  2.6             2.6993e-009     0.00050454      -9.03e-009     
  2.65            -1.4626e-009    0.00051746      1.593e-008     
  2.7             -9.91e-010      0.00053         -1.0191e-008   
  2.75            2.5409e-009     0.00054233      -2.2848e-008   
  2.8             -1.7508e-009    0.00055539      1.485e-008     
  2.85            -8.275e-010     0.00056795      -1.0541e-008   
  2.9             2.7218e-009     0.00058035      -8.097e-009    
  2.95            -1.3737e-009    0.00059338      1.3659e-008    
  3               2.3526e-009     0.0006057       -1.518e-008    
END_DB

BEGIN_DB
 ICCAP_VAR VS         0              
 ICCAP_VAR VB         -1.5           
 ICCAP_VAR VD         0.1            

 #VG              IG              ID              IB             
  0               1.551e-010      -1.287e-009     -1.6504e-008   
  0.05            2.7447e-009     2.464e-010      -8.243e-009    
  0.1             -1.8195e-009    3.9478e-009     1.6757e-008    
  0.15            2.0775e-009     4.2968e-009     -1.6702e-008   
  0.2             1.7659e-009     2.9373e-008     1.5732e-008    
  0.25            -2.0809e-009    1.2127e-007     1.9431e-008    
  0.3             2.6895e-009     4.4403e-007     -1.9557e-008   
  0.35            -2.0121e-009    1.2387e-006     -1.2405e-008   
  0.4             2.7207e-009     2.5242e-006     -1.846e-008    
  0.45            -2.2009e-009    4.1976e-006     1.2933e-008    
  0.5             1.6311e-009     5.878e-006      -1.6678e-008   
  0.55            8.6e-010        7.6651e-006     8.841e-009     
  0.6             -2.6188e-009    9.2877e-006     7.401e-009     
  0.65            1.763e-010      1.08921e-005    -9.806e-009    
  0.7             2.7e-011        1.2412e-005     9.354e-009     
  0.75            2.43e-009       1.3843e-005     -1.4295e-008   
  0.8             -1.5899e-009    1.5289e-005     1.6506e-008    
  0.85            2.5538e-009     1.6552e-005     -1.2569e-008   
  0.9             -1.7724e-009    1.7889e-005     1.5654e-008    
  0.95            -8.157e-010     1.9142e-005     -9.655e-009    
  1               2.7238e-009     2.0366e-005     -7.721e-009    
  1.05            -1.3793e-009    2.1593e-005     1.4284e-008    
  1.1             2.3433e-009     2.2684e-005     -1.4649e-008   
  1.15            1.9353e-009     2.383e-005      8.811e-009     
  1.2             -1.4462e-009    2.4944e-005     1.7113e-008    
  1.25            2.4349e-009     2.5979e-005     -1.4059e-008   
  1.3             -1.5977e-009    2.706e-005      1.6543e-008    
  1.35            2.5664e-009     2.8042e-005     -1.224e-008    
  1.4             -1.7854e-009    2.9088e-005     1.5746e-008    
  1.45            2.7093e-009     3.0072e-005     -1.2411e-008   
  1.5             -2.152e-009     3.1047e-005     1.3326e-008    
  1.55            1.7935e-009     3.1991e-005     -1.8683e-008   
  1.6             -2.4189e-009    3.294e-005      1.1507e-008    
  1.65            2.0148e-009     3.3811e-005     -1.6261e-008   
  1.7             -2.5091e-009    3.4777e-005     1.062e-008     
  1.75            2.2335e-009     3.5643e-005     -1.5445e-008   
  1.8             -1.5651e-009    3.6574e-005     1.9354e-008    
  1.85            -9.26e-010      3.742e-005      -9.469e-009    
  1.9             2.7503e-009     3.8247e-005     -7.253e-009    
  1.95            -2.4642e-009    3.913e-005      1.0868e-008    
  2               2.1294e-009     3.9937e-005     -1.5936e-008   
  2.05            -1.4932e-009    4.082e-005      1.751e-008     
  2.1             -9.723e-010     4.1603e-005     -9.502e-009    
  2.15            2.7468e-009     4.2384e-005     -7.327e-009    
  2.2             -2.4181e-009    4.3201e-005     1.1158e-008    
  2.25            2.0263e-009     4.3963e-005     -1.6478e-008   
  2.3             -1.4265e-009    4.4803e-005     1.5793e-008    
  2.35            -1.0191e-009    4.554e-005      -9.161e-009    
  2.4             2.7475e-009     4.6264e-005     -7.266e-009    
  2.45            -9.21e-011      4.7067e-005     8.471e-009     
  2.5             -2.3127e-009    4.7763e-005     1.2207e-008    
  2.55            1.8127e-009     4.8482e-005     -1.6984e-008   
  2.6             -2.4243e-009    4.9219e-005     1.1254e-008    
  2.65            2.0291e-009     4.9903e-005     -1.6485e-008   
  2.7             -1.4278e-009    5.0676e-005     1.581e-008     
  2.75            -1.0164e-009    5.1317e-005     -9.134e-009    
  2.8             2.7485e-009     5.2e-005        -7.315e-009    
  2.85            -2.3726e-009    5.2691e-005     1.1568e-008    
  2.9             1.9143e-009     5.3347e-005     -1.6691e-008   
  2.95            -1.369e-009     5.4068e-005     1.4125e-008    
  3               2.3244e-009     5.4651e-005     -1.4745e-008   
END_DB

BEGIN_DB
 ICCAP_VAR VS         0              
 ICCAP_VAR VB         -1.5           
 ICCAP_VAR VD         3              

 #VG              IG              ID              IB             
  0               -2.408e-010     1.154e-009      1.4589e-008    
  0.05            -7.109e-010     -3.5231e-009    -9.694e-009    
  0.1             2.1018e-009     3.9882e-009     -1.6708e-008   
  0.15            -8.566e-010     1.3906e-008     1.5453e-008    
  0.2             -1.3413e-009    6.6979e-008     4.206e-009     
  0.25            -7.499e-010     2.8408e-007     1.1385e-008    
  0.3             2.703e-009      9.428e-007      -9.104e-009    
  0.35            2.5908e-009     2.4007e-006     1.5159e-008    
  0.4             -1.7973e-009    4.8637e-006     1.1448e-008    
  0.45            -8.111e-010     8.1577e-006     -1.6046e-008   
  0.5             2.3245e-009     1.2368e-005     -1.69e-008     
  0.55            -2.0885e-009    1.7323e-005     -1.8192e-008   
  0.6             -3.619e-010     2.2886e-005     -2.2004e-008   
  0.65            1.7962e-009     2.8946e-005     -3.1127e-008   
  0.7             2.2141e-009     3.5683e-005     -8.583e-009    
  0.75            3.781e-010      4.2846e-005     -7.907e-009    
  0.8             -2.3509e-009    5.0289e-005     -2.4898e-008   
  0.85            -6.846e-010     5.8158e-005     -2.8705e-008   
  0.9             2.73e-009       6.6207e-005     -3.7127e-008   
  0.95            1.4732e-009     7.4589e-005     -1.1477e-008   
  1               -2.1784e-009    8.3771e-005     -6.025e-009    
  1.05            -1.9145e-009    9.2747e-005     -2.8106e-008   
  1.1             -6.25e-011      0.000101843     -2.6809e-008   
  1.15            2.2818e-009     0.000111345     -3.3205e-008   
  1.2             1.5226e-009     0.00012108      -9.997e-009    
  1.25            2.3248e-009     0.00013108      -9.769e-009    
  1.3             -2.4581e-009    0.00014119      -1.6059e-008   
  1.35            -1.7352e-009    0.00015167      -2.4354e-008   
  1.4             1.898e-010      0.0001617       -2.3972e-008   
  1.45            2.6192e-009     0.00017224      -2.4925e-008   
  1.5             -1.8661e-009    0.00018325      2.507e-009     
  1.55            -2.032e-009     0.00019397      -1.9399e-008   
  1.6             -2.829e-010     0.00020477      -2.0049e-008   
  1.65            1.932e-009      0.00021581      -2.6669e-008   
  1.7             -2.4743e-009    0.00022729      1.903e-009     
  1.75            -1.7222e-009    0.00023865      -1.774e-008    
  1.8             1.954e-010      0.00024962      -1.7588e-008   
  1.85            2.6226e-009     0.00026107      -1.831e-008    
  1.9             -1.8756e-009    0.00027295      8.764e-009     
  1.95            -7.577e-010     0.00028448      -1.5859e-008   
  2               2.7186e-009     0.000296        -2.4214e-008   
  2.05            -2.161e-009     0.00030811      8.394e-009     
  2.1             -5.676e-010     0.00031978      -1.4311e-008   
  2.15            1.4763e-009     0.00033151      -2.0998e-008   
  2.2             -2.2306e-009    0.00034383      9.307e-009     
  2.25            -5.017e-010     0.00035566      -1.3126e-008   
  2.3             1.5687e-009     0.00036778      -1.9619e-008   
  2.35            -2.3027e-009    0.0003802       9.536e-009     
  2.4             2.0066e-009     0.00039217      -2.3438e-008   
  2.45            -2.5e-009       0.00040465      8.751e-009     
  2.5             2.3917e-009     0.0004165       -2.4352e-008   
  2.55            -1.5439e-009    0.00042914      1.4726e-008    
  2.6             -9.429e-010     0.00044132      -1.1022e-008   
  2.65            2.7417e-009     0.00045345      -8.492e-009    
  2.7             -2.4466e-009    0.00046619      9.997e-009     
  2.75            2.2827e-009     0.00047823      -2.3709e-008   
  2.8             -1.4497e-009    0.00049099      1.6178e-008    
  2.85            -1.0015e-009    0.00050336      -9.815e-009    
  2.9             2.7452e-009     0.00051552      -7.78e-009     
  2.95            -2.3887e-009    0.00052838      1.1133e-008    
  3               1.9315e-009     0.00054048      -1.6969e-008   
END_DB

BEGIN_DB
 ICCAP_VAR VS         0              
 ICCAP_VAR VB         -3             
 ICCAP_VAR VD         0.1            

 #VG              IG              ID              IB             
  0               7.101e-010      -2.75e-011      -7.462e-009    
  0.05            2.4209e-009     1.7594e-009     -6.548e-009    
  0.1             -2.576e-009     2.152e-010      1.1297e-008    
  0.15            1.6439e-009     -3.0142e-009    -1.0636e-008   
  0.2             -1.831e-009     2.8696e-009     1.6844e-008    
  0.25            2.2921e-009     -2.4723e-009    -1.9475e-008   
  0.3             -2.1879e-009    2.1074e-009     1.5343e-008    
  0.35            2.4414e-009     4.8816e-009     -1.6127e-008   
  0.4             -1.3883e-009    2.4566e-008     -4.087e-009    
  0.45            4.591e-010      1.3496e-007     -8.538e-009    
  0.5             -1.4848e-009    4.945e-007      1.6573e-008    
  0.55            2.546e-009      1.3004e-006     1.8903e-008    
  0.6             -1.7514e-009    2.6282e-006     1.5644e-008    
  0.65            2.6481e-009     4.1695e-006     -1.0481e-008   
  0.7             -1.9191e-009    5.8911e-006     1.4694e-008    
  0.75            1.4956e-009     7.4933e-006     -1.4093e-008   
  0.8             9.256e-010      9.085e-006      8.733e-009     
  0.85            -2.5936e-009    1.05954e-005    7.735e-009     
  0.9             -1.9241e-009    1.2048e-005     1.4998e-008    
  0.95            1.4555e-009     1.3408e-005     -1.6983e-008   
  1               -2.2158e-009    1.477e-005      1.3025e-008    
  1.05            1.6201e-009     1.6027e-005     -1.6671e-008   
  1.1             8.654e-010      1.7288e-005     8.849e-009     
  1.15            -2.6066e-009    1.8513e-005     7.437e-009     
  1.2             2.6349e-009     1.9643e-005     -1.111e-008    
  1.25            -1.8913e-009    2.0811e-005     1.5071e-008    
  1.3             2.7333e-009     2.1916e-005     -1.3702e-008   
  1.35            2.21e-011       2.304e-005      7.768e-009     
  1.4             -2.1473e-009    2.4082e-005     1.3442e-008    
  1.45            1.7675e-009     2.5112e-005     -1.8297e-008   
  1.5             7.993e-010      2.6144e-005     9.017e-009     
  1.55            -2.6254e-009    2.7148e-005     7.109e-009     
  1.6             2.16e-010       2.8109e-005     -1.0473e-008   
  1.65            2.6459e-009     2.9059e-005     -1.0714e-008   
  1.7             -1.9186e-009    3.0031e-005     1.4868e-008    
  1.75            1.4999e-009     3.0954e-005     -1.3996e-008   
