! VERSION = 6.00
BEGIN_HEADER
 ICCAP_INPUTS
  VG         V  B GROUND SMU4 0.001 LIN        2    0          3          6    0.6       
  VS         V  E GROUND SMU2 0.1 CON        0
  VD         V  S GROUND SMU1 0.1 LIN        1    0          3          101  0.03      
  VB         V  C GROUND SMU3 0.1 LIN        3    0          -1.5       2    -1.5      
 ICCAP_OUTPUTS
  ID         I  S GROUND SMU1 B
  IB         I  C GROUND SMU3 B
  IG         I  B GROUND SMU4 B
END_HEADER

BEGIN_DB
 ICCAP_VAR VG         0              
 ICCAP_VAR VS         0              
 ICCAP_VAR VB         0              

 #VD              ID              IB              IG             
  0               1.01892e-007    2.5151e-008     7.573e-010     
  0.03            3.2182e-006     -8.05e-009      -1.2322e-009   
  0.06            5.0195e-006     2.7315e-008     -1.3218e-009   
  0.09            6.1955e-006     2.6295e-008     -1.291e-009    
  0.12            6.8385e-006     8.994e-009      1.2262e-009    
  0.15            7.7109e-006     -2.5124e-008    1.2345e-009    
  0.18            8.4333e-006     -2.2974e-008    2.1233e-009    
  0.21            9.2066e-006     -2.2339e-008    2.0795e-009    
  0.24            9.8843e-006     -2.1881e-008    2.0389e-009    
  0.27            1.06523e-005    -2.1203e-008    1.9984e-009    
  0.3             1.1262e-005     -1.1032e-008    2.6333e-009    
  0.33            1.227e-005      -9.479e-009     -1.1504e-009   
  0.36            1.3062e-005     2.1285e-008     -1.696e-009    
  0.39            1.3472e-005     9.715e-009      9.202e-010     
  0.42            1.427e-005      -2.2982e-008    2.1424e-009    
  0.45            1.5109e-005     -1.1e-008       -8.089e-010    
  0.48            1.6141e-005     2.7267e-008     -1.3223e-009   
  0.51            1.6692e-005     1.0433e-008     5.385e-010     
  0.54            1.7254e-005     -2.5091e-008    1.3196e-009    
  0.57            1.855e-005      -9.751e-009     -1.4302e-009   
  0.6             1.9239e-005     1.4383e-008     -1.4462e-009   
  0.63            2.0172e-005     2.5296e-008     -1.9486e-009   
  0.66            2.0626e-005     1.0334e-008     7.67e-010      
  0.69            2.1325e-005     -2.5686e-008    2.4229e-009    
  0.72            2.228e-005      -1.1117e-008    -6.186e-010    
  0.75            2.3506e-005     2.6057e-008     -1.3623e-009   
  0.78            2.4349e-005     2.0439e-008     -1.647e-009    
  0.81            2.4627e-005     9.598e-009      9.563e-010     
  0.84            2.561e-005      -2.2041e-008    2.08e-009      
  0.87            2.6666e-005     -1.0901e-008    -8.381e-010    
  0.9             2.7835e-005     2.7238e-008     -1.3149e-009   
  0.93            2.841e-005      1.0566e-008     5.819e-010     
  0.96            2.8979e-005     -2.526e-008     1.3042e-009    
  0.99            2.9995e-005     -1.6941e-008    1.7232e-009    
  1.02            3.1251e-005     -1.0191e-008    -1.0235e-009   
  1.05            3.2304e-005     2.4264e-008     -1.8947e-009   
  1.08            3.2703e-005     1.0265e-008     8.001e-010     
  1.11            3.3489e-005     -2.5265e-008    2.3749e-009    
  1.14            3.4572e-005     -1.1237e-008    -6.622e-010    
  1.17            3.5952e-005     2.652e-008      -1.3506e-009   
  1.2             3.6814e-005     1.9512e-008     -1.6057e-009   
  1.23            3.702e-005      9.503e-009      9.86e-010      
  1.26            3.8153e-005     -2.1161e-008    2.0102e-009    
  1.29            3.8959e-005     -1.2037e-008    1.3725e-009    
  1.32            4.0046e-005     -2.0221e-008    1.9345e-009    
  1.35            4.1215e-005     -1.0657e-008    -9.119e-010    
  1.38            4.2483e-005     2.6455e-008     -1.2956e-009   
  1.41            4.2951e-005     1.052e-008      6.712e-010     
  1.44            4.3557e-005     -2.5687e-008    1.2715e-009    
  1.47            4.4689e-005     -1.0994e-008    -5.056e-010    
  1.5             4.6211e-005     2.4869e-008     -1.3905e-009   
  1.53            4.5998e-005     8.806e-009      1.2725e-009    
  1.56            4.7351e-005     -1.388e-008     1.5388e-009    
  1.59            4.9036e-005     -9.698e-009     -1.1521e-009   
  1.62            4.9978e-005     2.1259e-008     -1.7064e-009   
  1.65            5.0149e-005     9.638e-009      9.221e-010     
  1.68            5.1169e-005     -2.3184e-008    2.1522e-009    
  1.71            5.2395e-005     -1.1289e-008    -7.998e-010    
  1.74            5.3813e-005     2.7119e-008     -1.323e-009    
  1.77            5.4383e-005     1.0086e-008     5.314e-010     
  1.8             5.4773e-005     -2.5284e-008    1.3238e-009    
  1.83            5.6827e-005     -1.003e-008     -1.4267e-009   
  1.86            5.7445e-005     1.4014e-008     -1.4486e-009   
  1.89            5.8507e-005     1.5553e-008     -1.7871e-009   
  1.92            5.95e-005       2.576e-008      -1.3464e-009   
  1.95            6.0386e-005     2.0194e-008     -1.48e-009     
  1.98            6.1385e-005     1.4044e-008     -1.8481e-009   
  2.01            6.2367e-005     2.4547e-008     -1.3574e-009   
  2.04            6.324e-005      1.8827e-008     -1.5121e-009   
  2.07            6.4244e-005     1.2414e-008     -1.9106e-009   
  2.1             6.5262e-005     8.809e-009      -2.3964e-009   
  2.13            6.5245e-005     7.387e-009      1.9528e-009    
  2.16            6.6314e-005     -1.4741e-008    -2.037e-010    
  2.19            6.7987e-005     1.6504e-008     -1.5322e-009   
  2.22            6.7852e-005     4.67e-009       1.0536e-009    
  2.25            6.9177e-005     -2.4459e-008    1.874e-009     
  2.28            7.0593e-005     -1.6654e-008    -9.369e-010    
  2.31            7.1889e-005     4.557e-009      -2.6043e-009   
  2.34            7.2765e-005     7.41e-009       -1.8345e-009   
  2.37            7.3821e-005     2.775e-009      -2.3219e-009   
  2.4             7.4677e-005     1.046e-009      -2.623e-009    
  2.43            7.5652e-005     3.212e-009      -1.8935e-009   
  2.46            7.5833e-005     -3.126e-009     2.2401e-009    
  2.49            7.6858e-005     -2.6018e-008    -6.266e-010    
  2.52            7.7991e-005     -2.4297e-008    -2.612e-009    
  2.55            7.8881e-005     -2.1469e-008    -2.6243e-009   
  2.58            7.898e-005      -1.0942e-008    1.646e-009     
  2.61            8.025e-005      -3.4738e-008    1.259e-010     
  2.64            8.2005e-005     -2.3776e-008    -1.5753e-009   
  2.67            8.241e-005      -1.9503e-008    2.395e-009     
  2.7             8.3718e-005     -4.2754e-008    -8.67e-010     
  2.73            8.5198e-005     -8.052e-009     -1.308e-009    
  2.76            8.5241e-005     -3.2561e-008    2.7905e-009    
  2.79            8.7182e-005     -5.2998e-008    -1.4784e-009   
  2.82            8.7741e-005     -3.3571e-008    -1.4218e-009   
  2.85            8.8047e-005     -4.2507e-008    2.5481e-009    
  2.88            8.973e-005      -6.7399e-008    -1.0498e-009   
  2.91            9.0804e-005     -3.8664e-008    -1.8437e-009   
  2.94            9.0909e-005     -5.8509e-008    2.2634e-009    
  2.97            9.1967e-005     -8.6477e-008    -6.674e-010    
  3               9.3611e-005     -5.4918e-008    -1.3495e-009   
END_DB

BEGIN_DB
 ICCAP_VAR VG         0.6            
 ICCAP_VAR VS         0              
 ICCAP_VAR VB         0              

 #VD              ID              IB              IG             
  0               1.569e-006      -9.572e-009     -3.989e-010    
  0.03            6.9926e-005     -8.156e-009     -1.7461e-009   
  0.06            0.00013488      9.411e-009      2.6671e-009    
  0.09            0.00019572      -1.7428e-008    1.7478e-009    
  0.12            0.00025221      -2.5172e-008    2.3083e-009    
  0.15            0.00030426      -1.1045e-008    -8.149e-010    
  0.18            0.00035229      2.6699e-008     -1.3005e-009   
  0.21            0.0003931       1.0285e-008     7.791e-010     
  0.24            0.00042853      -2.3911e-008    2.1981e-009    
  0.27            0.00045923      -1.1661e-008    1.3743e-009    
  0.3             0.00048732      -9.829e-009     -1.4495e-009   
  0.33            0.00050913      1.199e-008      -1.3784e-009   
  0.36            0.00052817      1.9126e-008     -1.5966e-009   
  0.39            0.00054211      8.98e-009       1.0807e-009    
  0.42            0.00055597      -1.5177e-008    1.6225e-009    
  0.45            0.00056924      -9.247e-009     -1.1776e-009   
  0.48            0.00057932      1.6943e-008     -1.5245e-009   
  0.51            0.00058847      1.5987e-008     -1.7888e-009   
  0.54            0.00059522      9.261e-009      9.536e-010     
  0.57            0.0006029       -1.9206e-008    1.8622e-009    
  0.6             0.0006095       -2.6197e-008    1.2479e-009    
  0.63            0.00061728      -1.1063e-008    -7.478e-010    
  0.66            0.00062436      2.7544e-008     -1.3116e-009   
  0.69            0.00062938      1.0268e-008     7.161e-010     
  0.72            0.00063414      -2.5331e-008    1.2346e-009    
  0.75            0.00064038      -1.0818e-008    -8.079e-010    
  0.78            0.00064681      2.6995e-008     -1.2991e-009   
  0.81            0.00065167      2.696e-008      -1.3381e-009   
  0.84            0.00065564      1.0591e-008     5.678e-010     
  0.87            0.00065913      -2.6059e-008    1.2646e-009    
  0.9             0.00066444      -1.1244e-008    -6.636e-010    
  0.93            0.00067019      2.77e-008       -1.326e-009    
  0.96            0.00067367      1.0523e-008     6.326e-010     
  0.99            0.00067643      -2.6153e-008    1.2506e-009    
  1.02            0.00068172      -1.1144e-008    -7.379e-010    
  1.05            0.00068674      2.7683e-008     -1.3144e-009   
  1.08            0.00068962      1.0273e-008     7.028e-010     
  1.11            0.00069244      -2.5443e-008    1.2363e-009    
  1.14            0.00069731      -1.0759e-008    -8.001e-010    
  1.17            0.00070221      2.7052e-008     -1.3035e-009   
  1.2             0.00070452      1.0446e-008     7.692e-010     
  1.23            0.00070719      -2.4532e-008    2.2286e-009    
  1.26            0.00071194      -1.0904e-008    -8.574e-010    
  1.29            0.000716        2.614e-008      -1.2885e-009   
  1.32            0.00071809      1.0122e-008     8.271e-010     
  1.35            0.00072078      -2.291e-008     2.115e-009     
  1.38            0.0007255       -1.0689e-008    -9.16e-010     
  1.41            0.00072953      1.1227e-008     -2.5458e-009   
  1.44            0.00073056      1.0344e-008     1.924e-009     
  1.47            0.00073335      -2.504e-008     1.312e-009     
  1.5             0.00073745      -1.1223e-008    -4.937e-010    
  1.53            0.00074184      2.6324e-008     -1.3514e-009   
  1.56            0.00074417      1.0424e-008     4.894e-010     
  1.59            0.0007455       -2.5711e-008    1.2849e-009    
  1.62            0.00074922      -1.1266e-008    -5.761e-010    
  1.65            0.00075365      2.6975e-008     -1.3388e-009   
  1.68            0.00075559      1.047e-008      5.611e-010     
  1.71            0.00075696      -2.6101e-008    1.2674e-009    
  1.74            0.00076075      -1.1585e-008    -6.612e-010    
  1.77            0.00076461      2.7162e-008     -1.3278e-009   
  1.8             0.00076646      9.908e-009      6.319e-010     
  1.83            0.00076795      -2.7037e-008    1.2496e-009    
  1.86            0.00077149      -1.2232e-008    -7.351e-010    
  1.89            0.00077525      9.129e-009      -2.6472e-009   
  1.92            0.00077778      1.3642e-008     -1.8348e-009   
  1.95            0.00078059      1.0698e-008     -2.1759e-009   
  1.98            0.00078308      8.326e-009      -2.458e-009    
  2.01            0.00078549      7.631e-009      -2.6163e-009   
  2.04            0.00078785      1.2536e-008     -1.7094e-009   
  2.07            0.00078827      3.306e-009      1.0075e-009    
  2.1             0.00079095      -2.4752e-008    1.7708e-009    
  2.13            0.00079507      -1.8126e-008    -1.0909e-009   
  2.16            0.00079769      1.602e-009      -2.3242e-009   
  2.19            0.00079995      -1.246e-009     -2.5473e-009   
  2.22            0.00080133      -2.1169e-008    -2.6652e-009   
  2.25            0.00080407      -6.792e-009     -7.28e-011     
  2.28            0.00080462      -3.9244e-008    1.7853e-009    
  2.31            0.00080812      -3.3124e-008    -2.3951e-009   
  2.34            0.00080935      -1.9201e-008    9.364e-010     
  2.37            0.00081156      -5.3679e-008    1.9103e-009    
  2.4             0.00081475      -4.7744e-008    -2.3281e-009   
  2.43            0.00081624      -3.5027e-008    8.728e-010     
  2.46            0.00081786      -7.3786e-008    2.0417e-009    
  2.49            0.00082123      -6.8787e-008    -2.2612e-009   
  2.52            0.00082286      -5.7512e-008    8.104e-010     
  2.55            0.00082408      -1.00888e-007   2.176e-009     
  2.58            0.00082754      -9.7123e-008    -2.1951e-009   
  2.61            0.00082942      -8.8806e-008    7.357e-010     
  2.64            0.00083128      -8.529e-008     -2.2e-010      
  2.67            0.00083457      -1.0336e-007    -1.4229e-009   
  2.7             0.00083522      -1.3167e-007    2.6151e-009    
  2.73            0.00083909      -1.6774e-007    -1.2533e-009   
  2.76            0.00084054      -1.6131e-007    -1.4737e-009   
  2.79            0.00084128      -1.8693e-007    2.5634e-009    
  2.82            0.00084483      -2.2779e-007    -1.1784e-009   
  2.85            0.00084651      -2.2481e-007    -1.5384e-009   
  2.88            0.00084724      -2.6025e-007    2.5083e-009    
  2.91            0.00085052      -3.0598e-007    -1.1071e-009   
  2.94            0.00085246      -3.0701e-007    -1.6177e-009   
  2.97            0.00085306      -3.5108e-007    2.4546e-009    
  3               0.00085613      -4.0464e-007    -1.0378e-009   
END_DB

BEGIN_DB
 ICCAP_VAR VG         1.2            
 ICCAP_VAR VS         0              
 ICCAP_VAR VB         0              

 #VD              ID              IB              IG             
  0               2.3414e-006     -8.309e-009     -1.3961e-009   
  0.03            0.00011092      2.6909e-008     1.0398e-009    
  0.06            0.00021682      -1.6937e-008    1.7155e-009    
  0.09            0.00031996      -2.4995e-008    1.2244e-009    
  0.12            0.00042         -1.0752e-008    -8.403e-010    
  0.15            0.00051637      2.6635e-008     -1.2873e-009   
  0.18            0.00061088      2.6909e-008     -1.3273e-009   
  0.21            0.00069842      1.0664e-008     6.031e-010     
  0.24            0.000781        -2.5801e-008    1.2531e-009    
  0.27            0.00085949      -1.1253e-008    -7.025e-010    
  0.3             0.00093314      2.759e-008      -1.3158e-009   
  0.33            0.0010024       1.0402e-008     6.745e-010     
  0.36            0.00106467      -2.5723e-008    1.2384e-009    
  0.39            0.001123        -1.1023e-008    -7.714e-010    
  0.42            0.001176        1.0178e-008     -1.015e-009    
  0.45            0.0012243       2.2352e-008     -1.739e-009    
  0.48            0.0012673       9.253e-009      9.881e-010     
  0.51            0.0013063       -1.8527e-008    1.8098e-009    
  0.54            0.0013406       -2.5479e-008    1.2338e-009    
  0.57            0.0013727       -1.0988e-008    -7.889e-010    
  0.6             0.0014009       2.7091e-008     -1.2992e-009   
  0.63            0.0014252       1.005e-008      7.604e-010     
  0.66            0.001446        -2.454e-008     1.2219e-009    
  0.69            0.0014668       -1.0688e-008    -8.479e-010    
  0.72            0.0014848       2.6365e-008     -1.2843e-009   
  0.75            0.0015005       2.7013e-008     -1.3244e-009   
  0.78            0.0015141       1.0657e-008     6.163e-010     
  0.81            0.0015259       -2.5849e-008    1.2478e-009    
  0.84            0.0015385       -1.1188e-008    -7.172e-010    
  0.87            0.0015507       2.7504e-008     -1.3126e-009   
  0.9             0.0015594       1.0676e-008     6.846e-010     
  0.93            0.0015682       -2.5372e-008    2.3784e-009    
  0.96            0.001578        -1.114e-008     -7.835e-010    
  0.99            0.0015874       2.7057e-008     -1.3005e-009   
  1.02            0.0015934       1.0467e-008     7.54e-010      
  1.05            0.0016          -2.4644e-008    2.2721e-009    
  1.08            0.0016087       -1.1142e-008    -8.407e-010    
  1.11            0.0016163       2.6258e-008     -1.2868e-009   
  1.14            0.0016214       1.0182e-008     8.165e-010     
  1.17            0.0016271       -2.3262e-008    2.1599e-009    
  1.2             0.0016343       -1.0722e-008    -9.003e-010    
  1.23            0.0016414       1.1064e-008     -2.5427e-009   
  1.26            0.0016447       1.038e-008      1.9138e-009    
  1.29            0.0016497       -2.4424e-008    1.3143e-009    
  1.32            0.0016556       -1.5627e-008    1.6235e-009    
  1.35            0.0016628       -9.374e-009     -1.2026e-009   
  1.38            0.0016674       1.6793e-008     -1.5193e-009   
  1.41            0.0016723       1.6761e-008     -1.7726e-009   
  1.44            0.0016751       9.193e-009      9.775e-010     
  1.47            0.0016802       -1.898e-008     1.8416e-009    
  1.5             0.0016842       -2.5552e-008    1.2361e-009    
  1.53            0.0016897       -1.1009e-008    -7.732e-010    
  1.56            0.0016954       2.701e-008      -1.3006e-009   
  1.59            0.0016994       2.5958e-008     -1.3402e-009   
  1.62            0.0017026       1.0461e-008     5.3e-010       
  1.65            0.001705        -2.5161e-008    1.2709e-009    
  1.68            0.0017103       -1.1271e-008    -6.21e-010     
  1.71            0.0017153       2.6608e-008     -1.3271e-009   
  1.74            0.0017184       1.0476e-008     6.06e-010      
  1.77            0.0017204       -2.568e-008     1.2528e-009    
  1.8             0.0017253       -1.1388e-008    -7.039e-010    
  1.83            0.0017305       2.6935e-008     -1.3156e-009   
  1.86            0.0017327       1.02e-008       6.65e-010      
  1.89            0.0017346       -2.6002e-008    1.236e-009     
  1.92            0.0017396       -1.1711e-008    -7.696e-010    
  1.95            0.0017443       2.6079e-008     -1.3011e-009   
  1.98            0.0017476       2.4774e-008     -1.3444e-009   
  2.01            0.00175         8.98e-009       5.225e-010     
  2.04            0.0017515       -2.6932e-008    1.2734e-009    
  2.07            0.0017575       -1.3657e-008    -1.6508e-009   
  2.1             0.00176         1.657e-008      -1.5643e-009   
  2.13            0.0017632       1.2183e-008     -1.8318e-009   
  2.16            0.0017663       8.257e-009      -2.1592e-009   
  2.19            0.0017694       4.904e-009      -2.4292e-009   
  2.22            0.0017726       3.545e-009      -2.5971e-009   
  2.25            0.0017748       8.425e-009      -1.7012e-009   
  2.28            0.0017763       -2.67e-009      2.4091e-009    
  2.31            0.0017802       -2.4011e-008    -9.819e-010    
  2.34            0.0017836       -6.094e-009     -2.4563e-009   
  2.37            0.0017856       -9.949e-009     5.19e-010      
  2.4             0.0017865       -4.9456e-008    1.2762e-009    
  2.43            0.0017906       -3.5371e-008    -2.6588e-009   
  2.46            0.0017907       -2.3967e-008    1.4541e-009    
  2.49            0.0017946       -5.182e-008     1.954e-010     
