! VERSION = 6.00
BEGIN_HEADER
 ICCAP_INPUTS
  VG         V  B GROUND SMU4 0.001 LIN        1    0          3          101  0.03      
  VS         V  E GROUND SMU2 0.1 CON        0
  VB         V  C GROUND SMU3 0.1 LIN        3    0          -3         3    -1.5      
  VD         V  S GROUND SMU1 0.1 LIN        2    0.1        3          2    2.9       
 ICCAP_OUTPUTS
  IG         I  B GROUND SMU4 B
  ID         I  S GROUND SMU1 B
  IB         I  C GROUND SMU3 B
END_HEADER

BEGIN_DB
 ICCAP_VAR VS         0              
 ICCAP_VAR VB         0              
 ICCAP_VAR VD         0.1            

 #VG              IG              ID              IB             
  0               2.5774e-009     3.8857e-007     -8.43e-009     
  0.03            6.372e-010      6.3429e-007     1.0677e-008    
  0.06            -1.542e-009     9.781e-007      1.769e-008     
  0.09            -2.6193e-009    1.3652e-006     -2.3193e-008   
  0.12            -8.43e-010      1.8126e-006     -1.0646e-008   
  0.15            1.4465e-009     2.2825e-006     -1.2402e-008   
  0.18            1.2461e-009     2.7827e-006     -8.253e-009    
  0.21            2.7501e-009     3.2909e-006     -9.762e-009    
  0.24            4.189e-010      3.8066e-006     1.0373e-008    
  0.27            -1.7915e-009    4.2926e-006     2.3361e-008    
  0.3             -1.4041e-009    4.7538e-006     4.332e-009     
  0.33            -1.3108e-009    5.2135e-006     8.876e-009     
  0.36            -2.5462e-009    5.6515e-006     1.128e-008     
  0.39            -1.9795e-009    6.0583e-006     5.82e-010      
  0.42            -1.4781e-009    6.4677e-006     3.019e-009     
  0.45            -1.3376e-009    6.8605e-006     7.418e-009     
  0.48            -2.6298e-009    7.2457e-006     1.1269e-008    
  0.51            1.7597e-009     7.5984e-006     -1.7515e-008   
  0.54            1.3272e-009     7.9532e-006     -8.496e-009    
  0.57            2.8097e-009     8.2975e-006     -8.338e-009    
  0.6             2.6012e-009     8.6397e-006     9.2e-011       
  0.63            5.857e-010      8.9706e-006     1.0614e-008    
  0.66            -1.5908e-009    9.2971e-006     1.9068e-008    
  0.69            -1.3596e-009    9.6053e-006     5.863e-009     
  0.72            -1.2772e-009    9.9063e-006     1.0308e-008    
  0.75            -2.3761e-009    1.02147e-005    1.1466e-008    
  0.78            -1.742e-009     1.04927e-005    1.552e-009     
  0.81            -1.3986e-009    1.0781e-005     4.215e-009     
  0.84            -1.3072e-009    1.10638e-005    9.2e-009       
  0.87            -2.5281e-009    1.13331e-005    1.1227e-008    
  0.9             1.7122e-009     1.16e-005       -1.9119e-008   
  0.93            6.298e-010      1.187e-005      1.0535e-008    
  0.96            -1.5561e-009    1.2129e-005     1.7949e-008    
  0.99            -1.3514e-009    1.2382e-005     6.447e-009     
  1.02            -2.6602e-009    1.2644e-005     1.0745e-008    
  1.05            1.8877e-009     1.2878e-005     -1.9837e-008   
  1.08            1.3766e-009     1.3123e-005     -7.664e-009    
  1.11            1.2342e-009     1.3359e-005     -8.476e-009    
  1.14            2.6991e-009     1.3598e-005     -1.0909e-008   
  1.17            -1.5038e-009    1.384e-005      1.6565e-008    
  1.2             -1.3408e-009    1.4073e-005     7.315e-009     
  1.23            -2.6381e-009    1.4301e-005     1.141e-008     
  1.26            1.805e-009      1.4517e-005     -1.8517e-008   
  1.29            1.3434e-009     1.4738e-005     -8.36e-009     
  1.32            2.8062e-009     1.4963e-005     -8.338e-009    
  1.35            2.6379e-009     1.5184e-005     1.21e-010      
  1.38            5.543e-010      1.5399e-005     1.0626e-008    
  1.41            9.465e-010      1.5603e-005     9.51e-009      
  1.44            -1.953e-010     1.5819e-005     1.1685e-008    
  1.47            -1.3878e-009    1.6033e-005     2.4481e-008    
  1.5             -1.2965e-009    1.6235e-005     9.439e-009     
  1.53            -2.484e-009     1.6441e-005     1.1212e-008    
  1.56            -1.8819e-009    1.6633e-005     8.34e-010      
  1.59            -1.4343e-009    1.6839e-005     3.647e-009     
  1.62            -1.3246e-009    1.7039e-005     8.296e-009     
  1.65            -2.5923e-009    1.7234e-005     1.1376e-008    
  1.68            -2.0939e-009    1.7421e-005     5.41e-010      
  1.71            -1.5327e-009    1.7619e-005     2.641e-009     
  1.74            -1.3494e-009    1.7813e-005     6.539e-009     
  1.77            -2.6563e-009    1.8001e-005     1.077e-008     
  1.8             1.8761e-009     1.8179e-005     -1.9547e-008   
  1.83            1.3659e-009     1.8369e-005     -7.705e-009    
  1.86            1.2298e-009     1.8553e-005     -8.221e-009    
  1.89            2.6869e-009     1.8736e-005     -1.1144e-008   
  1.92            1.4121e-009     1.8913e-005     1.0192e-008    
  1.95            3.129e-010      1.91e-005       1.0548e-008    
  1.98            7.517e-010      1.9278e-005     1.0055e-008    
  2.01            -1.4575e-009    1.9453e-005     1.4859e-008    
  2.04            -1.3296e-009    1.963e-005      8.04e-009      
  2.07            -2.6064e-009    1.9807e-005     1.1498e-008    
  2.1             -2.1249e-009    1.9972e-005     5.61e-010      
  2.13            -1.5564e-009    2.0145e-005     2.553e-009     
  2.16            -1.3537e-009    2.0318e-005     6.318e-009     
  2.19            -2.6618e-009    2.0487e-005     1.0623e-008    
  2.22            1.9057e-009     2.0646e-005     -1.9894e-008   
  2.25            1.3821e-009     2.0816e-005     -7.521e-009    
  2.28            2.7977e-009     2.0982e-005     -8.21e-009     
  2.31            2.6908e-009     2.1152e-005     2.76e-010      
  2.34            1.3912e-009     2.1303e-005     9.145e-009     
  2.37            2.907e-010      2.1471e-005     1.0646e-008    
  2.4             7.304e-010      2.1635e-005     1.0402e-008    
  2.43            -1.4739e-009    2.1787e-005     1.5504e-008    
  2.46            -1.3338e-009    2.1948e-005     7.952e-009     
  2.49            -2.6192e-009    2.2107e-005     1.1628e-008    
  2.52            -2.1546e-009    2.2253e-005     5.81e-010      
  2.55            -1.5738e-009    2.2411e-005     2.427e-009     
  2.58            -1.3578e-009    2.2564e-005     5.991e-009     
  2.61            -2.6685e-009    2.2718e-005     1.0672e-008    
  2.64            1.9465e-009     2.2862e-005     -2.0455e-008   
  2.67            1.3957e-009     2.3015e-005     -7.252e-009    
  2.7             1.2394e-009     2.3161e-005     -8.047e-009    
  2.73            2.7169e-009     2.3311e-005     -1.0679e-008   
  2.76            1.37e-009       2.3453e-005     1.0081e-008    
  2.79            2.731e-010      2.36e-005       1.0574e-008    
  2.82            7.166e-010      2.3748e-005     1.0239e-008    
  2.85            -1.4847e-009    2.388e-005      1.5895e-008    
  2.88            -1.3346e-009    2.4027e-005     7.672e-009     
  2.91            -2.6281e-009    2.4171e-005     1.1374e-008    
  2.94            -1.3204e-009    2.4307e-005     -9.411e-009    
  2.97            -1.374e-010     2.4443e-005     -1.1332e-008   
  3               -6.513e-010     2.4576e-005     -1.1258e-008   
END_DB

BEGIN_DB
 ICCAP_VAR VS         0              
 ICCAP_VAR VB         0              
 ICCAP_VAR VD         3              

 #VG              IG              ID              IB             
  0               1.1329e-009     3.3079e-006     1.2957e-008    
  0.03            1.9974e-009     4.2328e-006     -2.1179e-008   
  0.06            1.4091e-009     5.302e-006      -1.2306e-008   
  0.09            2.776e-009      6.442e-006      -1.4102e-008   
  0.12            2.7102e-009     7.6905e-006     -6.581e-009    
  0.15            2.1888e-009     8.993e-006      -8.552e-009    
  0.18            1.5378e-009     1.03602e-005    -1.3909e-008   
  0.21            -1.5028e-009    1.19e-005       -9.894e-009    
  0.24            -2.0732e-009    1.3365e-005     -2.0348e-008   
  0.27            -2.4412e-009    1.492e-005      -2.0086e-008   
  0.3             -2.6486e-009    1.652e-005      -1.913e-008    
  0.33            -1.8769e-009    1.8212e-005     -2.3954e-008   
  0.36            -2.1647e-009    1.9881e-005     -2.3023e-008   
  0.39            -2.5193e-009    2.1615e-005     -2.2535e-008   
  0.42            -2.6716e-009    2.3371e-005     -2.128e-008    
  0.45            -2.5562e-009    2.5149e-005     -1.6644e-008   
  0.48            -2.2627e-009    2.702e-005      -2.5647e-008   
  0.51            -2.5839e-009    2.8862e-005     -2.4507e-008   
  0.54            -2.6665e-009    3.0731e-005     -2.1869e-008   
  0.57            -2.4584e-009    3.263e-005      -1.7581e-008   
  0.6             -2.3674e-009    3.4546e-005     -2.635e-008    
  0.63            -2.6264e-009    3.6536e-005     -2.5616e-008   
  0.66            -2.6431e-009    3.8488e-005     -2.1689e-008   
  0.69            -2.3329e-009    4.048e-005      -1.8167e-008   
  0.72            -2.4586e-009    4.2468e-005     -2.7209e-008   
  0.75            -2.6573e-009    4.453e-005      -2.5271e-008   
  0.78            -2.6054e-009    4.6555e-005     -2.0768e-008   
  0.81            -2.185e-009     4.8602e-005     -2.8006e-008   
  0.84            -2.5344e-009    5.066e-005      -2.6731e-008   
  0.87            -2.6673e-009    5.2734e-005     -2.4611e-008   
  0.9             -2.5278e-009    5.4859e-005     -1.9548e-008   
  0.93            -2.2896e-009    5.6961e-005     -2.7936e-008   
  0.96            -2.599e-009     5.9079e-005     -2.6343e-008   
  0.99            -2.6656e-009    6.12e-005       -2.2806e-008   
  1.02            -2.4281e-009    6.3379e-005     -1.8306e-008   
  1.05            -2.3876e-009    6.5526e-005     -2.6554e-008   
  1.08            -2.6347e-009    6.7676e-005     -2.511e-008    
  1.11            -2.639e-009     6.9832e-005     -2.0756e-008   
  1.14            -2.2945e-009    7.2019e-005     -1.7015e-008   
  1.17            -2.4787e-009    7.4249e-005     -2.5845e-008   
  1.2             -2.6616e-009    7.643e-005      -2.3445e-008   
  1.23            -2.5913e-009    7.8622e-005     -1.8281e-008   
  1.26            -2.2078e-009    8.0818e-005     -2.5564e-008   
  1.29            -2.5558e-009    8.3035e-005     -2.3957e-008   
  1.32            -2.6701e-009    8.5304e-005     -2.1241e-008   
  1.35            -1.969e-009     8.7519e-005     -2.5138e-008   
  1.38            -2.3076e-009    8.9741e-005     -2.418e-008    
  1.41            -2.6095e-009    9.1985e-005     -2.2711e-008   
  1.44            -2.6616e-009    9.427e-005      -1.8564e-008   
  1.47            -2.0517e-009    9.6516e-005     -2.3883e-008   
  1.5             -2.4191e-009    9.8759e-005     -2.242e-008    
  1.53            -2.6454e-009    0.000101012     -2.0535e-008   
  1.56            -1.8613e-009    0.000103282     -2.4174e-008   
  1.59            -2.144e-009     0.000105588     -2.2123e-008   
  1.62            -2.503e-009     0.000107863     -2.0987e-008   
  1.65            -2.6632e-009    0.000110119     -1.8533e-008   
  1.68            -1.9287e-009    0.000112393     -2.2194e-008   
  1.71            1.5721e-009     0.00011462      -2.1063e-008   
  1.74            -2.634e-009     0.00011705      -1.79e-010     
  1.77            -2.1597e-009    0.00011928      -2.0295e-008   
  1.8             -2.5129e-009    0.00012155      -1.9098e-008   
  1.83            -2.6715e-009    0.00012387      -1.6468e-008   
  1.86            -1.9378e-009    0.0001262       -2.0717e-008   
  1.89            -2.2568e-009    0.0001285       -1.931e-008    
  1.92            -1.3462e-009    0.00013087      -1.9105e-008   
  1.95            -1.744e-009     0.00013312      -1.995e-008    
  1.98            -2.0056e-009    0.00013538      -1.9286e-008   
  2.01            -1.0538e-009    0.00013778      -1.851e-008    
  2.04            -1.4609e-009    0.00014012      -1.9272e-008   
  2.07            -1.8225e-009    0.00014238      -1.919e-008    
  2.1             -2.0903e-009    0.0001446       -1.7672e-008   
  2.13            -1.1589e-009    0.00014706      -1.7185e-008   
  2.16            -1.5764e-009    0.0001494       -1.8749e-008   
  2.19            -1.8883e-009    0.00015166      -1.7843e-008   
  2.22            -8.87e-010      0.00015394      -1.7571e-008   
  2.25            -1.262e-009     0.00015632      -1.6356e-008   
  2.28            -1.6725e-009    0.00015868      -1.6986e-008   
  2.31            -1.9523e-009    0.00016093      -1.6794e-008   
  2.34            -9.829e-010     0.00016324      -1.669e-008    
  2.37            -1.3706e-009    0.00016561      -1.5559e-008   
  2.4             -1.7647e-009    0.00016795      -1.6854e-008   
  2.43            -2.0257e-009    0.00017022      -1.6112e-008   
  2.46            -1.0721e-009    0.00017257      -1.5349e-008   
  2.49            -1.4811e-009    0.00017492      -1.6438e-008   
  2.52            -1.8338e-009    0.00017716      -1.6304e-008   
  2.55            -8.142e-010     0.0001795       -1.5858e-008   
  2.58            -1.1716e-009    0.00018189      -1.4213e-008   
  2.61            -1.5873e-009    0.00018422      -1.6017e-008   
  2.64            -1.8919e-009    0.00018646      -1.5185e-008   
  2.67            -8.993e-010     0.00018876      -1.4831e-008   
  2.7             -1.2731e-009    0.00019118      -1.3878e-008   
  2.73            -1.6848e-009    0.00019346      -1.4665e-008   
  2.76            -1.9574e-009    0.00019573      -1.4384e-008   
  2.79            -9.886e-010     0.00019806      -1.4309e-008   
  2.82            -1.3863e-009    0.00020045      -1.3412e-008   
  2.85            -1.774e-009     0.00020269      -1.4726e-008   
  2.88            -7.237e-010     0.00020497      -1.4871e-008   
  2.91            -1.0877e-009    0.0002073       -1.3065e-008   
  2.94            -1.4924e-009    0.00020964      -1.4339e-008   
  2.97            -1.8462e-009    0.00021194      -1.4092e-008   
  3               -8.215e-010     0.00021421      -1.3912e-008   
END_DB

BEGIN_DB
 ICCAP_VAR VS         0              
 ICCAP_VAR VB         -1.5           
 ICCAP_VAR VD         0.1            

 #VG              IG              ID              IB             
  0               1.4368e-009     4.9167e-009     2.652e-009     
  0.03            1.3246e-009     8.0546e-009     -8.168e-009    
  0.06            9.391e-010      2.0756e-008     5.74e-010      
  0.09            -1.37e-009      4.2959e-008     2.5879e-008    
  0.12            -1.2859e-009    8.9902e-008     1.0297e-008    
  0.15            1.0854e-009     1.7789e-007     -1.8513e-008   
  0.18            1.4881e-009     3.2948e-007     1.0507e-008    
  0.21            1.9266e-009     5.7061e-007     1.019e-008     
  0.24            -1.357e-009     9.0333e-007     2.632e-008     
  0.27            -2.2182e-009    1.2784e-006     -1.5646e-008   
  0.3             1.9618e-009     1.709e-006      -2.0962e-008   
  0.33            1.4013e-009     2.1867e-006     -7.032e-009    
  0.36            2.7786e-009     2.6603e-006     -8.235e-009    
  0.39            2.0311e-009     3.1429e-006     1.0171e-008    
  0.42            9.226e-010      3.6053e-006     9.772e-009     
  0.45            -1.3706e-009    4.065e-006      1.1682e-008    
  0.48            -2.6694e-009    4.5121e-006     1.0033e-008    
  0.51            2.0261e-009     4.9128e-006     -2.1931e-008   
  0.54            1.4302e-009     5.3159e-006     -6.486e-009    
  0.57            2.7656e-009     5.7018e-006     -8.078e-009    
  0.6             1.9994e-009     6.082e-006      1.0077e-008    
  0.63            8.981e-010      6.4527e-006     9.993e-009     
  0.66            -1.3745e-009    6.8104e-006     1.1965e-008    
  0.69            -2.6733e-009    7.154e-006      9.639e-009     
  0.72            2.0738e-009     7.4713e-006     -2.2637e-008   
  0.75            1.4469e-009     7.802e-006      -5.821e-009    
  0.78            1.2512e-009     8.1115e-006     -8.201e-009    
  0.81            2.753e-009      8.4157e-006     -9.317e-009    
  0.84            -1.5762e-009    8.7273e-006     1.8775e-008    
  0.87            -1.3509e-009    9.018e-006      6.014e-009     
  0.9             -2.6588e-009    9.3108e-006     1.0724e-008    
  0.93            1.9119e-009     9.5796e-006     -2.0327e-008   
  0.96            1.3751e-009     9.8556e-006     -7.35e-009     
  0.99            1.2339e-009     1.01204e-005    -7.956e-009    
  1.02            2.695e-009      1.03902e-005    -1.0754e-008   
  1.05            1.3966e-009     1.06469e-005    9.266e-009     
  1.08            2.977e-010      1.09154e-005    1.0525e-008    
  1.11            7.409e-010      1.11612e-005    1.0563e-008    
  1.14            -1.5399e-009    1.141e-005      1.4895e-008    
  1.17            1.8657e-009     1.165e-005      -1.9342e-008   
  1.2             1.3555e-009     1.1891e-005     -7.807e-009    
  1.23            2.8004e-009     1.2126e-005     -8.124e-009    
  1.26            -1.2906e-009    1.2367e-005     2.5883e-008    
  1.29            -2.411e-009     1.2598e-005     1.1113e-008    
  1.32            -1.7831e-009    1.2822e-005     1.069e-009     
  1.35            -1.3998e-009    1.3045e-005     4.103e-009     
  1.38            -1.3112e-009    1.3269e-005     9.253e-009     
  1.41            -2.5339e-009    1.349e-005      1.1128e-008    
  1.44            -1.9679e-009    1.37e-005       4.48e-010      
  1.47            -1.4667e-009    1.3915e-005     3.001e-009     
  1.5             -1.3309e-009    1.4129e-005     7.77e-009      
  1.53            -2.6149e-009    1.4338e-005     1.1479e-008    
  1.56            -2.1581e-009    1.4537e-005     4.77e-010      
  1.59            -1.5585e-009    1.4747e-005     2.37e-009      
  1.62            -1.3513e-009    1.4951e-005     6.138e-009     
  1.65            -2.66e-009      1.5153e-005     1.0864e-008    
  1.68            1.9104e-009     1.5342e-005     -2.0221e-008   
  1.71            1.3744e-009     1.5547e-005     -7.55e-009     
  1.74            1.2335e-009     1.5737e-005     -8.076e-009    
  1.77            2.6934e-009     1.5927e-005     -1.0625e-008   
  1.8             4.953e-010      1.6125e-005     1.0475e-008    
  1.83            -1.6999e-009    1.6315e-005     2.1745e-008    
  1.86            -1.3751e-009    1.6501e-005     5.287e-009     
  1.89            -1.2931e-009    1.669e-005      9.871e-009     
  1.92            -2.4506e-009    1.6877e-005     1.1101e-008    
  1.95            -1.8508e-009    1.7049e-005     8.58e-010      
  1.98            -1.4195e-009    1.7231e-005     3.906e-009     
  2.01            -1.3133e-009    1.7418e-005     9.007e-009     
  2.04            -2.5576e-009    1.7595e-005     1.1117e-008    
  2.07            -2.036e-009     1.7762e-005     4.44e-010      
  2.1             -1.5023e-009    1.7937e-005     2.726e-009     
  2.13            -1.3353e-009    1.8119e-005     7.4e-009       
  2.16            -2.6223e-009    1.8291e-005     1.1458e-008    
  2.19            -1.3007e-009    1.8462e-005     -9.472e-009    
  2.22            -1.082e-010     1.862e-005      -1.1199e-008   
  2.25            -6.305e-010     1.879e-005      -1.1347e-008   
  2.28            1.6963e-009     1.8957e-005     -1.6884e-008   
  2.31            1.3019e-009     1.9126e-005     -8.685e-009    
  2.34            2.8069e-009     1.9287e-005     -8.287e-009    
  2.37            2.5274e-009     1.9458e-005     -6.2e-011      
  2.4             6.551e-010      1.9621e-005     1.074e-008     
  2.43            -1.5366e-009    1.9776e-005     1.7514e-008    
  2.46            -1.3377e-009    1.9939e-005     7.073e-009     
  2.49            -2.6352e-009    2.0096e-005     1.1142e-008    
