! VERSION = 6.00
BEGIN_HEADER
 ICCAP_INPUTS
  VG         V  B GROUND SMU4 0.001 LIN        2    0          3          6    0.6       
  VS         V  E GROUND SMU3 0.1 CON        0
  VD         V  S GROUND SMU2 0.1 LIN        1    0          3          61   0.05      
  VB         V  C GROUND SMU1 0.1 LIN        3    0          -1.5       2    -1.5      
 ICCAP_OUTPUTS
  ID         I  S GROUND SMU2 B
  IB         I  C GROUND SMU1 B
  IG         I  B GROUND SMU4 B
END_HEADER

BEGIN_DB
 ICCAP_VAR VG         0              
 ICCAP_VAR VS         0              
 ICCAP_VAR VB         0              

 #VD              ID              IB              IG             
  0               1.3462e-008     8.048e-009      1.3197e-009    
  0.05            4.1025e-007     -8.316e-009     -6.16e-011     
  0.1             5.3008e-007     1.1469e-008     6.167e-010     
  0.15            6.0742e-007     2.5277e-008     -1.3647e-009   
  0.2             6.4355e-007     1.0993e-008     7.805e-010     
  0.25            7.1226e-007     2.0641e-008     -1.7222e-009   
  0.3             7.6169e-007     1.7669e-008     -1.8591e-009   
  0.35            8.0624e-007     1.2035e-008     -1.4462e-009   
  0.4             8.6114e-007     2.0283e-008     -1.5075e-009   
  0.45            9.0956e-007     1.882e-008      -1.5994e-009   
  0.5             9.5829e-007     1.8101e-008     -1.72e-009     
  0.55            1.00658e-006    1.7652e-008     -1.8592e-009   
  0.6             1.05011e-006    1.2212e-008     -1.4444e-009   
  0.65            1.10683e-006    2.0203e-008     -1.5038e-009   
  0.7             1.1084e-006     1.9036e-008     1.379e-009     
  0.75            1.1809e-006     1.1077e-008     8.956e-010     
  0.8             1.277e-006      2.4475e-008     -1.8996e-009   
  0.85            1.3252e-006     1.9657e-008     -1.6824e-009   
  0.9             1.376e-006      1.5135e-008     -1.52e-009     
  0.95            1.4269e-006     1.1676e-008     -2.438e-010    
  1               1.4788e-006     2.6281e-008     -1.3797e-009   
  1.05            1.5257e-006     1.2233e-008     -2.5611e-009   
  1.1             1.5833e-006     2.5733e-008     -1.3879e-009   
  1.15            1.6319e-006     2.1378e-008     -1.4462e-009   
  1.2             1.6783e-006     1.7974e-008     -1.7876e-009   
  1.25            1.7331e-006     1.7193e-008     -1.5944e-009   
  1.3             1.7849e-006     1.3362e-008     -1.4723e-009   
  1.35            1.8345e-006     1.7575e-008     -1.8573e-009   
  1.4             1.8883e-006     1.8774e-008     -1.6527e-009   
  1.45            1.9414e-006     1.4492e-008     -1.5031e-009   
  1.5             1.9905e-006     1.7183e-008     -1.9349e-009   
  1.55            2.0477e-006     2.0283e-008     -1.7196e-009   
  1.6             2.096e-006      1.569e-008      -1.5461e-009   
  1.65            2.1503e-006     1.2175e-008     -1.446e-009    
  1.7             2.2016e-006     1.8e-008        -1.7804e-009   
  1.75            2.257e-006      1.7185e-008     -1.6001e-009   
  1.8             2.3101e-006     1.3319e-008     -1.4724e-009   
  1.85            2.3625e-006     1.7519e-008     -1.8658e-009   
  1.9             2.4183e-006     1.8622e-008     -1.6544e-009   
  1.95            2.4706e-006     1.4329e-008     -1.5093e-009   
  2               2.5205e-006     1.712e-008      -1.9374e-009   
  2.05            2.5786e-006     2.0115e-008     -1.7158e-009   
  2.1             2.629e-006      1.5676e-008     -1.5472e-009   
  2.15            2.6832e-006     1.1978e-008     -1.445e-009    
  2.2             2.7369e-006     1.7835e-008     -1.7862e-009   
  2.25            2.7931e-006     1.6926e-008     -1.5938e-009   
  2.3             2.8471e-006     1.298e-008      -1.4736e-009   
  2.35            2.8988e-006     1.7098e-008     -1.8569e-009   
  2.4             2.9564e-006     1.8196e-008     -1.6517e-009   
  2.45            3.0082e-006     1.3904e-008     -1.505e-009    
  2.5             3.0599e-006     1.6409e-008     -1.9389e-009   
  2.55            3.1193e-006     1.9451e-008     -1.7139e-009   
  2.6             3.17e-006       1.4788e-008     -1.549e-009    
  2.65            3.2258e-006     1.5503e-008     -2.0171e-009   
  2.7             3.2815e-006     1.1517e-008     -2.4843e-009   
  2.75            3.3295e-006     9.092e-009      -2.7226e-009   
  2.8             3.3648e-006     6.036e-009      -1.3907e-009   
  2.85            3.4464e-006     1.908e-008      -1.461e-009    
  2.9             3.4969e-006     1.5329e-008     -1.8227e-009   
  2.95            3.5606e-006     1.1178e-008     -2.3369e-009   
  3               3.6121e-006     8.159e-009      -2.6655e-009   
END_DB

BEGIN_DB
 ICCAP_VAR VG         0.6            
 ICCAP_VAR VS         0              
 ICCAP_VAR VB         0              

 #VD              ID              IB              IG             
  0               4.5838e-007     1.1496e-008     -1.0448e-009   
  0.05            3.0507e-005     6.555e-009      1.747e-009     
  0.1             5.8727e-005     -1.944e-008     1.5302e-009    
  0.15            8.3109e-005     -2.1358e-008    1.3985e-009    
  0.2             0.000103838     -1.2454e-008    2.7516e-009    
  0.25            0.000121        -1.1817e-008    -2.7014e-009   
  0.3             0.00013435      6.708e-009      -1.3931e-009   
  0.35            0.00014397      1.1186e-008     7.286e-010     
  0.4             0.00015101      -3.082e-009     1.9023e-009    
  0.45            0.00015619      -1.9791e-008    1.5134e-009    
  0.5             0.00016005      -1.2328e-008    2.7619e-009    
  0.55            0.00016328      -1.4225e-008    1.5996e-009    
  0.6             0.00016587      -2.2071e-008    1.3586e-009    
  0.65            0.00016847      -1.1895e-008    -7.06e-010     
  0.7             0.00017065      1.074e-009      -1.951e-009    
  0.75            0.00017263      1.8902e-008     -1.5939e-009   
  0.8             0.00017435      2.2723e-008     -1.4172e-009   
  0.85            0.00017569      1.1466e-008     5.992e-010     
  0.9             0.00017722      1.1368e-008     6.246e-010     
  0.95            0.00017865      1.133e-008      6.535e-010     
  1               0.00017998      1.1324e-008     6.757e-010     
  1.05            0.0001813       1.1349e-008     7.012e-010     
  1.1             0.00018252      1.1368e-008     7.264e-010     
  1.15            0.00018346      -3.02e-009      1.9022e-009    
  1.2             0.00018447      -1.9683e-008    1.5081e-009    
  1.25            0.00018561      -2.2881e-008    1.3343e-009    
  1.3             0.00018718      -1.185e-008     -7.843e-010    
  1.35            0.0001881       -1.1825e-008    -8.093e-010    
  1.4             0.00018913      -1.1763e-008    -8.353e-010    
  1.45            0.0001901       -1.1776e-008    -8.576e-010    
  1.5             0.00019131      2.371e-009      -1.7197e-009   
  1.55            0.00019234      2.0926e-008     -1.4707e-009   
  1.6             0.00019328      1.2781e-008     -2.5316e-009   
  1.65            0.00019408      1.4741e-008     -1.5156e-009   
  1.7             0.0001951       1.2209e-008     -2.5941e-009   
  1.75            0.00019597      1.6506e-008     -1.5813e-009   
  1.8             0.0001968       2.2552e-008     -1.4121e-009   
  1.85            0.00019729      1.1277e-008     6.147e-010     
  1.9             0.00019795      8.134e-009      2.5976e-009    
  1.95            0.00019842      -1.9043e-008    1.6593e-009    
  2               0.00019915      -2.2241e-008    1.3811e-009    
  2.05            0.00020023      -1.2786e-008    -6.471e-010    
  2.1             0.0002013       -4.12e-010      -2.0265e-009   
  2.15            0.0002021       1.6586e-008     -1.6468e-009   
  2.2             0.0002029       9.215e-009      -2.6801e-009   
  2.25            0.00020355      9.781e-009      -2.4481e-009   
  2.3             0.0002042       1.1805e-008     -2.0706e-009   
  2.35            0.00020486      1.2366e-008     -1.6625e-009   
  2.4             0.00020561      3.935e-009      -2.6874e-009   
  2.45            0.0002062       3.184e-009      -2.4677e-009   
  2.5             0.00020684      3.224e-009      -2.0924e-009   
  2.55            0.00020716      -2.0997e-008    -2.7871e-009   
  2.6             0.00020787      -2.4641e-008    -2.7876e-009   
  2.65            0.0002087       1.96e-009       -1.3916e-009   
  2.7             0.00020877      -1.8669e-008    9.023e-010     
  2.75            0.00020919      -4.1295e-008    1.601e-009     
  2.8             0.00021001      -5.4359e-008    -3.64e-010     
  2.85            0.00021081      -5.1035e-008    -2.3819e-009   
  2.9             0.0002116       -4.935e-008     -1.443e-009    
  2.95            0.00021203      -6.1e-008       5.256e-010     
  3               0.00021226      -8.6397e-008    2.275e-009     
END_DB

BEGIN_DB
 ICCAP_VAR VG         1.2            
 ICCAP_VAR VS         0              
 ICCAP_VAR VB         0              

 #VD              ID              IB              IG             
  0               1.0197e-006     7.192e-009      1.6014e-009    
  0.05            5.1027e-005     -2.4846e-008    1.5394e-009    
  0.1             0.000101242     -7.408e-009     1.3248e-009    
  0.15            0.00014828      -1.0682e-008    -2.7763e-009   
  0.2             0.00019264      2.5349e-008     -1.3911e-009   
  0.25            0.00023358      1.1074e-008     7.698e-010     
  0.3             0.00027128      -4.067e-009     1.7913e-009    
  0.35            0.0003055       -1.9746e-008    1.4437e-009    
  0.4             0.00033624      -1.3643e-008    2.739e-009     
  0.45            0.00036344      -1.2776e-008    1.5121e-009    
  0.5             0.00038698      -2.2773e-008    1.3351e-009    
  0.55            0.00040749      -1.2083e-008    -7.54e-010     
  0.6             0.00042472      1.542e-009      -1.8713e-009   
  0.65            0.00043894      1.8927e-008     -1.5232e-009   
  0.7             0.00045064      2.3164e-008     -1.3989e-009   
  0.75            0.00045973      1.1675e-008     6.404e-010     
  0.8             0.00046742      1.157e-008      6.678e-010     
  0.85            0.00047386      1.1543e-008     6.92e-010      
  0.9             0.00047913      1.1488e-008     7.169e-010     
  0.95            0.00048366      1.133e-008      7.426e-010     
  1               0.0004873       -3.516e-009     1.8433e-009    
  1.05            0.0004907       -1.9384e-008    1.4693e-009    
  1.1             0.00049375      -1.3091e-008    2.7656e-009    
  1.15            0.00049683      -1.3318e-008    1.5442e-009    
  1.2             0.00049934      -2.2465e-008    1.3408e-009    
  1.25            0.00050222      -1.2113e-008    -7.268e-010    
  1.3             0.00050483      1.421e-009      -1.9164e-009   
  1.35            0.00050709      1.8476e-008     -1.5506e-009   
  1.4             0.00050919      2.2762e-008     -1.4008e-009   
  1.45            0.00051077      1.1596e-008     6.124e-010     
  1.5             0.00051258      1.1615e-008     6.41e-010      
  1.55            0.00051434      1.1559e-008     6.633e-010     
  1.6             0.00051602      1.1463e-008     6.899e-010     
  1.65            0.0005177       1.1349e-008     7.149e-010     
  1.7             0.00051914      1.1244e-008     7.387e-010     
  1.75            0.00052035      -3.517e-009     1.8493e-009    
  1.8             0.00052165      -1.9524e-008    1.4658e-009    
  1.85            0.00052301      -1.3173e-008    2.7676e-009    
  1.9             0.00052445      -1.333e-008     1.5492e-009    
  1.95            0.00052578      -2.262e-008     1.3414e-009    
  2               0.00052752      -1.2246e-008    -7.252e-010    
  2.05            0.00052909      9.51e-010       -1.9103e-009   
  2.1             0.00053043      1.7946e-008     -1.5516e-009   
  2.15            0.00053174      2.2167e-008     -1.4039e-009   
  2.2             0.00053278      1.3263e-008     -2.3904e-009   
  2.25            0.00053384      1.5168e-008     -1.9662e-009   
  2.3             0.0005349       1.637e-008      -1.5709e-009   
  2.35            0.00053613      9.258e-009      -2.6695e-009   
  2.4             0.00053706      1.0165e-008     -2.413e-009    
  2.45            0.00053809      1.1022e-008     -1.9929e-009   
  2.5             0.00053904      1.0687e-008     -1.5977e-009   
  2.55            0.00054012      2.143e-009      -2.6795e-009   
  2.6             0.00054104      1.145e-009      -2.4423e-009   
  2.65            0.00054196      -6.9e-010       -2.0218e-009   
  2.7             0.00054279      -1.2497e-008    -1.76e-011     
  2.75            0.00054325      -2.7156e-008    2.867e-009     
  2.8             0.00054391      -5.3251e-008    1.8161e-009    
  2.85            0.00054478      -5.4435e-008    -2.017e-010    
  2.9             0.00054609      -5.4156e-008    -2.5512e-009   
  2.95            0.00054722      -5.1685e-008    -1.5141e-009   
  3               0.00054788      -6.9295e-008    3.876e-010     
END_DB

BEGIN_DB
 ICCAP_VAR VG         1.8            
 ICCAP_VAR VS         0              
 ICCAP_VAR VB         0              

 #VD              ID              IB              IG             
  0               1.228e-006      2.2771e-008     8.857e-010     
  0.05            6.6237e-005     1.0835e-008     -2.7751e-009   
  0.1             0.00013244      1.1591e-008     2.6736e-009    
  0.15            0.00019543      -8.41e-009      1.3378e-009    
  0.2             0.00025629      -1.1908e-008    -7.556e-010    
  0.25            0.00031441      1.822e-009      -1.8412e-009   
  0.3             0.0003697       1.9095e-008     -1.5227e-009   
  0.35            0.00042181      2.3912e-008     -1.4061e-009   
  0.4             0.00047066      1.1563e-008     6.404e-010     
  0.45            0.00051617      1.1403e-008     6.652e-010     
  0.5             0.00055838      1.1396e-008     6.877e-010     
  0.55            0.00059707      1.1217e-008     7.128e-010     
  0.6             0.0006324       1.1111e-008     7.358e-010     
  0.65            0.00066409      -3.394e-009     1.833e-009     
  0.7             0.00069256      -1.972e-008     1.4771e-009    
  0.75            0.00071804      -2.4183e-008    1.3366e-009    
  0.8             0.0007408       -1.1731e-008    -7.896e-010    
  0.85            0.00076072      2.042e-009      -1.7982e-009   
  0.9             0.00077791      1.9431e-008     -1.4952e-009   
  0.95            0.00079267      1.2737e-008     -2.618e-009    
  1               0.00080533      1.5894e-008     -1.5606e-009   
  1.05            0.00081619      2.3204e-008     -1.4133e-009   
  1.1             0.00082524      1.1533e-008     5.999e-010     
  1.15            0.00083314      1.1578e-008     6.262e-010     
  1.2             0.00084006      1.1487e-008     6.466e-010     
  1.25            0.00084598      1.1361e-008     6.727e-010     
  1.3             0.00085131      1.1242e-008     6.918e-010     
  1.35            0.00085594      1.1248e-008     7.207e-010     
  1.4             0.00085978      -3.322e-009     1.8677e-009    
  1.45            0.00086343      -1.9425e-008    1.4933e-009    
  1.5             0.00086693      -2.3607e-008    1.3399e-009    
  1.55            0.00087058      -1.1881e-008    -7.757e-010    
  1.6             0.00087387      1.805e-009      -1.8196e-009   
  1.65            0.00087673      1.9244e-008     -1.512e-009    
  1.7             0.00087941      1.2758e-008     -2.634e-009    
  1.75            0.00088188      1.6397e-008     -1.5737e-009   
  1.8             0.00088417      2.278e-008      -1.418e-009    
  1.85            0.00088629      2.6713e-008     -1.4003e-009   
  1.9             0.00088787      1.0688e-008     8.39e-010      
  1.95            0.00088962      -4.925e-009     1.6554e-009    
  2               0.00089132      -2.1499e-008    1.3964e-009    
  2.05            0.00089306      -2.5019e-008    1.3307e-009    
  2.1             0.00089538      -1.1547e-008    -8.941e-010    
  2.15            0.00089732      2.871e-009      -1.642e-009    
  2.2             0.00089904      2.1493e-008     -1.4405e-009   
  2.25            0.00090063      1.2939e-008     -2.5117e-009   
  2.3             0.00090198      1.2759e-008     -1.4765e-009   
  2.35            0.0009036       1.2296e-008     -2.5897e-009   
  2.4             0.00090487      1.3857e-008     -1.5292e-009   
  2.45            0.0009063       1.0859e-008     -2.6482e-009   
  2.5             0.00090753      1.4567e-008     -1.5982e-009   
  2.55            0.00090891      8.892e-009      -2.6938e-009   
  2.6             0.00091003      9.068e-009      -2.4443e-009   
  2.65            0.0009113       9.118e-009      -2.0269e-009   
  2.7             0.00091237      8.903e-009      -1.6225e-009   
  2.75            0.00091362      3.49e-010       -2.7056e-009   
  2.8             0.00091465      -2.046e-009     -2.4744e-009   
  2.85            0.0009154       -1.9999e-008    -2.4231e-009   
  2.9             0.00091664      -1.4337e-008    -1.4449e-009   
  2.95            0.00091745      -2.1996e-008    4.958e-010     
  3               0.00091805      -4.3936e-008    2.3117e-009    
END_DB

BEGIN_DB
 ICCAP_VAR VG         2.4            
 ICCAP_VAR VS         0              
 ICCAP_VAR VB         0              

 #VD              ID              IB              IG             
  0               1.4299e-006     2.2701e-008     8.775e-010     
  0.05            7.8657e-005     9.511e-009      -2.7416e-009   
  0.1             0.00015793      2.1275e-008     8.618e-010     
  0.15            0.00023394      -5.14e-009      1.6216e-009    
  0.2             0.00030803      -2.1704e-008    1.3806e-009    
  0.25            0.00037968      -1.2296e-008    -6.374e-010    
  0.3             0.00044875      1.103e-009      -2.0264e-009   
  0.35            0.00051492      1.7708e-008     -1.6339e-009   
  0.4             0.00057822      2.1776e-008     -1.4295e-009   
  0.45            0.00063824      2.5992e-008     -1.3977e-009   
  0.5             0.00069492      1.1184e-008     7.927e-010     
  0.55            0.00074825      -4.4e-009       1.7468e-009    
  0.6             0.00079838      -2.0517e-008    1.4286e-009    
  0.65            0.00084518      -2.4213e-008    1.3295e-009    
  0.7             0.00088889      -1.1791e-008    -8.475e-010    
  0.75            0.00092905      2.41e-009       -1.7173e-009   
  0.8             0.00096602      2.0561e-008     -1.4664e-009   
  0.85            0.00099972      1.2974e-008     -2.5673e-009   
  0.9             0.00103058      1.4633e-008     -1.5157e-009   
  0.95            0.00105838      1.2496e-008     -2.6326e-009   
  1               0.00108354      1.661e-008      -1.5884e-009   
  1.05            0.00110608      2.2368e-008     -1.4173e-009   
  1.1             0.00112618      2.6544e-008     -1.3974e-009   
  1.15            0.0011443       -9.774e-009     2.8549e-009    
  1.2             0.0011599       -2.446e-008     1.3288e-009    
  1.25            0.0011743       -1.1826e-008    -8.631e-010    
  1.3             0.0011867       2.527e-009      -1.6918e-009   
  1.35            0.0011978       2.0881e-008     -1.4542e-009   
  1.4             0.0012074       1.3075e-008     -2.5416e-009   
  1.45            0.0012156       1.3948e-008     -1.4968e-009   
  1.5             0.0012232       1.2451e-008     -2.6187e-009   
  1.55            0.0012297       1.6071e-008     -1.5595e-009   
  1.6             0.0012358       2.2845e-008     -1.4145e-009   
  1.65            0.0012411       2.6741e-008     -1.3989e-009   
  1.7             0.0012455       1.0515e-008     8.532e-010     
  1.75            0.0012494       -4.926e-009     1.638e-009     
