! VERSION = 6.00
BEGIN_HEADER
 ICCAP_INPUTS
  VG         V  B GROUND SMU4 0.001 LIN        1    0          3          61   0.05      
  VS         V  E GROUND SMU3 0.1 CON        0
  VB         V  C GROUND SMU1 0.1 LIN        3    0          -3         3    -1.5      
  VD         V  S GROUND SMU2 0.1 LIN        2    0.1        3          2    2.9       
 ICCAP_OUTPUTS
  IG         I  B GROUND SMU4 B
  ID         I  S GROUND SMU2 B
  IB         I  C GROUND SMU1 B
END_HEADER

BEGIN_DB
 ICCAP_VAR VS         0              
 ICCAP_VAR VB         0              
 ICCAP_VAR VD         0.1            

 #VG              IG              ID              IB             
  0               -2.609e-009     1.1725e-005     1.0014e-008    
  0.05            1.7791e-009     2.6309e-005     -1.6892e-008   
  0.1             -2.4137e-009    4.9974e-005     1.1435e-008    
  0.15            2.0297e-009     7.8281e-005     -1.6225e-008   
  0.2             -1.4482e-009    0.000111017     1.6129e-008    
  0.25            -1.3305e-009    0.00014192      1.685e-009     
  0.3             -1.0995e-009    0.00017289      -8.521e-009    
  0.35            2.7312e-009     0.00020013      -7.747e-009    
  0.4             -1.26e-011      0.00022693      7.902e-009     
  0.45            -2.207e-009     0.0002509       1.2973e-008    
  0.5             1.6633e-009     0.0002729       -1.6969e-008   
  0.55            8.299e-010      0.00029399      8.966e-009     
  0.6             -2.6275e-009    0.00031376      7.502e-009     
  0.65            2.09e-010       0.0003317       -1.0423e-008   
  0.7             2.6263e-009     0.00034882      -1.0431e-008   
  0.75            -1.9344e-009    0.00036572      1.4587e-008    
  0.8             1.5571e-009     0.00038126      -1.484e-008    
  0.85            8.911e-010      0.0003962       9.022e-009     
  0.9             -2.6107e-009    0.00041074      7.527e-009     
  0.95            2.6148e-009     0.00042402      -1.1002e-008   
  1               -1.9013e-009    0.00043767      1.5118e-008    
  1.05            1.5144e-009     0.00045043      -1.4321e-008   
  1.1             -2.2596e-009    0.00046251      1.2557e-008    
  1.15            1.7469e-009     0.00047443      -1.7016e-008   
  1.2             -2.3995e-009    0.00048631      1.1441e-008    
  1.25            2.0054e-009     0.0004972       -1.6196e-008   
  1.3             -1.431e-009     0.00050876      1.5576e-008    
  1.35            2.41e-009       0.00051867      -1.4171e-008   
  1.4             -1.593e-009     0.00052933      1.6497e-008    
  1.45            2.5564e-009     0.00053901      -1.2335e-008   
  1.5             -1.7908e-009    0.00054911      1.5503e-008    
  1.55            2.7121e-009     0.00055888      -1.27e-008     
  1.6             4.56e-011       0.00056838      7.935e-009     
  1.65            -2.1174e-009    0.0005771       1.3543e-008    
  1.7             1.5508e-009     0.00058587      -1.6975e-008   
  1.75            -2.2852e-009    0.00059469      1.1989e-008    
  1.8             1.7823e-009     0.00060304      -1.679e-008    
  1.85            -2.4217e-009    0.00061164      1.1296e-008    
  1.9             2.0383e-009     0.00061939      -1.6146e-008   
  1.95            -1.4497e-009    0.00062817      1.62e-008      
  2               2.4328e-009     0.00063535      -1.4073e-008   
  2.05            -1.6165e-009    0.00064332      1.6386e-008    
  2.1             2.5716e-009     0.00065053      -1.1938e-008   
  2.15            -1.8199e-009    0.00065811      1.5279e-008    
  2.2             2.7147e-009     0.0006657       -1.3067e-008   
  2.25            3.07e-011       0.00067297      7.931e-009     
  2.3             -2.1414e-009    0.00067953      1.3359e-008    
  2.35            1.7953e-009     0.00068635      -1.8582e-008   
  2.4             -2.4221e-009    0.00069305      1.1612e-008    
  2.45            2.0427e-009     0.00069936      -1.6148e-008   
  2.5             -1.4522e-009    0.00070655      1.6339e-008    
  2.55            2.4449e-009     0.00071213      -1.4039e-008   
  2.6             -1.6227e-009    0.00071856      1.6424e-008    
  2.65            2.5799e-009     0.00072431      -1.2016e-008   
  2.7             -1.8335e-009    0.00073061      1.5473e-008    
  2.75            2.7198e-009     0.00073684      -1.3271e-008   
  2.8             2.54e-011       0.00074268      7.848e-009     
  2.85            -2.1453e-009    0.00074772      1.3313e-008    
  2.9             1.8203e-009     0.00075336      -1.8774e-008   
  2.95            -2.4305e-009    0.00075874      1.1306e-008    
  3               2.0683e-009     0.00076383      -1.6122e-008   
END_DB

BEGIN_DB
 ICCAP_VAR VS         0              
 ICCAP_VAR VB         0              
 ICCAP_VAR VD         3              

 #VG              IG              ID              IB             
  0               5.156e-010      0.00014877      -1.2218e-007   
  0.05            2.7503e-009     0.00021231      -1.8494e-007   
  0.1             1.289e-009      0.00028573      -2.2076e-007   
  0.15            -1.7243e-009    0.00037107      -2.5436e-007   
  0.2             -2.0945e-009    0.0004584       -3.3424e-007   
  0.25            -3.577e-010     0.00055206      -3.8011e-007   
  0.3             1.804e-009      0.00064995      -4.2882e-007   
  0.35            2.2001e-009     0.00075333      -4.4096e-007   
  0.4             3.506e-010      0.00086012      -4.7219e-007   
  0.45            -1.6562e-009    0.0009694       -4.9223e-007   
  0.5             -2.1304e-009    0.00108064      -5.3926e-007   
  0.55            -1.133e-010     0.0011939       -5.4009e-007   
  0.6             -2.3465e-009    0.0013108       -5.5076e-007   
  0.65            -1.8211e-009    0.0014276       -5.8107e-007   
  0.7             9.55e-011       0.0015424       -5.8488e-007   
  0.75            2.5103e-009     0.0016615       -5.9082e-007   
  0.8             1.7843e-009     0.0017817       -5.6614e-007   
  0.85            -7.66e-011      0.0019079       -5.6134e-007   
  0.9             -2.2913e-009    0.0020308       -5.4938e-007   
  0.95            -1.8519e-009    0.0021546       -5.6004e-007   
  1               5.1e-011        0.0022756       -5.4641e-007   
  1.05            2.4561e-009     0.0024002       -5.3783e-007   
  1.1             1.8376e-009     0.0025258       -4.9889e-007   
  1.15            -2.75e-011      0.0026561       -4.8289e-007   
  1.2             -2.2352e-009    0.0027831       -4.6017e-007   
  1.25            -1.8792e-009    0.0029099       -4.634e-007    
  1.3             5.7e-012        0.0030345       -4.4335e-007   
  1.35            2.392e-009      0.0031621       -4.3028e-007   
  1.4             1.8807e-009     0.0032903       -3.8753e-007   
  1.45            1.47e-011       0.0034225       -3.6895e-007   
  1.5             -2.1763e-009    0.0035517       -3.4453e-007   
  1.55            -1.9061e-009    0.0036799       -3.4882e-007   
  1.6             -3.08e-011      0.003806        -3.2851e-007   
  1.65            2.3248e-009     0.0039349       -3.1736e-007   
  1.7             1.9274e-009     0.0040643       -2.7624e-007   
  1.75            6.06e-011       0.004197        -2.6007e-007   
  1.8             -2.1022e-009    0.0043268       -2.3821e-007   
  1.85            -1.9314e-009    0.0044557       -2.4536e-007   
  1.9             -7.62e-011      0.0045824       -2.3005e-007   
  1.95            2.2543e-009     0.0047115       -2.2258e-007   
  2               1.9724e-009     0.0048414       -1.858e-007    
  2.05            1.084e-010      0.0049731       -1.7324e-007   
  2.1             -2.0346e-009    0.0051031       -1.5556e-007   
  2.15            -1.9569e-009    0.0052312       -1.6688e-007   
  2.2             -1.288e-010     0.0053579       -1.561e-007    
  2.25            2.178e-009      0.0054867       -1.5295e-007   
  2.3             2.0212e-009     0.0056175       -1.1966e-007   
  2.35            1.48e-010       0.0057486       -1.1055e-007   
  2.4             5.9e-012        0.0058735       -1.1893e-007   
  2.45            2.3931e-009     0.0060009       -1.1742e-007   
  2.5             2.6023e-009     0.0061309       -9.4867e-008   
  2.55            2.5267e-009     0.0062578       -8.295e-008    
  2.6             7.758e-010      0.006386        -7.353e-008    
  2.65            -2.4821e-009    0.006515        -5.5756e-008   
  2.7             -1.6961e-009    0.0066429       -7.9172e-008   
  2.75            2.6733e-009     0.0067647       -7.6634e-008   
  2.8             1.5961e-009     0.0068887       -5.3709e-008   
  2.85            -1.3345e-009    0.0070206       -4.4033e-008   
  2.9             -2.3898e-009    0.0071442       -5.9168e-008   
  2.95            -7.183e-010     0.0072694       -5.839e-008    
  3               2.7221e-009     0.0073924       -6.3532e-008   
END_DB

BEGIN_DB
 ICCAP_VAR VS         0              
 ICCAP_VAR VB         -1.5           
 ICCAP_VAR VD         0.1            

 #VG              IG              ID              IB             
  0               2.3879e-009     1.7439e-007     -1.6167e-008   
  0.05            -1.5793e-009    6.8582e-007     1.6466e-008    
  0.1             2.4539e-009     2.4572e-006     1.5916e-008    
  0.15            -2.1314e-009    7.932e-006      1.3175e-008    
  0.2             -1.9159e-009    1.997e-005      1.5195e-008    
  0.25            1.502e-009      4.0035e-005     -1.7297e-008   
  0.3             -2.2497e-009    6.8112e-005     1.2359e-008    
  0.35            1.7265e-009     9.7879e-005     -1.6997e-008   
  0.4             2.6805e-009     0.00012861      -3.226e-009    
  0.45            -2.081e-009     0.00015865      1.3763e-008    
  0.5             1.7159e-009     0.00018562      -1.7222e-008   
  0.55            -2.3817e-009    0.00021121      1.1527e-008    
  0.6             1.9596e-009     0.00023379      -1.6478e-008   
  0.65            -2.4817e-009    0.00025604      1.0719e-008    
  0.7             2.1802e-009     0.00027557      -1.5473e-008   
  0.75            -1.5512e-009    0.00029508      1.8796e-008    
  0.8             -9.261e-010     0.00031273      -9.408e-009    
  0.85            2.7467e-009     0.00032944      -6.9e-009      
  0.9             -2.4507e-009    0.00034596      1.0976e-008    
  0.95            2.1255e-009     0.00036089      -1.5693e-008   
  1               -1.5071e-009    0.00037625      1.7682e-008    
  1.05            2.4914e-009     0.00038971      -1.3128e-008   
  1.1             -1.6932e-009    0.00040372      1.6302e-008    
  1.15            -8.479e-010     0.00041676      -9.592e-009    
  1.2             2.7328e-009     0.0004292       -7.36e-009     
  1.25            -1.349e-009     0.00044192      1.3462e-008    
  1.3             2.296e-009      0.00045312      -1.4956e-008   
  1.35            1.955e-009      0.00046479      8.674e-009     
  1.4             -1.4276e-009    0.00047615      1.7438e-008    
  1.45            2.4194e-009     0.00048662      -1.3986e-008   
  1.5             -1.5904e-009    0.00049753      1.6474e-008    
  1.55            -9.042e-010     0.00050775      -9.673e-009    
  1.6             2.7389e-009     0.0005176       -7.137e-009    
  1.65            -2.4804e-009    0.00052755      1.0753e-008    
  1.7             2.1908e-009     0.00053668      -1.5594e-008   
  1.75            -1.5472e-009    0.00054657      1.8657e-008    
  1.8             2.527e-009      0.00055508      -1.2955e-008   
  1.85            -1.7391e-009    0.00056426      1.5845e-008    
  1.9             -8.251e-010     0.00057297      -9.743e-009    
  1.95            2.7206e-009     0.00058134      -7.632e-009    
  2               -1.3773e-009    0.0005902       1.4343e-008    
  2.05            2.3432e-009     0.00059755      -1.459e-008    
  2.1             1.9194e-009     0.00060576      8.718e-009     
  2.15            -1.4587e-009    0.00061363      1.7156e-008    
  2.2             2.4492e-009     0.00062092      -1.3916e-008   
  2.25            -1.6331e-009    0.00062874      1.6243e-008    
  2.3             2.5853e-009     0.0006359       -1.1965e-008   
  2.35            -1.842e-009     0.0006433       1.5204e-008    
  2.4             2.7218e-009     0.0006506       -1.3158e-008   
  2.45            2.48e-011       0.0006577       7.789e-009     
  2.5             -2.1513e-009    0.00066396      1.3294e-008    
  2.55            1.8097e-009     0.00067065      -1.8793e-008   
  2.6             -2.4326e-009    0.00067718      1.1422e-008    
  2.65            2.0562e-009     0.00068329      -1.6192e-008   
  2.7             -1.451e-009     0.00069021      1.6244e-008    
  2.75            -9.909e-010     0.00069608      -8.989e-009    
  2.8             2.7449e-009     0.0007019       -7.033e-009    
  2.85            -1.224e-010     0.00070841      8.983e-009     
  2.9             -2.3611e-009    0.00071364      1.201e-008     
  2.95            1.9107e-009     0.00071913      -1.6791e-008   
  3               -2.4641e-009    0.00072497      1.0949e-008    
END_DB

BEGIN_DB
 ICCAP_VAR VS         0              
 ICCAP_VAR VB         -1.5           
 ICCAP_VAR VD         3              

 #VG              IG              ID              IB             
  0               -2.5768e-009    8.3595e-006     -9.657e-009    
  0.05            -1.9329e-009    2.3228e-005     -2.3032e-008   
  0.1             -1.9855e-009    5.1536e-005     -7.4424e-008   
  0.15            -3.053e-010     9.5479e-005     -1.0513e-007   
  0.2             2.7436e-009     0.00015276      -1.7416e-007   
  0.25            1.4443e-009     0.0002206       -2.1794e-007   
  0.3             -1.4528e-009    0.0003025       -2.6577e-007   
  0.35            -2.2522e-009    0.00038716      -3.439e-007    
  0.4             -5.62e-010      0.00047884      -3.9565e-007   
  0.45            1.4651e-009     0.00057401      -4.4542e-007   
  0.5             2.3545e-009     0.00067713      -4.5905e-007   
  0.55            5.297e-010      0.00078195      -4.8807e-007   
  0.6             -1.3871e-009    0.00088987      -5.0596e-007   
  0.65            -2.3123e-009    0.00099808      -5.506e-007    
  0.7             -6.27e-010      0.00110969      -5.6764e-007   
  0.75            -2.6067e-009    0.0012239       -5.6028e-007   
  0.8             -1.1005e-009    0.0013399       -5.7968e-007   
  0.85            2.381e-009      0.0014546       -5.9533e-007   
  0.9             1.8895e-009     0.0015724       -5.604e-007    
  0.95            3.09e-011       0.0016943       -5.5493e-007   
  1               -2.1449e-009    0.0018156       -5.4038e-007   
  1.05            -1.9134e-009    0.0019366       -5.5101e-007   
  1.1             -6.85e-011      0.0020563       -5.3662e-007   
  1.15            2.291e-009      0.0021795       -5.2802e-007   
  1.2             1.9514e-009     0.0023041       -4.8762e-007   
  1.25            8.94e-011       0.002431        -4.6984e-007   
  1.3             -2.0545e-009    0.0025569       -4.4547e-007   
  1.35            -1.9503e-009    0.0026816       -4.4876e-007   
  1.4             -1.246e-010     0.0028053       -4.2891e-007   
  1.45            2.1735e-009     0.0029319       -4.1586e-007   
  1.5             2.0121e-009     0.0030595       -3.7235e-007   
  1.55            1.573e-010      0.0031882       -3.5256e-007   
  1.6             -1.9608e-009    0.0033163       -3.2813e-007   
  1.65            -1.9822e-009    0.0034426       -3.3106e-007   
  1.7             -1.922e-010     0.003569        -3.1375e-007   
  1.75            2.0724e-009     0.0036963       -3.0206e-007   
  1.8             2.0694e-009     0.0038254       -2.6154e-007   
  1.85            2.083e-010      0.0039553       -2.4397e-007   
  1.9             -1.8675e-009    0.0040847       -2.2226e-007   
  1.95            -2.0251e-009    0.0042112       -2.294e-007    
  2               -2.579e-010     0.0043383       -2.1651e-007   
  2.05            1.964e-009      0.0044657       -2.0974e-007   
  2.1             2.1218e-009     0.0045956       -1.7331e-007   
  2.15            2.682e-010      0.0047246       -1.5966e-007   
  2.2             -1.7671e-009    0.0048538       -1.4172e-007   
  2.25            -2.0687e-009    0.00498         -1.5402e-007   
  2.3             -3.261e-010     0.0051091       -1.4517e-007   
  2.35            1.8606e-009     0.0052357       -1.4229e-007   
  2.4             2.1721e-009     0.0053651       -1.0952e-007   
  2.45            3.224e-010      0.0054936       -9.973e-008    
  2.5             -1.675e-009     0.0056195       -1.10292e-007  
  2.55            2.7314e-009     0.0057471       -9.6839e-008   
  2.6             -2.5371e-009    0.0058739       -7.9946e-008   
  2.65            -8.921e-010     0.0060005       -8.9964e-008   
  2.7             2.6483e-009     0.0061249       -9.5502e-008   
  2.75            1.6649e-009     0.006249        -6.0424e-008   
  2.8             -2.4754e-009    0.0063805       -5.327e-008    
  2.85            -1.7065e-009    0.0065068       -6.7314e-008   
  2.9             2.002e-010      0.0066277       -6.3929e-008   
  2.95            2.6426e-009     0.0067523       -6.1357e-008   
  3               1.6742e-009     0.006876        -3.7361e-008   
END_DB

BEGIN_DB
 ICCAP_VAR VS         0              
 ICCAP_VAR VB         -3             
 ICCAP_VAR VD         0.1            

 #VG              IG              ID              IB             
  0               -2.177e-010     4.3056e-009     1.0419e-008    
  0.05            -9.702e-010     8.757e-009      1.1716e-008    
  0.1             -2.0243e-009    4.1548e-008     1.452e-009     
  0.15            1.3492e-009     1.8287e-007     -1.8038e-008   
  0.2             -1.5973e-009    7.5839e-007     1.9557e-008    
  0.25            2.4543e-009     2.7306e-006     1.5297e-008    
  0.3             -2.1743e-009    8.719e-006      1.3513e-008    
  0.35            -1.8279e-009    2.1558e-005     1.9322e-008    
  0.4             1.7221e-009     4.2105e-005     -1.6293e-008   
  0.45            7.935e-010      6.858e-005      9.027e-009     
  0.5             -2.6102e-009    0.000100582     6.932e-009     
  0.55            -1.6886e-009    0.0001296       -1.4375e-008   
  0.6             2.0981e-009     0.00015755      -1.5684e-008   
  0.65            -1.4632e-009    0.00018441      1.6745e-008    
  0.7             -9.689e-010     0.00020825      -9.127e-009    
  0.75            2.7362e-009     0.00023013      -7.042e-009    
  0.8             -1.555e-010     0.00025161      9.261e-009     
  0.85            -2.4062e-009    0.00027099      1.2079e-008    
  0.9             1.9449e-009     0.0002888       -1.618e-008    
  0.95            -1.3767e-009    0.00030682      1.4304e-008    
  1               2.3881e-009     0.00032259      -1.4719e-008   
  1.05            -1.5244e-009    0.00033882      1.593e-008     
  1.1             -9.304e-010     0.00035373      -9.426e-009    
  1.15            2.728e-009      0.00036782      -6.949e-009    
  1.2             -2.4816e-009    0.00038224      1.0147e-008    
  1.25            2.1312e-009     0.00039488      -1.572e-008    
  1.3             -1.4841e-009    0.00040833      1.7111e-008    
  1.35            2.5132e-009     0.00042008      -1.3627e-008   
  1.4             -1.6678e-009    0.00043248      1.547e-008     
  1.45            -8.53e-010      0.0004441       -9.652e-009    
  1.5             2.716e-009      0.00045521      -7.322e-009    
  1.55            -1.327e-009     0.00046674      1.2433e-008    
  1.6             2.2853e-009     0.00047669      -1.5317e-008   
  1.65            -1.6091e-009    0.00048756      2.0588e-008    
  1.7             -8.877e-010     0.00049752      -9.499e-009    
  1.75            2.7229e-009     0.00050721      -7.062e-009    
