! VERSION = 6.00
BEGIN_HEADER
 ICCAP_INPUTS
  VG         V  B GROUND SMU4 0.001 LIN        1    0          3          61   0.05      
  VS         V  E GROUND SMU3 0.1 CON        0
  VB         V  C GROUND SMU1 0.1 LIN        3    0          -3         3    -1.5      
  VD         V  S GROUND SMU2 0.1 LIN        2    0.1        3          2    2.9       
 ICCAP_OUTPUTS
  IG         I  B GROUND SMU4 B
  ID         I  S GROUND SMU2 B
  IB         I  C GROUND SMU1 B
END_HEADER

BEGIN_DB
 ICCAP_VAR VS         0              
 ICCAP_VAR VB         0              
 ICCAP_VAR VD         0.1            

 #VG              IG              ID              IB             
  0               2.3694e-009     3.0653e-005     -7.809e-009    
  0.05            -2.2657e-009    6.8054e-005     1.2177e-008    
  0.1             -2.594e-009     0.0001234       -9.94e-009     
  0.15            1.866e-009      0.00018993      -1.6823e-008   
  0.2             -2.4364e-009    0.00026391      1.0893e-008    
  0.25            2.0506e-009     0.00033145      -1.6405e-008   
  0.3             -1.4428e-009    0.00039746      1.6032e-008    
  0.35            2.4053e-009     0.00045313      -1.4288e-008   
  0.4             -1.5702e-009    0.00050652      1.6649e-008    
  0.45            2.5273e-009     0.00055155      -1.2502e-008   
  0.5             -1.7257e-009    0.0005955       1.5863e-008    
  0.55            2.6114e-009     0.00063255      -1.0515e-008   
  0.6             -1.8819e-009    0.00066867      1.5108e-008    
  0.65            1.4762e-009     0.00070056      -1.3702e-008   
  0.7             -2.2146e-009    0.00073085      1.2579e-008    
  0.75            1.6422e-009     0.0007581       -1.6911e-008   
  0.8             -2.3334e-009    0.00078472      1.1952e-008    
  0.85            1.8335e-009     0.00080868      -1.701e-008    
  0.9             7.607e-010      0.00083233      9.25e-009      
  0.95            -2.6298e-009    0.00085459      7.182e-009     
  1               2.6777e-009     0.00087527      -1.1224e-008   
  1.05            -2.0526e-009    0.00089486      1.3977e-008    
  1.1             1.659e-009      0.00091368      -1.658e-008    
  1.15            -2.3376e-009    0.00093181      1.1636e-008    
  1.2             1.8473e-009     0.00094862      -1.6685e-008   
  1.25            -2.4313e-009    0.00096568      1.1059e-008    
  1.3             2.0374e-009     0.00098112      -1.6303e-008   
  1.35            -1.4303e-009    0.00099743      1.5865e-008    
  1.4             2.4002e-009     0.00101098      -1.4137e-008   
  1.45            -1.5571e-009    0.00102575      1.6422e-008    
  1.5             -9.346e-010     0.00103952      -9.502e-009    
  1.55            2.736e-009      0.00105244      -6.804e-009    
  1.6             -2.4331e-009    0.00106547      1.13e-008      
  1.65            2.0432e-009     0.00107737      -1.6396e-008   
  1.7             -1.4339e-009    0.0010906       1.5921e-008    
  1.75            -1.0124e-009    0.00110156      -9.126e-009    
  1.8             2.7397e-009     0.00111271      -7.084e-009    
  1.85            -8.39e-011      0.0011246       8.306e-009     
  1.9             -2.2832e-009    0.00113438      1.2033e-008    
  1.95            -3.393e-010     0.0011447       1.6264e-008    
  2               1.8101e-009     0.0011545       -1.6767e-008   
  2.05            -2.4175e-009    0.0011644       1.1475e-008    
  2.1             2.0013e-009     0.0011739       -1.6465e-008   
  2.15            -2.4868e-009    0.0011834       1.0616e-008    
  2.2             2.1835e-009     0.0011919       -1.5831e-008   
  2.25            -1.5158e-009    0.0012018       1.8275e-008    
  2.3             -9.535e-010     0.0012099       -9.732e-009    
  2.35            2.7335e-009     0.001218        -6.745e-009    
  2.4             -2.418e-009     0.0012261       1.1387e-008    
  2.45            2.0011e-009     0.0012338       -1.6311e-008   
  2.5             -2.4864e-009    0.0012418       1.0726e-008    
  2.55            2.1749e-009     0.0012487       -1.5931e-008   
  2.6             -1.5124e-009    0.0012569       1.7932e-008    
  2.65            -9.566e-010     0.0012638       -9.424e-009    
  2.7             2.7329e-009     0.0012705       -6.906e-009    
  2.75            -1.401e-010     0.0012783       9.257e-009     
  2.8             -2.3601e-009    0.0012838       1.1753e-008    
  2.85            1.8797e-009     0.0012901       -1.6799e-008   
  2.9             -2.4431e-009    0.0012968       1.1291e-008    
  2.95            2.0671e-009     0.0013026       -1.6236e-008   
  3               -1.436e-009     0.0013097       1.6155e-008    
END_DB

BEGIN_DB
 ICCAP_VAR VS         0              
 ICCAP_VAR VB         0              
 ICCAP_VAR VD         3              

 #VG              IG              ID              IB             
  0               -2.349e-010     0.00036774      -3.1303e-007   
  0.05            -2.4626e-009    0.00051674      -4.0225e-007   
  0.1             -1.7305e-009    0.00068415      -5.2516e-007   
  0.15            1.752e-010      0.00085936      -6.2254e-007   
  0.2             2.5963e-009     0.00105289      -7.1741e-007   
  0.25            2.7047e-009     0.0012602       -7.9352e-007   
  0.3             1.5359e-009     0.0014671       -8.5466e-007   
  0.35            -1.3562e-009    0.0016975       -9.122e-007    
  0.4             -2.3555e-009    0.0019213       -9.8548e-007   
  0.45            -7.043e-010     0.0021529       -1.02854e-006  
  0.5             2.718e-009      0.0023893       -1.06692e-006  
  0.55            1.4936e-009     0.0026256       -1.05946e-006  
  0.6             -1.4014e-009    0.0028809       -1.06227e-006  
  0.65            -2.3203e-009    0.0031248       -1.08464e-006  
  0.7             -6.571e-010     0.0033748       -1.08015e-006  
  0.75            2.7221e-009     0.0036233       -1.07273e-006  
  0.8             1.4544e-009     0.0038738       -1.02634e-006  
  0.85            -1.4443e-009    0.0041416       -9.9183e-007   
  0.9             -2.2764e-009    0.0043964       -9.8284e-007   
  0.95            -6.123e-010     0.0046559       -9.5082e-007   
  1               1.3889e-009     0.0049136       -9.1985e-007   
  1.05            2.4033e-009     0.0051795       -8.5618e-007   
  1.1             6.123e-010      0.0054442       -8.1037e-007   
  1.15            -1.3142e-009    0.0057127       -7.5866e-007   
  1.2             -2.4065e-009    0.0059754       -7.3881e-007   
  1.25            -7.61e-010      0.0062421       -6.9812e-007   
  1.3             2.7006e-009     0.0065051       -6.6299e-007   
  1.35            1.5503e-009     0.0067687       -5.9351e-007   
  1.4             -1.3457e-009    0.0070492       -5.4698e-007   
  1.45            -2.3639e-009    0.0073162       -5.2553e-007   
  1.5             -7.179e-010     0.0075855       -4.8975e-007   
  1.55            2.7185e-009     0.0078515       -4.6043e-007   
  1.6             1.5043e-009     0.0081173       -3.9892e-007   
  1.65            -1.3896e-009    0.0083999       -3.5875e-007   
  1.7             -2.3275e-009    0.0086678       -3.4773e-007   
  1.75            -6.657e-010     0.0089389       -3.2119e-007   
  1.8             2.7245e-009     0.0092061       -3.0051e-007   
  1.85            1.4573e-009     0.0094733       -2.5017e-007   
  1.9             -1.4378e-009    0.0097568       -2.1728e-007   
  1.95            -2.2828e-009    0.0100247       -2.1733e-007   
  2               -6.221e-010     0.010296        -1.9987e-007   
  2.05            1.3851e-009     0.0105639       -1.8824e-007   
  2.1             2.404e-009      0.010838        -1.473e-007    
  2.15            6.138e-010      0.0111104       -1.2833e-007   
  2.2             -1.3102e-009    0.0113842       -1.053e-007    
  2.25            1.1845e-009     0.011647        -1.0332e-007   
  2.3             6.75e-010       0.011927        -1.05878e-007  
  2.35            2.705e-009      0.012192        -9.514e-008    
  2.4             -2.6252e-009    0.012468        -8.2541e-008   
  2.45            -1.1556e-009    0.012739        -7.6942e-008   
  2.5             2.2611e-009     0.013001        -8.3802e-008   
  2.55            1.9818e-009     0.01327         -4.5921e-008   
  2.6             1.329e-010      0.013545        -3.9704e-008   
  2.65            -1.9765e-009    0.013813        -2.754e-008    
  2.7             -1.9821e-009    0.014079        -4.5232e-008   
  2.75            -2.166e-010     0.014342        -4.1673e-008   
  2.8             2.0207e-009     0.014607        -4.5068e-008   
  2.85            2.1032e-009     0.014876        -1.7559e-008   
  2.9             2.703e-010      0.015144        -1.3287e-008   
  2.95            -2.5802e-009    0.015408        -2.151e-008    
  3               -1.4644e-009    0.015677        -2.4252e-008   
END_DB

BEGIN_DB
 ICCAP_VAR VS         0              
 ICCAP_VAR VB         -1.5           
 ICCAP_VAR VD         0.1            

 #VG              IG              ID              IB             
  0               2.5916e-009     4.8813e-007     -8.13e-009     
  0.05            -1.9866e-009    1.9138e-006     -1.1478e-008   
  0.1             2.7178e-009     6.8188e-006     -1.839e-008    
  0.15            4.075e-010      2.1142e-005     -1.4149e-008   
  0.2             -1.5423e-009    5.2529e-005     1.6736e-008    
  0.25            -9.403e-010     0.000103408     -9.619e-009    
  0.3             8.2e-012        0.0001669       -1.1058e-008   
  0.35            2.3708e-009     0.00023694      -1.4459e-008   
  0.4             -1.5382e-009    0.00030736      1.6754e-008    
  0.45            2.4967e-009     0.00036838      -1.2957e-008   
  0.5             -1.689e-009     0.00042748      1.605e-008     
  0.55            -8.609e-010     0.00047795      -9.667e-009    
  0.6             2.7331e-009     0.00052274      -7.414e-009    
  0.65            -2.4875e-009    0.0005652       1.0736e-008    
  0.7             2.1992e-009     0.0006018       -1.5348e-008   
  0.75            -1.5501e-009    0.00063777      1.8719e-008    
  0.8             2.5069e-009     0.00066854      -1.3116e-008   
  0.85            -1.6973e-009    0.00069933      1.615e-008     
  0.9             2.6012e-009     0.00072633      -1.1171e-008   
  0.95            -1.8514e-009    0.00075326      1.5241e-008    
  1               2.7167e-009     0.0007778       -1.324e-008    
  1.05            4.1e-011        0.00080163      7.864e-009     
  1.1             -2.1096e-009    0.00082313      1.3303e-008    
  1.15            1.7364e-009     0.00084394      -1.7609e-008   
  1.2             -2.3745e-009    0.00086413      1.1308e-008    
  1.25            1.9295e-009     0.00088264      -1.6676e-008   
  1.3             -2.4587e-009    0.00090146      1.0801e-008    
  1.35            2.112e-009      0.0009183       -1.5805e-008   
  1.4             -1.484e-009     0.00093614      1.7111e-008    
  1.45            -9.788e-010     0.00095179      -9.505e-009    
  1.5             2.744e-009      0.00096684      -7.417e-009    
  1.55            -2.3815e-009    0.00098208      1.1523e-008    
  1.6             1.9453e-009     0.00099603      -1.6477e-008   
  1.65            -1.3848e-009    0.00101106      1.4533e-008    
  1.7             2.3264e-009     0.00102326      -1.4702e-008   
  1.75            1.934e-009      0.00103669      8.798e-009     
  1.8             -1.4386e-009    0.0010495       1.7374e-008    
  1.85            2.3966e-009     0.00106109      -1.4275e-008   
  1.9             -1.5661e-009    0.00107343      1.6655e-008    
  1.95            -9.269e-010     0.00108493      -9.825e-009    
  2               2.7378e-009     0.00109588      -7.058e-009    
  2.05            -2.4345e-009    0.0011067       1.1037e-008    
  2.1             2.0685e-009     0.00111675      -1.5896e-008   
  2.15            -1.4492e-009    0.00112805      1.62e-008      
  2.2             2.4101e-009     0.00113692      -1.4127e-008   
  2.25            3.488e-010      0.0011471       -1.7005e-008   
  2.3             -1.6325e-009    0.0011563       1.6355e-008    
  2.35            -8.882e-010     0.0011656       -9.545e-009    
  2.4             2.7398e-009     0.0011742       -7.222e-009    
  2.45            -2.4677e-009    0.001183        1.0802e-008    
  2.5             2.1465e-009     0.001191        -1.5634e-008   
  2.55            -1.504e-009     0.0012001       1.7714e-008    
  2.6             -9.625e-010     0.0012077       -9.633e-009    
  2.65            2.7427e-009     0.0012153       -7.23e-009     
  2.7             -2.3993e-009    0.0012228       1.1384e-008    
  2.75            1.988e-009      0.0012298       -1.6375e-008   
  2.8             -1.4015e-009    0.0012382       1.4998e-008    
  2.85            2.3576e-009     0.0012441       -1.4288e-008   
  2.9             1.9195e-009     0.0012512       8.649e-009     
  2.95            -1.4513e-009    0.0012577       1.7184e-008    
  3               -9.971e-010     0.0012645       -9.097e-009    
END_DB

BEGIN_DB
 ICCAP_VAR VS         0              
 ICCAP_VAR VB         -1.5           
 ICCAP_VAR VD         3              

 #VG              IG              ID              IB             
  0               3.345e-010      2.5156e-005     -4.1548e-008   
  0.05            -9.864e-010     6.5531e-005     -9.5566e-008   
  0.1             2.0054e-009     0.00013765      -1.7113e-007   
  0.15            2.1094e-009     0.00024532      -2.7094e-007   
  0.2             2.704e-010      0.00038333      -3.9134e-007   
  0.25            -1.7639e-009    0.00054343      -5.0626e-007   
  0.3             -2.0786e-009    0.00071822      -6.473e-007    
  0.35            -3.577e-010     0.00090849      -7.5382e-007   
  0.4             -1.204e-010     0.0011115       -8.5381e-007   
  0.45            -2.2866e-009    0.0013237       -9.1511e-007   
  0.5             -1.8416e-009    0.0015483       -9.8951e-007   
  0.55            3.53e-011       0.0017676       -1.0369e-006   
  0.6             2.4254e-009     0.0019978       -1.07931e-006  
  0.65            1.8722e-009     0.0022334       -1.07912e-006  
  0.7             1.41e-011       0.0024796       -1.09234e-006  
  0.75            -2.1656e-009    0.0027238       -1.08852e-006  
  0.8             -1.9077e-009    0.002969        -1.10286e-006  
  0.85            -5.91e-011      0.0032124       -1.08602e-006  
  0.9             2.2699e-009     0.0034639       -1.07037e-006  
  0.95            1.9742e-009     0.0037188       -1.01758e-006  
  1               1.149e-010      0.0039796       -9.8391e-007   
  1.05            -2.0064e-009    0.0042386       -9.3968e-007   
  1.1             -1.9657e-009    0.0044954       -9.2135e-007   
  1.15            -1.81e-010      0.0047526       -8.7884e-007   
  1.2             2.0834e-009     0.0050141       -8.4145e-007   
  1.25            2.0725e-009     0.0052794       -7.7182e-007   
  1.3             2.244e-010      0.0055473       -7.2471e-007   
  1.35            -1.8412e-009    0.005814        -6.7184e-007   
  1.4             -2.0382e-009    0.0060762       -6.495e-007    
  1.45            -3.008e-010     0.0063411       -6.0663e-007   
  1.5             1.8851e-009     0.0066067       -5.7118e-007   
  1.55            2.1663e-009     0.0068781       -5.0622e-007   
  1.6             3.274e-010      0.0071488       -4.6431e-007   
  1.65            -1.6685e-009    0.0074192       -4.1912e-007   
  1.7             -2.1245e-009    0.0076852       -4.0583e-007   
  1.75            -4.262e-010     0.0079539       -3.7446e-007   
  1.8             1.6827e-009     0.0082213       -3.4982e-007   
  1.85            2.2584e-009     0.0084947       -2.9631e-007   
  1.9             4.398e-010      0.0087673       -2.6609e-007   
  1.95            -1.5116e-009    0.0090393       -2.3282e-007   
  2               -2.2235e-009    0.0093065       -2.323e-007    
  2.05            -5.455e-010     0.0095762       -2.1325e-007   
  2.1             1.498e-009      0.0098437       -2.0031e-007   
  2.15            2.3484e-009     0.0101171       -1.5811e-007   
  2.2             5.436e-010      0.0103888       -1.3829e-007   
  2.25            -1.3954e-009    0.0106616       -1.1455e-007   
  2.3             -2.3187e-009    0.0109322       -1.2483e-007   
  2.35            -6.559e-010     0.0112025       -1.1526e-007   
  2.4             -1.0234e-009    0.011473        -8.361e-008    
  2.45            7.554e-010      0.011741        -1.0035e-007   
  2.5             -2.3639e-009    0.012011        -5.1565e-008   
  2.55            -1.8026e-009    0.012282        -7.4918e-008   
  2.6             9.93e-011       0.012542        -6.6228e-008   
  2.65            2.5075e-009     0.012808        -6.4534e-008   
  2.7             1.8039e-009     0.013076        -3.6003e-008   
  2.75            -5.84e-011      0.013351        -3.1791e-008   
  2.8             -1.895e-009     0.013618        -3.3167e-008   
  2.85            -2.0035e-009    0.013883        -3.8507e-008   
  2.9             -2.508e-010     0.014145        -3.5802e-008   
  2.95            1.9838e-009     0.014409        -3.9775e-008   
  3               2.1224e-009     0.014674        -1.2321e-008   
END_DB

BEGIN_DB
 ICCAP_VAR VS         0              
 ICCAP_VAR VB         -3             
 ICCAP_VAR VD         0.1            

 #VG              IG              ID              IB             
  0               2.71e-009       9.452e-009      -1.6242e-008   
  0.05            -1.3913e-009    3.1613e-008     1.4842e-008    
  0.1             1.3345e-009     1.2899e-007     -1.7712e-008   
  0.15            -2.3414e-009    5.4895e-007     1.1907e-008    
  0.2             2.2257e-009     2.1351e-006     1.1832e-008    
  0.25            -1.4326e-009    7.9508e-006     1.6914e-008    
  0.3             -2.796e-010     2.3471e-005     1.1584e-008    
  0.35            1.931e-009      5.6187e-005     -1.6798e-008   
  0.4             -1.3716e-009    0.000110042     1.4323e-008    
  0.45            -1.351e-009     0.00017549      1.536e-009     
  0.5             -1.0755e-009    0.00024545      -8.515e-009    
  0.55            2.726e-009      0.00030981      -7.563e-009    
  0.6             -3.15e-011      0.00037212      7.722e-009     
  0.65            -2.2362e-009    0.00042624      1.2883e-008    
  0.7             1.6687e-009     0.00047373      -1.6605e-008   
  0.75            8.311e-010      0.00051844      8.962e-009     
  0.8             -2.6112e-009    0.00055896      6.988e-009     
  0.85            1.995e-010      0.00059477      -9.9e-009      
  0.9             2.6291e-009     0.00062804      -1.1141e-008   
  0.95            -1.9083e-009    0.0006602       1.5074e-008    
  1               1.4927e-009     0.00068913      -1.4173e-008   
  1.05            -2.2586e-009    0.00071667      1.257e-008     
  1.1             1.7126e-009     0.00074161      -1.6809e-008   
  1.15            -2.3823e-009    0.00076649      1.1745e-008    
  1.2             1.9413e-009     0.00078865      -1.6449e-008   
  1.25            -2.4777e-009    0.00081113      1.0989e-008    
  1.3             2.1666e-009     0.00083113      -1.5644e-008   
  1.35            -1.5123e-009    0.0008519       1.812e-008     
  1.4             -9.508e-010     0.00087034      -9.342e-009    
  1.45            2.7323e-009     0.00088796      -6.772e-009    
  1.5             -2.4377e-009    0.00090563      1.1357e-008    
  1.55            2.0696e-009     0.0009216       -1.618e-008    
  1.6             -1.4464e-009    0.00093869      1.6274e-008    
  1.65            -9.916e-010     0.00095357      -8.93e-009     
  1.7             2.7366e-009     0.00096803      -7.232e-009    
  1.75            -2.3977e-009    0.0009826       1.1501e-008    
