! VERSION = 6.00
BEGIN_HEADER
 ICCAP_INPUTS
  VG         V  B GROUND SMU4 0.001 LIN        1    0          3          61   0.05      
  VS         V  E GROUND SMU3 0.1 CON        0
  VB         V  C GROUND SMU1 0.1 LIN        3    0          -3         3    -1.5      
  VD         V  S GROUND SMU2 0.1 LIN        2    0.1        3          2    2.9       
 ICCAP_OUTPUTS
  IG         I  B GROUND SMU4 B
  ID         I  S GROUND SMU2 B
  IB         I  C GROUND SMU1 B
END_HEADER

BEGIN_DB
 ICCAP_VAR VS         0              
 ICCAP_VAR VB         0              
 ICCAP_VAR VD         0.1            

 #VG              IG              ID              IB             
  0               9.28e-010       4.6593e-007     -1.1269e-008   
  0.05            -2.5962e-009    1.5208e-006     -2.0997e-008   
  0.1             1.3117e-009     3.9517e-006     -2.4035e-008   
  0.15            5.095e-010      8.205e-006      1.1454e-008    
  0.2             2.8799e-009     1.373e-005      -1.1656e-008   
  0.25            -1.5049e-009    2.006e-005      1.4863e-008    
  0.3             -1.1145e-009    2.6339e-005     -1.0245e-008   
  0.35            1.3143e-009     3.2249e-005     -2.4237e-008   
  0.4             -1.6899e-009    3.8154e-005     2.0311e-008    
  0.45            -9.489e-010     4.3505e-005     -1.1166e-008   
  0.5             1.321e-009      4.8478e-005     -2.3091e-008   
  0.55            -1.3588e-009    5.3452e-005     2.5371e-008    
  0.6             -7.921e-010     5.7947e-005     -1.1611e-008   
  0.65            1.3138e-009     6.2225e-005     -8.452e-009    
  0.7             -1.8532e-009    6.651e-005      2.3775e-008    
  0.75            -8.55e-010      7.0425e-005     -1.1502e-008   
  0.8             1.3132e-009     7.4152e-005     -8.05e-009     
  0.85            -1.7567e-009    7.7967e-005     2.1819e-008    
  0.9             -9.163e-010     8.145e-005      -1.1236e-008   
  0.95            1.3121e-009     8.4802e-005     -7.709e-009    
  1               -1.664e-009     8.8268e-005     1.9516e-008    
  1.05            -9.7e-010       9.1437e-005     -1.1159e-008   
  1.1             1.3103e-009     9.4541e-005     -7.994e-009    
  1.15            5.398e-010      9.7662e-005     1.1431e-008    
  1.2             -1.5342e-009    0.000100662     1.9674e-008    
  1.25            1.3155e-009     0.000103488     -2.3837e-008   
  1.3             -1.8289e-009    0.00010644      2.3264e-008    
  1.35            -8.709e-010     0.000109166     -1.1443e-008   
  1.4             2.8875e-009     0.000111808     -8.047e-009    
  1.45            -2.5424e-009    0.00011452      -2.0021e-008   
  1.5             2.3202e-009     0.0001171       -2.381e-008    
  1.55            -1.669e-009     0.00011981      1.9659e-008    
  1.6             -9.674e-010     0.00012225      -1.1535e-008   
  1.65            1.3179e-009     0.00012461      -2.3301e-008   
  1.7             -1.3575e-009    0.00012715      2.5227e-008    
  1.75            -8.035e-010     0.00012955      -1.1619e-008   
  1.8             1.3151e-009     0.00013185      -8.069e-009    
  1.85            -1.8433e-009    0.00013422      2.3537e-008    
  1.9             -8.663e-010     0.00013648      -1.154e-008    
  1.95            1.3139e-009     0.0001387       -7.772e-009    
  2               -1.7429e-009    0.00014097      2.1485e-008    
  2.05            -9.19e-010      0.00014306      -1.162e-008    
  2.1             1.3284e-009     0.00014517      -2.2665e-008   
  2.15            -1.3665e-009    0.00014738      2.5822e-008    
  2.2             -7.499e-010     0.00014938      -1.1912e-008   
  2.25            1.3165e-009     0.00015146      -8.378e-009    
  2.3             -1.3557e-009    0.00015352      2.4815e-008    
  2.35            -8.159e-010     0.00015549      -1.162e-008    
  2.4             1.3136e-009     0.00015743      -8.036e-009    
  2.45            -1.8134e-009    0.00015942      2.3084e-008    
  2.5             -8.76e-010      0.00016131      -1.147e-008    
  2.55            1.3156e-009     0.00016317      -7.636e-009    
  2.6             -1.7176e-009    0.00016512      2.0849e-008    
  2.65            -9.395e-010     0.0001669       -1.1327e-008   
  2.7             1.3221e-009     0.00016864      -2.2908e-008   
  2.75            -1.3642e-009    0.00017054      2.5658e-008    
  2.8             -7.705e-010     0.00017227      -1.1899e-008   
  2.85            1.315e-009      0.000174        -8.53e-009     
  2.9             -1.8892e-009    0.00017576      2.4405e-008    
  2.95            -8.345e-010     0.0001774       -1.1565e-008   
  3               1.315e-009      0.00017905      -8.153e-009    
END_DB

BEGIN_DB
 ICCAP_VAR VS         0              
 ICCAP_VAR VB         0              
 ICCAP_VAR VD         3              

 #VG              IG              ID              IB             
  0               1.315e-009      3.1907e-006     8.234e-009     
  0.05            -2.6871e-009    8.0112e-006     3.833e-009     
  0.1             2.6475e-009     1.5606e-005     -1.859e-008    
  0.15            1.9182e-009     2.6567e-005     -1.0569e-008   
  0.2             -1.176e-010     4.0673e-005     -2.0925e-008   
  0.25            -2.4063e-009    5.6792e-005     -2.5635e-008   
  0.3             -1.9639e-009    7.4595e-005     -5.9216e-008   
  0.35            6.55e-011       9.3687e-005     -6.5864e-008   
  0.4             1.5094e-009     0.00011428      -3.9227e-008   
  0.45            -1.624e-009     0.0001371       -5.2698e-008   
  0.5             -2.3654e-009    0.00015976      -8.5381e-008   
  0.55            -5.476e-010     0.00018352      -9.4116e-008   
  0.6             8.094e-010      0.0002082       -8.3325e-008   
  0.65            7.015e-010      0.00023347      -8.5048e-008   
  0.7             5.85e-010       0.00025931      -8.6835e-008   
  0.75            5.668e-010      0.00028582      -8.8266e-008   
  0.8             -1.441e-010     0.00031275      -1.1623e-007   
  0.85            2.892e-009      0.00033997      -1.04673e-007  
  0.9             -1.3845e-009    0.00036828      -8.623e-008    
  0.95            1.2878e-009     0.00039613      -1.0085e-007   
  1               1.853e-010      0.00042466      -1.11315e-007  
  1.05            2.0984e-009     0.00045318      -8.0296e-008   
  1.1             6.815e-010      0.00048304      -8.287e-008    
  1.15            8.407e-010      0.00051256      -8.2459e-008   
  1.2             1.3279e-009     0.00054178      -9.0774e-008   
  1.25            2.716e-009      0.00057201      -7.1002e-008   
  1.3             8.697e-010      0.00060212      -6.4772e-008   
  1.35            -1.3837e-009    0.00063318      -4.8328e-008   
  1.4             -2.7173e-009    0.00066327      -7.6539e-008   
  1.45            -9.879e-010     0.000694        -7.7045e-008   
  1.5             1.3126e-009     0.00072414      -8.5857e-008   
  1.55            2.7675e-009     0.00075543      -5.047e-008    
  1.6             9.525e-010      0.0007866       -4.5296e-008   
  1.65            -1.3828e-009    0.00081855      -2.7077e-008   
  1.7             -2.7492e-009    0.0008495       -5.6744e-008   
  1.75            -1.0706e-009    0.00088096      -5.6985e-008   
  1.8             1.3152e-009     0.0009121       -6.7727e-008   
  1.85            2.8127e-009     0.00094397      -3.3007e-008   
  1.9             1.0348e-009     0.00097563      -2.8312e-008   
  1.95            -1.3844e-009    0.00100817      -9.236e-009    
  2               -2.7626e-009    0.00103984      -3.9688e-008   
  2.05            -1.1512e-009    0.00107201      -4.063e-008    
  2.1             2.4787e-009     0.00110313      -5.2943e-008   
  2.15            2.0384e-009     0.00113525      -1.6608e-008   
  2.2             1.5283e-009     0.0011675       -3.4052e-008   
  2.25            -2.3385e-009    0.0012011       -8.696e-009    
  2.3             -1.9914e-009    0.001233        -3.1943e-008   
  2.35            1.75e-011       0.0012642       -2.922e-008    
  2.4             2.4614e-009     0.0012963       -3.4495e-008   
  2.45            -2.7602e-009    0.0013294       -2.1739e-008   
  2.5             -1.3464e-009    0.0013621       -2.496e-008    
  2.55            2.1427e-009     0.0013933       -3.717e-008    
  2.6             2.2296e-009     0.0014258       -4.545e-009    
  2.65            -2.425e-009     0.0014584       -2.0664e-008   
  2.7             -6.179e-010     0.0014904       -2.3308e-008   
  2.75            1.5273e-009     0.0015224       -2.94e-008     
  2.8             -2.3012e-009    0.0015557       5.091e-009     
  2.85            -2.0094e-009    0.0015878       -1.9368e-008   
  2.9             -7.3e-012       0.001619        -1.7883e-008   
  2.95            2.4096e-009     0.0016512       -2.4041e-008   
  3               -1.3577e-009    0.0016844       3.44e-009      
END_DB

BEGIN_DB
 ICCAP_VAR VS         0              
 ICCAP_VAR VB         -1.5           
 ICCAP_VAR VD         0.1            

 #VG              IG              ID              IB             
  0               -4.06e-011      1.3997e-009     -7.545e-009    
  0.05            2.8596e-009     3.9125e-009     -1.3854e-008   
  0.1             -1.5605e-009    1.4412e-008     -5.724e-009    
  0.15            1.7657e-009     8.6047e-008     -1.7308e-008   
  0.2             -2.0639e-009    3.6936e-007     2.5527e-008    
  0.25            2.7674e-009     1.3082e-006     2.2655e-008    
  0.3             -1.3843e-009    3.694e-006      2.6632e-008    
  0.35            -5.933e-010     7.6878e-006     -1.2072e-008   
  0.4             -1.0046e-009    1.3133e-005     1.8692e-008    
  0.45            1.3135e-009     1.897e-005      -2.3895e-008   
  0.5             -1.3534e-009    2.5122e-005     2.4502e-008    
  0.55            -8.387e-010     3.0774e-005     -1.1848e-008   
  0.6             1.3155e-009     3.6092e-005     -8.104e-009    
  0.65            -1.8032e-009    4.1318e-005     2.3025e-008    
  0.7             -8.796e-010     4.6075e-005     -1.1579e-008   
  0.75            1.3154e-009     5.0502e-005     -7.506e-009    
  0.8             -1.7252e-009    5.4968e-005     2.1342e-008    
  0.85            -9.253e-010     5.9032e-005     -1.1363e-008   
  0.9             1.3163e-009     6.2882e-005     -7.388e-009    
  0.95            4.739e-010      6.6753e-005     1.1383e-008    
  1               -1.6004e-009    7.0421e-005     1.842e-008     
  1.05            1.316e-009      7.3848e-005     -2.324e-008    
  1.1             -1.3635e-009    7.7432e-005     2.5403e-008    
  1.15            -7.921e-010     8.0678e-005     -1.1844e-008   
  1.2             1.3152e-009     8.3831e-005     -8.233e-009    
  1.25            -1.3527e-009    8.7067e-005     2.4389e-008    
  1.3             -8.332e-010     9.0058e-005     -1.1718e-008   
  1.35            1.3125e-009     9.2963e-005     -8.024e-009    
  1.4             -1.8017e-009    9.5976e-005     2.2891e-008    
  1.45            -8.79e-010      9.8755e-005     -1.1514e-008   
  1.5             1.3152e-009     0.000101461     -7.737e-009    
  1.55            -1.7273e-009    0.000104294     2.1238e-008    
  1.6             -9.247e-010     0.000106904     -1.1256e-008   
  1.65            1.314e-009      0.00010944      -7.376e-009    
  1.7             -1.6661e-009    0.000112139     1.9593e-008    
  1.75            1.3146e-009     0.00011451      1.0828e-008    
  1.8             -1.8041e-009    0.00011707      2.3004e-008    
  1.85            -8.776e-010     0.00011944      -1.1831e-008   
  1.9             1.3153e-009     0.0001218       -7.753e-009    
  1.95            -1.7358e-009    0.00012424      2.1519e-008    
  2               -9.212e-010     0.00012648      -1.1326e-008   
  2.05            1.315e-009      0.00012872      -7.462e-009    
  2.1             -1.6649e-009    0.00013105      1.9559e-008    
  2.15            -9.616e-010     0.00013318      -1.1116e-008   
  2.2             1.3143e-009     0.0001353       -7.705e-009    
  2.25            5.176e-010      0.00013748      1.1461e-008    
  2.3             -1.5556e-009    0.00013958      1.9072e-008    
  2.35            1.3146e-009     0.00014157      -2.368e-008    
  2.4             -1.3545e-009    0.00014371      2.4525e-008    
  2.45            -8.297e-010     0.00014566      -1.1887e-008   
  2.5             1.3168e-009     0.00014763      -7.856e-009    
  2.55            -1.8085e-009    0.00014964      2.3198e-008    
  2.6             -8.739e-010     0.00015149      -1.1783e-008   
  2.65            1.3156e-009     0.00015338      -7.713e-009    
  2.7             -1.7412e-009    0.00015534      2.1524e-008    
  2.75            -9.154e-010     0.00015714      -1.1364e-008   
  2.8             1.3155e-009     0.00015894      -7.453e-009    
  2.85            -1.6692e-009    0.00016084      1.9783e-008    
  2.9             -9.572e-010     0.00016249      -1.1181e-008   
  2.95            1.3141e-009     0.00016421      -7.73e-009     
  3               5.124e-010      0.00016596      1.145e-008     
END_DB

BEGIN_DB
 ICCAP_VAR VS         0              
 ICCAP_VAR VB         -1.5           
 ICCAP_VAR VD         3              

 #VG              IG              ID              IB             
  0               1.6159e-009     1.6447e-008     4.598e-009     
  0.05            9.432e-010      5.0024e-008     1.0453e-008    
  0.1             -1.1308e-009    2.0578e-007     1.6721e-008    
  0.15            1.316e-009      8.1791e-007     -2.5613e-008   
  0.2             -1.3681e-009    2.8404e-006     -1.4884e-008   
  0.25            -1.7955e-009    7.3583e-006     -1.8753e-008   
  0.3             -3.505e-010     1.4863e-005     -2.81e-009     
  0.35            1.9126e-009     2.5505e-005     -4.3198e-008   
  0.4             2.3275e-009     3.9158e-005     -2.602e-008    
  0.45            3.431e-010      5.4999e-005     -3.3509e-008   
  0.5             -1.7611e-009    7.2743e-005     -3.5826e-008   
  0.55            -2.2661e-009    9.1654e-005     -7.0483e-008   
  0.6             4.84e-010       0.00011212      -8.0612e-008   
  0.65            -1.7531e-009    0.00013412      -5.3954e-008   
  0.7             -2.2692e-009    0.00015642      -8.9466e-008   
  0.75            7.553e-010      0.0001799       -8.1029e-008   
  0.8             7.451e-010      0.00020413      -8.3955e-008   
  0.85            6.447e-010      0.00022903      -8.4991e-008   
  0.9             5.376e-010      0.00025459      -8.5127e-008   
  0.95            6.194e-010      0.00028076      -8.6439e-008   
  1               6.088e-010      0.00030734      -8.6042e-008   
  1.05            5.799e-010      0.0003344       -8.5044e-008   
  1.1             6.584e-010      0.00036227      -8.3971e-008   
  1.15            7.382e-010      0.00039015      -8.2981e-008   
  1.2             8.249e-010      0.00041838      -8.1756e-008   
  1.25            1.325e-009      0.00044658      -9.0473e-008   
  1.3             2.7256e-009     0.00047561      -7.0801e-008   
  1.35            8.816e-010      0.00050484      -6.5101e-008   
  1.4             -1.3852e-009    0.00053479      -4.8468e-008   
  1.45            -2.7246e-009    0.00056392      -7.6844e-008   
  1.5             -9.794e-010     0.00059378      -7.7476e-008   
  1.55            1.3187e-009     0.00062322      -8.6146e-008   
  1.6             2.7575e-009     0.00065365      -5.0934e-008   
  1.65            9.271e-010      0.0006841       -4.5381e-008   
  1.7             -1.3838e-009    0.0007152       -2.7928e-008   
  1.75            -2.74e-009      0.00074561      -5.6955e-008   
  1.8             -1.0256e-009    0.00077648      -5.7493e-008   
  1.85            1.3152e-009     0.00080683      -6.7577e-008   
  1.9             2.7846e-009     0.00083814      -3.2646e-008   
  1.95            9.755e-010      0.00086927      -2.7772e-008   
  2               -1.3839e-009    0.00090112      -1.003e-008    
  2.05            -2.7543e-009    0.00093229      -4.0166e-008   
  2.1             -1.0705e-009    0.00096372      -4.1108e-008   
  2.15            1.3152e-009     0.00099461      -5.2874e-008   
  2.2             2.8125e-009     0.00102639      -1.8957e-008   
  2.25            1.0204e-009     0.00105793      -1.4936e-008   
  2.3             -1.3845e-009    0.00109033      3.382e-009     
  2.35            -2.7659e-009    0.00112175      -2.7989e-008   
  2.4             -1.3821e-009    0.0011544       -2.7351e-008   
  2.45            -2.739e-009     0.0011858       -2.5377e-008   
  2.5             -1.0222e-009    0.0012176       -2.7664e-008   
  2.55            1.3146e-009     0.0012486       -3.9139e-008   
  2.6             2.7837e-009     0.0012811       -5.918e-009    
  2.65            -2.7774e-009    0.0013132       -1.8106e-008   
  2.7             -1.333e-009     0.0013454       -2.1448e-008   
  2.75            2.1779e-009     0.001377        -3.4012e-008   
  2.8             -2.6721e-009    0.0014097       1.237e-009     
  2.85            -1.7428e-009    0.0014417       -2.0363e-008   
  2.9             1.4957e-009     0.0014722       -2.1264e-008   
  2.95            -2.2568e-009    0.0015051       6.814e-009     
  3               -2.0216e-009    0.0015365       -1.7569e-008   
END_DB

BEGIN_DB
 ICCAP_VAR VS         0              
 ICCAP_VAR VB         -3             
 ICCAP_VAR VD         0.1            

 #VG              IG              ID              IB             
  0               -2.7013e-009    -3.7686e-009    -2.0645e-008   
  0.05            -4.296e-010     -4.2918e-009    -1.1994e-008   
  0.1             2.6227e-009     -8.794e-010     -1.698e-008    
  0.15            -2.5053e-009    1.1451e-009     1.5077e-008    
  0.2             2.082e-010      -1.7098e-009    -9.88e-009     
  0.25            2.1435e-009     1.2447e-008     8.995e-009     
  0.3             1.3137e-009     4.2629e-008     -2.45e-008     
  0.35            -2.0812e-009    1.9269e-007     2.4875e-008    
  0.4             1.4799e-009     7.4129e-007     -1.9553e-008   
  0.45            -2.3635e-009    2.35e-006       -1.4252e-008   
  0.5             2.0532e-009     5.5111e-006     -2.197e-008    
  0.55            7.25e-010       1.02928e-005    1.1219e-008    
  0.6             2.8669e-009     1.5883e-005     -1.182e-008    
  0.65            -1.5566e-009    2.1799e-005     1.6339e-008    
  0.7             1.3141e-009     2.7274e-005     -2.3608e-008   
  0.75            -1.3543e-009    3.2776e-005     2.4621e-008    
  0.8             -8.309e-010     3.7753e-005     -1.1585e-008   
  0.85            1.3137e-009     4.2405e-005     -7.901e-009    
  0.9             -1.8266e-009    4.7027e-005     2.3409e-008    
  0.95            -8.623e-010     5.1254e-005     -1.1483e-008   
  1               1.3142e-009     5.5243e-005     -7.762e-009    
  1.05            -1.7691e-009    5.9274e-005     2.216e-008     
  1.1             -9.02e-010      6.3023e-005     -1.1375e-008   
  1.15            1.3161e-009     6.6544e-005     -7.504e-009    
  1.2             -1.703e-009     7.0172e-005     2.058e-008     
  1.25            -9.352e-010     7.3493e-005     -1.1181e-008   
  1.3             1.3246e-009     7.6679e-005     -2.2949e-008   
  1.35            -1.3688e-009    7.9969e-005     2.6087e-008    
  1.4             -7.458e-010     8.3016e-005     -1.1841e-008   
  1.45            1.3173e-009     8.5974e-005     -8.605e-009    
  1.5             -1.3612e-009    8.9016e-005     2.5498e-008    
  1.55            -7.891e-010     9.1838e-005     -1.1712e-008   
  1.6             1.3135e-009     9.4597e-005     -8.211e-009    
  1.65            -1.3537e-009    9.7456e-005     2.4501e-008    
  1.7             -8.251e-010     0.000100099     -1.1575e-008   
  1.75            1.3128e-009     0.000102667     -7.973e-009    
