! VERSION = 6.00
BEGIN_HEADER
 ICCAP_INPUTS
  VG         V  B GROUND SMU4 0.001 LIN        2    0          3          6    0.6       
  VS         V  E GROUND SMU3 0.1 CON        0
  VD         V  S GROUND SMU2 0.1 LIN        1    0          3          61   0.05      
  VB         V  C GROUND SMU1 0.1 LIN        3    0          -1.5       2    -1.5      
 ICCAP_OUTPUTS
  ID         I  S GROUND SMU2 B
  IB         I  C GROUND SMU1 B
  IG         I  B GROUND SMU4 B
END_HEADER

BEGIN_DB
 ICCAP_VAR VG         0              
 ICCAP_VAR VS         0              
 ICCAP_VAR VB         0              

 #VD              ID              IB              IG             
  0               1.2217e-008     -3.293e-009     2.8104e-009    
  0.05            3.5236e-007     1.1412e-008     -2.7603e-009   
  0.1             4.7059e-007     7.938e-009      -1.3824e-009   
  0.15            5.2972e-007     1.2529e-008     -2.4945e-009   
  0.2             5.7789e-007     2.4966e-008     -1.9446e-009   
  0.25            6.2204e-007     1.3321e-008     -1.4703e-009   
  0.3             6.6676e-007     1.9208e-008     -1.5446e-009   
  0.35            7.0484e-007     9.174e-009      -4.06e-011     
  0.4             7.3522e-007     1.1341e-008     6.389e-010     
  0.45            7.9583e-007     2.4903e-008     -1.9203e-009   
  0.5             8.3617e-007     1.299e-008      -1.4609e-009   
  0.55            8.841e-007      1.9278e-008     -1.5315e-009   
  0.6             9.2729e-007     1.8335e-008     -1.6355e-009   
  0.65            9.706e-007      1.7549e-008     -1.7596e-009   
  0.7             1.01473e-006    1.7166e-008     -1.9053e-009   
  0.75            1.05848e-006    1.6021e-008     -2.0549e-009   
  0.8             1.0989e-006     1.512e-008      -1.5195e-009   
  0.85            1.1123e-006     1.8362e-008     2.3034e-009    
  0.9             1.1884e-006     -1.5131e-008    1.6158e-009    
  0.95            1.2156e-006     -1.1858e-008    3.014e-010     
  1               1.2635e-006     -2.391e-008     1.3096e-009    
  1.05            1.3025e-006     -2.2116e-008    1.3416e-009    
  1.1             1.3502e-006     -1.8302e-008    1.6409e-009    
  1.15            1.3945e-006     -1.208e-008     3.116e-010     
  1.2             1.4444e-006     -2.4058e-008    1.3113e-009    
  1.25            1.4818e-006     -2.2033e-008    1.3453e-009    
  1.3             1.5267e-006     -9.744e-009     6.6e-012       
  1.35            1.5837e-006     -1.8695e-008    1.8299e-009    
  1.4             1.6282e-006     -1.4319e-008    1.5854e-009    
  1.45            1.6669e-006     -1.1422e-008    2.814e-010     
  1.5             1.7206e-006     -2.3871e-008    1.3083e-009    
  1.55            1.7513e-006     -1.2113e-008    2.768e-009     
  1.6             1.8066e-006     -2.4001e-008    1.3142e-009    
  1.65            1.8536e-006     -2.0405e-008    1.4408e-009    
  1.7             1.9042e-006     -1.7907e-008    1.9281e-009    
  1.75            1.9544e-006     -1.5723e-008    1.6713e-009    
  1.8             1.9979e-006     -1.2399e-008    1.4752e-009    
  1.85            2.0454e-006     -1.7748e-008    2.0147e-009    
  1.9             2.0996e-006     -1.6757e-008    1.7406e-009    
  1.95            2.1401e-006     -1.314e-008     1.5276e-009    
  2               2.1846e-006     -1.0808e-008    2.317e-010     
  2.05            2.2447e-006     -2.3573e-008    2.2607e-009    
  2.1             2.2961e-006     -2.0782e-008    1.9864e-009    
  2.15            2.335e-006      -1.6583e-008    1.7162e-009    
  2.2             2.3812e-006     -1.3075e-008    1.5098e-009    
  2.25            2.4282e-006     -1.7773e-008    2.0578e-009    
  2.3             2.486e-006      -1.7766e-008    1.7849e-009    
  2.35            2.5263e-006     -1.4066e-008    1.5549e-009    
  2.4             2.5711e-006     -1.1535e-008    2.59e-010      
  2.45            2.6234e-006     -1.0922e-008    -1.377e-010    
  2.5             2.6824e-006     -1.2496e-008    -6.135e-010    
  2.55            2.7454e-006     -1.1631e-008    -1.0017e-009   
  2.6             2.7797e-006     -2.111e-008     1.9268e-009    
  2.65            2.8208e-006     -1.6733e-008    1.6681e-009    
  2.7             2.8623e-006     -1.3645e-008    1.4733e-009    
  2.75            2.9097e-006     -1.1731e-008    2.007e-010     
  2.8             2.9679e-006     -1.2473e-008    -2.223e-010    
  2.85            3.0891e-006     -1.2024e-008    -1.7683e-009   
  2.9             3.1126e-006     2.714e-009      -1.4231e-009   
  2.95            3.1982e-006     1.5047e-008     -1.7422e-009   
  3               3.256e-006      1.1219e-008     -2.2597e-009   
END_DB

BEGIN_DB
 ICCAP_VAR VG         0.6            
 ICCAP_VAR VS         0              
 ICCAP_VAR VB         0              

 #VD              ID              IB              IG             
  0               4.4712e-007     9.908e-009      1.238e-010     
  0.05            3.0127e-005     2.2181e-008     -1.2368e-009   
  0.1             5.7993e-005     5.015e-009      -1.4352e-009   
  0.15            8.2029e-005     1.1978e-008     -2.6007e-009   
  0.2             0.000102414     2.1207e-008     -1.7399e-009   
  0.25            0.00011863      1.1439e-008     1.9815e-009    
  0.3             0.00013133      -1.2982e-008    2.7322e-009    
  0.35            0.00014096      -1.3627e-008    1.5466e-009    
  0.4             0.00014775      -2.2168e-008    1.3385e-009    
  0.45            0.00015316      -1.179e-008     -7.359e-010    
  0.5             0.00015725      1.384e-009      -1.8925e-009   
  0.55            0.00016039      1.9321e-008     -1.5465e-009   
  0.6             0.00016299      2.2953e-008     -1.3954e-009   
  0.65            0.00016487      1.1275e-008     6.331e-010     
  0.7             0.00016679      1.1333e-008     6.637e-010     
  0.75            0.00016865      1.1244e-008     6.87e-010      
  0.8             0.00017004      -2.51e-009      1.9547e-009    
  0.85            0.00017154      -1.9063e-008    1.5277e-009    
  0.9             0.00017291      -1.1884e-008    2.7695e-009    
  0.95            0.00017455      -1.4783e-008    1.6096e-009    
  1               0.00017576      -2.1853e-008    1.3611e-009    
  1.05            0.00017741      -1.1958e-008    -6.752e-010    
  1.1             0.00017886      9.31e-010       -1.9683e-009   
  1.15            0.00018012      1.8577e-008     -1.6026e-009   
  1.2             0.00018133      2.2326e-008     -1.4087e-009   
  1.25            0.00018213      1.1387e-008     5.846e-010     
  1.3             0.00018316      1.1357e-008     6.114e-010     
  1.35            0.00018416      1.1279e-008     6.364e-010     
  1.4             0.00018517      1.1235e-008     6.69e-010      
  1.45            0.00018621      1.1199e-008     6.934e-010     
  1.5             0.00018686      -2.641e-009     1.9332e-009    
  1.55            0.00018766      -1.9445e-008    1.5201e-009    
  1.6             0.00018849      -1.196e-008     2.7664e-009    
  1.65            0.00018957      -1.4637e-008    1.604e-009     
  1.7             0.0001903       -2.1982e-008    1.3517e-009    
  1.75            0.00019159      -1.1956e-008    -6.819e-010    
  1.8             0.00019263      8.8e-010        -1.9575e-009   
  1.85            0.0001935       1.8437e-008     -1.5916e-009   
  1.9             0.00019439      2.2211e-008     -1.4098e-009   
  1.95            0.0001951       1.3212e-008     -2.3904e-009   
  2               0.00019584      1.5731e-008     -1.9933e-009   
  2.05            0.00019656      1.7582e-008     -1.5975e-009   
  2.1             0.0001974       1.037e-008      -2.6506e-009   
  2.15            0.00019799      1.7732e-008     -1.6763e-009   
  2.2             0.00019882      8.909e-009      -2.6829e-009   
  2.25            0.00019947      9.608e-009      -2.4704e-009   
  2.3             0.0002001       1.0895e-008     -2.1003e-009   
  2.35            0.00020077      1.2154e-008     -1.6853e-009   
  2.4             0.00020148      3.495e-009      -2.6842e-009   
  2.45            0.00020211      2.873e-009      -2.4774e-009   
  2.5             0.00020271      2.804e-009      -2.109e-009    
  2.55            0.00020307      -2.1088e-008    -2.7713e-009   
  2.6             0.00020372      -2.4756e-008    -2.7704e-009   
  2.65            0.00020456      1.813e-009      -1.3825e-009   
  2.7             0.00020476      -1.9371e-008    8.83e-010      
  2.75            0.0002051       -4.1493e-008    1.5942e-009    
  2.8             0.00020583      -5.4909e-008    -3.56e-010     
  2.85            0.00020676      -5.18e-008      -2.37e-009     
  2.9             0.00020747      -5.0245e-008    -1.4307e-009   
  2.95            0.00020786      -6.2034e-008    5.246e-010     
  3               0.00020809      -8.7495e-008    2.2544e-009    
END_DB

BEGIN_DB
 ICCAP_VAR VG         1.2            
 ICCAP_VAR VS         0              
 ICCAP_VAR VB         0              

 #VD              ID              IB              IG             
  0               6.7649e-007     -1.8065e-008    2.0749e-009    
  0.05            5.0702e-005     -3.59e-009      -1.3833e-009   
  0.1             0.000100551     1.1179e-008     7.312e-010     
  0.15            0.00014711      -1.734e-008     -4.091e-010    
  0.2             0.000191        -1.896e-008     1.855e-009     
  0.25            0.00023156      -2.0028e-008    1.4586e-009    
  0.3             0.00026895      -1.3067e-008    2.7156e-009    
  0.35            0.0003029       -1.337e-008     1.5261e-009    
  0.4             0.0003333       -2.2463e-008    1.3329e-009    
  0.45            0.00036028      -1.1703e-008    -7.507e-010    
  0.5             0.00038379      1.644e-009      -1.8618e-009   
  0.55            0.00040375      1.9577e-008     -1.5341e-009   
  0.6             0.00042057      2.33e-008       -1.3926e-009   
  0.65            0.00043423      1.1229e-008     6.52e-010      
  0.7             0.0004455       8.226e-009      2.6144e-009    
  0.75            0.00045444      -1.8845e-008    1.5787e-009    
  0.8             0.000462        -2.2095e-008    1.3489e-009    
  0.85            0.00046873      -1.1867e-008    -7.002e-010    
  0.9             0.00047408      1.147e-009      -1.9357e-009   
  0.95            0.00047856      9.483e-009      2.84e-011      
  1               0.00048215      3.31e-010       2.819e-009     
  1.05            0.00048528      -1.6773e-008    1.743e-009     
  1.1             0.00048824      -2.066e-008     1.4095e-009    
  1.15            0.00049107      -2.3729e-008    1.3131e-009    
  1.2             0.00049433      -1.171e-008     -8.733e-010    
  1.25            0.00049702      2.645e-009      -1.6775e-009   
  1.3             0.00049933      2.105e-008      -1.4439e-009   
  1.35            0.00050153      2.4733e-008     -1.3822e-009   
  1.4             0.00050302      1.1275e-008     7.728e-010     
  1.45            0.00050469      -3.732e-009     1.7914e-009    
  1.5             0.0005064       -2.0289e-008    1.4407e-009    
  1.55            0.00050814      -2.3342e-008    1.3169e-009    
  1.6             0.00051037      -1.1712e-008    -8.365e-010    
  1.65            0.00051226      2.087e-009      -1.7456e-009   
  1.7             0.00051385      2.0559e-008     -1.4711e-009   
  1.75            0.00051547      1.2479e-008     -2.5304e-009   
  1.8             0.00051685      1.5016e-008     -1.5158e-009   
  1.85            0.00051835      1.1742e-008     -2.5878e-009   
  1.9             0.00051968      1.6857e-008     -1.5809e-009   
  1.95            0.00052095      2.2501e-008     -1.4064e-009   
  2               0.00052236      2.5677e-008     -1.3825e-009   
  2.05            0.00052356      2.5184e-008     -1.3602e-009   
  2.1             0.00052484      1.7035e-008     -1.589e-009    
  2.15            0.00052597      2.1804e-008     -1.4082e-009   
  2.2             0.0005271       1.2656e-008     -2.384e-009    
  2.25            0.00052815      1.5381e-008     -1.9876e-009   
  2.3             0.00052928      1.6699e-008     -1.5956e-009   
  2.35            0.00053048      8.771e-009      -2.6462e-009   
  2.4             0.00053141      9.589e-009      -2.397e-009    
  2.45            0.00053243      1.0852e-008     -1.9964e-009   
  2.5             0.00053342      1.1211e-008     -1.604e-009    
  2.55            0.00053443      1.736e-009      -2.6525e-009   
  2.6             0.00053536      2.11e-010       -2.4017e-009   
  2.65            0.00053599      -1.6598e-008    -2.3605e-009   
  2.7             0.00053713      -1.069e-008     -2.456e-010    
  2.75            0.00053747      -2.4279e-008    2.8986e-009    
  2.8             0.00053827      -5.865e-008     2.2581e-009    
  2.85            0.000539        -5.3793e-008    5.69e-011      
  2.9             0.0005404       -5.6382e-008    -2.6849e-009   
  2.95            0.00054167      -4.5279e-008    -1.7908e-009   
  3               0.00054231      -7.1924e-008    1.414e-010     
END_DB

BEGIN_DB
 ICCAP_VAR VG         1.8            
 ICCAP_VAR VS         0              
 ICCAP_VAR VB         0              

 #VD              ID              IB              IG             
  0               1.1829e-006     2.6114e-008     9.558e-010     
  0.05            6.5924e-005     1.1164e-008     -2.7714e-009   
  0.1             0.00013182      2.2932e-008     9.664e-010     
  0.15            0.00019451      -6.446e-009     1.4868e-009    
  0.2             0.00025497      -2.2859e-008    1.3284e-009    
  0.25            0.00031272      -1.1603e-008    -7.764e-010    
  0.3             0.00036773      1.842e-009      -1.8272e-009   
  0.35            0.00041953      1.9764e-008     -1.5157e-009   
  0.4             0.0004682       1.229e-008      -2.587e-009    
  0.45            0.00051349      1.6585e-008     -1.569e-009    
  0.5             0.00055532      2.2656e-008     -1.403e-009    
  0.55            0.0005937       2.5928e-008     -1.3826e-009   
  0.6             0.00062852      1.1029e-008     8.732e-010     
  0.65            0.00065995      -4.982e-009     1.6173e-009    
  0.7             0.00068826      -2.1667e-008    1.3667e-009    
  0.75            0.00071375      -1.1895e-008    -6.543e-010    
  0.8             0.00073616      1.013e-009      -1.9988e-009   
  0.85            0.00075574      9.242e-009      -7.1e-012      
  0.9             0.00077212      1.0277e-008     2.0976e-009    
  0.95            0.00078646      -1.4856e-008    2.621e-009     
  1               0.00079898      -1.1691e-008    2.899e-010     
  1.05            0.00081016      -1.1751e-008    -8.137e-010    
  1.1             0.00081956      2.059e-009      -1.7716e-009   
  1.15            0.00082754      2.0266e-008     -1.4867e-009   
  1.2             0.00083442      1.2398e-008     -2.5585e-009   
  1.25            0.00084031      1.5621e-008     -1.5338e-009   
  1.3             0.00084554      2.3116e-008     -1.3934e-009   
  1.35            0.00085024      2.6158e-008     -1.382e-009    
  1.4             0.00085372      1.0891e-008     9.045e-010     
  1.45            0.00085726      -5.622e-009     1.5646e-009    
  1.5             0.00086064      -2.1998e-008    1.3512e-009    
  1.55            0.00086424      -1.1946e-008    -7.012e-010    
  1.6             0.00086753      1.303e-009      -1.9403e-009   
  1.65            0.00087046      1.8884e-008     -1.5757e-009   
  1.7             0.00087306      2.2582e-008     -1.404e-009    
  1.75            0.00087516      1.1328e-008     6.085e-010     
  1.8             0.00087743      1.1404e-008     6.303e-010     
  1.85            0.00087953      1.122e-008      6.643e-010     
  1.9             0.00088163      1.1333e-008     6.879e-010     
  1.95            0.00088341      8.152e-009      2.6458e-009    
  2               0.00088501      -1.934e-008     1.5301e-009    
  2.05            0.00088666      -2.2311e-008    1.3311e-009    
  2.1             0.00088909      -1.1886e-008    -7.488e-010    
  2.15            0.00089111      1.308e-009      -1.869e-009    
  2.2             0.0008928       1.9151e-008     -1.5292e-009   
  2.25            0.00089447      1.1543e-008     -2.607e-009    
  2.3             0.00089594      1.697e-008      -1.5938e-009   
  2.35            0.00089741      2.1748e-008     -1.4132e-009   
  2.4             0.00089882      1.2346e-008     -2.3992e-009   
  2.45            0.00090007      1.4941e-008     -2e-009        
  2.5             0.00090143      1.6325e-008     -1.6053e-009   
  2.55            0.00090284      8.083e-009      -2.6559e-009   
  2.6             0.00090405      8.732e-009      -2.4063e-009   
  2.65            0.00090521      9.791e-009      -2.0054e-009   
  2.7             0.00090635      9.687e-009      -1.6122e-009   
  2.75            0.00090765      -3.92e-010      -2.6572e-009   
  2.8             0.0009087       -2.408e-009     -2.41e-009     
  2.85            0.00090971      -4.626e-009     -2.0154e-009   
  2.9             0.00091072      -1.7416e-008    -1.47e-011     
  2.95            0.0009113       -3.3842e-008    2.8397e-009    
  3               0.00091216      -6.1415e-008    1.8112e-009    
END_DB

BEGIN_DB
 ICCAP_VAR VG         2.4            
 ICCAP_VAR VS         0              
 ICCAP_VAR VB         0              

 #VD              ID              IB              IG             
  0               1.3749e-006     -1.0244e-008    -6.635e-010    
  0.05            7.8461e-005     8.44e-010       1.3978e-009    
  0.1             0.00015746      -1.6266e-008    -1.7978e-009   
  0.15            0.00023327      1.0576e-008     -2.7083e-009   
  0.2             0.00030718      2.3691e-008     -1.3465e-009   
  0.25            0.00037856      1.5438e-008     -1.5172e-009   
  0.3             0.00044727      2.3143e-008     -1.39e-009     
  0.35            0.00051306      1.1245e-008     6.662e-010     
  0.4             0.00057601      1.1227e-008     6.904e-010     
  0.45            0.00063573      1.1092e-008     7.21e-010      
  0.5             0.00069216      -3.033e-009     1.8992e-009    
  0.55            0.00074532      -1.969e-008     1.4952e-009    
  0.6             0.0007952       -1.2271e-008    2.7506e-009    
  0.65            0.00084178      -1.4104e-008    1.5735e-009    
  0.7             0.00088488      -2.2092e-008    1.3418e-009    
  0.75            0.0009251       -1.1807e-008    -7.196e-010    
  0.8             0.00096186      1.268e-009      -1.9118e-009   
  0.85            0.00099546      1.8953e-008     -1.5592e-009   
  0.9             0.00102613      2.2781e-008     -1.401e-009    
  0.95            0.00105358      1.1349e-008     6.204e-010     
  1               0.00107841      8.321e-009      2.5937e-009    
  1.05            0.00110047      -1.8485e-008    1.6219e-009    
  1.1             0.0011204       -2.163e-008     1.3589e-009    
  1.15            0.0011386       -1.185e-008     -6.681e-010    
  1.2             0.0011552       -9.889e-009     2.935e-010     
  1.25            0.0011692       2.3943e-008     -1.8602e-009   
  1.3             0.0011812       1.9708e-008     -1.5188e-009   
  1.35            0.0011923       1.196e-008      -2.5919e-009   
  1.4             0.0012015       1.6762e-008     -1.5798e-009   
  1.45            0.0012101       2.2738e-008     -1.4033e-009   
  1.5             0.001217        1.1344e-008     6.088e-010     
  1.55            0.0012234       1.1343e-008     6.313e-010     
  1.6             0.0012292       1.1234e-008     6.653e-010     
  1.65            0.0012345       1.1151e-008     6.939e-010     
  1.7             0.001239        -2.888e-009     1.9352e-009    
  1.75            0.0012431       -1.9293e-008    1.5245e-009    
