! VERSION = 6.00
BEGIN_HEADER
 ICCAP_INPUTS
  VG         V  B GROUND SMU4 0.001 LIN        1    0          3          61   0.05      
  VS         V  E GROUND SMU3 0.1 CON        0
  VB         V  C GROUND SMU1 0.1 LIN        3    0          -3         3    -1.5      
  VD         V  S GROUND SMU2 0.1 LIN        2    0.1        3          2    2.9       
 ICCAP_OUTPUTS
  IG         I  B GROUND SMU4 B
  ID         I  S GROUND SMU2 B
  IB         I  C GROUND SMU1 B
END_HEADER

BEGIN_DB
 ICCAP_VAR VS         0              
 ICCAP_VAR VB         0              
 ICCAP_VAR VD         0.1            

 #VG              IG              ID              IB             
  0               2.6269e-009     1.183e-005      -1.6657e-008   
  0.05            -1.9616e-009    2.7031e-005     1.4733e-008    
  0.1             1.5953e-009     4.95e-005       -1.5371e-008   
  0.15            8.624e-010      7.9065e-005     9.028e-009     
  0.2             -2.6069e-009    0.000111541     7.338e-009     
  0.25            -1.6473e-009    0.00014391      -1.6269e-008   
  0.3             2.6909e-009     0.00017298      -1.1714e-008   
  0.35            -2.1295e-009    0.00020212      1.3604e-008    
  0.4             1.581e-009      0.0002276       -1.692e-008    
  0.45            -2.3106e-009    0.00025253      1.213e-008     
  0.5             1.8359e-009     0.00027474      -1.6545e-008   
  0.55            -2.437e-009     0.00029638      1.1094e-008    
  0.6             2.1009e-009     0.0003155       -1.5965e-008   
  0.65            -1.4898e-009    0.00033473      1.7311e-008    
  0.7             -9.604e-010     0.00035211      -9.255e-009    
  0.75            2.7349e-009     0.00036847      -6.948e-009    
  0.8             -2.4369e-009    0.00038476      1.1069e-008    
  0.85            2.0966e-009     0.00039947      -1.6122e-008   
  0.9             -1.4897e-009    0.00041473      1.7355e-008    
  0.95            -9.62e-010      0.00042845      -9.225e-009    
  1               2.735e-009      0.00044167      -7.021e-009    
  1.05            -2.4362e-009    0.00045531      1.0265e-008    
  1.1             2.1006e-009     0.00046721      -1.6132e-008   
  1.15            -1.4832e-009    0.00048003      1.7091e-008    
  1.2             2.4784e-009     0.00049115      -1.3328e-008   
  1.25            -1.6899e-009    0.000503        1.5945e-008    
  1.3             -8.457e-010     0.00051419      -9.761e-009    
  1.35            2.7206e-009     0.00052488      -7.56e-009     
  1.4             -1.3674e-009    0.00053595      1.3841e-008    
  1.45            2.3307e-009     0.00054551      -1.4816e-008   
  1.5             1.9278e-009     0.00055572      8.678e-009     
  1.55            -1.4621e-009    0.00056572      1.7182e-008    
  1.6             2.4628e-009     0.00057493      -1.369e-008    
  1.65            -1.6522e-009    0.00058458      1.6155e-008    
  1.7             -8.63e-010      0.00059372      -9.769e-009    
  1.75            2.7216e-009     0.00060258      -7.413e-009    
  1.8             -1.3415e-009    0.00061191      1.3132e-008    
  1.85            2.3003e-009     0.0006197       -1.522e-008    
  1.9             1.9447e-009     0.00062832      8.7e-009       
  1.95            -1.4387e-009    0.00063669      1.7254e-008    
  2               2.4346e-009     0.00064443      -1.4196e-008   
  2.05            -1.6241e-009    0.00065265      1.6318e-008    
  2.1             -8.824e-010     0.00066039      -9.69e-009     
  2.15            2.7255e-009     0.00066781      -7.195e-009    
  2.2             -1.3239e-009    0.00067591      1.2521e-008    
  2.25            2.2645e-009     0.00068236      -1.5302e-008   
  2.3             1.9656e-009     0.00068993      8.441e-009     
  2.35            -1.4113e-009    0.000697        1.7368e-008    
  2.4             2.41e-009       0.00070364      -1.4269e-008   
  2.45            -1.5864e-009    0.00071071      1.6414e-008    
  2.5             -9.03e-010      0.00071731      -9.572e-009    
  2.55            2.7304e-009     0.00072378      -7.186e-009    
  2.6             -2.4856e-009    0.00073027      1.0837e-008    
  2.65            2.2256e-009     0.00073617      -1.5483e-008   
  2.7             -1.5846e-009    0.00074288      1.966e-008     
  2.75            -9.02e-010      0.00074872      -9.614e-009    
  2.8             2.7283e-009     0.00075457      -7.196e-009    
  2.85            -2.4835e-009    0.00076049      1.0905e-008    
  2.9             2.2208e-009     0.00076585      -1.5574e-008   
  2.95            -1.5789e-009    0.000772        1.9615e-008    
  3               -9.078e-010     0.00077738      -9.601e-009    
END_DB

BEGIN_DB
 ICCAP_VAR VS         0              
 ICCAP_VAR VB         0              
 ICCAP_VAR VD         3              

 #VG              IG              ID              IB             
  0               -4.465e-010     0.00015086      -1.3476e-007   
  0.05            -2.5855e-009    0.00021679      -1.7694e-007   
  0.1             -1.4523e-009    0.00029206      -2.4373e-007   
  0.15            1.7162e-009     0.00037203      -3.0403e-007   
  0.2             2.2388e-009     0.00046153      -3.2779e-007   
  0.25            3.869e-010      0.00055648      -3.724e-007    
  0.3             -1.6065e-009    0.00065616      -4.0751e-007   
  0.35            -2.1591e-009    0.00075742      -4.6963e-007   
  0.4             -4.371e-010     0.00086345      -5.0515e-007   
  0.45            1.6983e-009     0.00097101      -5.408e-007    
  0.5             2.2478e-009     0.0010854       -5.3986e-007   
  0.55            2.6908e-009     0.0011986       -5.7254e-007   
  0.6             1.0402e-009     0.0013136       -5.7213e-007   
  0.65            -2.174e-009     0.0014335       -5.6487e-007   
  0.7             -1.9019e-009    0.001552        -6.0405e-007   
  0.75            -2.02e-011      0.0016693       -6.0446e-007   
  0.8             2.3542e-009     0.0017905       -6.0891e-007   
  0.85            1.9077e-009     0.0019133       -5.8025e-007   
  0.9             2.66e-011       0.0020398       -5.7338e-007   
  0.95            -2.1573e-009    0.002165        -5.574e-007    
  1               -1.9075e-009    0.0022893       -5.6728e-007   
  1.05            -3.56e-011      0.0024123       -5.5214e-007   
  1.1             2.3311e-009     0.0025388       -5.4325e-007   
  1.15            1.9209e-009     0.0026668       -5.0242e-007   
  1.2             3.92e-011       0.0027971       -4.8532e-007   
  1.25            -2.1403e-009    0.0029264       -4.6044e-007   
  1.3             -1.9128e-009    0.0030543       -4.6389e-007   
  1.35            -4.62e-011      0.0031807       -4.4338e-007   
  1.4             2.3198e-009     0.0033096       -4.3069e-007   
  1.45            1.9348e-009     0.0034399       -3.8769e-007   
  1.5             4.87e-011       0.0035726       -3.6841e-007   
  1.55            -2.1247e-009    0.0037034       -3.4353e-007   
  1.6             -1.9203e-009    0.0038328       -3.4705e-007   
  1.65            -5.47e-011      0.0039608       -3.2809e-007   
  1.7             2.3013e-009     0.004091        -3.1713e-007   
  1.75            1.9436e-009     0.0042224       -2.7634e-007   
  1.8             5.8e-011        0.0043562       -2.6009e-007   
  1.85            -2.1061e-009    0.0044876       -2.3837e-007   
  1.9             -1.925e-009     0.0046177       -2.456e-007    
  1.95            -6.2e-011       0.0047461       -2.3049e-007   
  2               2.2864e-009     0.0048765       -2.2383e-007   
  2.05            1.954e-009      0.0050077       -1.8649e-007   
  2.1             6.99e-011       0.0051417       -1.7462e-007   
  2.15            -2.0931e-009    0.0052728       -1.5701e-007   
  2.2             -1.9285e-009    0.0054026       -1.6888e-007   
  2.25            -7.27e-011      0.0055303       -1.5756e-007   
  2.3             2.2729e-009     0.0056625       -1.545e-007    
  2.35            1.9648e-009     0.0057928       -1.2146e-007   
  2.4             7.73e-011       0.0059257       -1.1293e-007   
  2.45            2.6932e-009     0.0060528       -1.2484e-007   
  2.5             2.7241e-009     0.0061835       -1.1204e-007   
  2.55            -6.486e-010     0.0063133       -1.0787e-007   
  2.6             5.074e-010      0.0064428       -8.1657e-008   
  2.65            -2.619e-009     0.0065711       -7.7975e-008   
  2.7             -1.2722e-009    0.0067019       -8.648e-008    
  2.75            2.0768e-009     0.0068268       -9.4427e-008   
  2.8             2.0769e-009     0.0069556       -6.0023e-008   
  2.85            1.915e-010      0.0070857       -5.4621e-008   
  2.9             -1.9028e-009    0.0072137       -4.3575e-008   
  2.95            -2.0057e-009    0.0073395       -6.2475e-008   
  3               -2.074e-010     0.0074647       -5.9437e-008   
END_DB

BEGIN_DB
 ICCAP_VAR VS         0              
 ICCAP_VAR VB         -1.5           
 ICCAP_VAR VD         0.1            

 #VG              IG              ID              IB             
  0               -1.1865e-009    1.5999e-007     1.4351e-008    
  0.05            2.5427e-009     6.3602e-007     -1.278e-008    
  0.1             -2.1441e-009    2.3973e-006     -1.1564e-008   
  0.15            1.8399e-009     7.5477e-006     -1.9171e-008   
  0.2             2.7268e-009     1.9424e-005     -9.881e-009    
  0.25            -1.3454e-009    4.0273e-005     1.3254e-008    
  0.3             -1.0788e-009    6.7871e-005     -8.588e-009    
  0.35            2.7302e-009     9.7515e-005     -7.511e-009    
  0.4             2.6967e-009     0.00012894      8.812e-009     
  0.45            -1.472e-009     0.00015891      1.6869e-008    
  0.5             -9.641e-010     0.00018636      -9.214e-009    
  0.55            2.7407e-009     0.00021121      -7.189e-009    
  0.6             -2.4538e-009    0.0002354       9.99e-009      
  0.65            2.123e-009      0.00025646      -1.6003e-008   
  0.7             -1.5086e-009    0.00027755      1.7648e-008    
  0.75            2.5252e-009     0.00029601      -1.3468e-008   
  0.8             -1.7302e-009    0.00031468      1.5769e-008    
  0.85            2.7052e-009     0.00033156      -1.185e-008    
  0.9             6.65e-011       0.00034831      7.952e-009     
  0.95            -2.1167e-009    0.0003638       1.3913e-008    
  1               1.7722e-009     0.0003785       -1.8416e-008   
  1.05            7.792e-010      0.00039305      9.233e-009     
  1.1             -2.6208e-009    0.00040701      6.752e-009     
  1.15            2.7044e-009     0.00042022      -1.1627e-008   
  1.2             -2.1655e-009    0.00043311      1.3473e-008    
  1.25            1.8252e-009     0.00044541      -1.9178e-008   
  1.3             -2.4596e-009    0.00045773      1.1359e-008    
  1.35            2.1201e-009     0.00046904      -1.5795e-008   
  1.4             -1.5037e-009    0.00048099      1.7578e-008    
  1.45            -9.437e-010     0.00049184      -9.342e-009    
  1.5             2.7274e-009     0.00050244      -7.018e-009    
  1.55            -2.4783e-009    0.00051345      1.0857e-008    
  1.6             2.1798e-009     0.000523        -1.576e-008    
  1.65            -1.5386e-009    0.00053352      1.8459e-008    
  1.7             -9.189e-010     0.00054303      -9.403e-009    
  1.75            2.7192e-009     0.00055242      -6.985e-009    
  1.8             -2.5037e-009    0.00056196      1.1363e-008    
  1.85            2.2272e-009     0.00057066      -1.5229e-008   
  1.9             -1.5907e-009    0.00058006      1.9824e-008    
  1.95            -8.872e-010     0.00058862      -9.479e-009    
  2               2.7219e-009     0.00059704      -7.046e-009    
  2.05            -1.3209e-009    0.00060593      1.2331e-008    
  2.1             2.288e-009      0.00061331      -1.5326e-008   
  2.15            1.9371e-009     0.00062168      8.373e-009     
  2.2             -1.4295e-009    0.00062961      1.6662e-008    
  2.25            2.463e-009      0.00063691      -1.4082e-008   
  2.3             -1.645e-009     0.0006449       1.5613e-008    
  2.35            -8.629e-010     0.0006523       -9.612e-009    
  2.4             2.7168e-009     0.00065942      -7.188e-009    
  2.45            -1.3462e-009    0.00066708      1.324e-008     
  2.5             2.3452e-009     0.00067337      -1.4972e-008   
  2.55            -1.5203e-009    0.00068048      1.6193e-008    
  2.6             -9.326e-010     0.00068719      -9.336e-009    
  2.65            2.7274e-009     0.00069364      -6.981e-009    
  2.7             -2.4955e-009    0.00070026      1.1379e-008    
  2.75            2.2066e-009     0.00070623      -1.5427e-008   
  2.8             -1.5638e-009    0.00071299      1.9219e-008    
  2.85            -9.024e-010     0.00071892      -9.401e-009    
  2.9             2.7245e-009     0.0007248       -7.174e-009    
  2.95            -2.5131e-009    0.00073072      1.1165e-008    
  3               2.2616e-009     0.00073611      -1.5363e-008   
END_DB

BEGIN_DB
 ICCAP_VAR VS         0              
 ICCAP_VAR VB         -1.5           
 ICCAP_VAR VD         3              

 #VG              IG              ID              IB             
  0               1.0406e-009     8.8058e-006     2.433e-009     
  0.05            1.901e-010      2.3851e-005     -2.7006e-008   
  0.1             2.6239e-009     5.2374e-005     -8.0749e-008   
  0.15            -4.55e-011      9.7267e-005     -1.0798e-007   
  0.2             2.2083e-009     0.00015522      -1.807e-007    
  0.25            1.9895e-009     0.00022422      -2.2307e-007   
  0.3             1.128e-010      0.00030435      -2.8145e-007   
  0.35            -2.0341e-009    0.0003906       -3.3027e-007   
  0.4             -1.9496e-009    0.00048163      -4.0488e-007   
  0.45            -1.024e-010     0.00057646      -4.4701e-007   
  0.5             2.2244e-009     0.00067863      -4.9242e-007   
  0.55            1.9786e-009     0.00078338      -5.0001e-007   
  0.6             1.039e-010      0.00089237      -5.281e-007    
  0.65            -2.0467e-009    0.00100285      -5.4132e-007   
  0.7             -1.9439e-009    0.00111407      -5.7917e-007   
  0.75            -1.27e-009      0.0012287       -5.8473e-007   
  0.8             -2.4508e-009    0.0013439       -5.9263e-007   
  0.85            -7.816e-010     0.0014611       -5.9651e-007   
  0.9             2.7165e-009     0.0015783       -6.0331e-007   
  0.95            1.5178e-009     0.0016964       -5.7e-007      
  1               -1.392e-009     0.0018228       -5.5515e-007   
  1.05            -2.3006e-009    0.0019437       -5.6505e-007   
  1.1             -6.072e-010     0.0020666       -5.5446e-007   
  1.15            1.4289e-009     0.0021891       -5.4607e-007   
  1.2             2.3684e-009     0.0023152       -5.0578e-007   
  1.25            5.356e-010      0.0024416       -4.8497e-007   
  1.3             -1.3977e-009    0.0025686       -4.5863e-007   
  1.35            -2.2894e-009    0.0026939       -4.635e-007    
  1.4             -5.945e-010     0.0028207       -4.4664e-007   
  1.45            1.4444e-009     0.0029464       -4.3365e-007   
  1.5             2.3579e-009     0.0030758       -3.9039e-007   
  1.55            5.259e-010      0.003205        -3.6762e-007   
  1.6             -1.4152e-009    0.0033344       -3.408e-007    
  1.65            -2.278e-009     0.0034618       -3.4528e-007   
  1.7             -5.776e-010     0.0035907       -3.296e-007    
  1.75            1.4645e-009     0.0037181       -3.1822e-007   
  1.8             2.346e-009      0.003849        -2.7758e-007   
  1.85            5.135e-010      0.0039794       -2.576e-007    
  1.9             -1.4322e-009    0.00411         -2.3388e-007   
  1.95            -2.2644e-009    0.004238        -2.423e-007    
  2               -5.631e-010     0.0043677       -2.3065e-007   
  2.05            1.4804e-009     0.0044955       -2.2317e-007   
  2.1             2.3364e-009     0.0046268       -1.8635e-007   
  2.15            5.012e-010      0.0047574       -1.709e-007    
  2.2             -1.4422e-009    0.0048881       -1.5303e-007   
  2.25            -2.2598e-009    0.005016        -1.6425e-007   
  2.3             -5.56e-010      0.0051468       -1.566e-007    
  2.35            1.4996e-009     0.0052747       -1.5305e-007   
  2.4             2.3277e-009     0.0054057       -1.2011e-007   
  2.45            4.876e-010      0.0055354       -1.0877e-007   
  2.5             -7.16e-011      0.0056621       -1.1845e-007   
  2.55            2.288e-009      0.0057904       -1.1712e-007   
  2.6             2.5891e-009     0.0059209       -9.425e-008    
  2.65            2.5304e-009     0.0060486       -8.2088e-008   
  2.7             -2.6099e-009    0.0061772       -7.4875e-008   
  2.75            -1.2771e-009    0.0063074       -8.3505e-008   
  2.8             2.0583e-009     0.0064313       -9.1657e-008   
  2.85            2.0638e-009     0.0065599       -5.7329e-008   
  2.9             1.926e-010      0.0066886       -5.1632e-008   
  2.95            -1.9054e-009    0.006816        -4.1936e-008   
  3               -1.9949e-009    0.0069412       -6.0194e-008   
END_DB

BEGIN_DB
 ICCAP_VAR VS         0              
 ICCAP_VAR VB         -3             
 ICCAP_VAR VD         0.1            

 #VG              IG              ID              IB             
  0               1.1577e-009     4.052e-009      9.264e-009     
  0.05            2.5067e-009     1.0979e-008     -7.833e-009    
  0.1             -2.0262e-009    4.019e-008      1.4079e-008    
  0.15            1.3281e-009     1.7e-007        -1.7891e-008   
  0.2             -2.3688e-009    7.0672e-007     1.1871e-008    
  0.25            2.3493e-009     2.5583e-006     1.3311e-008    
  0.3             -1.5457e-009    8.3045e-006     1.6183e-008    
  0.35            -2.2749e-009    2.0895e-005     -3.863e-009    
  0.4             1.7583e-009     4.1194e-005     -1.6665e-008   
  0.45            -2.4289e-009    6.9213e-005     1.1488e-008    
  0.5             2.0466e-009     9.8704e-005     -1.608e-008    
  0.55            1.6854e-009     0.00012869      1.4635e-008    
  0.6             -1.8201e-009    0.00015802      1.524e-008     
  0.65            2.727e-009      0.00018387      -1.3e-008      
  0.7             1.17e-011       0.00020876      7.796e-009     
  0.75            -2.1901e-009    0.00023124      1.3132e-008    
  0.8             1.6385e-009     0.00025172      -1.6581e-008   
  0.85            -2.3702e-009    0.00027189      1.2158e-008    
  0.9             1.924e-009      0.0002901       -1.6502e-008   
  0.95            -1.386e-009     0.00030836      1.4451e-008    
  1               -1.0286e-009    0.00032472      -9.03e-009     
  1.05            2.7407e-009     0.00034038      -7.446e-009    
  1.1             -1.112e-010     0.0003562       8.676e-009     
  1.15            -2.3549e-009    0.00037062      1.2064e-008    
  1.2             1.8975e-009     0.0003843       -1.6426e-008   
  1.25            -2.4791e-009    0.00039825      1.136e-008     
  1.3             2.1806e-009     0.00041089      -1.5552e-008   
  1.35            -1.5504e-009    0.0004241       1.8726e-008    
  1.4             -9.174e-010     0.00043613      -9.456e-009    
  1.45            2.7291e-009     0.00044776      -7.215e-009    
  1.5             -2.4974e-009    0.00045957      1.1225e-008    
  1.55            2.2185e-009     0.00047035      -1.5427e-008   
  1.6             -1.5781e-009    0.0004817       1.9611e-008    
  1.65            2.5758e-009     0.00049188      -1.2568e-008   
  1.7             -1.8261e-009    0.00050253      1.5247e-008    
  1.75            2.7232e-009     0.00051243      -1.2911e-008   
