! VERSION = 6.00
BEGIN_HEADER
 ICCAP_INPUTS
  VG         V  B GROUND SMU4 0.001 LIN        1    0          3          61   0.05      
  VS         V  E GROUND SMU3 0.1 CON        0
  VB         V  C GROUND SMU1 0.1 LIN        3    0          -3         3    -1.5      
  VD         V  S GROUND SMU2 0.1 LIN        2    0.1        3          2    2.9       
 ICCAP_OUTPUTS
  IG         I  B GROUND SMU4 B
  ID         I  S GROUND SMU2 B
  IB         I  C GROUND SMU1 B
END_HEADER

BEGIN_DB
 ICCAP_VAR VS         0              
 ICCAP_VAR VB         0              
 ICCAP_VAR VD         0.1            

 #VG              IG              ID              IB             
  0               -1.3868e-009    5.276e-007      2.5996e-008    
  0.05            2.896e-009      1.6875e-006     1.0527e-008    
  0.1             -2.4636e-009    4.4428e-006     1.3019e-008    
  0.15            2.1807e-009     8.7468e-006     -2.3172e-008   
  0.2             1.3173e-009     1.4463e-005     3.404e-009     
  0.25            4.935e-010      2.0886e-005     1.1348e-008    
  0.3             -1.5892e-009    2.7255e-005     1.897e-008     
  0.35            1.3197e-009     3.3147e-005     -2.3245e-008   
  0.4             -1.3582e-009    3.9058e-005     2.4619e-008    
  0.45            -8.325e-010     4.4395e-005     -1.1731e-008   
  0.5             1.3152e-009     4.9373e-005     -8.133e-009    
  0.55            -1.8062e-009    5.4327e-005     2.2972e-008    
  0.6             -8.935e-010     5.883e-005      -1.1825e-008   
  0.65            1.3164e-009     6.3057e-005     -7.746e-009    
  0.7             -1.703e-009     6.7333e-005     2.0566e-008    
  0.75            -9.491e-010     7.1236e-005     -1.164e-008    
  0.8             1.3212e-009     7.494e-005      -2.2797e-008   
  0.85            -1.3653e-009    7.8735e-005     2.5638e-008    
  0.9             -7.906e-010     8.2219e-005     -1.1793e-008   
  0.95            1.3162e-009     8.5572e-005     -8.348e-009    
  1               -1.3524e-009    8.9009e-005     2.4083e-008    
  1.05            -8.459e-010     9.2165e-005     -1.1558e-008   
  1.1             1.3158e-009     9.5282e-005     -7.838e-009    
  1.15            -1.7725e-009    9.8456e-005     2.2044e-008    
  1.2             -9.058e-010     0.000101364     -1.1399e-008   
  1.25            1.3148e-009     0.000104194     -7.599e-009    
  1.3             -1.6798e-009    0.000107171     1.991e-008     
  1.35            -9.66e-010      0.000109876     -1.1141e-008   
  1.4             1.3194e-009     0.000112536     -2.3142e-008   
  1.45            -2.082e-009     0.00011524      -9.375e-009    
  1.5             1.4866e-009     0.00011777      -1.9748e-008   
  1.55            1.0596e-009     0.00012035      9.486e-009     
  1.6             -1.3875e-009    0.00012293      2.6143e-008    
  1.65            -5.352e-010     0.00012533      -1.1764e-008   
  1.7             1.6403e-009     0.00012771      -1.8662e-008   
  1.75            -2.3936e-009    0.00013017      1.3647e-008    
  1.8             2.0676e-009     0.00013247      -2.1985e-008   
  1.85            7.343e-010      0.00013482      1.1349e-008    
  1.9             -1.3866e-009    0.0001371       7.469e-009     
  1.95            1.9362e-009     0.00013929      -2.0398e-008   
  2               7.928e-010      0.0001415       1.1249e-008    
  2.05            -1.3873e-009    0.00014369      8.083e-009     
  2.1             1.8094e-009     0.0001458       -1.8457e-008   
  2.15            8.6e-010        0.0001479       1.088e-008     
  2.2             -1.3852e-009    0.00015001      8.096e-009     
  2.25            -5.56e-010      0.00015202      -1.1911e-008   
  2.3             1.6148e-009     0.00015396      -1.8737e-008   
  2.35            -2.3627e-009    0.00015598      1.4012e-008    
  2.4             2.0243e-009     0.00015793      -2.1492e-008   
  2.45            7.585e-010      0.00015985      1.1169e-008    
  2.5             -1.3867e-009    0.00016179      7.475e-009     
  2.55            1.9068e-009     0.0001636       -1.967e-008    
  2.6             8.179e-010      0.00016548      1.0932e-008    
  2.65            -1.3853e-009    0.00016733      7.994e-009     
  2.7             -5.087e-010     0.00016909      -1.167e-008    
  2.75            1.6848e-009     0.00017085      -1.8355e-008   
  2.8             -2.4149e-009    0.00017262      1.3497e-008    
  2.85            2.105e-009      0.00017431      -2.2249e-008   
  2.9             7.11e-010       0.00017603      1.1202e-008    
  2.95            -1.383e-009     0.00017772      7.274e-009     
  3               1.9856e-009     0.00017935      -2.0864e-008   
END_DB

BEGIN_DB
 ICCAP_VAR VS         0              
 ICCAP_VAR VB         0              
 ICCAP_VAR VD         3              

 #VG              IG              ID              IB             
  0               -9.367e-010     3.5269e-006     -1.5338e-008   
  0.05            -2.0299e-009    8.5734e-006     -1.8503e-008   
  0.1             -5.154e-010     1.6822e-005     5.76e-010      
  0.15            1.6651e-009     2.8079e-005     -4.0025e-008   
  0.2             2.4639e-009     4.2375e-005     -2.1957e-008   
  0.25            5.161e-010      5.885e-005      -2.7732e-008   
  0.3             -1.5578e-009    7.733e-005      -2.8825e-008   
  0.35            -2.443e-009     9.6876e-005     -6.467e-008    
  0.4             -2.7678e-009    0.00011812      -7.485e-008    
  0.45            -1.1391e-009    0.0001404       -8.0561e-008   
  0.5             1.3184e-009     0.0001631       -1.00708e-007  
  0.55            2.8562e-009     0.00018733      -7.4114e-008   
  0.6             8.226e-010      0.00021229      -8.2527e-008   
  0.65            6.91e-010       0.00023775      -8.3928e-008   
  0.7             5.715e-010      0.00026377      -8.5455e-008   
  0.75            5.441e-010      0.00029044      -8.6876e-008   
  0.8             5.287e-010      0.00031749      -8.7389e-008   
  0.85            5.95e-010       0.00034505      -8.8019e-008   
  0.9             5.707e-010      0.000373        -8.7446e-008   
  0.95            5.346e-010      0.00040135      -8.6087e-008   
  1               6.945e-010      0.00042989      -8.5743e-008   
  1.05            7.56e-010       0.0004589       -8.4646e-008   
  1.1             8.13e-010       0.00048857      -8.325e-008    
  1.15            1.3192e-009     0.00051773      -9.189e-008    
  1.2             2.7487e-009     0.00054767      -7.1985e-008   
  1.25            9.155e-010      0.00057768      -6.7119e-008   
  1.3             -1.3853e-009    0.00060847      -4.9688e-008   
  1.35            -2.7352e-009    0.00063856      -7.8427e-008   
  1.4             -1.0377e-009    0.00066914      -7.8466e-008   
  1.45            1.3162e-009     0.00069929      -8.8449e-008   
  1.5             2.8049e-009     0.00073041      -5.3604e-008   
  1.55            1.0063e-009     0.00076127      -4.8073e-008   
  1.6             -1.3882e-009    0.00079323      -2.904e-008    
  1.65            -2.7641e-009    0.00082409      -5.8284e-008   
  1.7             -1.13e-009      0.00085564      -5.8654e-008   
  1.75            1.319e-009      0.00088643      -6.9557e-008   
  1.8             2.8501e-009     0.00091823      -3.5758e-008   
  1.85            1.0957e-009     0.00094968      -3.0723e-008   
  1.9             -1.3851e-009    0.00098226      -1.1269e-008   
  1.95            -2.7746e-009    0.00101377      -4.0467e-008   
  2               -1.2251e-009    0.00104581      -4.2211e-008   
  2.05            2.3528e-009     0.00107694      -5.3875e-008   
  2.1             2.129e-009      0.00110901      -1.8175e-008   
  2.15            2.5088e-009     0.0011416       -3.6809e-008   
  2.2             2.0163e-009     0.0011735       -1.3838e-008   
  2.25            -5.3e-012       0.0012064       -1.3152e-008   
  2.3             -2.7788e-009    0.0012383       -2.6213e-008   
  2.35            -1.2853e-009    0.0012709       -2.9013e-008   
  2.4             2.257e-009      0.0013021       -4.1207e-008   
  2.45            2.1834e-009     0.0013342       -6.703e-009    
  2.5             -2.7465e-009    0.0013666       -1.8255e-008   
  2.55            -1.5314e-009    0.0013995       -2.408e-008    
  2.6             1.8009e-009     0.0014305       -3.0911e-008   
  2.65            2.3922e-009     0.0014628       -3.384e-009    
  2.7             -2.5663e-009    0.0014955       1.258e-009     
  2.75            -1.8674e-009    0.0015281       -2.1506e-008   
  2.8             2.122e-010      0.0015591       -1.9982e-008   
  2.85            2.7051e-009     0.001591        -2.2305e-008   
  2.9             -1.9256e-009    0.0016241       8.981e-009     
  2.95            -2.1875e-009    0.0016559       -1.703e-008    
  3               -3.179e-010     0.0016873       -1.7879e-008   
END_DB

BEGIN_DB
 ICCAP_VAR VS         0              
 ICCAP_VAR VB         -1.5           
 ICCAP_VAR VD         0.1            

 #VG              IG              ID              IB             
  0               1.154e-010      1.81e-009       -8.833e-009    
  0.05            2.9023e-009     5.1068e-009     -1.0764e-008   
  0.1             2.3403e-009     2.6003e-008     2.4569e-008    
  0.15            9.361e-010      1.0772e-007     -1.7919e-008   
  0.2             1.4639e-009     4.3874e-007     -7.121e-009    
  0.25            -2.7785e-009    1.5419e-006     -2.3308e-008   
  0.3             2.815e-010      4.083e-006      -1.1857e-008   
  0.35            2.7828e-009     8.3689e-006     -1.1655e-008   
  0.4             1.8948e-009     1.3981e-005     -1.8416e-008   
  0.45            -1.7876e-009    2.0226e-005     1.7758e-008    
  0.5             -8.944e-010     2.6173e-005     -1.1446e-008   
  0.55            1.3179e-009     3.1763e-005     -7.861e-009    
  0.6             -1.7051e-009    3.7299e-005     2.0309e-008    
  0.65            -9.452e-010     4.2313e-005     -1.1163e-008   
  0.7             1.3301e-009     4.6978e-005     -2.3062e-008   
  0.75            -1.3641e-009    5.1633e-005     2.5308e-008    
  0.8             -7.706e-010     5.5874e-005     -1.174e-008    
  0.85            1.3201e-009     5.9903e-005     -8.485e-009    
  0.9             -1.3534e-009    6.3947e-005     2.4282e-008    
  0.95            -8.337e-010     6.767e-005      -1.1566e-008   
  1               1.3162e-009     7.1229e-005     -8.201e-009    
  1.05            -1.7976e-009    7.487e-005      2.2815e-008    
  1.1             -8.887e-010     7.827e-005      -1.1776e-008   
  1.15            1.3173e-009     8.149e-005      -7.844e-009    
  1.2             -1.7149e-009    8.4821e-005     2.0816e-008    
  1.25            -9.386e-010     8.788e-005      -1.1197e-008   
  1.3             1.3161e-009     9.0827e-005     -7.787e-009    
  1.35            -1.6366e-009    9.3922e-005     1.8725e-008    
  1.4             -9.917e-010     9.6756e-005     -1.1148e-008   
  1.45            1.3182e-009     9.9508e-005     -2.3585e-008   
  1.5             -1.357e-009     0.000102382     2.4697e-008    
  1.55            -8.293e-010     0.000105044     -1.1519e-008   
  1.6             1.314e-009      0.000107629     -8.102e-009    
  1.65            -1.8129e-009    0.000110347     2.2954e-008    
  1.7             -8.807e-010     0.00011284      -1.1526e-008   
  1.75            -1.4759e-009    0.00011543      1.0429e-008    
  1.8             2.25e-011       0.00011782      -9.674e-009    
  1.85            2.4797e-009     0.00012012      -1.5891e-008   
  1.9             2.0516e-009     0.00012252      1.0031e-008    
  1.95            2.05e-011       0.00012496      9.579e-009     
  2               -2.2265e-009    0.00012718      1.4774e-008    
  2.05            1.8505e-009     0.00012944      -1.8849e-008   
  2.1             8.414e-010      0.00013169      1.0738e-008    
  2.15            -1.386e-009     0.00013389      8.155e-009     
  2.2             -5.267e-010     0.000136        -1.1746e-008   
  2.25            1.671e-009      0.00013809      -1.8436e-008   
  2.3             9.319e-010      0.00014022      1.0777e-008    
  2.35            -1.388e-009     0.00014229      2.5054e-008    
  2.4             2.0017e-009     0.00014429      -2.1022e-008   
  2.45            7.627e-010      0.00014631      1.1178e-008    
  2.5             -1.3881e-009    0.0001483       7.871e-009     
  2.55            1.8891e-009     0.00015023      -1.9481e-008   
  2.6             8.186e-010      0.00015209      1.0772e-008    
  2.65            -1.3858e-009    0.00015403      8.36e-009      
  2.7             1.7813e-009     0.00015589      -1.7754e-008   
  2.75            8.694e-010      0.0001577       1.0592e-008    
  2.8             -1.3861e-009    0.0001595       8.545e-009     
  2.85            -5.658e-010     0.00016128      -1.1807e-008   
  2.9             1.6118e-009     0.00016299      -1.8817e-008   
  2.95            9.711e-010      0.00016473      1.0449e-008    
  3               -1.3897e-009    0.00016645      2.5424e-008    
END_DB

BEGIN_DB
 ICCAP_VAR VS         0              
 ICCAP_VAR VB         -1.5           
 ICCAP_VAR VD         3              

 #VG              IG              ID              IB             
  0               2.45e-010       1.2516e-008     -1.3261e-008   
  0.05            2.7418e-009     5.4873e-008     -1.3559e-008   
  0.1             3.738e-010      2.4997e-007     -9.079e-009    
  0.15            -1.7181e-009    1.00006e-006    1.6195e-008    
  0.2             1.9877e-009     3.1588e-006     7.294e-009     
  0.25            -1.6439e-009    8.2022e-006     8.843e-009     
  0.3             2.8384e-009     1.6075e-005     -2.3674e-008   
  0.35            1.7108e-009     2.7159e-005     -1.5182e-008   
  0.4             -1.4574e-009    4.1683e-005     -2.2747e-008   
  0.45            -2.5634e-009    5.7645e-005     -5.3491e-008   
  0.5             -7.737e-010     7.5621e-005     -6.5777e-008   
  0.55            1.4061e-009     9.4777e-005     -8.3451e-008   
  0.6             -2.6879e-009    0.00011602      -7.8455e-008   
  0.65            -1.7229e-009    0.00013841      -8.5186e-008   
  0.7             1.5094e-009     0.00016052      -9.3014e-008   
  0.75            7.764e-010      0.00018451      -8.1162e-008   
  0.8             6.622e-010      0.00020903      -8.2704e-008   
  0.85            6.507e-010      0.00023412      -8.4381e-008   
  0.9             6.201e-010      0.00025983      -8.526e-008    
  0.95            5.903e-010      0.00028616      -8.5456e-008   
  1               6.55e-010       0.00031295      -8.5497e-008   
  1.05            6.252e-010      0.00034023      -8.4488e-008   
  1.1             6.836e-010      0.00036822      -8.3406e-008   
  1.15            7.458e-010      0.00039629      -8.2316e-008   
  1.2             7.793e-010      0.00042459      -8.0681e-008   
  1.25            1.3249e-009     0.00045286      -8.9411e-008   
  1.3             2.7531e-009     0.00048205      -6.9829e-008   
  1.35            9.446e-010      0.00051125      -6.5176e-008   
  1.4             -1.3899e-009    0.00054138      -4.6276e-008   
  1.45            -2.743e-009     0.00057073      -7.5886e-008   
  1.5             -1.0726e-009    0.00060073      -7.5532e-008   
  1.55            1.3258e-009     0.00063021      -8.6977e-008   
  1.6             2.8099e-009     0.0006606       -5.1604e-008   
  1.65            1.045e-009      0.00069093      -4.6168e-008   
  1.7             -1.3922e-009    0.00072229      -2.5628e-008   
  1.75            -2.7569e-009    0.00075268      -5.5353e-008   
  1.8             -1.1781e-009    0.00078374      -5.5862e-008   
  1.85            1.3238e-009     0.00081403      -6.788e-008    
  1.9             2.8548e-009     0.00084522      -3.4181e-008   
  1.95            1.1446e-009     0.00087616      -2.8789e-008   
  2               -1.3881e-009    0.00090836      -8.519e-009    
  2.05            -2.7641e-009    0.0009393       -3.7765e-008   
  2.1             -1.2875e-009    0.00097102      -3.9909e-008   
  2.15            2.2474e-009     0.00100167      -5.1975e-008   
  2.2             2.1785e-009     0.00103342      -1.6727e-008   
  2.25            1.814e-010      0.00106527      -1.4071e-008   
  2.3             -1.6102e-009    0.00109707      -1.9425e-008   
  2.35            -2.3725e-009    0.00112835      -2.9384e-008   
  2.4             -2.7224e-009    0.0011606       -1.4941e-008   
  2.45            -1.6485e-009    0.0011932       -2.7578e-008   
  2.5             1.6047e-009     0.0012235       -3.0942e-008   
  2.55            2.4878e-009     0.0012558       -6.953e-009    
  2.6             -2.4686e-009    0.001288        -5.34e-010     
  2.65            -1.941e-009     0.0013199       -2.4118e-008   
  2.7             9.16e-011       0.0013506       -2.1303e-008   
  2.75            2.5869e-009     0.0013827       -2.6833e-008   
  2.8             -1.7141e-009    0.0014157       7.214e-009     
  2.85            -2.3014e-009    0.001447        -1.7707e-008   
  2.9             -4.799e-010     0.0014785       -2.0536e-008   
  2.95            1.6936e-009     0.0015098       -2.5383e-008   
  3               -2.463e-009     0.0015424       6.358e-009     
END_DB

BEGIN_DB
 ICCAP_VAR VS         0              
 ICCAP_VAR VB         -3             
 ICCAP_VAR VD         0.1            

 #VG              IG              ID              IB             
  0               3.7e-010        -1.0796e-009    -6.268e-009    
  0.05            1.3213e-009     3.652e-010      -7.919e-009    
  0.1             -1.3909e-009    2.5147e-009     2.6555e-008    
  0.15            1.3278e-009     -1.9965e-009    -2.4538e-008   
  0.2             8.689e-010      6.9929e-009     9.09e-009      
  0.25            2.8461e-009     1.3156e-008     1.1042e-008    
  0.3             -1.3922e-009    5.707e-008      2.654e-008     
  0.35            1.9666e-009     2.4047e-007     -2.4595e-008   
  0.4             -1.6642e-009    9.2667e-007     1.771e-008     
  0.45            2.8861e-009     2.7287e-006     2.6474e-008    
  0.5             -1.3907e-009    6.3435e-006     2.5513e-008    
  0.55            1.954e-009      1.12212e-005    -2.0441e-008   
  0.6             1.3228e-009     1.6959e-005     3.535e-009     
  0.65            4.898e-010      2.2917e-005     1.151e-008     
  0.7             -1.5746e-009    2.8578e-005     1.8511e-008    
  0.75            -1.0335e-009    3.3875e-005     -1.0566e-008   
  0.8             1.3226e-009     3.8755e-005     -2.4277e-008   
  0.85            -1.8132e-009    4.3617e-005     2.2968e-008    
  0.9             -8.797e-010     4.8036e-005     -1.1652e-008   
  0.95            1.324e-009      5.2188e-005     -7.745e-009    
  1               -1.7051e-009    5.6391e-005     2.0652e-008    
  1.05            -9.383e-010     6.022e-005      -1.1486e-008   
  1.1             2.8991e-009     6.3916e-005     -7.804e-009    
  1.15            -1.4315e-009    6.7652e-005     1.1597e-008    
  1.2             1.3197e-009     7.1009e-005     -2.4523e-008   
  1.25            1.5862e-009     7.4335e-005     1.0297e-008    
  1.3             -1.5449e-009    7.7758e-005     1.5651e-008    
  1.35            1.3238e-009     8.0806e-005     -2.3959e-008   
  1.4             -1.8327e-009    8.4007e-005     2.3522e-008    
  1.45            -8.615e-010     8.6955e-005     -1.1473e-008   
  1.5             1.3229e-009     8.9833e-005     -8.021e-009    
  1.55            -1.7296e-009    9.2816e-005     2.1307e-008    
  1.6             -9.22e-010      9.5559e-005     -1.1148e-008   
  1.65            1.3223e-009     9.8235e-005     -7.811e-009    
  1.7             -1.6313e-009    0.000101051     1.874e-008     
  1.75            -9.858e-010     0.000103626     -1.0842e-008   
