! VERSION = 6.00
BEGIN_HEADER
 ICCAP_INPUTS
  VG         V  B GROUND SMU4 0.001 LIN        1    0          3          101  0.03      
  VS         V  E GROUND SMU2 0.1 CON        0
  VB         V  C GROUND SMU3 0.1 LIN        3    0          -3         3    -1.5      
  VD         V  S GROUND SMU1 0.1 LIN        2    0.1        3          2    2.9       
 ICCAP_OUTPUTS
  IG         I  B GROUND SMU4 B
  ID         I  S GROUND SMU1 B
  IB         I  C GROUND SMU3 B
END_HEADER

BEGIN_DB
 ICCAP_VAR VS         0              
 ICCAP_VAR VB         0              
 ICCAP_VAR VD         0.1            

 #VG              IG              ID              IB             
  0               -2.067e-010     5.3116e-007     2.489e-009     
  0.03            2.2961e-009     8.1848e-007     -2.3883e-008   
  0.06            2.2529e-009     1.1931e-006     1.3994e-008    
  0.09            -1.6665e-009    1.6304e-006     1.7037e-008    
  0.12            -2.5165e-009    2.0939e-006     5.245e-009     
  0.15            2.21e-010       2.5627e-006     -1.1505e-008   
  0.18            2.7142e-009     3.0613e-006     -2.0249e-008   
  0.21            -1.5255e-009    3.5873e-006     1.8507e-008    
  0.24            -2.5562e-009    4.0657e-006     6.199e-009     
  0.27            2.5316e-009     4.5136e-006     -2.3557e-008   
  0.3             6.367e-010      4.9774e-006     9.596e-009     
  0.33            -1.5344e-009    5.426e-006      1.8486e-008    
  0.36            -2.5546e-009    5.8399e-006     6.195e-009     
  0.39            2.5377e-009     6.2222e-006     -2.3567e-008   
  0.42            -1.3752e-009    6.6215e-006     1.469e-008     
  0.45            -2.5993e-009    6.9941e-006     8.208e-009     
  0.48            2.3276e-009     7.345e-006      -2.3937e-008   
  0.51            1.6387e-009     7.6948e-006     -4.133e-009    
  0.54            2.6003e-009     8.0254e-006     -9.034e-009    
  0.57            -2.2359e-009    8.3643e-006     1.2252e-008    
  0.6             -1.6342e-009    8.6721e-006     2.802e-009     
  0.63            -2.5193e-009    8.9776e-006     5.458e-009     
  0.66            2.14e-010       9.2614e-006     -1.1607e-008   
  0.69            2.7143e-009     9.5537e-006     -2.054e-008    
  0.72            -1.519e-009     9.8469e-006     1.8691e-008    
  0.75            -2.5594e-009    1.01271e-005    6.301e-009     
  0.78            2.5238e-009     1.03868e-005    -2.3689e-008   
  0.81            -2.4856e-009    1.0656e-005     1.4203e-008    
  0.84            -2.0258e-009    1.09073e-005    1.464e-009     
  0.87            -1.4724e-009    1.11639e-005    3.659e-009     
  0.9             2.3932e-009     1.1413e-005     6.855e-009     
  0.93            1.719e-009      1.1653e-005     -3.499e-009    
  0.96            2.572e-009      1.1889e-005     -8.733e-009    
  0.99            -2.3071e-009    1.2133e-005     1.1537e-008    
  1.02            -1.7117e-009    1.2361e-005     2.402e-009     
  1.05            -2.4904e-009    1.2587e-005     4.935e-009     
  1.08            -7.26e-010      1.2805e-005     -1.0079e-008   
  1.11            1.6095e-009     1.302e-005      -1.8696e-008   
  1.14            2.6213e-009     1.3238e-005     -8.993e-009    
  1.17            -2.339e-009     1.346e-005      2.4835e-008    
  1.2             -1.7619e-009    1.366e-005      2.157e-009     
  1.23            -2.476e-009     1.3864e-005     4.847e-009     
  1.26            -6.903e-010     1.4066e-005     -1.0222e-008   
  1.29            1.6674e-009     1.426e-005      -1.653e-008    
  1.32            2.6036e-009     1.4466e-005     -9.025e-009    
  1.35            -2.3762e-009    1.4668e-005     2.4612e-008    
  1.38            -1.8095e-009    1.4853e-005     1.932e-009     
  1.41            -1.3543e-009    1.5039e-005     4.56e-009      
  1.44            -2.5969e-009    1.5236e-005     8.381e-009     
  1.47            2.2923e-009     1.5415e-005     -2.3894e-008   
  1.5             1.6143e-009     1.5595e-005     -4.282e-009    
  1.53            2.6135e-009     1.5777e-005     -9.006e-009    
  1.56            -2.3564e-009    1.5961e-005     2.4763e-008    
  1.59            -1.7756e-009    1.6133e-005     2.153e-009     
  1.62            -2.4613e-009    1.6308e-005     4.911e-009     
  1.65            2.683e-009      1.6465e-005     -1.2841e-008   
  1.68            -1.4321e-009    1.6653e-005     1.9696e-008    
  1.71            -2.5798e-009    1.682e-005      7.29e-009      
  1.74            -9.548e-010     1.6983e-005     -9.429e-009    
  1.77            2.122e-010      1.7146e-005     -1.1492e-008   
  1.8             2.7109e-009     1.7315e-005     -2.0594e-008   
  1.83            -1.5128e-009    1.7491e-005     1.8795e-008    
  1.86            -2.5582e-009    1.765e-005      6.382e-009     
  1.89            2.5113e-009     1.7797e-005     -2.3684e-008   
  1.92            6.598e-010      1.7971e-005     9.549e-009     
  1.95            -1.5236e-009    1.8121e-005     1.8571e-008    
  1.98            -2.554e-009     1.8271e-005     6.243e-009     
  2.01            2.5278e-009     1.8433e-005     -2.3621e-008   
  2.04            -2.4948e-009    1.8588e-005     2.3003e-008    
  2.07            -2.0208e-009    1.8736e-005     1.416e-009     
  2.1             -1.4739e-009    1.8885e-005     3.68e-009      
  2.13            -2.5646e-009    1.9047e-005     6.705e-009     
  2.16            2.481e-009      1.9184e-005     -2.3819e-008   
  2.19            -2.467e-009     1.9325e-005     1.343e-008     
  2.22            -1.9699e-009    1.9468e-005     1.549e-009     
  2.25            -1.4364e-009    1.9612e-005     3.823e-009     
  2.28            -2.5758e-009    1.9759e-005     7.212e-009     
  2.31            -9.43e-010      1.9891e-005     -9.512e-009    
  2.34            2.233e-010      2.0024e-005     -1.1461e-008   
  2.37            2.7151e-009     2.0171e-005     -2.0321e-008   
  2.4             -1.5239e-009    2.031e-005      1.8574e-008    
  2.43            -2.5571e-009    2.045e-005      6.376e-009     
  2.46            2.5198e-009     2.0579e-005     -2.3574e-008   
  2.49            -2.4889e-009    2.0717e-005     1.4328e-008    
  2.52            -2.0193e-009    2.0846e-005     1.45e-009      
  2.55            -1.466e-009     2.0985e-005     3.645e-009     
  2.58            -2.5667e-009    2.1114e-005     6.822e-009     
  2.61            2.4802e-009     2.1248e-005     -2.3806e-008   
  2.64            6.894e-010      2.1381e-005     9.462e-009     
  2.67            -1.49e-009      2.1511e-005     1.8859e-008    
  2.7             -2.5615e-009    2.1633e-005     6.586e-009     
  2.73            2.4946e-009     2.1752e-005     -2.3827e-008   
  2.76            6.741e-010      2.1885e-005     9.526e-009     
  2.79            -1.5043e-009    2.2004e-005     1.8762e-008    
  2.82            -2.5597e-009    2.2118e-005     6.408e-009     
  2.85            2.5045e-009     2.2246e-005     -2.375e-008    
  2.88            -2.4812e-009    2.237e-005      1.3846e-008    
  2.91            -2.0015e-009    2.2485e-005     1.412e-009     
  2.94            -1.4531e-009    2.2612e-005     3.688e-009     
  2.97            -2.5678e-009    2.273e-005      6.885e-009     
  3               2.4617e-009     2.2848e-005     -2.3878e-008   
END_DB

BEGIN_DB
 ICCAP_VAR VS         0              
 ICCAP_VAR VB         0              
 ICCAP_VAR VD         3              

 #VG              IG              ID              IB             
  0               8.26e-010       4.7432e-006     -1.5258e-008   
  0.03            2.2219e-009     5.776e-006      -2.9104e-008   
  0.06            2.3761e-009     6.9468e-006     -1.179e-008    
  0.09            -2.5342e-009    8.2137e-006     3.562e-009     
  0.12            -2.1514e-009    9.4719e-006     -1.6688e-008   
  0.15            -1.2746e-009    1.08639e-005    -1.768e-008    
  0.18            2.5698e-009     1.2226e-005     -2.0663e-008   
  0.21            2.7319e-009     1.3719e-005     -6.768e-009    
  0.24            2.568e-009      1.5235e-005     -1.2956e-008   
  0.27            2.0017e-009     1.6784e-005     -1.5276e-008   
  0.3             2.4536e-009     1.8372e-005     -2.0325e-008   
  0.33            2.6989e-009     2.0069e-005     -8.557e-009    
  0.36            2.6814e-009     2.1746e-005     -1.5252e-008   
  0.39            2.2684e-009     2.3438e-005     -1.7288e-008   
  0.42            1.6028e-009     2.5165e-005     -2.0898e-008   
  0.45            2.6199e-009     2.6918e-005     -2.5991e-008   
  0.48            2.7278e-009     2.8778e-005     -1.4774e-008   
  0.51            2.4675e-009     3.0581e-005     -1.8978e-008   
  0.54            1.8515e-009     3.2399e-005     -2.1158e-008   
  0.57            2.5134e-009     3.4257e-005     -2.6527e-008   
  0.6             2.7275e-009     3.6157e-005     -1.3802e-008   
  0.63            2.6248e-009     3.8105e-005     -1.9583e-008   
  0.66            2.1228e-009     3.9997e-005     -2.1178e-008   
  0.69            2.404e-009      4.1916e-005     -2.5066e-008   
  0.72            2.6699e-009     4.3878e-005     -1.2863e-008   
  0.75            2.7077e-009     4.5903e-005     -1.9031e-008   
  0.78            2.3664e-009     4.7869e-005     -2.0994e-008   
  0.81            1.7093e-009     4.9849e-005     -2.3284e-008   
  0.84            2.5803e-009     5.1839e-005     -2.845e-008    
  0.87            2.7325e-009     5.3884e-005     -1.4926e-008   
  0.9             2.5486e-009     5.5957e-005     -2.0189e-008   
  0.93            1.971e-009      5.7975e-005     -2.1483e-008   
  0.96            2.4677e-009     6.0012e-005     -2.5754e-008   
  0.99            2.708e-009      6.2105e-005     -1.3352e-008   
  1.02            2.6736e-009     6.4228e-005     -1.8903e-008   
  1.05            2.2368e-009     6.6291e-005     -1.9893e-008   
  1.08            1.5764e-009     6.8362e-005     -2.2713e-008   
  1.11            2.627e-009      7.0459e-005     -2.6831e-008   
  1.14            2.7226e-009     7.2594e-005     -1.5264e-008   
  1.17            2.4458e-009     7.4747e-005     -1.8557e-008   
  1.2             1.8292e-009     7.6844e-005     -2.0098e-008   
  1.23            2.5293e-009     7.8968e-005     -2.4781e-008   
  1.26            2.7256e-009     8.1123e-005     -1.1214e-008   
  1.29            2.6101e-009     8.3256e-005     -1.6519e-008   
  1.32            2.0875e-009     8.5407e-005     -1.7496e-008   
  1.35            2.4182e-009     8.7572e-005     -2.1123e-008   
  1.38            2.6795e-009     8.9749e-005     -8.452e-009    
  1.41            2.698e-009      9.1904e-005     -1.4541e-008   
  1.44            2.3321e-009     9.4116e-005     -1.5684e-008   
  1.47            1.6809e-009     9.6259e-005     -1.7734e-008   
  1.5             2.5878e-009     9.8433e-005     -2.2563e-008   
  1.53            2.7315e-009     0.000100637     -9.019e-009    
  1.56            2.529e-009      0.000102806     -1.3741e-008   
  1.59            1.9271e-009     0.000105032     -1.4961e-008   
  1.62            2.4833e-009     0.000107213     -1.922e-008    
  1.65            2.7124e-009     0.00010943      -6.313e-009    
  1.68            2.6558e-009     0.000111612     -1.1607e-008   
  1.71            2.2058e-009     0.000113864     -1.262e-008    
  1.74            2.546e-009      0.00011602      -7.008e-009    
  1.77            1.9569e-009     0.00011827      -1.2946e-008   
  1.8             2.4729e-009     0.00012046      -1.7282e-008   
  1.83            2.7092e-009     0.00012271      -4.264e-009    
  1.86            2.6661e-009     0.00012497      -9.672e-009    
  1.89            2.2179e-009     0.00012719      -1.0836e-008   
  1.92            2.3676e-009     0.00012937      -1.3734e-008   
  1.95            2.6414e-009     0.00013157      -1.692e-009    
  1.98            2.7184e-009     0.00013382      -6.474e-009    
  2.01            2.4358e-009     0.00013604      -9.224e-009    
  2.04            1.8034e-009     0.00013825      -1.091e-008    
  2.07            2.5355e-009     0.00014046      -1.5718e-008   
  2.1             2.7258e-009     0.00014269      -2.388e-009    
  2.13            2.6036e-009     0.00014496      -7.653e-009    
  2.16            2.0838e-009     0.00014717      -8.689e-009    
  2.19            2.4233e-009     0.00014941      -1.256e-008    
  2.22            -2.4957e-009    0.00015167      4.998e-009     
  2.25            -1.4054e-009    0.00015397      -1.4785e-008   
  2.28            -1.7723e-009    0.00015632      -1.5702e-008   
  2.31            -2.0059e-009    0.00015852      -1.4109e-008   
  2.34            -1.1077e-009    0.00016077      -1.4193e-008   
  2.37            -1.4849e-009    0.00016306      -1.4604e-008   
  2.4             -1.8217e-009    0.00016529      -1.4681e-008   
  2.43            -8.356e-010     0.00016746      -1.4839e-008   
  2.46            -1.1767e-009    0.00016971      -1.3062e-008   
  2.49            -1.5578e-009    0.00017196      -1.4158e-008   
  2.52            -1.8653e-009    0.00017418      -1.384e-008    
  2.55            -9.041e-010     0.00017638      -1.3769e-008   
  2.58            -1.2479e-009    0.00017867      -1.2199e-008   
  2.61            -1.6337e-009    0.00018096      -1.3611e-008   
  2.64            -5.518e-010     0.00018304      -1.3919e-008   
  2.67            -9.642e-010     0.00018535      -1.3016e-008   
  2.7             -1.3175e-009    0.00018763      -1.17e-008     
  2.73            -1.7032e-009    0.00018976      -1.2424e-008   
  2.76            -6.565e-010     0.00019197      -1.359e-008    
  2.79            -1.0273e-009    0.00019425      -1.24e-008     
  2.82            -1.3977e-009    0.00019648      -1.1312e-008   
  2.85            -2.552e-010     0.0001987       -1.3282e-008   
  2.88            -7.465e-010     0.00020087      -1.298e-008    
  2.91            -1.0957e-009    0.00020316      -1.1418e-008   
  2.94            -1.4776e-009    0.00020538      -1.184e-008    
  2.97            -3.514e-010     0.00020754      -1.2817e-008   
  3               -8.237e-010     0.00020979      -1.2372e-008   
END_DB

BEGIN_DB
 ICCAP_VAR VS         0              
 ICCAP_VAR VB         -1.5           
 ICCAP_VAR VD         0.1            

 #VG              IG              ID              IB             
  0               2.3308e-009     6.9232e-009     1.8264e-008    
  0.03            2.3768e-009     1.1575e-008     8.698e-009     
  0.06            1.7056e-009     2.8569e-008     -3.635e-009    
  0.09            2.5845e-009     6.0807e-008     -8.947e-009    
  0.12            2.49e-011       1.2354e-007     7.944e-009     
  0.15            2.5789e-009     2.3967e-007     -2.3381e-008   
  0.18            5.934e-010      4.3215e-007     9.541e-009     
  0.21            -1.6099e-009    7.163e-007      1.7809e-008    
  0.24            -2.5419e-009    1.06e-006       5.707e-009     
  0.27            -1.4085e-009    1.4769e-006     -8.9e-009      
  0.3             1.9356e-009     1.9063e-006     -1.663e-008    
  0.33            2.4999e-009     2.39e-006       -7.508e-009    
  0.36            -1.3809e-009    2.8812e-006     1.4679e-008    
  0.39            -2.6006e-009    3.347e-006      8.21e-009      
  0.42            2.337e-009      3.78e-006       -2.4081e-008   
  0.45            1.6618e-009     4.2212e-006     -4.007e-009    
  0.48            2.6001e-009     4.6493e-006     -9.017e-009    
  0.51            -2.3939e-009    5.0654e-006     2.4571e-008    
  0.54            -1.8264e-009    5.4474e-006     1.798e-009     
  0.57            -1.3612e-009    5.8202e-006     4.558e-009     
  0.6             -2.6023e-009    6.1787e-006     8.262e-009     
  0.63            2.3163e-009     6.5214e-006     -2.4008e-008   
  0.66            1.6334e-009     6.8576e-006     -4.065e-009    
  0.69            2.6093e-009     7.1795e-006     -8.888e-009    
  0.72            -2.3726e-009    7.5062e-006     2.4626e-008    
  0.75            -1.8012e-009    7.8115e-006     1.922e-009     
  0.78            -1.3525e-009    8.1066e-006     4.722e-009     
  0.81            -2.6055e-009    8.3911e-006     8.495e-009     
  0.84            2.2956e-009     8.6611e-006     -2.3875e-008   
  0.87            1.613e-009      8.9379e-006     -4.236e-009    
  0.9             2.622e-009      9.2098e-006     -9.075e-009    
  0.93            -2.3599e-009    9.4854e-006     2.4853e-008    
  0.96            -1.7857e-009    9.7324e-006     2.074e-009     
  0.99            -1.3444e-009    9.9831e-006     4.642e-009     
  1.02            -2.6023e-009    1.02358e-005    8.684e-009     
  1.05            2.2766e-009     1.04651e-005    -2.3758e-008   
  1.08            1.5915e-009     1.07033e-005    -4.381e-009    
  1.11            2.6312e-009     1.09314e-005    -8.941e-009    
  1.14            -2.3483e-009    1.11695e-005    2.4906e-008    
  1.17            -1.7673e-009    1.13951e-005    2.172e-009     
  1.2             2.4841e-009     1.1609e-005     2.638e-009     
  1.23            -2.4695e-009    1.1826e-005     1.3374e-008    
  1.26            -1.9759e-009    1.2042e-005     1.545e-009     
  1.29            -1.4415e-009    1.2252e-005     3.803e-009     
  1.32            -2.5816e-009    1.2466e-005     7.203e-009     
  1.35            -9.378e-010     1.2665e-005     -9.645e-009    
  1.38            2.265e-010      1.2858e-005     -1.1599e-008   
  1.41            2.7212e-009     1.306e-005      -2.034e-008    
  1.44            -1.5359e-009    1.3266e-005     1.8633e-008    
  1.47            -2.5626e-009    1.3458e-005     6.34e-009      
  1.5             2.5437e-009     1.3642e-005     -2.3639e-008   
  1.53            6.363e-010      1.3833e-005     9.685e-009     
  1.56            -1.556e-009     1.4018e-005     1.8342e-008    
  1.59            -2.5571e-009    1.4205e-005     6.138e-009     
  1.62            2.5529e-009     1.4388e-005     -2.3519e-008   
  1.65            6.198e-010      1.4574e-005     9.604e-009     
  1.68            -1.5788e-009    1.4747e-005     1.813e-008     
  1.71            -2.5491e-009    1.492e-005      5.841e-009     
  1.74            2.5713e-009     1.509e-005      -2.3511e-008   
  1.77            -1.398e-009     1.527e-005      1.5327e-008    
  1.8             -2.5979e-009    1.5441e-005     7.871e-009     
  1.83            -9.904e-010     1.561e-005      -9.322e-009    
  1.86            1.809e-010      1.5761e-005     -1.1237e-008   
  1.89            2.7024e-009     1.593e-005      -2.1293e-008   
  1.92            -1.4735e-009    1.6105e-005     1.9282e-008    
  1.95            -2.5766e-009    1.6266e-005     6.924e-009     
  1.98            2.4667e-009     1.6412e-005     -2.3865e-008   
  2.01            7.016e-010      1.6581e-005     9.54e-009      
  2.04            -1.4852e-009    1.6742e-005     1.8985e-008    
  2.07            -2.5717e-009    1.6883e-005     6.718e-009     
  2.1             2.4842e-009     1.7042e-005     -2.3851e-008   
  2.13            6.858e-010      1.7203e-005     9.55e-009      
  2.16            -1.4962e-009    1.7352e-005     1.8917e-008    
  2.19            -2.5685e-009    1.7507e-005     6.618e-009     
  2.22            2.5083e-009     1.7645e-005     -2.3838e-008   
  2.25            -2.4835e-009    1.7795e-005     1.3789e-008    
  2.28            -2.0008e-009    1.7936e-005     1.416e-009     
  2.31            -1.4551e-009    1.8092e-005     3.695e-009     
  2.34            -2.58e-009      1.8234e-005     7.125e-009     
  2.37            2.4633e-009     1.837e-005      -2.3989e-008   
  2.4             7.056e-010      1.8521e-005     9.453e-009     
  2.43            -1.4708e-009    1.8669e-005     1.9154e-008    
  2.46            -2.5753e-009    1.8785e-005     6.784e-009     
  2.49            2.4804e-009     1.8918e-005     -2.3907e-008   
