! VERSION = 6.00
BEGIN_HEADER
 ICCAP_INPUTS
  VG         V  B GROUND SMU4 0.001 LIN        2    0          3          6    0.6       
  VS         V  E GROUND SMU2 0.1 CON        0
  VD         V  S GROUND SMU1 0.1 LIN        1    0          3          101  0.03      
  VB         V  C GROUND SMU3 0.1 LIN        3    0          -1.5       2    -1.5      
 ICCAP_OUTPUTS
  ID         I  S GROUND SMU1 B
  IB         I  C GROUND SMU3 B
  IG         I  B GROUND SMU4 B
END_HEADER

BEGIN_DB
 ICCAP_VAR VG         0              
 ICCAP_VAR VS         0              
 ICCAP_VAR VB         0              

 #VD              ID              IB              IG             
  0               5.2793e-009     -1.4714e-008    -1.285e-010    
  0.03            2.5693e-007     1.8749e-008     -1.2682e-009   
  0.06            4.1516e-007     1.1235e-008     -2.4669e-009   
  0.09            5.1628e-007     2.6078e-008     -2.1787e-009   
  0.12            5.8778e-007     1.728e-008      -1.6094e-009   
  0.15            6.4817e-007     1.1211e-008     -2.4025e-009   
  0.18            7.0249e-007     1.4606e-008     -1.8844e-009   
  0.21            7.4005e-007     8.685e-009      2.0115e-009    
  0.24            7.8778e-007     -1.9663e-008    2.7275e-009    
  0.27            8.3401e-007     -2.3574e-008    2.609e-009     
  0.3             8.8371e-007     -2.4188e-008    2.2926e-009    
  0.33            9.2894e-007     -1.8218e-008    1.6485e-009    
  0.36            9.7437e-007     -1.1359e-008    2.33e-010      
  0.39            1.04237e-006    1.1246e-008     -2.4456e-009   
  0.42            1.0908e-006     2.622e-008      -2.1463e-009   
  0.45            1.13559e-006    1.7606e-008     -1.5792e-009   
  0.48            1.1723e-006     -1.5323e-008    -2.2706e-009   
  0.51            1.2311e-006     2.5851e-008     -2.2536e-009   
  0.54            1.2772e-006     2.6056e-008     -2.2237e-009   
  0.57            1.3247e-006     2.6199e-008     -2.1859e-009   
  0.6             1.3721e-006     2.6174e-008     -2.1553e-009   
  0.63            1.418e-006      2.604e-008      -2.1114e-009   
  0.66            1.464e-006      1.434e-008      -1.8949e-009   
  0.69            1.5089e-006     1.6773e-008     -1.67e-009     
  0.72            1.5293e-006     8.542e-009      1.9178e-009    
  0.75            1.5751e-006     -1.0893e-008    2.003e-010     
  0.78            1.6479e-006     1.0851e-008     -2.5604e-009   
  0.81            1.6936e-006     1.3687e-008     -2.4897e-009   
  0.84            1.745e-006      1.1318e-008     -2.3651e-009   
  0.87            1.7902e-006     2.5201e-008     -2.3412e-009   
  0.9             1.8358e-006     2.561e-008      -2.3096e-009   
  0.93            1.8822e-006     2.5705e-008     -2.2807e-009   
  0.96            1.9278e-006     2.5875e-008     -2.247e-009    
  0.99            1.9738e-006     1.3536e-008     -2.0414e-009   
  1.02            2.0172e-006     1.5082e-008     -1.8154e-009   
  1.05            2.0605e-006     1.7399e-008     -1.6081e-009   
  1.08            2.0798e-006     8.684e-009      1.964e-009     
  1.11            2.1265e-006     -1.7036e-008    1.8585e-009    
  1.14            2.169e-006      -1.8257e-008    1.6221e-009    
  1.17            2.2161e-006     -1.5386e-008    2.7254e-009    
  1.2             2.2574e-006     -1.2305e-008    2.6794e-009    
  1.23            2.3015e-006     -1.0741e-008    1.77e-010      
  1.26            2.3817e-006     1.1033e-008     -2.5465e-009   
  1.29            2.421e-006      1.2857e-008     -2.4631e-009   
  1.32            2.4713e-006     1.1488e-008     -2.33e-009     
  1.35            2.5144e-006     2.5481e-008     -2.2993e-009   
  1.38            2.5611e-006     2.5727e-008     -2.2667e-009   
  1.41            2.6041e-006     2.593e-008      -2.2354e-009   
  1.44            2.6489e-006     2.6047e-008     -2.1994e-009   
  1.47            2.6931e-006     2.6143e-008     -2.1658e-009   
  1.5             2.7363e-006     2.615e-008      -2.1291e-009   
  1.53            2.7824e-006     1.4421e-008     -1.9074e-009   
  1.56            2.8229e-006     1.6583e-008     -1.6877e-009   
  1.59            2.829e-006      8.536e-009      1.9089e-009    
  1.62            2.8746e-006     -1.1007e-008    2.093e-010     
  1.65            2.9535e-006     1.0866e-008     -2.5613e-009   
  1.68            2.9929e-006     1.3879e-008     -1.3518e-009   
  1.71            3.0366e-006     1.3349e-008     -2.4782e-009   
  1.74            3.0867e-006     1.1496e-008     -2.3451e-009   
  1.77            3.1274e-006     2.5367e-008     -2.3166e-009   
  1.8             3.1679e-006     2.5584e-008     -2.2866e-009   
  1.83            3.2153e-006     2.579e-008      -2.2609e-009   
  1.86            3.2556e-006     2.596e-008      -2.2264e-009   
  1.89            3.2984e-006     2.6002e-008     -2.185e-009    
  1.92            3.342e-006      1.3819e-008     -1.979e-009    
  1.95            3.3793e-006     1.5767e-008     -1.7538e-009   
  1.98            3.4203e-006     1.7826e-008     -1.5533e-009   
  2.01            3.4284e-006     8.557e-009      2.0078e-009    
  2.04            3.4678e-006     -1.7585e-008    1.7896e-009    
  2.07            3.508e-006      -1.8794e-008    1.5656e-009    
  2.1             3.5511e-006     -1.4577e-008    2.7182e-009    
  2.13            3.5887e-006     -1.1909e-008    2.6587e-009    
  2.16            3.6262e-006     -1.083e-008     1.424e-010     
  2.19            3.7101e-006     1.0939e-008     -2.5301e-009   
  2.22            3.754e-006      1.0974e-008     -2.434e-009    
  2.25            3.7921e-006     2.4182e-008     -2.4088e-009   
  2.28            3.8369e-006     1.167e-008      -2.2431e-009   
  2.31            3.8785e-006     1.3114e-008     -2.0482e-009   
  2.34            3.9144e-006     1.4592e-008     -1.8218e-009   
  2.37            3.9508e-006     1.6767e-008     -1.6088e-009   
  2.4             3.954e-006      8.077e-009      1.9655e-009    
  2.43            3.9891e-006     -1.1503e-008    1.643e-010     
  2.46            4.0737e-006     1.0547e-008     -2.5397e-009   
  2.49            4.1143e-006     1.0203e-008     -2.4598e-009   
  2.52            4.1575e-006     1.0563e-008     -2.3174e-009   
  2.55            4.1902e-006     1.188e-008      -2.1282e-009   
  2.58            4.2294e-006     1.3144e-008     -1.9089e-009   
  2.61            4.2664e-006     1.5156e-008     -1.6894e-009   
  2.64            4.2613e-006     7.248e-009      1.9136e-009    
  2.67            4.2987e-006     -1.2858e-008    2.099e-010     
  2.7             4.3816e-006     8.849e-009      -2.5646e-009   
  2.73            4.4255e-006     9.198e-009      -2.4986e-009   
  2.76            4.4655e-006     8.933e-009      -2.3766e-009   
  2.79            4.5017e-006     9.956e-009      -2.2019e-009   
  2.82            4.5403e-006     1.1083e-008     -1.9942e-009   
  2.85            4.5777e-006     1.2579e-008     -1.7654e-009   
  2.88            4.6159e-006     1.4454e-008     -1.5673e-009   
  2.91            4.6561e-006     7.307e-009      -2.5418e-009   
  2.94            4.6909e-006     6.958e-009      -2.4556e-009   
  2.97            4.7337e-006     7.155e-009      -2.3057e-009   
  3               4.7688e-006     8.152e-009      -2.1176e-009   
END_DB

BEGIN_DB
 ICCAP_VAR VG         0.6            
 ICCAP_VAR VS         0              
 ICCAP_VAR VB         0              

 #VD              ID              IB              IG             
  0               5.5579e-008     7.071e-009      1.2255e-009    
  0.03            2.7945e-006     7.748e-009      2.601e-009     
  0.06            5.4003e-006     -2.3326e-008    2.5766e-009    
  0.09            7.8657e-006     -2.3493e-008    2.5582e-009    
  0.12            1.01726e-005    -2.3653e-008    2.5348e-009    
  0.15            1.2307e-005     -2.3922e-008    1.4028e-009    
  0.18            1.4315e-005     -1.1746e-008    2.6454e-009    
  0.21            1.609e-005      -1.7621e-008    1.8152e-009    
  0.24            1.7658e-005     -2.3769e-008    2.4955e-009    
  0.27            1.9046e-005     -1.7526e-008    1.735e-009     
  0.3             2.0282e-005     -9.152e-009     -1.0302e-009   
  0.33            2.1348e-005     1.1149e-008     -2.474e-009    
  0.36            2.2224e-005     1.6926e-008     -1.6845e-009   
  0.39            2.2981e-005     2.4956e-008     -2.3139e-009   
  0.42            2.3563e-005     8.782e-009      1.9461e-009    
  0.45            2.4101e-005     -2.2155e-008    2.6659e-009    
  0.48            2.4603e-005     -1.7144e-008    1.8648e-009    
  0.51            2.5016e-005     -2.3544e-008    2.5221e-009    
  0.54            2.5407e-005     -1.8211e-008    1.782e-009     
  0.57            2.5789e-005     -9.276e-009     -1.0076e-009   
  0.6             2.6129e-005     1.1149e-008     -2.4942e-009   
  0.63            2.642e-005      1.6126e-008     -1.7295e-009   
  0.66            2.6695e-005     2.4724e-008     -2.3438e-009   
  0.69            2.6881e-005     8.771e-009      1.9187e-009    
  0.72            2.7116e-005     -2.1937e-008    2.6794e-009    
  0.75            2.7357e-005     -2.2373e-008    2.1204e-009    
  0.78            2.7581e-005     -1.1918e-008    2.653e-009     
  0.81            2.7799e-005     -1.7553e-008    1.836e-009     
  0.84            2.7997e-005     -2.3664e-008    2.5071e-009    
  0.87            2.8197e-005     -1.8952e-008    1.5709e-009    
  0.9             2.839e-005      -2.3812e-008    2.286e-009     
  0.93            2.8583e-005     -1.3843e-008    2.7015e-009    
  0.96            2.8766e-005     -2.3282e-008    2.209e-009     
  0.99            2.8979e-005     -1.0056e-008    -7.96e-010     
  1.02            2.9187e-005     2.5208e-008     -2.2982e-009   
  1.05            2.9279e-005     8.682e-009      1.9578e-009    
  1.08            2.9441e-005     -2.2431e-008    2.6534e-009    
  1.11            2.9613e-005     -2.1616e-008    2.047e-009     
  1.14            2.9753e-005     -2.296e-008     2.6199e-009    
  1.17            2.9909e-005     -1.7933e-008    1.7564e-009    
  1.2             3.0125e-005     -9.306e-009     -1.0177e-009   
  1.23            3.0299e-005     1.1345e-008     -2.4874e-009   
  1.26            3.0433e-005     1.6742e-008     -1.7129e-009   
  1.29            3.0581e-005     2.4818e-008     -2.3361e-009   
  1.32            3.0637e-005     8.719e-009      1.9311e-009    
  1.35            3.0768e-005     -2.2095e-008    2.6697e-009    
  1.38            3.0915e-005     -1.6974e-008    1.8978e-009    
  1.41            3.1033e-005     -2.3514e-008    2.5449e-009    
  1.44            3.1176e-005     -1.8675e-008    1.8128e-009    
  1.47            3.1284e-005     -2.3722e-008    2.4917e-009    
  1.5             3.1424e-005     -1.7511e-008    1.7267e-009    
  1.53            3.1603e-005     -9.199e-009     -1.0306e-009   
  1.56            3.1744e-005     1.1278e-008     -2.474e-009    
  1.59            3.1858e-005     1.6832e-008     -1.6831e-009   
  1.62            3.198e-005      2.4942e-008     -2.309e-009    
  1.65            3.2016e-005     8.364e-009      1.9469e-009    
  1.68            3.2126e-005     -2.2341e-008    2.6609e-009    
  1.71            3.2246e-005     -1.7291e-008    1.8586e-009    
  1.74            3.2347e-005     -2.3745e-008    2.525e-009     
  1.77            3.2458e-005     -1.8637e-008    1.5935e-009    
  1.8             3.2566e-005     -2.3878e-008    2.3091e-009    
  1.83            3.2717e-005     -1.035e-008     -7.149e-010    
  1.86            3.2867e-005     9.192e-009      -2.6039e-009   
  1.89            3.2984e-005     1.2211e-008     -2.21e-009     
  1.92            3.3069e-005     1.8141e-008     -1.5118e-009   
  1.95            3.31e-005       7.901e-009      1.0459e-009    
  1.98            3.3181e-005     -1.1088e-008    2.5794e-009    
  2.01            3.3297e-005     -1.859e-008     1.6845e-009    
  2.04            3.3396e-005     -2.4176e-008    2.3958e-009    
  2.07            3.3529e-005     -1.0493e-008    -6.503e-010    
  2.1             3.3668e-005     8.462e-009      -2.6023e-009   
  2.13            3.3781e-005     1.1469e-008     -2.2821e-009   
  2.16            3.379e-005      8.265e-009      1.9727e-009    
  2.19            3.3867e-005     -2.3176e-008    2.6446e-009    
  2.22            3.3977e-005     -2.2062e-008    2.0137e-009    
  2.25            3.405e-005      -1.2159e-008    2.178e-010     
  2.28            3.4241e-005     1.2034e-008     -2.1496e-009   
  2.31            3.4319e-005     1.9806e-008     -1.364e-009    
  2.34            3.4406e-005     1.4989e-008     -1.7187e-009   
  2.37            3.4503e-005     1.0886e-008     -2.2071e-009   
  2.4             3.4583e-005     1.8555e-008     -1.3982e-009   
  2.43            3.467e-005      1.3505e-008     -1.7823e-009   
  2.46            3.4761e-005     9.432e-009      -2.2572e-009   
  2.49            3.4768e-005     5.49e-009       1.9883e-009    
  2.52            3.4861e-005     -1.3486e-008    -3.345e-010    
  2.55            3.501e-005      1.6595e-008     -1.4083e-009   
  2.58            3.5089e-005     1.1256e-008     -1.805e-009    
  2.61            3.5185e-005     6.887e-009      -2.274e-009    
  2.64            3.5255e-005     5.816e-009      -2.5403e-009   
  2.67            3.534e-005      8.765e-009      -1.8625e-009   
  2.7             3.5428e-005     4.657e-009      -2.3201e-009   
  2.73            3.5498e-005     3.187e-009      -2.555e-009    
  2.76            3.5581e-005     5.785e-009      -1.9258e-009   
  2.79            3.5668e-005     1.715e-009      -2.3642e-009   
  2.82            3.5736e-005     6.1e-011        -2.5704e-009   
  2.85            3.5825e-005     2.27e-009       -1.9847e-009   
  2.88            3.5836e-005     -5.098e-009     2.1488e-009    
  2.91            3.5916e-005     -2.4171e-008    -5.684e-010    
  2.94            3.6012e-005     -2.2276e-008    -2.5318e-009   
  2.97            3.6086e-005     -2.0349e-008    -2.5756e-009   
  3               3.6077e-005     -9.509e-009     1.5639e-009    
END_DB

BEGIN_DB
 ICCAP_VAR VG         1.2            
 ICCAP_VAR VS         0              
 ICCAP_VAR VB         0              

 #VD              ID              IB              IG             
  0               8.1219e-008     -1.0458e-008    7.328e-010     
  0.03            4.2578e-006     -5.721e-009     -1.1252e-009   
  0.06            8.3551e-006     2.5284e-008     -2.3981e-009   
  0.09            1.2331e-005     9.487e-009      -2.5837e-009   
  0.12            1.6199e-005     1.1741e-008     -2.4081e-009   
  0.15            1.9947e-005     1.7743e-008     -1.548e-009    
  0.18            2.3654e-005     2.6179e-008     -2.2084e-009   
  0.21            2.7097e-005     8.103e-009      2.0288e-009    
  0.24            3.0396e-005     -2.3658e-008    2.6143e-009    
  0.27            3.354e-005      -1.7899e-008    1.6981e-009    
  0.3             3.6501e-005     -2.4516e-008    2.4261e-009    
  0.33            3.9384e-005     -1.0261e-008    -6.161e-010    
  0.36            4.2022e-005     8.398e-009      -2.5959e-009   
  0.39            4.4468e-005     2.4621e-008     -2.4442e-009   
  0.42            4.6726e-005     1.737e-008      -1.5867e-009   
  0.45            4.8818e-005     2.6048e-008     -2.2503e-009   
  0.48            5.075e-005      8.188e-009      1.9968e-009    
  0.51            5.2477e-005     -2.3346e-008    2.6388e-009    
  0.54            5.407e-005      -1.7474e-008    1.7455e-009    
  0.57            5.5498e-005     -2.4516e-008    2.4734e-009    
  0.6             5.68e-005       -1.6492e-008    1.6715e-009    
  0.63            5.7984e-005     -2.4501e-008    2.408e-009     
  0.66            5.9052e-005     -1.0204e-008    -6.429e-010    
  0.69            6.0022e-005     8.497e-009      -2.6013e-009   
  0.72            6.0876e-005     2.4599e-008     -2.426e-009    
  0.75            6.1635e-005     1.754e-008      -1.5621e-009   
  0.78            6.2322e-005     2.6064e-008     -2.2286e-009   
  0.81            6.2878e-005     8.182e-009      2.0125e-009    
  0.84            6.3419e-005     -2.3444e-008    2.6251e-009    
  0.87            6.394e-005      -1.7671e-008    1.7106e-009    
  0.9             6.4416e-005     -2.4536e-008    2.4477e-009    
  0.93            6.4884e-005     -1.609e-008     1.6377e-009    
  0.96            6.5269e-005     -2.4584e-008    2.3762e-009    
  0.99            6.5698e-005     -1.0294e-008    -6.701e-010    
  1.02            6.6112e-005     8.723e-009      -2.602e-009    
  1.05            6.6466e-005     2.4887e-008     -2.3979e-009   
  1.08            6.6794e-005     1.7869e-008     -1.5371e-009   
  1.11            6.7028e-005     8.049e-009      1.0232e-009    
  1.14            6.7335e-005     -2.0765e-008    1.9677e-009    
  1.17            6.7604e-005     -2.3696e-008    2.6046e-009    
  1.2             6.7893e-005     -1.8144e-008    1.6853e-009    
  1.23            6.8147e-005     -2.457e-008     2.4204e-009    
  1.26            6.8419e-005     -1.5462e-008    1.601e-009     
  1.29            6.8655e-005     -2.4598e-008    2.3461e-009    
  1.32            6.8922e-005     -1.0208e-008    -7.005e-010    
  1.35            6.9204e-005     9.039e-009      -2.6047e-009   
  1.38            6.9436e-005     2.5156e-008     -2.3735e-009   
  1.41            6.9644e-005     1.819e-008      -1.5094e-009   
  1.44            6.9771e-005     7.942e-009      1.0418e-009    
  1.47            6.9995e-005     -2.0127e-008    1.9268e-009    
  1.5             7.0168e-005     -2.3949e-008    2.584e-009     
  1.53            7.0364e-005     -1.8197e-008    1.6476e-009    
  1.56            7.0632e-005     -8.879e-009     -1.0727e-009   
  1.59            7.0831e-005     1.1335e-008     -2.4567e-009   
  1.62            7.1001e-005     1.7303e-008     -1.6084e-009   
  1.65            7.119e-005      2.5834e-008     -2.2724e-009   
  1.68            7.1285e-005     8.621e-009      1.9869e-009    
  1.71            7.1439e-005     -2.3097e-008    2.6487e-009    
  1.74            7.1614e-005     -1.7484e-008    1.7802e-009    
  1.77            7.1839e-005     -9.255e-009     -1.0067e-009   
  1.8             7.2036e-005     1.1507e-008     -2.5136e-009   
  1.83            7.221e-005      1.5875e-008     -1.7188e-009   
  1.86            7.2361e-005     2.5273e-008     -2.3614e-009   
  1.89            7.2422e-005     8.786e-009      1.9125e-009    
  1.92            7.2571e-005     -2.1794e-008    2.6911e-009    
  1.95            7.2735e-005     -2.2677e-008    2.1191e-009    
  1.98            7.2921e-005     -9.696e-009     -8.465e-010    
  2.01            7.3107e-005     2.6048e-008     -2.2375e-009   
  2.04            7.3165e-005     8.049e-009      2.0074e-009    
  2.07            7.3282e-005     -2.3396e-008    2.632e-009     
  2.1             7.3428e-005     -2.0602e-008    1.9312e-009    
  2.13            7.3542e-005     -2.3948e-008    2.584e-009     
  2.16            7.3692e-005     -1.9399e-008    1.836e-009     
  2.19            7.381e-005      -2.4484e-008    2.5298e-009    
  2.22            7.395e-005      -1.8169e-008    1.7487e-009    
  2.25            7.4054e-005     -2.4869e-008    2.4727e-009    
  2.28            7.4215e-005     -1.0616e-008    -5.85e-010     
  2.31            7.4408e-005     7.402e-009      -2.5924e-009   
  2.34            7.454e-005      1.076e-008      -2.348e-009    
  2.37            7.4536e-005     7.67e-009       1.9226e-009    
  2.4             7.4643e-005     -2.3149e-008    2.6886e-009    
  2.43            7.4771e-005     -2.3785e-008    2.099e-009     
  2.46            7.4938e-005     -1.1112e-008    -8.537e-010    
  2.49            7.5105e-005     8.577e-009      -2.582e-009    
