! VERSION = 6.00
BEGIN_HEADER
 ICCAP_INPUTS
  VG         V  B GROUND SMU4 0.001 LIN        2    0          3          6    0.6       
  VS         V  E GROUND SMU2 0.1 CON        0
  VD         V  S GROUND SMU1 0.1 LIN        1    0          3          101  0.03      
  VB         V  C GROUND SMU3 0.1 LIN        3    0          -1.5       2    -1.5      
 ICCAP_OUTPUTS
  ID         I  S GROUND SMU1 B
  IB         I  C GROUND SMU3 B
  IG         I  B GROUND SMU4 B
END_HEADER

BEGIN_DB
 ICCAP_VAR VG         0              
 ICCAP_VAR VS         0              
 ICCAP_VAR VB         0              

 #VD              ID              IB              IG             
  0               5.9456e-009     2.7717e-008     2.7624e-009    
  0.03            1.9382e-007     -1.1367e-008    2.4104e-009    
  0.06            3.0257e-007     -1.137e-008     -6.585e-010    
  0.09            3.7881e-007     2.2363e-008     -1.4288e-009   
  0.12            4.1614e-007     9.493e-009      9.656e-010     
  0.15            4.5817e-007     -2.5958e-008    2.4571e-009    
  0.18            4.9502e-007     -2.165e-008     2.0071e-009    
  0.21            5.3031e-007     -1.1302e-008    -6.475e-010    
  0.24            5.7536e-007     2.2236e-008     -1.4326e-009   
  0.27            5.9106e-007     9.421e-009      9.599e-010     
  0.3             6.2587e-007     -2.6111e-008    2.4615e-009    
  0.33            6.5959e-007     -2.1811e-008    2.0177e-009    
  0.36            6.9184e-007     -1.1327e-008    -6.484e-010    
  0.39            7.3725e-007     2.2216e-008     -1.4332e-009   
  0.42            7.4917e-007     9.514e-009      9.536e-010     
  0.45            7.84e-007       -2.6158e-008    2.4691e-009    
  0.48            8.1726e-007     -2.2038e-008    2.028e-009     
  0.51            8.4951e-007     -1.1395e-008    -6.329e-010    
  0.54            8.9618e-007     2.2088e-008     -1.4375e-009   
  0.57            9.0502e-007     9.482e-009      9.474e-010     
  0.6             9.3893e-007     -2.6154e-008    2.4747e-009    
  0.63            9.7195e-007     -2.212e-008     2.0323e-009    
  0.66            1.00612e-006    -1.1408e-008    -6.255e-010    
  0.69            1.05338e-006    2.1906e-008     -1.4406e-009   
  0.72            1.0602e-006     9.568e-009      9.472e-010     
  0.75            1.09365e-006    -2.6049e-008    2.4857e-009    
  0.78            1.1428e-006     -1.1252e-008    -8.7e-011      
  0.81            1.1518e-006     -1.1137e-008    2.6941e-009    
  0.84            1.2109e-006     -1.0642e-008    -1.4469e-009   
  0.87            1.2408e-006     1.1196e-008     -2.5807e-009   
  0.9             1.2679e-006     1.187e-008      -1.3728e-009   
  0.93            1.3048e-006     2.6902e-008     -1.343e-009    
  0.96            1.3087e-006     9.062e-009      1.0054e-009    
  0.99            1.3388e-006     -2.5235e-008    1.3043e-009    
  1.02            1.3712e-006     -2.613e-008     1.2613e-009    
  1.05            1.4033e-006     -2.4971e-008    1.2327e-009    
  1.08            1.4364e-006     -2.2016e-008    2.0236e-009    
  1.11            1.4688e-006     -2.1341e-008    1.979e-009     
  1.14            1.4989e-006     -2.0612e-008    1.924e-009     
  1.17            1.5325e-006     -1.1182e-008    -4.127e-010    
  1.2             1.5865e-006     1.4834e-008     -1.9157e-009   
  1.23            1.609e-006      1.062e-008      2.916e-010     
  1.26            1.6201e-006     -1.5492e-008    2.1961e-009    
  1.29            1.6516e-006     -2.3695e-008    2.1482e-009    
  1.32            1.6839e-006     -2.3103e-008    2.1094e-009    
  1.35            1.7115e-006     -2.2335e-008    2.0542e-009    
  1.38            1.745e-006      -2.1723e-008    2.0106e-009    
  1.41            1.7759e-006     -2.1006e-008    1.9646e-009    
  1.44            1.8056e-006     -2.0428e-008    1.9122e-009    
  1.47            1.8349e-006     -1.9551e-008    1.8595e-009    
  1.5             1.8649e-006     -1.1249e-008    -4.65e-010     
  1.53            1.9207e-006     1.5501e-008     -1.8565e-009   
  1.56            1.9449e-006     1.0541e-008     3.399e-010     
  1.59            1.954e-006      -1.5723e-008    2.1383e-009    
  1.62            1.9853e-006     -2.2835e-008    2.0852e-009    
  1.65            2.0118e-006     -2.2143e-008    2.0356e-009    
  1.68            2.0447e-006     -2.146e-008     1.9843e-009    
  1.71            2.0765e-006     -2.0803e-008    1.9409e-009    
  1.74            2.1052e-006     -2.0051e-008    1.8849e-009    
  1.77            2.134e-006      -1.9287e-008    1.8421e-009    
  1.8             2.1627e-006     -1.1297e-008    -4.766e-010    
  1.83            2.2216e-006     1.5674e-008     -1.8301e-009   
  1.86            2.2525e-006     2.357e-008      -1.797e-009    
  1.89            2.2828e-006     2.2844e-008     -1.7508e-009   
  1.92            2.277e-006      1.0348e-008     1.9272e-009    
  1.95            2.302e-006      -1.1743e-008    1.3778e-009    
  1.98            2.3501e-006     -1.0965e-008    -8.769e-010    
  2.01            2.3978e-006     2.219e-008      -1.4327e-009   
  2.04            2.4047e-006     1.0452e-008     7.485e-010     
  2.07            2.4203e-006     -2.0351e-008    1.5196e-009    
  2.1             2.4608e-006     -1.1371e-008    -7.431e-010    
  2.13            2.5136e-006     1.9151e-008     -1.5547e-009   
  2.16            2.5276e-006     1.0515e-008     5.962e-010     
  2.19            2.5356e-006     -1.8773e-008    1.7298e-009    
  2.22            2.5715e-006     -1.1477e-008    -5.667e-010    
  2.25            2.6282e-006     1.652e-008      -1.7325e-009   
  2.28            2.6217e-006     1.0022e-008     1.9379e-009    
  2.31            2.6469e-006     -1.1954e-008    1.3703e-009    
  2.34            2.6978e-006     -1.1204e-008    -8.901e-010    
  2.37            2.7436e-006     2.2222e-008     -1.4259e-009   
  2.4             2.7664e-006     1.2862e-008     -1.4126e-009   
  2.43            2.8025e-006     2.5274e-008     -1.3642e-009   
  2.46            2.7967e-006     9.227e-009      9.141e-010     
  2.49            2.8153e-006     -2.4454e-008    1.3617e-009    
  2.52            2.8675e-006     -1.1458e-008    -9.042e-010    
  2.55            2.9141e-006     2.2149e-008     -1.4155e-009   
  2.58            2.9453e-006     1.043e-008      -2.419e-009    
  2.61            2.9716e-006     2.6221e-008     -1.3395e-009   
  2.64            2.953e-006      8.032e-009      1.0336e-009    
  2.67            2.9837e-006     -2.671e-008     1.2953e-009    
  2.7             3.0427e-006     -1.1487e-008    -1.0271e-009   
  2.73            3.0778e-006     6.742e-009      -1.3226e-009   
  2.76            3.1116e-006     1.3729e-008     -1.8607e-009   
  2.79            3.1375e-006     1.5797e-008     -1.6534e-009   
  2.82            3.1319e-006     7.71e-009       1.9939e-009    
  2.85            3.1504e-006     -1.3542e-008    2.54e-010      
  2.88            3.2241e-006     8.956e-009      -2.6242e-009   
  2.91            3.2533e-006     8.536e-009      -2.5267e-009   
  2.94            3.2822e-006     8.696e-009      -2.367e-009    
  2.97            3.3096e-006     1.0081e-008     -2.1571e-009   
  3               3.3343e-006     1.1271e-008     -1.9251e-009   
END_DB

BEGIN_DB
 ICCAP_VAR VG         0.6            
 ICCAP_VAR VS         0              
 ICCAP_VAR VB         0              

 #VD              ID              IB              IG             
  0               6.0091e-008     -1.393e-008     8.486e-010     
  0.03            2.8008e-006     1.3755e-008     2.183e-009     
  0.06            5.3989e-006     -1.6239e-008    1.9578e-009    
  0.09            7.8522e-006     -1.7823e-008    1.7116e-009    
  0.12            1.01398e-005    -1.6551e-008    1.6657e-009    
  0.15            1.2243e-005     -2.0892e-008    1.6025e-009    
  0.18            1.4215e-005     -1.8137e-008    1.6786e-009    
  0.21            1.5961e-005     -8.912e-009     -1.0593e-009   
  0.24            1.7495e-005     1.1354e-008     -2.4487e-009   
  0.27            1.8816e-005     1.68e-008       -1.6267e-009   
  0.3             1.9966e-005     2.5674e-008     -2.2719e-009   
  0.33            2.0917e-005     8.821e-009      1.9698e-009    
  0.36            2.1722e-005     -2.2823e-008    2.6429e-009    
  0.39            2.2423e-005     -2.1343e-008    1.9926e-009    
  0.42            2.2993e-005     -1.1199e-008    2.06e-010      
  0.45            2.357e-005      1.2882e-008     -2.1245e-009   
  0.48            2.4013e-005     2.1157e-008     -1.3448e-009   
  0.51            2.4397e-005     1.6281e-008     -1.6814e-009   
  0.54            2.4745e-005     2.547e-008      -2.3239e-009   
  0.57            2.498e-005      8.867e-009      1.924e-009     
  0.6             2.5263e-005     -2.2153e-008    2.6661e-009    
  0.63            2.5541e-005     -1.6854e-008    1.8646e-009    
  0.66            2.5782e-005     -2.3811e-008    2.5349e-009    
  0.69            2.6033e-005     -1.8216e-008    1.7758e-009    
  0.72            2.6234e-005     -2.4248e-008    2.4745e-009    
  0.75            2.6463e-005     -1.6823e-008    1.6853e-009    
  0.78            2.6651e-005     -2.4463e-008    2.4075e-009    
  0.81            2.6848e-005     -1.5515e-008    2.7198e-009    
  0.84            2.704e-005      -1.0422e-008    -1.131e-010    
  0.87            2.7295e-005     1.7615e-008     -1.5958e-009   
  0.9             2.7445e-005     2.594e-008      -2.246e-009    
  0.93            2.7581e-005     8.702e-009      1.9868e-009    
  0.96            2.773e-005      -2.3098e-008    2.6277e-009    
  0.99            2.7897e-005     -1.7448e-008    1.7571e-009    
  1.02            2.8037e-005     -2.4256e-008    2.4564e-009    
  1.05            2.8205e-005     -1.6611e-008    1.6582e-009    
  1.08            2.8333e-005     -2.4537e-008    2.3885e-009    
  1.11            2.8508e-005     -1.5274e-008    2.7174e-009    
  1.14            2.8651e-005     -1.0352e-008    -1.226e-010    
  1.17            2.8843e-005     1.7643e-008     -1.5824e-009   
  1.2             2.8992e-005     2.5937e-008     -2.2245e-009   
  1.23            2.9048e-005     8.67e-009       1.9939e-009    
  1.26            2.9175e-005     -2.3082e-008    2.6191e-009    
  1.29            2.9317e-005     -2.0603e-008    1.9418e-009    
  1.32            2.9437e-005     -2.3664e-008    2.5761e-009    
  1.35            2.9585e-005     -1.9332e-008    1.8461e-009    
  1.38            2.9682e-005     -2.4119e-008    2.5242e-009    
  1.41            2.9831e-005     -1.7946e-008    1.7534e-009    
  1.44            2.9927e-005     -2.4435e-008    2.4589e-009    
  1.47            3.0075e-005     -1.6633e-008    1.6642e-009    
  1.5             3.0167e-005     -2.4499e-008    2.3898e-009    
  1.53            3.0301e-005     -1.5342e-008    2.7144e-009    
  1.56            3.0401e-005     -2.4358e-008    2.312e-009     
  1.59            3.0532e-005     -1.0213e-008    -7.204e-010    
  1.62            3.071e-005      2.5088e-008     -2.3695e-009   
  1.65            3.0788e-005     1.8206e-008     -1.5184e-009   
  1.68            3.0843e-005     7.985e-009      1.0313e-009    
  1.71            3.0912e-005     -1.0873e-008    2.5969e-009    
  1.74            3.1037e-005     -1.9961e-008    1.8898e-009    
  1.77            3.1147e-005     -2.3876e-008    2.552e-009     
  1.8             3.1242e-005     -1.8714e-008    1.8065e-009    
  1.83            3.1344e-005     -2.4227e-008    2.4901e-009    
  1.86            3.1455e-005     -1.73e-008      1.7115e-009    
  1.89            3.1529e-005     -2.4556e-008    2.4204e-009    
  1.92            3.1633e-005     -1.5987e-008    2.7212e-009    
  1.95            3.1736e-005     -2.4636e-008    2.3539e-009    
  1.98            3.1855e-005     -1.0274e-008    -6.922e-010    
  2.01            3.2e-005        8.802e-009      -2.5866e-009   
  2.04            3.2084e-005     2.4679e-008     -2.3699e-009   
  2.07            3.2178e-005     1.8035e-008     -1.5151e-009   
  2.1             3.2188e-005     7.65e-009       1.0289e-009    
  2.13            3.2288e-005     -2.0796e-008    1.9366e-009    
  2.16            3.2361e-005     -2.4284e-008    2.5708e-009    
  2.19            3.2459e-005     -1.9958e-008    1.845e-009     
  2.22            3.2524e-005     -2.4808e-008    2.523e-009     
  2.25            3.2631e-005     -1.8925e-008    1.7581e-009    
  2.28            3.2702e-005     -2.5426e-008    2.4543e-009    
  2.31            3.2814e-005     -1.1241e-008    -5.92e-010     
  2.34            3.2945e-005     6.771e-009      -2.5824e-009   
  2.37            3.3042e-005     9.617e-009      -2.3269e-009   
  2.4             3.3035e-005     6.692e-009      1.9191e-009    
  2.43            3.311e-005      -2.4118e-008    2.6711e-009    
  2.46            3.3207e-005     -1.2691e-008    -2.984e-010    
  2.49            3.3351e-005     1.7056e-008     -1.4221e-009   
  2.52            3.3427e-005     1.1638e-008     -1.8416e-009   
  2.55            3.3516e-005     7.852e-009      -2.3097e-009   
  2.58            3.3583e-005     1.5073e-008     -1.4583e-009   
  2.61            3.3664e-005     9.737e-009      -1.8989e-009   
  2.64            3.3749e-005     6.285e-009      -2.3534e-009   
  2.67            3.3809e-005     1.2694e-008     -1.4964e-009   
  2.7             3.3897e-005     7.78e-009       -1.9561e-009   
  2.73            3.3967e-005     4.186e-009      -2.3874e-009   
  2.76            3.4035e-005     9.977e-009      -1.5409e-009   
  2.79            3.4119e-005     4.61e-009       -2.0102e-009   
  2.82            3.4189e-005     1.439e-009      -2.4188e-009   
  2.85            3.4221e-005     -1.9563e-008    -1.9657e-009   
  2.88            3.4338e-005     -9.56e-010      -2.3668e-009   
  2.91            3.4368e-005     -1.8468e-008    -2.5825e-009   
  2.94            3.4482e-005     -3.306e-009     -2.3123e-009   
  2.97            3.4512e-005     -2.0857e-008    -2.5854e-009   
  3               3.4478e-005     -9.682e-009     1.3865e-009    
END_DB

BEGIN_DB
 ICCAP_VAR VG         1.2            
 ICCAP_VAR VS         0              
 ICCAP_VAR VB         0              

 #VD              ID              IB              IG             
  0               9.4724e-008     8.049e-009      1.1787e-009    
  0.03            4.4156e-006     7.857e-009      2.6101e-009    
  0.06            8.6229e-006     -2.358e-008     2.5936e-009    
  0.09            1.2725e-005     -2.3935e-008    1.2127e-009    
  0.12            1.6702e-005     -1.503e-008     2.7169e-009    
  0.15            2.0542e-005     -2.4186e-008    2.3032e-009    
  0.18            2.4326e-005     -1.021e-008     -7.217e-010    
  0.21            2.787e-005      2.513e-008      -2.3614e-009   
  0.24            3.1227e-005     1.8215e-008     -1.5136e-009   
  0.27            3.4377e-005     8.088e-009      1.0267e-009    
  0.3             3.7358e-005     -1.0626e-008    2.593e-009     
  0.33            4.0258e-005     -1.8067e-008    1.6942e-009    
  0.36            4.286e-005      -2.4467e-008    2.4146e-009    
  0.39            4.5282e-005     -1.5923e-008    2.7192e-009    
  0.42            4.7543e-005     -2.4389e-008    2.343e-009     
  0.45            4.9603e-005     -1.0233e-008    -6.887e-010    
  0.48            5.1552e-005     8.981e-009      -2.5901e-009   
  0.51            5.327e-005      2.5003e-008     -2.3644e-009   
  0.54            5.4825e-005     1.8201e-008     -1.5158e-009   
  0.57            5.6164e-005     8.049e-009      1.0276e-009    
  0.6             5.7374e-005     -1.0751e-008    2.5928e-009    
  0.63            5.8542e-005     -2.0054e-008    1.8914e-009    
  0.66            5.9536e-005     -2.3891e-008    2.5458e-009    
  0.69            6.0418e-005     -1.883e-008     1.8009e-009    
  0.72            6.1234e-005     -2.423e-008     2.4989e-009    
  0.75            6.1962e-005     -1.7576e-008    1.7241e-009    
  0.78            6.2593e-005     -2.4356e-008    2.4334e-009    
  0.81            6.3166e-005     -1.6212e-008    1.6432e-009    
  0.84            6.3696e-005     -2.4481e-008    2.3589e-009    
  0.87            6.4245e-005     -1.0148e-008    -6.746e-010    
  0.9             6.4727e-005     2.4779e-008     -2.4055e-009   
  0.93            6.516e-005      1.7529e-008     -1.5608e-009   
  0.96            6.5538e-005     2.5918e-008     -2.219e-009    
  0.99            6.5843e-005     8.235e-009      1.998e-009     
  1.02            6.6132e-005     -2.3423e-008    2.6125e-009    
  1.05            6.646e-005      -1.7771e-008    1.7207e-009    
  1.08            6.6768e-005     -2.4401e-008    2.4377e-009    
  1.11            6.7115e-005     -1.619e-008     1.6409e-009    
  1.14            6.7363e-005     -2.4423e-008    2.3617e-009    
  1.17            6.7619e-005     -1.4912e-008    2.7122e-009    
  1.2             6.7873e-005     -2.4207e-008    2.2947e-009    
  1.23            6.8127e-005     -1.3726e-008    2.7027e-009    
  1.26            6.8387e-005     -1.5889e-008    2.0209e-009    
  1.29            6.8611e-005     -1.1296e-008    2.205e-010     
  1.32            6.8918e-005     1.2735e-008     -2.149e-009    
  1.35            6.9128e-005     1.7059e-008     -1.4499e-009   
  1.38            6.9264e-005     8.032e-009      1.0723e-009    
  1.41            6.9446e-005     -1.1477e-008    2.542e-009     
  1.44            6.9671e-005     -1.8653e-008    1.7959e-009    
  1.47            6.9882e-005     -2.4198e-008    2.4854e-009    
  1.5             7.0081e-005     -1.7517e-008    1.7116e-009    
  1.53            7.0245e-005     -2.4551e-008    2.4278e-009    
  1.56            7.0433e-005     -1.6045e-008    1.6279e-009    
  1.59            7.0585e-005     -2.4503e-008    2.3575e-009    
  1.62            7.0824e-005     -1.0237e-008    -6.75e-010     
  1.65            7.1018e-005     8.96e-009       -2.5872e-009   
  1.68            7.1211e-005     2.5047e-008     -2.379e-009    
  1.71            7.136e-005      1.7981e-008     -1.5284e-009   
  1.74            7.1435e-005     8.107e-009      1.0134e-009    
  1.77            7.1557e-005     -1.0418e-008    2.6044e-009    
  1.8             7.1734e-005     -1.7729e-008    1.7139e-009    
  1.83            7.1887e-005     -2.4446e-008    2.4284e-009    
  1.86            7.2068e-005     -1.6202e-008    2.7208e-009    
  1.89            7.219e-005      -2.4549e-008    2.3671e-009    
  1.92            7.2362e-005     -1.0175e-008    -6.761e-010    
  1.95            7.2564e-005     8.779e-009      -2.5847e-009   
  1.98            7.2707e-005     2.4752e-008     -2.3826e-009   
  2.01            7.2831e-005     1.7933e-008     -1.5359e-009   
  2.04            7.289e-005      8.03e-009       1.0135e-009    
  2.07            7.2996e-005     -1.0734e-008    2.6129e-009    
  2.1             7.3162e-005     -2.0472e-008    1.9205e-009    
  2.13            7.3262e-005     -2.4053e-008    2.5669e-009    
  2.16            7.3423e-005     -1.9491e-008    1.8318e-009    
  2.19            7.3534e-005     -2.4385e-008    2.5165e-009    
  2.22            7.3664e-005     -1.8218e-008    1.7467e-009    
  2.25            7.3855e-005     -9.541e-009     -1.0147e-009   
  2.28            7.3999e-005     1.1071e-008     -2.4799e-009   
  2.31            7.4103e-005     1.5501e-008     -1.6972e-009   
  2.34            7.4233e-005     1.1707e-008     -2.1865e-009   
  2.37            7.4334e-005     1.9515e-008     -1.3727e-009   
  2.4             7.446e-005      1.4389e-008     -1.7499e-009   
  2.43            7.4579e-005     1.0677e-008     -2.2404e-009   
  2.46            7.4597e-005     7.236e-009      1.9857e-009    
  2.49            7.4691e-005     -2.485e-008     2.6259e-009    
