! VERSION = 6.00
BEGIN_HEADER
 ICCAP_INPUTS
  VG         V  B GROUND SMU4 0.001 LIN        1    0          3          61   0.05      
  VS         V  E GROUND SMU3 0.1 CON        0
  VB         V  C GROUND SMU1 0.1 LIN        3    0          -3         3    -1.5      
  VD         V  S GROUND SMU2 0.1 LIN        2    0.1        3          2    2.9       
 ICCAP_OUTPUTS
  IG         I  B GROUND SMU4 B
  ID         I  S GROUND SMU2 B
  IB         I  C GROUND SMU1 B
END_HEADER

BEGIN_DB
 ICCAP_VAR VS         0              
 ICCAP_VAR VB         0              
 ICCAP_VAR VD         0.1            

 #VG              IG              ID              IB             
  0               2.5879e-009     2.7928e-005     -7.17e-009     
  0.05            -1.8121e-009    6.3341e-005     1.5568e-008    
  0.1             2.6307e-009     0.00011612      9.101e-009     
  0.15            -1.6823e-009    0.00018326      1.6106e-008    
  0.2             -8.716e-010     0.0002533       -9.753e-009    
  0.25            2.7299e-009     0.00031991      -6.962e-009    
  0.3             -1.3132e-009    0.00038397      1.2418e-008    
  0.35            2.2042e-009     0.00043815      -1.557e-008    
  0.4             -1.5348e-009    0.00048969      1.8646e-008    
  0.45            -9.483e-010     0.00053387      -9.71e-009     
  0.5             2.7409e-009     0.00057375      -7.094e-009    
  0.55            -2.4342e-009    0.00061152      9.723e-009     
  0.6             2.0299e-009     0.00064351      -1.6355e-008   
  0.65            -1.4204e-009    0.00067554      1.5712e-008    
  0.7             -1.0276e-009    0.00070337      -8.951e-009    
  0.75            2.7367e-009     0.00072906      -7.279e-009    
  0.8             -2.3389e-009    0.00075425      1.1882e-008    
  0.85            1.8465e-009     0.00077663      -1.6779e-008   
  0.9             -2.432e-009     0.00079888      1.132e-008     
  0.95            2.0359e-009     0.0008188       -1.6317e-008   
  1               -1.4197e-009    0.00083931      1.5842e-008    
  1.05            2.3992e-009     0.00085656      -1.4382e-008   
  1.1             -1.5409e-009    0.00087476      1.6492e-008    
  1.15            -9.429e-010     0.00089152      -9.375e-009    
  1.2             2.735e-009      0.00090716      -7.034e-009    
  1.25            -2.431e-009     0.00092277      1.1245e-008    
  1.3             2.0395e-009     0.00093701      -1.6338e-008   
  1.35            -1.418e-009     0.00095226      1.5756e-008    
  1.4             2.3924e-009     0.00096475      -1.4408e-008   
  1.45            -1.5435e-009    0.00097831      1.6521e-008    
  1.5             -9.424e-010     0.00099095      -9.387e-009    
  1.55            2.7383e-009     0.00100285      -7.065e-009    
  1.6             -2.4312e-009    0.00101495      1.1057e-008    
  1.65            2.0412e-009     0.00102578      -1.6231e-008   
  1.7             -1.4233e-009    0.00103772      1.59e-008      
  1.75            2.4051e-009     0.00104732      -1.455e-008    
  1.8             -1.5451e-009    0.00105814      1.661e-008     
  1.85            -9.403e-010     0.00106822      -9.32e-009     
  1.9             2.7423e-009     0.001078        -7.104e-009    
  1.95            -2.4294e-009    0.00108828      9.849e-009     
  2               2.042e-009      0.00109643      -1.6195e-008   
  2.05            -1.4251e-009    0.00110627      1.5883e-008    
  2.1             2.4011e-009     0.00111377      -1.4638e-008   
  2.15            -1.5428e-009    0.00112269      1.6524e-008    
  2.2             -9.404e-010     0.00113103      -9.386e-009    
  2.25            2.737e-009      0.00113868      -7.122e-009    
  2.3             2.4061e-009     0.0011469       -9.993e-009    
  2.35            -2.2239e-009    0.0011543       1.2933e-008    
  2.4             1.6436e-009     0.0011613       -1.6788e-008   
  2.45            8.518e-010      0.001169        8.803e-009     
  2.5             -2.612e-009     0.0011762       7.307e-009     
  2.55            1.678e-010      0.0011834       -9.4e-009      
  2.6             2.5867e-009     0.0011888       -1.1787e-008   
  2.65            -1.8092e-009    0.0011958       1.5585e-008    
  2.7             -7.996e-010     0.0012025       -9.758e-009    
  2.75            2.7169e-009     0.001208        -7.544e-009    
  2.8             -1.3711e-009    0.0012145       1.4355e-008    
  2.85            2.3247e-009     0.0012193       -1.5073e-008   
  2.9             1.9438e-009     0.0012257       8.604e-009     
  2.95            -1.4183e-009    0.0012309       1.7314e-008    
  3               2.391e-009      0.0012362       -1.4469e-008   
END_DB

BEGIN_DB
 ICCAP_VAR VS         0              
 ICCAP_VAR VB         0              
 ICCAP_VAR VD         3              

 #VG              IG              ID              IB             
  0               4.612e-010      0.00035032      -2.944e-007    
  0.05            2.736e-009      0.00048991      -4.0096e-007   
  0.1             1.367e-009      0.00064842      -4.8545e-007   
  0.15            -1.5858e-009    0.00083089      -5.6719e-007   
  0.2             -2.1878e-009    0.00101569      -6.8491e-007   
  0.25            -1.357e-010     0.0012131       -7.4708e-007   
  0.3             -2.353e-009     0.0014222       -8.1532e-007   
  0.35            -1.8131e-009    0.0016351       -8.9576e-007   
  0.4             7.18e-011       0.0018471       -9.4252e-007   
  0.45            2.4725e-009     0.0020702       -9.8578e-007   
  0.5             1.8308e-009     0.0023011       -9.8966e-007   
  0.55            -2.63e-011      0.0025399       -1.00788e-006  
  0.6             -2.2104e-009    0.0027756       -1.01053e-006  
  0.65            -1.8955e-009    0.0030125       -1.0316e-006   
  0.7             -3.33e-011      0.0032474       -1.02173e-006  
  0.75            2.3099e-009     0.0034901       -1.01285e-006  
  0.8             1.9559e-009     0.0037361       -9.6812e-007   
  0.85            9.04e-011       0.0039887       -9.4129e-007   
  0.9             -2.0354e-009    0.0042385       -9.0441e-007   
  0.95            -1.963e-009     0.0044862       -8.9206e-007   
  1               -1.587e-010     0.0047343       -8.5492e-007   
  1.05            2.1102e-009     0.0049859       -8.2242e-007   
  1.1             2.0728e-009     0.0052411       -7.5753e-007   
  1.15            2.202e-010      0.0055007       -7.1438e-007   
  1.2             -1.8447e-009    0.0057568       -6.6493e-007   
  1.25            -2.0476e-009    0.0060104       -6.4531e-007   
  1.3             -3.061e-010     0.0062652       -6.0486e-007   
  1.35            1.8761e-009     0.006522        -5.7137e-007   
  1.4             2.1784e-009     0.006783        -5.078e-007    
  1.45            3.455e-010      0.0070457       -4.6708e-007   
  1.5             -1.6561e-009    0.0073057       -4.2239e-007   
  1.55            -2.1441e-009    0.0075617       -4.1057e-007   
  1.6             -4.443e-010     0.0078212       -3.7888e-007   
  1.65            1.6464e-009     0.0080787       -3.5451e-007   
  1.7             2.2833e-009     0.0083418       -3.0068e-007   
  1.75            4.636e-010      0.0086042       -2.702e-007    
  1.8             -1.4819e-009    0.0088676       -2.3648e-007   
  1.85            -2.2565e-009    0.0091244       -2.3597e-007   
  1.9             -5.824e-010     0.0093857       -2.1639e-007   
  1.95            1.4503e-009     0.0096432       -2.0338e-007   
  2               2.3826e-009     0.0099084       -1.6096e-007   
  2.05            5.827e-010      0.0101688       -1.4045e-007   
  2.1             -1.3582e-009    0.0104328       -1.1563e-007   
  2.15            -2.378e-009     0.0106909       -1.2629e-007   
  2.2             -7.212e-010     0.0109527       -1.1645e-007   
  2.25            2.7152e-009     0.01121         -1.1336e-007   
  2.3             -5.064e-010     0.011477        -7.5089e-008   
  2.35            1.5547e-009     0.011732        -9.1313e-008   
  2.4             2.3293e-009     0.011995        -5.888e-008    
  2.45            5.223e-010      0.012257        -4.858e-008    
  2.5             -1.4205e-009    0.012517        -3.3421e-008   
  2.55            -2.3134e-009    0.01277         -5.192e-008    
  2.6             -6.503e-010     0.013027        -4.9273e-008   
  2.65            1.3729e-009     0.013277        -5.2292e-008   
  2.7             2.4262e-009     0.013534        -2.3316e-008   
  2.75            6.432e-010      0.01379         -1.6938e-008   
  2.8             -1.3131e-009    0.01405         -3.689e-009    
  2.85            -2.429e-009     0.014303        -2.6439e-008   
  2.9             -7.819e-010     0.014557        -2.714e-008    
  2.95            2.6929e-009     0.014805        -3.439e-008    
  3               -2.0922e-009    0.015061        5.45e-010      
END_DB

BEGIN_DB
 ICCAP_VAR VS         0              
 ICCAP_VAR VB         -1.5           
 ICCAP_VAR VD         0.1            

 #VG              IG              ID              IB             
  0               -2.587e-009     4.1699e-007     5.582e-009     
  0.05            2.2609e-009     1.6535e-006     1.3379e-008    
  0.1             -2.4141e-009    6.191e-006      1.1337e-008    
  0.15            -9.353e-010     1.9068e-005     1.6909e-008    
  0.2             2.7423e-009     4.744e-005      -6.777e-009    
  0.25            -2.4359e-009    9.7424e-005     1.127e-008     
  0.3             -2.5739e-009    0.0001604       -9.835e-009    
  0.35            -9.333e-010     0.00022904      -9.481e-009    
  0.4             2.7446e-009     0.00029474      -7.038e-009    
  0.45            -2.4357e-009    0.00035776      1.0097e-008    
  0.5             2.0502e-009     0.00041185      -1.6462e-008   
  0.55            -1.4371e-009    0.0004624       1.61e-008      
  0.6             -1.0154e-009    0.00050596      -9.198e-009    
  0.65            2.7409e-009     0.00054472      -7.03e-009     
  0.7             -8.83e-011      0.00058206      8.306e-009     
  0.75            -2.2905e-009    0.0006147       1.2354e-008    
  0.8             1.7687e-009     0.00064431      -1.7131e-008   
  0.85            -2.3936e-009    0.00067341      1.1402e-008    
  0.9             1.9641e-009     0.0006989       -1.6734e-008   
  0.95            -1.3888e-009    0.00072474      1.4875e-008    
  1               -1.0532e-009    0.00074742      -8.971e-009    
  1.05            2.7319e-009     0.00076865      -7.233e-009    
  1.1             -4.23e-011      0.0007903       7.848e-009     
  1.15            -2.2398e-009    0.00080935      1.2881e-008    
  1.2             1.6805e-009     0.00082746      -1.7091e-008   
  1.25            8.397e-010      0.00084556      9.252e-009     
  1.3             -2.6159e-009    0.00086267      7.436e-009     
  1.35            2.6288e-009     0.00087819      -1.005e-008    
  1.4             -1.9339e-009    0.0008942       1.4892e-008    
  1.45            1.5176e-009     0.00090932      -1.4594e-008   
  1.5             -2.248e-009     0.00092343      1.2349e-008    
  1.55            1.6945e-009     0.00093695      -1.7091e-008   
  1.6             8.371e-010      0.00095045      8.966e-009     
  1.65            -2.6161e-009    0.00096353      7.207e-009     
  1.7             1.843e-010      0.00097594      -1.0074e-008   
  1.75            2.5979e-009     0.00098709      -1.1569e-008   
  1.8             -1.855e-009     0.00099906      1.5334e-008    
  1.85            2.715e-009      0.00101071      -1.3296e-008   
  1.9             -2.1848e-009    0.00102114      1.3181e-008    
  1.95            1.831e-009      0.00103152      -1.9063e-008   
  2               7.706e-010      0.0010416       9.104e-009     
  2.05            -2.6322e-009    0.00105161      6.811e-009     
  2.1             2.6748e-009     0.0010612       -1.1288e-008   
  2.15            -2.044e-009     0.00106997      1.4048e-008    
  2.2             1.652e-009      0.00107939      -1.6632e-008   
  2.25            8.567e-010      0.00108797      8.979e-009     
  2.3             -2.6121e-009    0.00109646      7.261e-009     
  2.35            1.645e-010      0.00110519      -9.639e-009    
  2.4             2.5813e-009     0.00111222      -1.1807e-008   
  2.45            -1.8127e-009    0.00112013      1.5506e-008    
  2.5             -7.997e-010     0.00112796      -9.702e-009    
  2.55            2.7233e-009     0.00113504      -7.662e-009    
  2.6             1.3776e-009     0.0011424       -1.5103e-008   
  2.65            -2.2758e-009    0.0011496       1.2237e-008    
  2.7             1.7448e-009     0.0011561       -1.7046e-008   
  2.75            8.104e-010      0.001163        9.05e-009      
  2.8             -2.6269e-009    0.0011695       7.298e-009     
  2.85            2.023e-010      0.0011762       -1.0418e-008   
  2.9             2.6145e-009     0.0011815       -1.061e-008    
  2.95            -1.8893e-009    0.0011878       1.5117e-008    
  3               1.4757e-009     0.001194        -1.3814e-008   
END_DB

BEGIN_DB
 ICCAP_VAR VS         0              
 ICCAP_VAR VB         -1.5           
 ICCAP_VAR VD         3              

 #VG              IG              ID              IB             
  0               -8.474e-010     2.2484e-005     -2.611e-008    
  0.05            -1.0516e-009    6.0153e-005     -8.9024e-008   
  0.1             2.7413e-009     0.00012857      -1.5249e-007   
  0.15            1.2858e-009     0.00023003      -2.5745e-007   
  0.2             -1.7112e-009    0.00036594      -3.5704e-007   
  0.25            -2.1108e-009    0.00051732      -5.0811e-007   
  0.3             -4.022e-010     0.00068765      -6.2086e-007   
  0.35            1.7153e-009     0.00087013      -7.2989e-007   
  0.4             2.2505e-009     0.0010679       -7.9236e-007   
  0.45            2.6094e-009     0.0012708       -8.8276e-007   
  0.5             8.963e-010      0.0014855       -9.2708e-007   
  0.55            -2.3434e-009    0.0017074       -9.5904e-007   
  0.6             -1.8201e-009    0.0019303       -1.0258e-006   
  0.65            6.74e-011       0.0021504       -1.04534e-006  
  0.7             2.4627e-009     0.0023809       -1.0611e-006   
  0.75            1.8343e-009     0.0026146       -1.03767e-006  
  0.8             -1.37e-011      0.002859        -1.0299e-006   
  0.85            -2.1972e-009    0.0030996       -1.0077e-006   
  0.9             -1.8974e-009    0.0033408       -1.00654e-006  
  0.95            -4.51e-011      0.0035797       -9.7665e-007   
  1               2.2861e-009     0.0038255       -9.499e-007    
  1.05            1.9612e-009     0.0040748       -8.8939e-007   
  1.1             1.134e-010      0.0043295       -8.4917e-007   
  1.15            -2.013e-009     0.0045819       -8.0062e-007   
  1.2             -1.9691e-009    0.0048315       -7.7919e-007   
  1.25            -1.816e-010     0.0050807       -7.3536e-007   
  1.3             2.0697e-009     0.0053344       -6.9824e-007   
  1.35            2.0894e-009     0.0055913       -6.3034e-007   
  1.4             2.37e-010       0.0058504       -5.8569e-007   
  1.45            -1.8038e-009    0.0061075       -5.3555e-007   
  1.5             -2.0651e-009    0.0063614       -5.1769e-007   
  1.55            -3.351e-010     0.0066173       -4.7973e-007   
  1.6             1.8255e-009     0.0068728       -4.4946e-007   
  1.65            2.204e-009      0.0071343       -3.8914e-007   
  1.7             3.68e-010       0.0073956       -3.5329e-007   
  1.75            -1.6023e-009    0.0076545       -3.135e-007    
  1.8             -2.1735e-009    0.0079106       -3.0717e-007   
  1.85            -4.818e-010     0.0081692       -2.8157e-007   
  1.9             1.5957e-009     0.0084261       -2.6286e-007   
  1.95            2.3134e-009     0.008688        -2.1501e-007   
  2               5.012e-010      0.0089469       -1.9e-007      
  2.05            -1.4432e-009    0.0092062       -1.6149e-007   
  2.1             -2.2967e-009    0.0094619       -1.6716e-007   
  2.15            -6.255e-010     0.0097198       -1.5292e-007   
  2.2             1.3992e-009     0.0099736       -1.4524e-007   
  2.25            2.4105e-009     0.0102339       -1.0715e-007   
  2.3             -1.522e-010     0.010494        -1.0817e-007   
  2.35            2.1173e-009     0.010745        -1.0495e-007   
  2.4             -2.0055e-009    0.011009        -7.6932e-008   
  2.45            -1.9702e-009    0.011266        -7.8284e-008   
  2.5             -1.658e-010     0.011521        -7.0131e-008   
  2.55            2.0942e-009     0.01178         -7.0408e-008   
  2.6             2.079e-009      0.01204         -3.9691e-008   
  2.65            2.286e-010      0.012301        -3.3003e-008   
  2.7             -1.8239e-009    0.012557        -2.0648e-008   
  2.75            -2.0611e-009    0.012813        -3.9509e-008   
  2.8             -3.158e-010     0.013067        -3.7012e-008   
  2.85            1.8595e-009     0.013321        -4.0917e-008   
  2.9             2.1912e-009     0.013573        -1.3562e-008   
  2.95            3.615e-010      0.013829        -9.017e-009    
  3               -2.3365e-009    0.014085        -2.2647e-008   
END_DB

BEGIN_DB
 ICCAP_VAR VS         0              
 ICCAP_VAR VB         -3             
 ICCAP_VAR VD         0.1            

 #VG              IG              ID              IB             
  0               2.7219e-009     9.498e-009      -1.6196e-008   
  0.05            -2.2321e-009    2.4935e-008     1.239e-008     
  0.1             1.1233e-009     1.1134e-007     -7.733e-009    
  0.15            7.06e-010       4.6378e-007     9.215e-009     
  0.2             -2.3874e-009    1.8783e-006     -1.672e-008    
  0.25            2.3448e-009     6.7857e-006     -1.4426e-008   
  0.3             1.8269e-009     2.0943e-005     -1.5787e-008   
  0.35            -1.5672e-009    5.305e-005      1.6524e-008    
  0.4             -9.331e-010     0.000103646     -9.484e-009    
  0.45            -9.43e-011      0.00016543      -1.3461e-008   
  0.5             2.2007e-009     0.00023365      -1.5579e-008   
  0.55            -1.4045e-009    0.00029985      1.7723e-008    
  0.6             -1.0416e-009    0.00035836      -8.999e-009    
  0.65            2.7299e-009     0.00040957      -7.6e-009      
  0.7             -5e-011         0.00045802      8.233e-009     
  0.75            -2.2363e-009    0.00049995      1.2642e-008    
  0.8             1.6878e-009     0.00053705      -1.7192e-008   
  0.85            -2.3347e-009    0.00057274      1.1711e-008    
  0.9             1.8799e-009     0.00060382      -1.7037e-008   
  0.95            -2.4268e-009    0.00063411      1.0948e-008    
  1               2.0518e-009     0.0006606       -1.631e-008    
  1.05            -1.4441e-009    0.00068751      1.6113e-008    
  1.1             2.3945e-009     0.0007102       -1.4287e-008   
  1.15            -1.5611e-009    0.00073359      1.6785e-008    
  1.2             2.5048e-009     0.00075414      -1.2796e-008   
  1.25            -1.7115e-009    0.00077502      1.6187e-008    
  1.3             2.5976e-009     0.00079366      -1.088e-008    
  1.35            -1.867e-009     0.00081239      1.537e-008     
  1.4             2.7136e-009     0.00082983      -1.3454e-008   
  1.45            -2.1783e-009    0.00084638      1.303e-008     
  1.5             1.6171e-009     0.00086193      -1.7313e-008   
  1.55            -2.3004e-009    0.0008776       1.1855e-008    
  1.6             1.8013e-009     0.00089185      -1.698e-008    
  1.65            7.884e-010      0.0009062       9.12e-009      
  1.7             -2.6345e-009    0.00092001      6.985e-009     
  1.75            2.228e-010      0.00093318      -1.0989e-008   
