! VERSION = 6.00
BEGIN_HEADER
 ICCAP_INPUTS
  VG         V  B GROUND SMU4 0.001 LIN        1    0          3          101  0.03      
  VS         V  E GROUND SMU2 0.1 CON        0
  VB         V  C GROUND SMU3 0.1 LIN        3    0          -3         3    -1.5      
  VD         V  S GROUND SMU1 0.1 LIN        2    0.1        3          2    2.9       
 ICCAP_OUTPUTS
  IG         I  B GROUND SMU4 B
  ID         I  S GROUND SMU1 B
  IB         I  C GROUND SMU3 B
END_HEADER

BEGIN_DB
 ICCAP_VAR VS         0              
 ICCAP_VAR VB         0              
 ICCAP_VAR VD         0.1            

 #VG              IG              ID              IB             
  0               2.8263e-009     2.8133e-007     -8.505e-009    
  0.03            2.0908e-009     4.7455e-007     1.0184e-008    
  0.06            9.714e-010      7.517e-007      9.383e-009     
  0.09            -1.819e-010     1.12159e-006    1.17e-008      
  0.12            -1.4598e-009    1.5368e-006     -1.1514e-008   
  0.15            -1.3449e-009    2.0056e-006     8.249e-009     
  0.18            -2.6258e-009    2.5021e-006     1.166e-008     
  0.21            -2.1163e-009    3.0082e-006     6.55e-010      
  0.24            -1.5543e-009    3.5147e-006     2.556e-009     
  0.27            -1.3706e-009    4.0126e-006     6.323e-009     
  0.3             -1.2837e-009    4.4968e-006     1.0975e-008    
  0.33            -2.3424e-009    4.9777e-006     1.2249e-008    
  0.36            -1.7079e-009    5.4218e-006     1.772e-009     
  0.39            -1.4054e-009    5.8616e-006     4.841e-009     
  0.42            -1.3161e-009    6.2845e-006     9.564e-009     
  0.45            -2.5193e-009    6.6913e-006     1.1194e-008    
  0.48            -1.906e-009     7.0859e-006     9.56e-010      
  0.51            -1.4593e-009    7.4584e-006     3.596e-009     
  0.54            -1.3451e-009    7.8364e-006     8.305e-009     
  0.57            -2.6235e-009    8.1867e-006     1.1699e-008    
  0.6             -2.1228e-009    8.5322e-006     6.72e-010      
  0.63            -1.5626e-009    8.8787e-006     2.436e-009     
  0.66            -1.3731e-009    9.2084e-006     6.277e-009     
  0.69            -1.2842e-009    9.5194e-006     1.1117e-008    
  0.72            -2.3421e-009    9.8409e-006     1.2207e-008    
  0.75            -1.7148e-009    1.01434e-005    1.775e-009     
  0.78            -1.4054e-009    1.04421e-005    4.863e-009     
  0.81            -1.3142e-009    1.07267e-005    9.493e-009     
  0.84            -2.5139e-009    1.10113e-005    1.1242e-008    
  0.87            -1.9053e-009    1.12823e-005    8.91e-010      
  0.9             1.3042e-009     1.1563e-005     1.429e-009     
  0.93            2.8309e-009     1.1822e-005     -8.686e-009    
  0.96            2.4509e-009     1.2092e-005     -3.59e-010     
  0.99            1.768e-009      1.2344e-005     -2.522e-009    
  1.02            1.3549e-009     1.2603e-005     -8.392e-009    
  1.05            2.8308e-009     1.2851e-005     -8.302e-009    
  1.08            2.6305e-009     1.3103e-005     8.4e-011       
  1.11            5.777e-010      1.3344e-005     1.0746e-008    
  1.14            -1.6297e-009    1.3585e-005     1.9185e-008    
  1.17            -1.3851e-009    1.3822e-005     5.732e-009     
  1.2             -2.6957e-009    1.4056e-005     1.0392e-008    
  1.23            1.9912e-009     1.4273e-005     -2.0863e-008   
  1.26            1.433e-009      1.4499e-005     -6.596e-009    
  1.29            2.7949e-009     1.472e-005      -8.191e-009    
  1.32            2.0332e-009     1.4947e-005     1.0213e-008    
  1.35            9.167e-010      1.5163e-005     9.619e-009     
  1.38            1.2859e-009     1.5376e-005     8.834e-009     
  1.41            -1.3128e-009    1.5596e-005     2.5934e-008    
  1.44            -2.4914e-009    1.5811e-005     1.1239e-008    
  1.47            -1.873e-009     1.6009e-005     1.013e-009     
  1.5             -1.4569e-009    1.6216e-005     3.62e-009      
  1.53            -1.343e-009     1.6415e-005     8.569e-009     
  1.56            -2.617e-009     1.6621e-005     1.1677e-008    
  1.59            -2.0913e-009    1.6815e-005     7.22e-010      
  1.62            -1.5459e-009    1.7011e-005     2.525e-009     
  1.65            -1.3686e-009    1.721e-005      6.57e-009      
  1.68            -2.6836e-009    1.7399e-005     1.109e-008     
  1.71            1.876e-009      1.7588e-005     -1.8837e-008   
  1.74            1.3877e-009     1.7778e-005     -7.881e-009    
  1.77            2.8318e-009     1.7963e-005     -8.433e-009    
  1.8             -1.3065e-009    1.8161e-005     2.5554e-008    
  1.83            -2.4567e-009    1.8345e-005     1.1296e-008    
  1.86            -1.8272e-009    1.852e-005      1.157e-009     
  1.89            -1.4435e-009    1.8703e-005     3.988e-009     
  1.92            -1.3356e-009    1.8884e-005     8.888e-009     
  1.95            -2.5928e-009    1.9065e-005     1.1611e-008    
  1.98            -2.0399e-009    1.9233e-005     7.09e-010      
  2.01            -1.5227e-009    1.9413e-005     2.767e-009     
  2.04            -1.3639e-009    1.9589e-005     7.041e-009     
  2.07            -2.6777e-009    1.9757e-005     1.1613e-008    
  2.1             1.835e-009      1.9919e-005     -1.824e-008    
  2.13            1.3742e-009     2.0087e-005     -7.994e-009    
  2.16            2.8309e-009     2.0258e-005     -8.529e-009    
  2.19            2.6615e-009     2.043e-005      5.3e-011       
  2.22            5.473e-010      2.059e-005      1.0611e-008    
  2.25            9.51e-010       2.075e-005      9.504e-009     
  2.28            -2.144e-010     2.0911e-005     1.2092e-008    
  2.31            -1.415e-009     2.108e-005      2.485e-008     
  2.34            -1.3179e-009    2.1239e-005     9.526e-009     
  2.37            -2.5179e-009    2.1399e-005     1.1065e-008    
  2.4             -1.9133e-009    2.155e-005      8.05e-010      
  2.43            -1.4732e-009    2.1707e-005     3.225e-009     
  2.46            -1.3465e-009    2.1863e-005     8.271e-009     
  2.49            -2.6338e-009    2.202e-005      1.1872e-008    
  2.52            -2.1238e-009    2.216e-005      8.35e-010      
  2.55            -1.5718e-009    2.2316e-005     2.346e-009     
  2.58            -1.3777e-009    2.2471e-005     6.172e-009     
  2.61            -2.6888e-009    2.2618e-005     1.1099e-008    
  2.64            1.914e-009      2.2758e-005     -1.9535e-008   
  2.67            1.4079e-009     2.2909e-005     -7.178e-009    
  2.7             1.2493e-009     2.3052e-005     -8.458e-009    
  2.73            2.7139e-009     2.3199e-005     -1.0723e-008   
  2.76            1.3976e-009     2.3336e-005     1.0036e-008    
  2.79            2.863e-010      2.3482e-005     1.0638e-008    
  2.82            7.369e-010      2.3624e-005     1.0028e-008    
  2.85            -1.5019e-009    2.3757e-005     1.5271e-008    
  2.88            -1.3534e-009    2.3901e-005     7.781e-009     
  2.91            -2.649e-009     2.4041e-005     1.175e-008     
  2.94            -2.1757e-009    2.4164e-005     5.33e-010      
  2.97            -1.6001e-009    2.4305e-005     2.252e-009     
  3               -1.3825e-009    2.4439e-005     5.679e-009     
END_DB

BEGIN_DB
 ICCAP_VAR VS         0              
 ICCAP_VAR VB         0              
 ICCAP_VAR VD         3              

 #VG              IG              ID              IB             
  0               -1.08e-011      3.1438e-006     -1.4555e-008   
  0.03            -2.3924e-009    4.0982e-006     7.308e-009     
  0.06            -1.6189e-009    5.1586e-006     -1.6455e-008   
  0.09            -1.9239e-009    6.2744e-006     -1.6384e-008   
  0.12            -9.247e-010     7.5107e-006     -1.7101e-008   
  0.15            -1.2955e-009    8.8561e-006     -1.7534e-008   
  0.18            -1.7113e-009    1.02281e-005    -2.0051e-008   
  0.21            2.6274e-009     1.1666e-005     -2.1138e-008   
  0.24            2.8398e-009     1.3185e-005     -5.006e-009    
  0.27            2.6548e-009     1.4742e-005     -1.1461e-008   
  0.3             2.0138e-009     1.6346e-005     -1.3636e-008   
  0.33            1.4586e-009     1.8028e-005     -1.9541e-008   
  0.36            1.2675e-009     1.9725e-005     -2.205e-008    
  0.39            2.7823e-009     2.1439e-005     -2.4109e-008   
  0.42            2.2493e-009     2.3238e-005     -1.5837e-008   
  0.45            1.5998e-009     2.504e-005      -1.974e-008    
  0.48            1.3083e-009     2.6902e-005     -2.4711e-008   
  0.51            2.8341e-009     2.8742e-005     -2.5262e-008   
  0.54            2.4742e-009     3.067e-005      -1.7527e-008   
  0.57            1.7969e-009     3.2564e-005     -1.9991e-008   
  0.6             1.3679e-009     3.4482e-005     -2.6174e-008   
  0.63            1.2389e-009     3.6476e-005     -2.6549e-008   
  0.66            2.669e-009      3.8439e-005     -3.0126e-008   
  0.69            2.0231e-009     4.0464e-005     -1.9953e-008   
  0.72            1.4639e-009     4.2449e-005     -2.473e-008    
  0.75            1.2708e-009     4.4529e-005     -2.7196e-008   
  0.78            2.7887e-009     4.6553e-005     -2.8884e-008   
  0.81            2.2617e-009     4.8645e-005     -1.9785e-008   
  0.84            1.6126e-009     5.0712e-005     -2.291e-008    
  0.87            1.3081e-009     5.2779e-005     -2.7503e-008   
  0.9             2.8358e-009     5.4904e-005     -2.7564e-008   
  0.93            2.4825e-009     5.7075e-005     -1.9228e-008   
  0.96            1.8176e-009     5.9172e-005     -2.1158e-008   
  0.99            1.3715e-009     6.1302e-005     -2.6836e-008   
  1.02            2.8359e-009     6.3498e-005     -2.6796e-008   
  1.05            2.6718e-009     6.5684e-005     -1.8373e-008   
  1.08            2.0456e-009     6.7837e-005     -1.9377e-008   
  1.11            1.4752e-009     6.9983e-005     -2.3925e-008   
  1.14            2.7832e-009     7.2154e-005     -2.5808e-008   
  1.17            2.7852e-009     7.4394e-005     -1.6793e-008   
  1.2             2.2804e-009     7.6626e-005     -1.7805e-008   
  1.23            1.6199e-009     7.8821e-005     -2.0632e-008   
  1.26            1.311e-009      8.1012e-005     -2.5107e-008   
  1.29            2.8395e-009     8.3203e-005     -2.4824e-008   
  1.32            2.5032e-009     8.5544e-005     -1.6426e-008   
  1.35            1.8274e-009     8.7703e-005     -1.8039e-008   
  1.38            1.3753e-009     8.9927e-005     -2.3258e-008   
  1.41            1.2414e-009     9.2214e-005     -2.3467e-008   
  1.44            2.6917e-009     9.4502e-005     -2.6289e-008   
  1.47            2.0554e-009     9.6739e-005     -1.5619e-008   
  1.5             1.4779e-009     9.9048e-005     -1.9793e-008   
  1.53            1.2735e-009     0.000101224     -2.2075e-008   
  1.56            2.7967e-009     0.000103535     -2.3073e-008   
  1.59            2.2972e-009     0.000105906     -1.3703e-008   
  1.62            1.6381e-009     0.000108186     -1.6554e-008   
  1.65            1.3154e-009     0.000110377     -2.0944e-008   
  1.68            2.8394e-009     0.000112645     -2.0838e-008   
  1.71            2.0597e-009     0.00011503      -1.1862e-008   
  1.74            1.4685e-009     0.00011737      -1.7407e-008   
  1.77            1.2715e-009     0.00011965      -1.948e-008    
  1.8             2.7964e-009     0.00012191      -2.071e-008    
  1.83            2.2702e-009     0.00012418      -1.1257e-008   
  1.86            1.6259e-009     0.00012661      -1.4211e-008   
  1.89            1.3107e-009     0.0001288       -1.8578e-008   
  1.92            2.8428e-009     0.0001311       -1.8363e-008   
  1.95            2.5007e-009     0.00013349      -9.895e-009    
  1.98            1.8219e-009     0.00013578      -1.1583e-008   
  2.01            1.3738e-009     0.00013812      -1.6835e-008   
  2.04            1.242e-009      0.00014041      -1.7157e-008   
  2.07            2.6853e-009     0.0001427       -1.996e-008    
  2.1             2.0484e-009     0.00014508      -9.375e-009    
  2.13            1.4821e-009     0.00014743      -1.3702e-008   
  2.16            1.2724e-009     0.00014974      -1.5948e-008   
  2.19            2.7979e-009     0.0001521       -1.6926e-008   
  2.22            2.2981e-009     0.00015439      -7.864e-009    
  2.25            1.6306e-009     0.00015668      -1.0706e-008   
  2.28            1.3142e-009     0.00015903      -1.5392e-008   
  2.31            2.8425e-009     0.00016141      -1.5332e-008   
  2.34            2.5218e-009     0.00016369      -6.784e-009    
  2.37            1.8367e-009     0.00016601      -8.43e-009     
  2.4             1.3828e-009     0.00016836      -1.3873e-008   
  2.43            2.8234e-009     0.00017067      -1.4165e-008   
  2.46            2.6908e-009     0.00017305      -5.499e-009    
  2.49            2.0818e-009     0.00017533      -6.575e-009    
  2.52            1.4904e-009     0.00017763      -1.112e-008    
  2.55            1.2768e-009     0.00017998      -1.3374e-008   
  2.58            2.8035e-009     0.00018229      -1.4382e-008   
  2.61            2.3213e-009     0.00018464      -5.453e-009    
  2.64            1.6414e-009     0.00018696      -8.253e-009    
  2.67            1.3212e-009     0.00018923      -1.3092e-008   
  2.7             2.8359e-009     0.00019159      -1.2861e-008   
  2.73            2.5346e-009     0.00019395      -4.656e-009    
  2.76            1.8562e-009     0.00019625      -6.26e-009     
  2.79            1.3888e-009     0.00019854      -1.1622e-008   
  2.82            2.8222e-009     0.00020088      -1.2087e-008   
  2.85            2.7075e-009     0.0002033       -3.493e-009    
  2.88            -2.6631e-009    0.00020561      7.962e-009     
  2.91            -1.3075e-009    0.00020792      -1.2947e-008   
  2.94            -1.7177e-009    0.0002102       -1.4587e-008   
  2.97            -1.9925e-009    0.00021248      -1.2816e-008   
  3               -1.0117e-009    0.00021484      -1.3077e-008   
END_DB

BEGIN_DB
 ICCAP_VAR VS         0              
 ICCAP_VAR VB         -1.5           
 ICCAP_VAR VD         0.1            

 #VG              IG              ID              IB             
  0               -1.0824e-009    9.489e-010      -1.5491e-008   
  0.03            -1.6196e-009    5.6002e-009     2.291e-008     
  0.06            2.8359e-009     1.1943e-008     1.013e-008     
  0.09            2.4818e-009     2.5753e-008     -2.83e-010     
  0.12            7.064e-010      5.626e-008      1.0324e-008    
  0.15            -2.208e-010     1.1108e-007     1.063e-008     
  0.18            -7.294e-010     2.2049e-007     -1.1039e-008   
  0.21            1.5935e-009     4.0151e-007     -1.4443e-008   
  0.24            1.2964e-009     6.6e-007        -8.426e-009    
  0.27            2.8386e-009     9.9914e-007     -8.556e-009    
  0.3             2.0134e-009     1.4108e-006     1.1429e-008    
  0.33            8.975e-010      1.8761e-006     9.762e-009     
  0.36            1.2647e-009     2.3376e-006     8.838e-009     
  0.39            -1.3194e-009    2.8535e-006     2.6538e-008    
  0.42            -2.5237e-009    3.3322e-006     1.1432e-008    
  0.45            -1.9172e-009    3.7913e-006     7.53e-010      
  0.48            -1.4648e-009    4.2591e-006     3.403e-009     
  0.51            -1.3472e-009    4.699e-006      7.997e-009     
  0.54            -2.6388e-009    5.1231e-006     1.1706e-008    
  0.57            -2.1421e-009    5.5215e-006     6.92e-010      
  0.6             -1.5688e-009    5.9161e-006     2.426e-009     
  0.63            -1.3759e-009    6.308e-006      5.899e-009     
  0.66            -2.696e-009     6.6748e-006     1.061e-008     
  0.69            1.9443e-009     7.0054e-006     -1.9945e-008   
  0.72            1.4157e-009     7.3503e-006     -7.296e-009    
  0.75            2.8104e-009     7.6892e-006     -8.356e-009    
  0.78            2.0559e-009     8.0187e-006     1.0225e-008    
  0.81            9.295e-010      8.3337e-006     9.569e-009     
  0.84            -1.3966e-009    8.6511e-006     2.5636e-008    
  0.87            -1.3052e-009    8.9498e-006     9.944e-009     
  0.9             -2.4795e-009    9.2517e-006     1.1392e-008    
  0.93            -1.8483e-009    9.5307e-006     1.199e-009     
  0.96            -1.4437e-009    9.8131e-006     3.828e-009     
  0.99            -1.3374e-009    1.0089e-005     8.642e-009     
  1.02            -2.6145e-009    1.03665e-005    1.1686e-008    
  1.05            -2.087e-009     1.06229e-005    6.17e-010      
  1.08            -1.5422e-009    1.08821e-005    2.585e-009     
  1.11            -1.3686e-009    1.11475e-005    6.529e-009     
  1.14            -2.6823e-009    1.13904e-005    1.119e-008     
  1.17            2.8102e-009     1.1637e-005     -1.0874e-008   
  1.2             2.042e-009      1.1877e-005     1.016e-008     
  1.23            9.201e-010      1.2118e-005     9.663e-009     
  1.26            -1.4018e-009    1.2352e-005     1.2247e-008    
  1.29            -1.3112e-009    1.2591e-005     9.724e-009     
  1.32            -2.4987e-009    1.2822e-005     1.1224e-008    
  1.35            -1.8739e-009    1.3041e-005     1.004e-009     
  1.38            -1.4512e-009    1.3267e-005     3.711e-009     
  1.41            -1.3421e-009    1.3484e-005     8.393e-009     
  1.44            -2.6283e-009    1.3709e-005     1.1719e-008    
  1.47            -2.1081e-009    1.3916e-005     6.86e-010      
  1.5             -1.5534e-009    1.4125e-005     2.461e-009     
  1.53            -1.371e-009     1.4339e-005     6.315e-009     
  1.56            -2.6892e-009    1.4543e-005     1.1045e-008    
  1.59            1.9021e-009     1.4745e-005     -1.938e-008    
  1.62            1.3996e-009     1.4949e-005     -7.312e-009    
  1.65            1.2524e-009     1.5142e-005     -8.375e-009    
  1.68            2.7332e-009     1.5344e-005     -1.0916e-008   
  1.71            1.3947e-009     1.5541e-005     1.0153e-008    
  1.74            2.871e-010      1.5746e-005     1.0822e-008    
  1.77            7.25e-010       1.5931e-005     1.0198e-008    
  1.8             -1.5003e-009    1.6119e-005     1.5469e-008    
  1.83            -1.355e-009     1.6312e-005     7.403e-009     
  1.86            -2.6644e-009    1.6502e-005     1.1638e-008    
  1.89            -3.46e-010      1.6678e-005     -1.1384e-008   
  1.92            -8.143e-010     1.6859e-005     -1.0916e-008   
  1.95            -1.177e-009     1.7044e-005     -9.211e-009    
  1.98            5.51e-011       1.7212e-005     -1.1349e-008   
  2.01            1.2958e-009     1.7398e-005     -2.6e-008      
  2.04            2.8253e-009     1.757e-005      -8.806e-009    
  2.07            -1.7325e-009    1.7755e-005     2.1889e-008    
  2.1             -1.3992e-009    1.7926e-005     4.451e-009     
  2.13            -1.3182e-009    1.8104e-005     9.184e-009     
  2.16            -2.5377e-009    1.827e-005      1.1246e-008    
  2.19            -1.9437e-009    1.8436e-005     6.43e-010      
  2.22            -1.4697e-009    1.8602e-005     3.553e-009     
  2.25            -1.343e-009     1.8769e-005     7.861e-009     
  2.28            -2.6412e-009    1.8939e-005     1.14e-008      
  2.31            -2.1956e-009    1.9095e-005     5.08e-010      
  2.34            -1.5996e-009    1.9257e-005     2.487e-009     
  2.37            -1.3696e-009    1.9419e-005     5.945e-009     
  2.4             -1.2913e-009    1.9583e-005     1.0404e-008    
  2.43            -2.4297e-009    1.9743e-005     1.1775e-008    
  2.46            -1.799e-009     1.989e-005      1.465e-009     
  2.49            -1.4151e-009    2.005e-005      4.168e-009     
