! VERSION = 6.00
BEGIN_HEADER
 ICCAP_INPUTS
  VG         V  B GROUND SMU4 0.001 LIN        1    0          3          101  0.03      
  VS         V  E GROUND SMU2 0.1 CON        0
  VB         V  C GROUND SMU3 0.1 LIN        3    0          -3         3    -1.5      
  VD         V  S GROUND SMU1 0.1 LIN        2    0.1        3          2    2.9       
 ICCAP_OUTPUTS
  IG         I  B GROUND SMU4 B
  ID         I  S GROUND SMU1 B
  IB         I  C GROUND SMU3 B
END_HEADER

BEGIN_DB
 ICCAP_VAR VS         0              
 ICCAP_VAR VB         0              
 ICCAP_VAR VD         0.1            

 #VG              IG              ID              IB             
  0               -1.3694e-009    4.2116e-007     2.7131e-008    
  0.03            -1.292e-009     6.8703e-007     9.873e-009     
  0.06            -2.4481e-009    1.03044e-006    1.1426e-008    
  0.09            -2.0631e-009    1.4176e-006     -1.3952e-008   
  0.12            1.234e-009      1.8577e-006     -2.5247e-008   
  0.15            2.6942e-009     2.3314e-006     -1.0963e-008   
  0.18            5.151e-010      2.8489e-006     1.0556e-008    
  0.21            -1.6764e-009    3.3625e-006     1.7633e-008    
  0.24            -1.369e-009     3.8479e-006     5.116e-009     
  0.27            -1.2915e-009    4.3329e-006     9.705e-009     
  0.3             -2.4521e-009    4.7979e-006     1.1191e-008    
  0.33            -1.8315e-009    5.2519e-006     1.16e-009      
  0.36            -1.4111e-009    5.6874e-006     4.322e-009     
  0.39            -1.3113e-009    6.107e-006      8.891e-009     
  0.42            -2.5555e-009    6.5164e-006     1.1167e-008    
  0.45            -2.0145e-009    6.897e-006      4.86e-010      
  0.48            -1.4861e-009    7.2844e-006     3.274e-009     
  0.51            -1.3334e-009    7.6539e-006     7.471e-009     
  0.54            -2.6298e-009    8.0053e-006     1.121e-008     
  0.57            -1.3282e-009    8.3516e-006     -9.35e-009     
  0.6             2.2729e-009     8.6705e-006     -2.4766e-008   
  0.63            1.5622e-009     9.0053e-006     -4.47e-009     
  0.66            1.2739e-009     9.3184e-006     -8.506e-009    
  0.69            2.7994e-009     9.6235e-006     -8.628e-009    
  0.72            -1.7141e-009    9.9425e-006     2.2064e-008    
  0.75            -1.3783e-009    1.02379e-005    5.089e-009     
  0.78            -1.2956e-009    1.05281e-005    9.403e-009     
  0.81            -2.4775e-009    1.08107e-005    1.1091e-008    
  0.84            -1.8614e-009    1.10778e-005    9.21e-010      
  0.87            -1.422e-009     1.1349e-005     3.89e-009      
  0.9             1.8941e-009     1.1612e-005     4.915e-009     
  0.93            1.36e-009       1.1873e-005     -7.758e-009    
  0.96            1.2324e-009     1.2127e-005     -8.224e-009    
  0.99            2.6868e-009     1.2378e-005     -1.1089e-008   
  1.02            5.231e-010      1.264e-005      1.0432e-008    
  1.05            -1.6654e-009    1.2886e-005     2.1155e-008    
  1.08            -1.367e-009     1.3118e-005     5.387e-009     
  1.11            -1.2901e-009    1.3357e-005     9.925e-009     
  1.14            -2.4347e-009    1.3593e-005     1.1175e-008    
  1.17            -1.8168e-009    1.3819e-005     1.199e-009     
  1.2             -1.4048e-009    1.4045e-005     4.269e-009     
  1.23            -1.3108e-009    1.4271e-005     8.933e-009     
  1.26            -2.552e-009     1.4491e-005     1.1182e-008    
  1.29            -1.9866e-009    1.4703e-005     6.13e-010      
  1.32            -1.4719e-009    1.4922e-005     3.34e-009      
  1.35            -1.3327e-009    1.5138e-005     7.557e-009     
  1.38            -2.6241e-009    1.5352e-005     1.1272e-008    
  1.41            -1.3362e-009    1.5556e-005     -9.3e-009      
  1.44            -1.529e-010     1.5759e-005     -1.1319e-008   
  1.47            -6.755e-010     1.5962e-005     -1.1196e-008   
  1.5             1.6344e-009     1.6157e-005     -1.5483e-008   
  1.53            1.2911e-009     1.6361e-005     -8.603e-009    
  1.56            2.8133e-009     1.6554e-005     -8.362e-009    
  1.59            2.4704e-009     1.676e-005      -2e-010        
  1.62            1.7879e-009     1.6951e-005     -2.347e-009    
  1.65            1.3412e-009     1.714e-005      -8.285e-009    
  1.68            2.8129e-009     1.7326e-005     -8.374e-009    
  1.71            2.6155e-009     1.7524e-005     1.1e-010       
  1.74            5.723e-010      1.7708e-005     1.0451e-008    
  1.77            -1.6041e-009    1.7892e-005     1.9181e-008    
  1.8             -1.3618e-009    1.8073e-005     5.742e-009     
  1.83            -1.2766e-009    1.8252e-005     1.0618e-008    
  1.86            -2.3654e-009    1.844e-005      1.1501e-008    
  1.89            -1.7287e-009    1.861e-005      1.519e-009     
  1.92            -1.3939e-009    1.879e-005      4.624e-009     
  1.95            -1.302e-009     1.8967e-005     9.355e-009     
  1.98            -2.4959e-009    1.9142e-005     1.1043e-008    
  2.01            -1.8972e-009    1.9309e-005     6.8e-010       
  2.04            -1.4478e-009    1.9479e-005     3.559e-009     
  2.07            -1.3286e-009    1.9653e-005     8.159e-009     
  2.1             -2.5978e-009    1.9824e-005     1.1405e-008    
  2.13            -2.0855e-009    1.9983e-005     5.91e-010      
  2.16            -1.5294e-009    2.0153e-005     2.666e-009     
  2.19            -1.3492e-009    2.0321e-005     6.792e-009     
  2.22            -2.6488e-009    2.0483e-005     1.1252e-008    
  2.25            1.8303e-009     2.0638e-005     -1.8829e-008   
  2.28            1.3554e-009     2.0804e-005     -8.201e-009    
  2.31            2.8146e-009     2.096e-005      -8.447e-009    
  2.34            2.6359e-009     2.1123e-005     1.14e-010      
  2.37            5.577e-010      2.1282e-005     1.0577e-008    
  2.4             -1.6246e-009    2.1436e-005     1.9787e-008    
  2.43            -1.3657e-009    2.159e-005      5.66e-009      
  2.46            -1.2813e-009    2.1742e-005     1.0443e-008    
  2.49            -2.3856e-009    2.1892e-005     1.1492e-008    
  2.52            -1.753e-009     2.2032e-005     1.505e-009     
  2.55            -1.3975e-009    2.2186e-005     4.669e-009     
  2.58            -1.3062e-009    2.2339e-005     9.25e-009      
  2.61            -2.5207e-009    2.2488e-005     1.1254e-008    
  2.64            -1.9225e-009    2.2626e-005     5.95e-010      
  2.67            -1.4528e-009    2.277e-005      3.235e-009     
  2.7             -1.3286e-009    2.2921e-005     7.972e-009     
  2.73            -2.6047e-009    2.3068e-005     1.1524e-008    
  2.76            -2.1086e-009    2.3199e-005     4.19e-010      
  2.79            -1.54e-009      2.3341e-005     2.673e-009     
  2.82            -1.3494e-009    2.3486e-005     6.485e-009     
  2.85            -2.656e-009     2.3623e-005     1.1066e-008    
  2.88            1.8585e-009     2.3755e-005     -1.9046e-008   
  2.91            1.3614e-009     2.3893e-005     -8.008e-009    
  2.94            2.8133e-009     2.4026e-005     -8.467e-009    
  2.97            2.643e-009      2.4164e-005     2.13e-010      
  3               5.419e-010      2.4297e-005     1.0453e-008    
END_DB

BEGIN_DB
 ICCAP_VAR VS         0              
 ICCAP_VAR VB         0              
 ICCAP_VAR VD         3              

 #VG              IG              ID              IB             
  0               1.252e-009      3.5212e-006     7.903e-009     
  0.03            2.7571e-009     4.4623e-006     -1.2973e-008   
  0.06            2.2874e-009     5.582e-006      -4.938e-009    
  0.09            1.6178e-009     6.7657e-006     -9.511e-009    
  0.12            1.2854e-009     8.0226e-006     -1.4839e-008   
  0.15            2.7977e-009     9.3427e-006     -1.5371e-008   
  0.18            2.4776e-009     1.07972e-005    -7.987e-009    
  0.21            2.94e-011       1.2277e-005     2.49e-009      
  0.24            -4.945e-010     1.3815e-005     -2.0562e-008   
  0.27            -9.149e-010     1.5417e-005     -2.0971e-008   
  0.3             -1.3082e-009    1.7082e-005     -2.0161e-008   
  0.33            -1.7127e-009    1.8777e-005     -2.2194e-008   
  0.36            -1.984e-009     2.0435e-005     -2.2477e-008   
  0.39            -2.3293e-009    2.2186e-005     -2.1781e-008   
  0.42            -2.6271e-009    2.3959e-005     -2.1334e-008   
  0.45            -1.797e-009     2.5788e-005     -2.4969e-008   
  0.48            -2.0597e-009    2.7624e-005     -2.3813e-008   
  0.51            -2.4303e-009    2.9488e-005     -2.3026e-008   
  0.54            -2.6605e-009    3.1374e-005     -2.2134e-008   
  0.57            -2.6354e-009    3.3276e-005     -1.807e-008    
  0.6             -2.1517e-009    3.5197e-005     -2.4878e-008   
  0.63            -2.5168e-009    3.7199e-005     -2.4167e-008   
  0.66            -2.6827e-009    3.9173e-005     -2.2593e-008   
  0.69            -2.5806e-009    4.1142e-005     -1.7598e-008   
  0.72            -2.2462e-009    4.3159e-005     -2.5599e-008   
  0.75            -2.5852e-009    4.5225e-005     -2.4291e-008   
  0.78            -2.6834e-009    4.7262e-005     -2.1741e-008   
  0.81            -2.4947e-009    4.9307e-005     -1.6855e-008   
  0.84            -2.3474e-009    5.1367e-005     -2.5442e-008   
  0.87            -2.6272e-009    5.3453e-005     -2.4218e-008   
  0.9             -2.6709e-009    5.5585e-005     -2.0364e-008   
  0.93            -2.3812e-009    5.7698e-005     -1.6055e-008   
  0.96            -2.4463e-009    5.981e-005      -2.4386e-008   
  0.99            -2.6646e-009    6.1921e-005     -2.2978e-008   
  1.02            -2.6323e-009    6.411e-005      -1.8329e-008   
  1.05            -2.1677e-009    6.6257e-005     -2.511e-008    
  1.08            -2.5322e-009    6.8406e-005     -2.3688e-008   
  1.11            -2.6809e-009    7.0581e-005     -2.1474e-008   
  1.14            -2.5727e-009    7.2738e-005     -1.634e-008    
  1.17            -2.2617e-009    7.498e-005      -2.4143e-008   
  1.2             -2.5916e-009    7.7164e-005     -2.2605e-008   
  1.23            -2.682e-009     7.9355e-005     -1.9387e-008   
  1.26            -2.0075e-009    8.1558e-005     -2.3637e-008   
  1.29            -2.3635e-009    8.3746e-005     -2.2437e-008   
  1.32            -2.6362e-009    8.6041e-005     -2.1174e-008   
  1.35            -1.82e-009      8.8282e-005     -2.4384e-008   
  1.38            -2.0908e-009    9.0483e-005     -2.2457e-008   
  1.41            -2.4563e-009    9.27e-005       -2.1182e-008   
  1.44            -2.6669e-009    9.4993e-005     -1.9122e-008   
  1.47            -1.8855e-009    9.7249e-005     -2.2737e-008   
  1.5             -2.179e-009     9.9482e-005     -2.1061e-008   
  1.53            -2.5383e-009    0.000101715     -1.9815e-008   
  1.56            -2.6859e-009    0.000103992     -1.7497e-008   
  1.59            -1.9514e-009    0.000106275     -2.1395e-008   
  1.62            -2.2807e-009    0.000108551     -2.0124e-008   
  1.65            -1.364e-009     0.000110887     -1.9755e-008   
  1.68            -1.7581e-009    0.000113131     -2.1282e-008   
  1.71            -2.6673e-009    0.00011542      -1.9303e-008   
  1.74            -2.1116e-009    0.00011768      -1.9231e-008   
  1.77            -1.1651e-009    0.00012001      -1.8661e-008   
  1.8             -1.5873e-009    0.0001223       -2.0348e-008   
  1.83            -1.9015e-009    0.00012452      -1.9366e-008   
  1.86            -2.1973e-009    0.00012686      -1.7803e-008   
  1.89            -1.2722e-009    0.00012922      -1.7826e-008   
  1.92            -1.68e-009      0.00013149      -1.9483e-008   
  1.95            -1.9589e-009    0.00013373      -1.758e-008    
  1.98            -9.788e-010     0.00013602      -1.8135e-008   
  2.01            -1.3791e-009    0.00013844      -1.6974e-008   
  2.04            -1.7652e-009    0.00014069      -1.8216e-008   
  2.07            -2.0314e-009    0.00014293      -1.7218e-008   
  2.1             -1.0711e-009    0.0001453       -1.6684e-008   
  2.13            -1.4797e-009    0.00014769      -1.7305e-008   
  2.16            -1.8414e-009    0.00014994      -1.7343e-008   
  2.19            -2.1094e-009    0.00015219      -1.566e-008    
  2.22            -1.1664e-009    0.00015457      -1.5293e-008   
  2.25            -1.5838e-009    0.00015686      -1.6899e-008   
  2.28            -1.8979e-009    0.00015919      -1.6054e-008   
  2.31            -8.9e-010       0.00016147      -1.6038e-008   
  2.34            -1.2639e-009    0.00016384      -1.4704e-008   
  2.37            -1.6817e-009    0.00016613      -1.6415e-008   
  2.4             -1.9591e-009    0.00016843      -1.4725e-008   
  2.43            -9.79e-010      0.00017076      -1.4967e-008   
  2.46            -1.3716e-009    0.00017309      -1.4755e-008   
  2.49            -1.7618e-009    0.00017537      -1.5823e-008   
  2.52            -2.0277e-009    0.0001776       -1.3858e-008   
  2.55            -1.0712e-009    0.00018001      -1.3856e-008   
  2.58            -1.4798e-009    0.00018234      -1.4902e-008   
  2.61            -1.8377e-009    0.0001846       -1.4792e-008   
  2.64            -8.034e-010     0.00018686      -1.4687e-008   
  2.67            -1.1597e-009    0.00018922      -1.2978e-008   
  2.7             -1.5885e-009    0.00019158      -1.4852e-008   
  2.73            -1.8985e-009    0.00019382      -1.3951e-008   
  2.76            -8.866e-010     0.0001961       -1.3898e-008   
  2.79            -1.2652e-009    0.00019845      -1.2722e-008   
  2.82            -1.6773e-009    0.00020079      -1.4402e-008   
  2.85            -1.9586e-009    0.00020299      -1.2772e-008   
  2.88            -9.758e-010     0.0002053       -1.3471e-008   
  2.91            -1.3733e-009    0.00020765      -1.2338e-008   
  2.94            -1.824e-010     0.0002098       -1.4169e-008   
  2.97            -6.948e-010     0.00021219      -1.4047e-008   
  3               -1.0623e-009    0.00021451      -1.2551e-008   
END_DB

BEGIN_DB
 ICCAP_VAR VS         0              
 ICCAP_VAR VB         -1.5           
 ICCAP_VAR VD         0.1            

 #VG              IG              ID              IB             
  0               1.035e-010      4.3266e-009     9.195e-009     
  0.03            2.984e-010      1.01659e-008    1.0583e-008    
  0.06            -1.7992e-009    1.8024e-008     -1.5906e-008   
  0.09            -1.4132e-009    4.2396e-008     4.284e-009     
  0.12            -1.3175e-009    9.2335e-008     8.904e-009     
  0.15            8.568e-010      1.8433e-007     -1.52e-008     
  0.18            1.2143e-009     3.3589e-007     8.844e-009     
  0.21            -1.3136e-009    5.9328e-007     2.7057e-008    
  0.24            -2.539e-009     9.1585e-007     1.1193e-008    
  0.27            -2.0712e-009    1.2866e-006     -1.411e-008    
  0.3             1.2369e-009     1.7153e-006     -2.499e-008    
  0.33            2.6986e-009     2.1836e-006     -1.0966e-008   
  0.36            4.996e-010      2.6818e-006     1.0424e-008    
  0.39            9.031e-010      3.1425e-006     9.92e-009      
  0.42            1.2679e-009     3.5925e-006     8.795e-009     
  0.45            -1.3027e-009    4.0662e-006     2.6388e-008    
  0.48            -2.4887e-009    4.5091e-006     1.0987e-008    
  0.51            -1.8947e-009    4.9193e-006     7.38e-010      
  0.54            -1.4479e-009    5.321e-006      3.744e-009     
  0.57            -1.3288e-009    5.7129e-006     8.345e-009     
  0.6             -2.61e-009      6.0873e-006     1.1272e-008    
  0.63            -2.1199e-009    6.4527e-006     4.57e-010      
  0.66            -1.5514e-009    6.8046e-006     2.541e-009     
  0.69            -1.3557e-009    7.1463e-006     6.299e-009     
  0.72            -1.2736e-009    7.4761e-006     1.0868e-008    
  0.75            -2.35e-009      7.8062e-006     1.1914e-008    
  0.78            -1.718e-009     8.1098e-006     1.654e-009     
  0.81            -1.3947e-009    8.4149e-006     4.85e-009      
  0.84            -1.3076e-009    8.7128e-006     9.421e-009     
  0.87            -2.5144e-009    9.0046e-006     1.1142e-008    
  0.9             -1.9301e-009    9.2862e-006     6.99e-010      
  0.93            -1.4629e-009    9.5657e-006     3.428e-009     
  0.96            -1.3349e-009    9.8385e-006     7.914e-009     
  0.99            -2.6238e-009    1.01079e-005    1.1456e-008    
  1.02            -2.1765e-009    1.03678e-005    4.28e-010      
  1.05            -1.5976e-009    1.06238e-005    2.364e-009     
  1.08            -1.3611e-009    1.08769e-005    5.933e-009     
  1.11            -1.2832e-009    1.11238e-005    1.0239e-008    
  1.14            -2.4038e-009    1.13717e-005    1.1555e-008    
  1.17            1.7219e-009     1.1603e-005     -1.9491e-008   
  1.2             6.333e-010      1.1846e-005     1.0716e-008    
  1.23            1.0025e-009     1.2073e-005     9.415e-009     
  1.26            -1.394e-010     1.2298e-005     1.1037e-008    
  1.29            -1.3696e-009    1.2536e-005     2.5128e-008    
  1.32            -2.6772e-009    1.2759e-005     1.0201e-008    
  1.35            2.0519e-009     1.2971e-005     -2.2148e-008   
  1.38            1.4335e-009     1.3191e-005     -6.401e-009    
  1.41            1.2487e-009     1.3402e-005     -8.135e-009    
  1.44            2.7554e-009     1.3618e-005     -9.426e-009    
  1.47            4.054e-010      1.3835e-005     1.033e-008     
  1.5             -1.839e-009     1.4041e-005     1.6117e-008    
  1.53            -1.4139e-009    1.4241e-005     4.376e-009     
  1.56            -1.3181e-009    1.4445e-005     8.827e-009     
  1.59            -2.5686e-009    1.4652e-005     1.1114e-008    
  1.62            -2.0401e-009    1.484e-005      3.78e-010      
  1.65            -1.5043e-009    1.5039e-005     2.878e-009     
  1.68            -1.3397e-009    1.5232e-005     7.157e-009     
  1.71            -2.6428e-009    1.5429e-005     1.1051e-008    
  1.74            1.8335e-009     1.5612e-005     -1.9104e-008   
  1.77            1.3445e-009     1.5803e-005     -8.259e-009    
  1.8             2.8111e-009     1.5987e-005     -8.327e-009    
  1.83            -1.8121e-009    1.6181e-005     1.6231e-008    
  1.86            -1.4076e-009    1.6359e-005     4.513e-009     
  1.89            -1.312e-009     1.6544e-005     8.999e-009     
  1.92            -2.5531e-009    1.6725e-005     1.0919e-008    
  1.95            -2.0264e-009    1.6896e-005     5.11e-010      
  1.98            -1.5076e-009    1.7073e-005     3.192e-009     
  2.01            -1.3369e-009    1.7254e-005     7.4e-009       
  2.04            -2.6411e-009    1.7431e-005     1.1327e-008    
  2.07            1.8324e-009     1.7591e-005     -1.8907e-008   
  2.1             1.3433e-009     1.7767e-005     -8.346e-009    
  2.13            2.8084e-009     1.794e-005      -8.215e-009    
  2.16            2.6414e-009     1.811e-005      2.81e-010      
  2.19            5.469e-010      1.8278e-005     1.0604e-008    
  2.22            9.418e-010      1.8441e-005     9.689e-009     
  2.25            -2.06e-010      1.8599e-005     1.1869e-008    
  2.28            -1.3996e-009    1.8771e-005     2.3798e-008    
  2.31            -1.3003e-009    1.8929e-005     9.51e-009      
  2.34            -2.5027e-009    1.9092e-005     1.1e-008       
  2.37            -1.9454e-009    1.9241e-005     5.03e-010      
  2.4             -1.4634e-009    1.9405e-005     3.477e-009     
  2.43            -1.3282e-009    1.9563e-005     8.118e-009     
  2.46            -2.6084e-009    1.9718e-005     1.1163e-008    
  2.49            -2.165e-009     1.9864e-005     3.61e-010      
