! VERSION = 6.00
BEGIN_HEADER
 ICCAP_INPUTS
  VG         V  B GROUND SMU4 0.001 LIN        2    0          3          6    0.6       
  VS         V  E GROUND SMU3 0.1 CON        0
  VD         V  S GROUND SMU2 0.1 LIN        1    0          3          61   0.05      
  VB         V  C GROUND SMU1 0.1 LIN        3    0          -1.5       2    -1.5      
 ICCAP_OUTPUTS
  ID         I  S GROUND SMU2 B
  IB         I  C GROUND SMU1 B
  IG         I  B GROUND SMU4 B
END_HEADER

BEGIN_DB
 ICCAP_VAR VG         0              
 ICCAP_VAR VS         0              
 ICCAP_VAR VB         0              

 #VD              ID              IB              IG             
  0               2.9462e-007     -9.583e-009     7.825e-010     
  0.05            2.1466e-005     -7.977e-009     -1.4443e-009   
  0.1             3.1132e-005     1.8944e-008     -1.3204e-009   
  0.15            3.7533e-005     1.0757e-008     -2.4731e-009   
  0.2             4.311e-005      1.1648e-008     -2.3478e-009   
  0.25            4.8465e-005     1.6332e-008     -1.4596e-009   
  0.3             5.3836e-005     1.89e-008       -1.3263e-009   
  0.35            5.9242e-005     1.064e-008      -2.4807e-009   
  0.4             6.464e-005      1.1673e-008     -2.3617e-009   
  0.45            7.0044e-005     1.6685e-008     -1.4826e-009   
  0.5             7.5599e-005     1.8664e-008     -1.338e-009    
  0.55            8.1188e-005     1.0582e-008     -2.4922e-009   
  0.6             8.6786e-005     1.1439e-008     -2.378e-009    
  0.65            9.2381e-005     1.7064e-008     -1.4975e-009   
  0.7             9.8139e-005     1.8483e-008     -1.3468e-009   
  0.75            0.000103952     1.0491e-008     -2.5017e-009   
  0.8             0.000109718     1.145e-008      -2.3889e-009   
  0.85            0.00011504      1.2646e-008     6.46e-011      
  0.9             0.00011908      -1.2383e-008    2.5544e-009    
  0.95            0.00012511      -1.188e-008     2.6909e-009    
  1               0.00013074      -1.3088e-008    2.499e-009     
  1.05            0.00013701      -1.5965e-008    2.1132e-009    
  1.1             0.00014279      -1.7077e-008    1.6123e-009    
  1.15            0.00014861      -1.9042e-008    2.7016e-009    
  1.2             0.00015432      -1.3087e-008    2.5141e-009    
  1.25            0.00016057      -1.5858e-008    2.1375e-009    
  1.3             0.00016645      -1.6817e-008    1.6377e-009    
  1.35            0.00017235      -1.891e-008     2.7074e-009    
  1.4             0.00017807      -1.279e-008     2.526e-009     
  1.45            0.00018457      -1.136e-008     2.6836e-009    
  1.5             0.00019082      -1.6459e-008    1.6745e-009    
  1.55            0.00019618      -1.8848e-008    2.7145e-009    
  1.6             0.00020268      -1.8606e-008    1.7993e-009    
  1.65            0.00020812      -1.8469e-008    2.7298e-009    
  1.7             0.00021445      -2.0543e-008    1.9155e-009    
  1.75            0.00022         -1.8397e-008    1.454e-009     
  1.8             0.00022577      -2.1602e-008    2.6502e-009    
  1.85            0.00023218      -1.6608e-008    1.5571e-009    
  1.9             0.00023765      -2.2256e-008    2.6875e-009    
  1.95            0.0002443       -2.0365e-008    1.6773e-009    
  2               0.00025037      -1.4394e-008    -2.43e-010     
  2.05            0.00025699      -1.4921e-008    -2.0707e-009   
  2.1             0.00026473      4.571e-009      -2.0421e-009   
  2.15            0.00027049      4.321e-009      -1.6224e-009   
  2.2             0.00027491      -1.7859e-008    -2.5896e-009   
  2.25            0.00028266      4.749e-009      -1.9184e-009   
  2.3             0.00028757      -1.6934e-008    1.18e-011      
  2.35            0.00029179      -3.0906e-008    2.6964e-009    
  2.4             0.00029721      -5.6037e-008    1.7365e-009    
  2.45            0.00030272      -5.6488e-008    -2.106e-010    
  2.5             0.00031003      -5.7909e-008    -2.3914e-009   
  2.55            0.00031721      -5.5466e-008    -1.3966e-009   
  2.6             0.00032256      -7.5163e-008    3.85e-010      
  2.65            0.00032726      -1.0075e-007    -9.802e-010    
  2.7             0.00032973      -1.1129e-007    1.7478e-009    
  2.75            0.00033656      -1.5127e-007    2.6752e-009    
  2.8             0.00034346      -1.8486e-007    1.6393e-009    
  2.85            0.00034959      -2.0694e-007    -2.676e-010    
  2.9             0.0003565       -2.3162e-007    -2.3438e-009   
  2.95            0.00036405      -2.5529e-007    -1.3518e-009   
  3               0.00036847      -3.0257e-007    4.28e-010      
END_DB

BEGIN_DB
 ICCAP_VAR VG         0.6            
 ICCAP_VAR VS         0              
 ICCAP_VAR VB         0              

 #VD              ID              IB              IG             
  0               4.8096e-006     1.875e-009      2.5547e-009    
  0.05            0.00035126      -1.2939e-008    -1.7571e-009   
  0.1             0.00067239      1.0294e-008     -2.5322e-009   
  0.15            0.00096314      1.1719e-008     -2.3392e-009   
  0.2             0.0012194       -1.6307e-008    -1.5056e-009   
  0.25            0.0014366       1.0404e-008     -2.5215e-009   
  0.3             0.0016123       1.186e-008      -2.301e-009    
  0.35            0.0017495       1.4725e-008     -1.9348e-009   
  0.4             0.0018537       1.6568e-008     -1.529e-009    
  0.45            0.0019326       1.9756e-008     -1.2872e-009   
  0.5             0.0019941       1.1705e-008     -2.3197e-009   
  0.55            0.0020437       1.4538e-008     -1.9629e-009   
  0.6             0.0020858       1.6565e-008     -1.5597e-009   
  0.65            0.002123        1.9473e-008     -1.3e-009      
  0.7             0.0021565       1.1741e-008     -2.3444e-009   
  0.75            0.0021868       1.4156e-008     -2.0034e-009   
  0.8             0.0022148       1.6362e-008     -1.5865e-009   
  0.85            0.0022413       1.9197e-008     -1.3137e-009   
  0.9             0.0022667       1.1584e-008     -2.3684e-009   
  0.95            0.0022904       1.4004e-008     -2.0307e-009   
  1               0.0023129       1.6366e-008     -1.6157e-009   
  1.05            0.0023351       1.883e-008      -1.3219e-009   
  1.1             0.0023563       1.1407e-008     -2.3846e-009   
  1.15            0.0023763       1.4069e-008     -1.3801e-009   
  1.2             0.002396        1.1017e-008     -2.4433e-009   
  1.25            0.0024144       1.6002e-008     -1.4483e-009   
  1.3             0.0024338       1.0903e-008     -2.4931e-009   
  1.35            0.0024513       1.809e-008      -1.534e-009    
  1.4             0.0024687       1.9508e-008     -1.2925e-009   
  1.45            0.002486        1.1679e-008     -2.3353e-009   
  1.5             0.0025021       1.4422e-008     -1.9794e-009   
  1.55            0.0025183       1.6593e-008     -1.5676e-009   
  1.6             0.0025342       1.9286e-008     -1.3038e-009   
  1.65            0.0025496       1.1628e-008     -2.3513e-009   
  1.7             0.0025648       1.3578e-008     -2.0084e-009   
  1.75            0.0025796       1.5812e-008     -1.5951e-009   
  1.8             0.0025943       8.701e-009      -2.5495e-009   
  1.85            0.0026084       9.557e-009      -2.3674e-009   
  1.9             0.0026222       1.0898e-008     -2.0333e-009   
  1.95            0.0026356       1.1688e-008     -1.6184e-009   
  2               0.0026493       2.787e-009      -2.555e-009    
  2.05            0.0026625       9.77e-010       -2.3844e-009   
  2.1             0.0026754       -1.405e-009     -2.0613e-009   
  2.15            0.0026868       -1.3113e-008    -7.47e-011     
  2.2             0.0026961       -2.9193e-008    2.726e-009     
  2.25            0.0027071       -6.0287e-008    1.9242e-009    
  2.3             0.0027182       -6.2969e-008    -9.93e-011     
  2.35            0.0027338       -7.2375e-008    -2.4681e-009   
  2.4             0.0027482       -7.6479e-008    -1.514e-009    
  2.45            0.0027561       -1.3033e-007    -1.683e-010    
  2.5             0.0027667       -1.5132e-007    2.7385e-009    
  2.55            0.0027758       -2.157e-007     2.1212e-009    
  2.6             0.0027864       -2.5025e-007    6.6e-012       
  2.65            0.0028014       -3.0048e-007    -2.5295e-009   
  2.7             0.0028153       -3.4643e-007    -1.6568e-009   
  2.75            0.002825        -4.3785e-007    1.74e-010      
  2.8             0.0028326       -5.3981e-007    2.6018e-009    
  2.85            0.0028403       -6.5953e-007    2.7179e-009    
  2.9             0.0028518       -7.8965e-007    1.8296e-009    
  2.95            0.0028614       -9.2213e-007    -1.518e-010    
  3               0.0028754       -1.07751e-006   -2.4456e-009   
END_DB

BEGIN_DB
 ICCAP_VAR VG         1.2            
 ICCAP_VAR VS         0              
 ICCAP_VAR VB         0              

 #VD              ID              IB              IG             
  0               6.7053e-006     1.6755e-008     6.998e-010     
  0.05            0.0004874       -1.569e-008     -3.381e-010    
  0.1             0.00095455      -1.6631e-008    1.6488e-009    
  0.15            0.0014061       -7.704e-009     -2.5933e-009   
  0.2             0.0018399       1.0844e-008     -2.4971e-009   
  0.25            0.0022518       1.2293e-008     -2.272e-009    
  0.3             0.0026407       1.5077e-008     -1.8892e-009   
  0.35            0.0030044       1.675e-008      -1.4845e-009   
  0.4             0.0033406       1.0517e-008     -2.5123e-009   
  0.45            0.003645        1.2044e-008     -2.2966e-009   
  0.5             0.0039179       1.4864e-008     -1.9266e-009   
  0.55            0.0041582       1.6736e-008     -1.5122e-009   
  0.6             0.0043668       1.0516e-008     -2.5161e-009   
  0.65            0.0045424       2.0038e-008     -1.6133e-009   
  0.7             0.0046891       1.8515e-008     -1.3176e-009   
  0.75            0.0048107       1.1664e-008     -2.3903e-009   
  0.8             0.0049104       1.3906e-008     -2.0706e-009   
  0.85            0.0049932       1.6171e-008     -1.6468e-009   
  0.9             0.0050628       1.8384e-008     -1.337e-009    
  0.95            0.0051229       1.127e-008      -2.4129e-009   
  1               0.0051751       1.4725e-008     -1.3952e-009   
  1.05            0.0052208       1.093e-008      -2.4625e-009   
  1.1             0.0052623       1.6794e-008     -1.4733e-009   
  1.15            0.0053003       1.0748e-008     -2.5085e-009   
  1.2             0.0053348       1.9115e-008     -1.5772e-009   
  1.25            0.0053668       1.8841e-008     -1.302e-009    
  1.3             0.0053977       1.1722e-008     -2.3661e-009   
  1.35            0.0054255       1.3993e-008     -2.0309e-009   
  1.4             0.0054526       1.6143e-008     -1.6087e-009   
  1.45            0.0054783       1.865e-008      -1.3172e-009   
  1.5             0.0055035       1.1495e-008     -2.3879e-009   
  1.55            0.0055268       1.385e-008      -1.3723e-009   
  1.6             0.0055498       1.0989e-008     -2.4453e-009   
  1.65            0.0055712       1.6087e-008     -1.4476e-009   
  1.7             0.0055924       1.0614e-008     -2.4946e-009   
  1.75            0.0056123       1.8277e-008     -1.5377e-009   
  1.8             0.0056317       1.9356e-008     -1.2904e-009   
  1.85            0.0056512       1.1617e-008     -2.3449e-009   
  1.9             0.005669        1.4237e-008     -1.9954e-009   
  1.95            0.0056867       1.5788e-008     -1.5795e-009   
  2               0.0057049       8.93e-009       -2.5412e-009   
  2.05            0.0057217       1.0048e-008     -2.3633e-009   
  2.1             0.0057378       1.1302e-008     -2.0275e-009   
  2.15            0.0057534       1.1848e-008     -1.6127e-009   
  2.2             0.0057696       2.837e-009      -2.5507e-009   
  2.25            0.0057848       1.01e-009       -2.3871e-009   
  2.3             0.005796        -1.5263e-008    -2.3539e-009   
  2.35            0.005813        -9.106e-009     -1.3593e-009   
  2.4             0.0058262       -2.2896e-008    4.246e-010     
  2.45            0.0058369       -4.6456e-008    2.3187e-009    
  2.5             0.0058471       -7.0455e-008    1.206e-010     
  2.55            0.0058655       -8.5398e-008    -2.5814e-009   
  2.6             0.0058773       -1.2765e-007    -6.775e-010    
  2.65            0.0058889       -1.4006e-007    2.5274e-009    
  2.7             0.0058987       -2.0751e-007    2.724e-009     
  2.75            0.0059128       -2.629e-007     1.9207e-009    
  2.8             0.0059235       -3.176e-007     -1.002e-010    
  2.85            0.0059393       -3.8898e-007    -2.4725e-009   
  2.9             0.0059546       -4.6738e-007    -1.5105e-009   
  2.95            0.0059646       -5.8927e-007    2.805e-010     
  3               0.0059727       -7.3488e-007    2.4955e-009    
END_DB

BEGIN_DB
 ICCAP_VAR VG         1.8            
 ICCAP_VAR VS         0              
 ICCAP_VAR VB         0              

 #VD              ID              IB              IG             
  0               7.9053e-006     -1.5447e-008    -7.399e-010    
  0.05            0.00056823      7.978e-009      2.7327e-009    
  0.1             0.00112011      -7.461e-009     2.7327e-009    
  0.15            0.0016598       1.6524e-008     2.7122e-009    
  0.2             0.002189        -1.8433e-008    1.8225e-009    
  0.25            0.0027023       -1.7943e-008    2.7308e-009    
  0.3             0.0032011       -1.0629e-008    2.6169e-009    
  0.35            0.0036834       -1.3518e-008    2.7201e-009    
  0.4             0.0041467       -1.1621e-008    2.581e-009     
  0.45            0.0045904       -1.2419e-008    2.7039e-009    
  0.5             0.0050127       -1.7977e-008    1.7846e-009    
  0.55            0.0054101       -1.8083e-008    2.7264e-009    
  0.6             0.0057844       -1.1158e-008    2.6061e-009    
  0.65            0.0061336       -1.3053e-008    2.7108e-009    
  0.7             0.006454        -1.1982e-008    2.5662e-009    
  0.75            0.0067487       -1.207e-008     2.6976e-009    
  0.8             0.0070132       -1.3007e-008    2.5247e-009    
  0.85            0.007252        -1.1251e-008    2.6832e-009    
  0.9             0.0074635       -1.6395e-008    1.6736e-009    
  0.95            0.0076475       -1.8557e-008    2.709e-009     
  1               0.0078076       -1.2299e-008    2.5511e-009    
  1.05            0.0079474       -1.1843e-008    2.6931e-009    
  1.1             0.0080673       -1.7186e-008    1.7296e-009    
  1.15            0.0081688       -1.8354e-008    2.7178e-009    
  1.2             0.0082558       -1.1686e-008    2.5731e-009    
  1.25            0.0083333       -1.2417e-008    2.703e-009     
  1.3             0.0084          -1.8006e-008    1.7833e-009    
  1.35            0.0084578       -1.8244e-008    2.7242e-009    
  1.4             0.0085089       -1.1095e-008    2.5995e-009    
  1.45            0.0085573       -1.305e-008     2.7174e-009    
  1.5             0.0085986       -1.1887e-008    2.5661e-009    
  1.55            0.0086386       -1.2169e-008    2.6994e-009    
  1.6             0.0086737       -1.2895e-008    2.5269e-009    
  1.65            0.008709        -1.5806e-008    2.1656e-009    
  1.7             0.0087397       -1.6765e-008    1.679e-009     
  1.75            0.008769        -1.8654e-008    2.7122e-009    
  1.8             0.0087958       -1.2307e-008    2.5562e-009    
  1.85            0.0088235       -1.1836e-008    2.6956e-009    
  1.9             0.0088491       -1.7229e-008    1.7332e-009    
  1.95            0.0088717       -1.8292e-008    2.7201e-009    
  2               0.0088935       -1.1753e-008    2.5784e-009    
  2.05            0.0089167       -1.2616e-008    2.7046e-009    
  2.1             0.0089361       -1.2789e-008    2.5357e-009    
  2.15            0.0089567       -1.205e-008     2.6896e-009    
  2.2             0.0089773       -1.7554e-008    1.7007e-009    
  2.25            0.008994        -1.978e-008     2.712e-009     
  2.3             0.0090134       -2.1118e-008    1.8539e-009    
  2.35            0.0090296       -1.234e-008     -1.344e-010    
  2.4             0.0090501       -1.3632e-008    -1.9989e-009   
  2.45            0.0090693       4.482e-009      -2.1708e-009   
  2.5             0.0090841       3.061e-009      -1.7747e-009   
  2.55            0.009098        -1.0169e-008    8.97e-011      
  2.6             0.0091093       -2.6909e-008    2.6468e-009    
  2.65            0.0091212       -5.2608e-008    1.5993e-009    
  2.7             0.0091354       -6.1146e-008    -2.922e-010    
  2.75            0.0091517       -7.0714e-008    -2.3186e-009   
  2.8             0.0091628       -1.1326e-007    -6.473e-010    
  2.85            0.0091738       -1.2237e-007    2.5506e-009    
  2.9             0.0091839       -1.8764e-007    2.7153e-009    
  2.95            0.0091967       -2.3845e-007    1.858e-009     
  3               0.0092073       -2.9197e-007    -1.335e-010    
END_DB

BEGIN_DB
 ICCAP_VAR VG         2.4            
 ICCAP_VAR VS         0              
 ICCAP_VAR VB         0              

 #VD              ID              IB              IG             
  0               8.3037e-006     1.3055e-008     1.1202e-009    
  0.05            0.00062455      -1.4649e-008    -1.6918e-009   
  0.1             0.0012341       -1.6307e-008    -1.5174e-009   
  0.15            0.0018349       1.9768e-008     -1.2836e-009   
  0.2             0.0024276       1.168e-008      -2.3286e-009   
  0.25            0.0030077       1.4578e-008     -1.9771e-009   
  0.3             0.0035783       1.6534e-008     -1.5705e-009   
  0.35            0.0041354       1.9242e-008     -1.3066e-009   
  0.4             0.0046802       1.1739e-008     -2.3622e-009   
  0.45            0.0052083       1.3992e-008     -2.0294e-009   
  0.5             0.0057225       1.6356e-008     -1.6178e-009   
  0.55            0.0062188       1.8866e-008     -1.3307e-009   
  0.6             0.0066976       1.1415e-008     -2.3921e-009   
  0.65            0.0071565       1.4282e-008     -1.3904e-009   
  0.7             0.0075951       1.1085e-008     -2.4555e-009   
  0.75            0.0080123       1.6362e-008     -1.4742e-009   
  0.8             0.0084067       1.0676e-008     -2.5073e-009   
  0.85            0.0087783       1.2003e-008     -2.284e-009    
  0.9             0.0091266       1.4915e-008     -1.9154e-009   
  0.95            0.0094502       1.6785e-008     -1.5172e-009   
  1               0.0097503       1.9673e-008     -1.2883e-009   
  1.05            0.0100254       1.1767e-008     -2.3289e-009   
  1.1             0.0102764       1.45e-008       -1.9774e-009   
  1.15            0.0105041       1.667e-008      -1.5686e-009   
  1.2             0.0107085       1.9271e-008     -1.3074e-009   
  1.25            0.0108918       1.1775e-008     -2.3588e-009   
  1.3             0.0110544       1.326e-008      -1.3554e-009   
  1.35            0.0111982       1.1297e-008     -2.4302e-009   
  1.4             0.0113242       1.5537e-008     -1.431e-009    
  1.45            0.011432        -7.356e-009     -2.5332e-009   
  1.5             0.011533        1.1808e-008     -2.3513e-009   
  1.55            0.011619        1.3061e-008     -1.3537e-009   
  1.6             0.011696        1.1073e-008     -2.4193e-009   
  1.65            0.011761        1.525e-008      -1.4258e-009   
  1.7             0.011822        1.09e-008       -2.4803e-009   
  1.75            0.011876        1.7475e-008     -1.5232e-009   
