! VERSION = 6.00
BEGIN_HEADER
 ICCAP_INPUTS
  VG         V  B GROUND SMU4 0.001 LIN        2    0          1.8        6    0.36      
  VS         V  E GROUND SMU3 0.1 CON        0
  VD         V  S GROUND SMU2 0.1 LIN        1    0          1.8        37   0.05      
  VB         V  C GROUND SMU1 0.1 LIN        3    0          -0.9       2    -0.9      
 ICCAP_OUTPUTS
  ID         I  S GROUND SMU2 B
  IB         I  C GROUND SMU1 B
  IG         I  B GROUND SMU4 B
END_HEADER

BEGIN_DB
 ICCAP_VAR VG         0              
 ICCAP_VAR VS         0              
 ICCAP_VAR VB         0              

 #VD              ID              IB              IG             
  0               1.4872e-009     1.5562e-008     -2.927e-010    
  0.05            7.4721e-008     -9.976e-009     -2.441e-009    
  0.1             8.8335e-008     7.629e-009      -2.6284e-009   
  0.15            9.4488e-008     1.6728e-008     -1.5597e-009   
  0.2             9.6933e-008     -1.6847e-008    -3.907e-010    
  0.25            9.5469e-008     7.574e-009      2.2744e-009    
  0.3             9.906e-008      1.1301e-008     2.3562e-009    
  0.35            1.00613e-007    1.4359e-008     2.5957e-009    
  0.4             1.02397e-007    1.7408e-008     2.7449e-009    
  0.45            1.0123e-007     9.171e-009      -2.4712e-009   
  0.5             1.0568e-007     1.0508e-008     -2.5358e-009   
  0.55            1.0688e-007     9.55e-009       -2.571e-009    
  0.6             1.0786e-007     8.408e-009      -2.6012e-009   
  0.65            1.0908e-007     7.733e-009      -2.6271e-009   
  0.7             1.1019e-007     7.203e-009      6.71e-011      
  0.75            1.0859e-007     -7.467e-009     -2.5943e-009   
  0.8             1.1273e-007     7.739e-009      -2.6246e-009   
  0.85            1.1375e-007     7.293e-009      -2.6434e-009   
  0.9             1.1443e-007     6.322e-009      -2.6449e-009   
  0.95            1.1547e-007     5.438e-009      -2.635e-009    
  1               1.1914e-007     1.7612e-008     -1.435e-009    
  1.05            1.2009e-007     1.6589e-008     -1.5515e-009   
  1.1             1.2101e-007     1.6137e-008     -1.6945e-009   
  1.15            1.2181e-007     1.53e-008       -1.846e-009    
  1.2             1.2253e-007     1.4316e-008     -1.9967e-009   
  1.25            1.2535e-007     1.5545e-008     -1.4286e-009   
  1.3             1.2486e-007     1.6714e-008     -1.5398e-009   
  1.35            1.2576e-007     1.6306e-008     -1.6872e-009   
  1.4             1.2648e-007     1.5635e-008     -1.838e-009    
  1.45            1.2728e-007     1.4465e-008     -1.9889e-009   
  1.5             1.2991e-007     1.5384e-008     -1.4279e-009   
  1.55            1.2922e-007     1.6758e-008     -1.538e-009    
  1.6             1.3008e-007     1.6372e-008     -1.6857e-009   
  1.65            1.309e-007      1.5472e-008     -1.838e-009    
  1.7             1.316e-007      1.426e-008      -1.9908e-009   
  1.75            1.3402e-007     1.5299e-008     -1.4154e-009   
  1.8             1.3352e-007     1.6703e-008     -1.538e-009    
END_DB

BEGIN_DB
 ICCAP_VAR VG         0.36           
 ICCAP_VAR VS         0              
 ICCAP_VAR VB         0              

 #VD              ID              IB              IG             
  0               8.525e-009      -1.6697e-008    2.7413e-009    
  0.05            9.9521e-006     1.17e-008       2.1131e-009    
  0.1             1.7702e-005     1.4342e-008     -6.527e-010    
  0.15            2.3215e-005     -1.5418e-008    1.5939e-009    
  0.2             2.6767e-005     -1.7998e-008    1.3744e-009    
  0.25            2.8812e-005     -1.9474e-008    2.6944e-009    
  0.3             2.9917e-005     -1.1323e-008    2.5991e-009    
  0.35            3.0658e-005     -1.5619e-008    1.6237e-009    
  0.4             3.1098e-005     -1.7907e-008    1.3936e-009    
  0.45            3.1427e-005     -8.625e-009     2.6954e-009    
  0.5             3.1757e-005     -1.1151e-008    2.6095e-009    
  0.55            3.2124e-005     -1.6173e-008    1.6511e-009    
  0.6             3.2347e-005     -1.7642e-008    1.4182e-009    
  0.65            3.2578e-005     -1.9269e-008    2.7032e-009    
  0.7             3.277e-005      -1.0516e-008    2.6235e-009    
  0.75            3.3068e-005     -1.6671e-008    1.681e-009     
  0.8             3.3219e-005     -1.7424e-008    1.4413e-009    
  0.85            3.3409e-005     -1.8893e-008    2.712e-009     
  0.9             3.3557e-005     -1.0034e-008    2.6339e-009    
  0.95            3.3741e-005     -1.3023e-008    2.5136e-009    
  1               3.395e-005      -1.326e-008     2.7259e-009    
  1.05            3.4052e-005     -9.551e-009     2.6618e-009    
  1.1             3.4217e-005     -1.2469e-008    2.5556e-009    
  1.15            3.4431e-005     -1.4341e-008    1.5376e-009    
  1.2             3.4539e-005     -1.8348e-008    2.7322e-009    
  1.25            3.4646e-005     -9.19e-009      2.672e-009     
  1.3             3.4794e-005     -1.2036e-008    2.5722e-009    
  1.35            3.4987e-005     -1.474e-008     1.5694e-009    
  1.4             3.5084e-005     -1.8045e-008    2.734e-009     
  1.45            3.5168e-005     -8.773e-009     2.6837e-009    
  1.5             3.5291e-005     -1.1493e-008    2.5853e-009    
  1.55            3.5487e-005     -1.5307e-008    1.5965e-009    
  1.6             3.5559e-005     -1.7834e-008    1.3782e-009    
  1.65            3.5664e-005     -1.937e-008     2.6943e-009    
  1.7             3.5748e-005     -1.1173e-008    2.6023e-009    
  1.75            3.5927e-005     -1.5857e-008    1.622e-009     
  1.8             3.5989e-005     -1.7931e-008    1.3988e-009    
END_DB

BEGIN_DB
 ICCAP_VAR VG         0.72           
 ICCAP_VAR VS         0              
 ICCAP_VAR VB         0              

 #VD              ID              IB              IG             
  0               1.0009e-008     -8.093e-009     -1.2387e-009   
  0.05            2.0931e-005     -1.7306e-008    7.77e-010      
  0.1             4.0132e-005     1.0594e-008     -2.4844e-009   
  0.15            5.7501e-005     1.1524e-008     -2.3681e-009   
  0.2             7.2968e-005     1.6831e-008     -1.4834e-009   
  0.25            8.638e-005      1.8733e-008     -1.3405e-009   
  0.3             9.7742e-005     1.069e-008      -2.4967e-009   
  0.35            0.000107005     1.1403e-008     -2.3874e-009   
  0.4             0.00011395      1.7423e-008     2.7034e-009    
  0.45            0.00011933      -1.8573e-008    2.7175e-009    
  0.5             0.00012314      -7.624e-009     2.743e-009     
  0.55            0.0001259       -7.279e-009     2.7506e-009    
  0.6             0.00012782      -6.929e-009     2.7476e-009    
  0.65            0.0001293       -7.43e-009      2.7364e-009    
  0.7             0.00013046      -7.967e-009     2.7058e-009    
  0.75            0.00013142      -7.994e-009     2.6661e-009    
  0.8             0.00013228      -1.7209e-008    1.535e-009     
  0.85            0.00013303      -1.7193e-008    1.7013e-009    
  0.9             0.00013371      -1.6806e-008    1.8817e-009    
  0.95            0.00013435      -1.6232e-008    2.0619e-009    
  1               0.000135        -1.2006e-008    2.7064e-009    
  1.05            0.00013539      -7.511e-009     2.731e-009     
  1.1             0.00013599      -7.209e-009     2.7455e-009    
  1.15            0.00013647      -7.072e-009     2.7514e-009    
  1.2             0.00013698      -7.456e-009     2.7443e-009    
  1.25            0.00013745      -7.933e-009     2.7198e-009    
  1.3             0.00013789      -8.135e-009     2.6845e-009    
  1.35            0.00013828      -1.7643e-008    1.475e-009     
  1.4             0.00013868      -1.7194e-008    1.6314e-009    
  1.45            0.00013906      -1.7171e-008    1.799e-009     
  1.5             0.00013945      -1.6416e-008    1.9949e-009    
  1.55            0.00013982      -1.1241e-008    2.6866e-009    
  1.6             0.00014002      -7.817e-009     2.7225e-009    
  1.65            0.00014041      -7.358e-009     2.7416e-009    
  1.7             0.00014078      -7.111e-009     2.749e-009     
  1.75            0.00014108      -7.191e-009     2.7494e-009    
  1.8             0.00014142      -7.514e-009     2.7337e-009    
END_DB

BEGIN_DB
 ICCAP_VAR VG         1.08           
 ICCAP_VAR VS         0              
 ICCAP_VAR VB         0              

 #VD              ID              IB              IG             
  0               1.8397e-008     -9.6e-009       -5.235e-010    
  0.05            2.9431e-005     1.6839e-008     -9.141e-010    
  0.1             5.7349e-005     -9.597e-009     -8.406e-010    
  0.15            8.3787e-005     1.83e-009       -1.779e-009    
  0.2             0.000108564     1.6819e-008     -1.5688e-009   
  0.25            0.00013156      1.3044e-008     2.183e-010     
  0.3             0.00015274      1.2433e-008     -2.2338e-009   
  0.35            0.00017198      1.1771e-008     -2.3338e-009   
  0.4             0.00018931      1.12e-008       -2.4218e-009   
  0.45            0.00020467      1.0525e-008     -2.4893e-009   
  0.5             0.00021802      1.0212e-008     -2.5426e-009   
  0.55            0.00022941      8.8e-009        -2.5774e-009   
  0.6             0.00023889      7.884e-009      -2.6037e-009   
  0.65            0.00024659      7.452e-009      -2.6226e-009   
  0.7             0.0002527       6.921e-009      -2.6363e-009   
  0.75            0.0002574       6.255e-009      -2.6368e-009   
  0.8             0.00026101      5.315e-009      -2.6244e-009   
  0.85            0.00026394      1.7632e-008     -1.4489e-009   
  0.9             0.0002662       1.6743e-008     -1.5677e-009   
  0.95            0.00026803      1.6211e-008     -1.707e-009    
  1               0.00026959      1.5183e-008     -1.8579e-009   
  1.05            0.00027097      1.422e-008      -2.0035e-009   
  1.1             0.0002722       1.5698e-008     -1.4319e-009   
  1.15            0.00027326      1.6737e-008     -1.5432e-009   
  1.2             0.00027423      1.6414e-008     -1.6929e-009   
  1.25            0.00027519      1.5345e-008     -1.8399e-009   
  1.3             0.00027606      1.4274e-008     -1.9885e-009   
  1.35            0.00027685      1.5232e-008     -1.4223e-009   
  1.4             0.00027762      1.6865e-008     -1.5349e-009   
  1.45            0.00027837      1.6354e-008     -1.6687e-009   
  1.5             0.00027903      1.5555e-008     -1.8181e-009   
  1.55            0.00027973      1.4572e-008     -1.9657e-009   
  1.6             0.00028042      1.4945e-008     -1.4026e-009   
  1.65            0.00028097      1.6868e-008     -1.5139e-009   
  1.7             0.00028157      1.6465e-008     -1.6447e-009   
  1.75            0.00028213      1.5827e-008     -1.7937e-009   
  1.8             0.00028267      1.4573e-008     -1.9394e-009   
END_DB

BEGIN_DB
 ICCAP_VAR VG         1.44           
 ICCAP_VAR VS         0              
 ICCAP_VAR VB         0              

 #VD              ID              IB              IG             
  0               2.8185e-008     8.918e-009      3.978e-010     
  0.05            3.6595e-005     -1.7196e-008    8.56e-010      
  0.1             7.1822e-005     1.1142e-008     -2.4145e-009   
  0.15            0.000105741     1.2302e-008     -2.2645e-009   
  0.2             0.00013799      1.5414e-008     1.6863e-009    
  0.25            0.00016885      -7.405e-009     2.7429e-009    
  0.3             0.00019804      -7.733e-009     2.7204e-009    
  0.35            0.00022545      -8.15e-009      2.6877e-009    
  0.4             0.00025106      -1.7549e-008    1.4524e-009    
  0.45            0.00027486      -1.7049e-008    1.5962e-009    
  0.5             0.00029678      -1.7088e-008    1.7707e-009    
  0.55            0.00031672      -1.6581e-008    1.948e-009     
  0.6             0.00033479      -1.5901e-008    2.1216e-009    
  0.65            0.00035096      -1.2747e-008    2.7124e-009    
  0.7             0.0003652       -7.681e-009     2.7395e-009    
  0.75            0.00037764      -7.165e-009     2.7498e-009    
  0.8             0.0003883       -6.876e-009     2.7512e-009    
  0.85            0.00039732      -7.612e-009     2.74e-009      
  0.9             0.00040477      -7.962e-009     2.7118e-009    
  0.95            0.0004109       -8.066e-009     2.6723e-009    
  1               0.00041584      -1.7253e-008    1.4972e-009    
  1.05            0.00041986      -1.6937e-008    1.6523e-009    
  1.1             0.00042318      -1.6889e-008    1.8325e-009    
  1.15            0.00042592      -1.6625e-008    1.9954e-009    
  1.2             0.00042814      -1.1351e-008    2.6909e-009    
  1.25            0.00043005      -7.955e-009     2.7242e-009    
  1.3             0.00043182      -7.318e-009     2.7412e-009    
  1.35            0.00043343      -7.301e-009     2.7495e-009    
  1.4             0.00043485      -7.09e-009      2.7462e-009    
  1.45            0.00043619      -7.519e-009     2.7306e-009    
  1.5             0.00043738      -8.148e-009     2.6993e-009    
  1.55            0.00043849      -8.007e-009     2.6567e-009    
  1.6             0.00043949      -1.7197e-008    1.5413e-009    
  1.65            0.00044044      -1.7086e-008    1.7038e-009    
  1.7             0.00044138      -1.6751e-008    1.8914e-009    
  1.75            0.00044226      -1.6177e-008    2.0655e-009    
  1.8             0.00044304      -1.1963e-008    2.7007e-009    
END_DB

BEGIN_DB
 ICCAP_VAR VG         1.8            
 ICCAP_VAR VS         0              
 ICCAP_VAR VB         0              

 #VD              ID              IB              IG             
  0               3.0721e-008     -1.2322e-008    -1.0915e-009   
  0.05            4.2922e-005     -1.6012e-008    6.207e-010     
  0.1             8.462e-005      1.6292e-008     -1.4491e-009   
  0.15            0.00012491      1.6632e-008     1.6409e-009    
  0.2             0.00016401      -7.247e-009     2.7293e-009    
  0.25            0.00020155      -7.844e-009     2.6982e-009    
  0.3             0.00023766      -7.875e-009     2.661e-009     
  0.35            0.00027203      -1.6956e-008    1.502e-009     
  0.4             0.0003048       -1.6756e-008    1.6611e-009    
  0.45            0.00033582      -1.6477e-008    1.8502e-009    
  0.5             0.00036507      -1.6183e-008    2.0179e-009    
  0.55            0.00039244      -1.5391e-008    2.1873e-009    
  0.6             0.00041804      -1.3189e-008    2.7397e-009    
  0.65            0.00044173      -7.22e-009      2.7495e-009    
  0.7             0.00046351      -7.203e-009     2.7475e-009    
  0.75            0.00048349      -6.847e-009     2.7434e-009    
  0.8             0.00050156      -7.698e-009     2.7211e-009    
  0.85            0.00051784      -7.91e-009      2.6902e-009    
  0.9             0.0005324       -7.679e-009     2.6498e-009    
  0.95            0.00054515      -1.6751e-008    1.5402e-009    
  1               0.00055631      -1.667e-008     1.7073e-009    
  1.05            0.00056599      -1.6547e-008    1.8881e-009    
  1.1             0.00057418      -1.5925e-008    2.0657e-009    
  1.15            0.00058115      -1.1735e-008    2.7149e-009    
  1.2             0.00058688      -7.697e-009     2.743e-009     
  1.25            0.00059181      -7.214e-009     2.7464e-009    
  1.3             0.00059595      -7.144e-009     2.7443e-009    
  1.35            0.00059941      -7.239e-009     2.7386e-009    
  1.4             0.00060236      -7.61e-009      2.7143e-009    
  1.45            0.00060494      -8.008e-009     2.6794e-009    
  1.5             0.00060718      -1.7291e-008    1.4379e-009    
  1.55            0.00060912      -1.6646e-008    1.5815e-009    
  1.6             0.0006109       -1.6549e-008    1.7607e-009    
  1.65            0.00061251      -1.6422e-008    1.9377e-009    
  1.7             0.00061399      -1.5882e-008    2.1178e-009    
  1.75            0.00061546      -1.2153e-008    2.7242e-009    
  1.8             0.00061656      -7.408e-009     2.745e-009     
END_DB

BEGIN_DB
 ICCAP_VAR VG         0              
 ICCAP_VAR VS         0              
 ICCAP_VAR VB         -0.9           

 #VD              ID              IB              IG             
  0               1.709e-009      1.1324e-008     1.025e-009     
  0.05            1.0195e-009     1.2225e-008     -2.4803e-009   
  0.1             1.87e-011       -1.3142e-008    2.7031e-009    
  0.15            9.697e-010      1.1604e-008     -2.5485e-009   
  0.2             -2.5725e-009    -8.97e-009      2.7398e-009    
  0.25            8.371e-010      1.1225e-008     -2.5935e-009   
  0.3             4.294e-010      -9.798e-009     2.7608e-009    
  0.35            3.6585e-009     1.2762e-008     -1.5824e-009   
  0.4             -2.2127e-009    -1.4662e-008    2.0019e-009    
  0.45            1.8112e-009     1.6245e-008     -1.9239e-009   
  0.5             -6.166e-010     -1.6591e-008    2.1859e-009    
  0.55            1.686e-009      1.545e-008      -2.0848e-009   
  0.6             -4.345e-010     -1.6015e-008    2.3482e-009    
  0.65            1.5566e-009     1.4241e-008     -2.2251e-009   
  0.7             -1.6145e-009    -2.2483e-008    2.609e-009     
  0.75            1.2544e-009     1.2459e-008     -2.47e-009     
  0.8             1.477e-010      -1.3336e-008    2.6931e-009    
  0.85            1.1124e-009     1.163e-008      -2.5444e-009   
  0.9             3.401e-010      -1.1928e-008    2.7388e-009    
  0.95            9.873e-010      1.1186e-008     -2.5834e-009   
  1               5.41e-010       -9.736e-009     2.7613e-009    
  1.05            8.433e-010      1.1118e-008     -2.6145e-009   
  1.1             -2.2193e-009    -1.1768e-008    1.7581e-009    
  1.15            2.1057e-009     1.7699e-008     -1.7158e-009   
  1.2             -1.9803e-009    -1.7101e-008    2.158e-009     
  1.25            1.8125e-009     1.5617e-008     -2.0673e-009   
  1.3             -3.436e-010     -1.594e-008     2.3265e-009    
  1.35            1.6867e-009     1.4592e-008     -2.2103e-009   
  1.4             -1.624e-010     -1.5079e-008    2.4639e-009    
  1.45            1.5508e-009     1.3063e-008     -2.3355e-009   
  1.5             -2.6807e-009    -8.906e-009     1.194e-010     
  1.55            7.523e-010      -8.69e-009      2.7681e-009    
  1.6             7.766e-010      1.0311e-008     -2.6313e-009   
  1.65            -2.0518e-009    -1.3707e-008    1.9286e-009    
  1.7             2.0534e-009     1.6573e-008     -1.8617e-009   
  1.75            -4.765e-010     -1.684e-008     2.1129e-009    
  1.8             1.9235e-009     1.5917e-008     -2.0166e-009   
END_DB

BEGIN_DB
 ICCAP_VAR VG         0.36           
 ICCAP_VAR VS         0              
 ICCAP_VAR VB         -0.9           

 #VD              ID              IB              IG             
  0               3.241e-009      1.59e-009       -1.005e-009    
  0.05            4.0959e-006     1.61e-008       2.4648e-009    
  0.1             6.2934e-006     -1.464e-008     2.3589e-009    
  0.15            7.2804e-006     -1.146e-008     2.5942e-009    
  0.2             7.6879e-006     -8.255e-009     2.7178e-009    
  0.25            7.9093e-006     -7.112e-009     2.7478e-009    
  0.3             8.06e-006       -7.783e-009     2.7223e-009    
  0.35            8.1811e-006     -1.7398e-008    1.4669e-009    
  0.4             8.2868e-006     -1.6818e-008    1.8459e-009    
  0.45            8.3783e-006     -1.2023e-008    2.7069e-009    
  0.5             8.4451e-006     -7.295e-009     2.748e-009     
  0.55            8.535e-006      -7.464e-009     2.7275e-009    
