! VERSION = 6.00
BEGIN_HEADER
 ICCAP_INPUTS
  VG         V  B GROUND SMU4 0.001 LIN        1    0          1.8        37   0.05      
  VS         V  E GROUND SMU3 0.1 CON        0
  VB         V  C GROUND SMU1 0.1 LIN        3    0          -1.8       3    -0.9      
  VD         V  S GROUND SMU2 0.1 LIN        2    0.1        1.8        2    1.7       
 ICCAP_OUTPUTS
  IG         I  B GROUND SMU4 B
  ID         I  S GROUND SMU2 B
  IB         I  C GROUND SMU1 B
END_HEADER

BEGIN_DB
 ICCAP_VAR VS         0              
 ICCAP_VAR VB         0              
 ICCAP_VAR VD         0.1            

 #VG              IG              ID              IB             
  0               -2.5368e-009    7.925e-008      1.691e-008     
  0.05            2.1938e-009     3.2179e-007     -1.5041e-008   
  0.1             -2.5109e-009    1.12842e-006    1.1241e-008    
  0.15            2.4933e-009     2.8945e-006     1.672e-008     
  0.2             -1.6725e-009    5.8425e-006     1.5619e-008    
  0.25            -8.572e-010     9.379e-006      -9.361e-009    
  0.3             -9.003e-010     1.32e-005       1.6232e-008    
  0.35            2.7502e-009     1.6918e-005     -7.177e-009    
  0.4             -2.5053e-009    2.0675e-005     1.1231e-008    
  0.45            2.187e-009      2.4081e-005     -1.5232e-008   
  0.5             -1.5376e-009    2.7536e-005     1.8132e-008    
  0.55            2.5364e-009     3.0623e-005     -1.3069e-008   
  0.6             -1.7129e-009    3.3781e-005     1.5628e-008    
  0.65            2.6498e-009     3.6634e-005     -1.0892e-008   
  0.7             -1.9084e-009    3.9557e-005     1.4646e-008    
  0.75            1.5179e-009     4.2246e-005     -1.3913e-008   
  0.8             9.089e-010      4.4894e-005     8.681e-009     
  0.85            -2.6156e-009    4.7506e-005     7.941e-009     
  0.9             2.6116e-009     4.9904e-005     -1.1659e-008   
  0.95            -1.831e-009     5.2402e-005     1.4932e-008    
  1               2.7427e-009     5.4735e-005     -1.2762e-008   
  1.05            3.35e-011       5.7074e-005     7.975e-009     
  1.1             -2.1391e-009    5.9286e-005     1.3113e-008    
  1.15            1.7827e-009     6.1459e-005     -1.8333e-008   
  1.2             7.754e-010      6.3616e-005     8.907e-009     
  1.25            -2.6333e-009    6.5752e-005     7.066e-009     
  1.3             2.7055e-009     6.7802e-005     -1.104e-008    
  1.35            -2.0706e-009    6.9822e-005     1.3599e-008    
  1.4             1.6836e-009     7.1814e-005     -1.6891e-008   
  1.45            8.197e-010      7.377e-005      8.913e-009     
  1.5             -2.6257e-009    7.5728e-005     7.078e-009     
  1.55            2.6812e-009     7.7548e-005     -9.88e-009     
  1.6             -2.0006e-009    7.947e-005      1.426e-008     
  1.65            1.605e-009      8.1318e-005     -1.5627e-008   
  1.7             8.589e-010      8.3109e-005     8.943e-009     
  1.75            -2.6192e-009    8.4933e-005     7.509e-009     
  1.8             2.6494e-009     8.6621e-005     -1.0959e-008   
END_DB

BEGIN_DB
 ICCAP_VAR VS         0              
 ICCAP_VAR VB         0              
 ICCAP_VAR VD         1.8            

 #VG              IG              ID              IB             
  0               2.0928e-009     1.2108e-007     -1.6862e-008   
  0.05            -1.4846e-009    4.8904e-007     1.7201e-008    
  0.1             2.7495e-009     1.6064e-006     8.965e-009     
  0.15            -7.74e-011      4.3121e-006     8.212e-009     
  0.2             -2.2979e-009    8.8814e-006     1.2176e-008    
  0.25            1.8189e-009     1.5223e-005     4.737e-009     
  0.3             -2.433e-009     2.37e-005       1.1107e-008    
  0.35            2.0704e-009     3.3292e-005     -1.6217e-008   
  0.4             -1.4615e-009    4.4875e-005     1.6621e-008    
  0.45            2.4537e-009     5.7031e-005     -1.4066e-008   
  0.5             -1.6414e-009    7.1079e-005     1.6454e-008    
  0.55            -8.814e-010     8.5593e-005     -9.61e-009     
  0.6             2.751e-009      0.000100824     -7.302e-009    
  0.65            1.4695e-009     0.00011745      1.0876e-008    
  0.7             -2.2373e-009    0.00013475      1.2671e-008    
  0.75            1.7057e-009     0.00015202      -1.6916e-008   
  0.8             8.148e-010      0.00017056      9.015e-009     
  0.85            -2.6365e-009    0.00018988      7.449e-009     
  0.9             2.202e-010      0.00020872      -1.0635e-008   
  0.95            2.6454e-009     0.00022872      -1.0088e-008   
  1               -1.9716e-009    0.00024982      1.4798e-008    
  1.05            1.5817e-009     0.00027027      -1.5325e-008   
  1.1             -2.3186e-009    0.00029206      1.1823e-008    
  1.15            1.8377e-009     0.00031314      -1.6983e-008   
  1.2             -2.4377e-009    0.0003358       1.1075e-008    
  1.25            2.0863e-009     0.00035754      -1.6405e-008   
  1.3             -1.4716e-009    0.00038076      1.6752e-008    
  1.35            -9.829e-010     0.00040351      -9.167e-009    
  1.4             2.7562e-009     0.0004263       -7.002e-009    
  1.45            -2.4199e-009    0.00045045      1.1153e-008    
  1.5             2.031e-009      0.00047353      -1.6571e-008   
  1.55            -1.4485e-009    0.00049818      1.6056e-008    
  1.6             -1.004e-009     0.00052207      -9.017e-009    
  1.65            2.752e-009      0.00054595      -7.173e-009    
  1.7             -1.238e-010     0.00057114      9.106e-009     
  1.75            -2.3572e-009    0.00059591      1.1793e-008    
  1.8             1.9078e-009     0.00061998      -1.7e-008      
END_DB

BEGIN_DB
 ICCAP_VAR VS         0              
 ICCAP_VAR VB         -0.9           
 ICCAP_VAR VD         0.1            

 #VG              IG              ID              IB             
  0               2.6013e-009     4.7217e-009     1.3623e-008    
  0.05            -2.4747e-009    2.8682e-009     1.2669e-008    
  0.1             2.3519e-009     1.3616e-008     1.1231e-008    
  0.15            -2.3487e-009    5.8442e-008     1.2011e-008    
  0.2             2.2576e-009     2.6068e-007     -1.3478e-008   
  0.25            -2.446e-009     9.8038e-007     1.1034e-008    
  0.3             2.4472e-009     2.6473e-006     1.6164e-008    
  0.35            -1.662e-009     5.5014e-006     1.6439e-008    
  0.4             -8.734e-010     8.9433e-006     -9.671e-009    
  0.45            -3.825e-010     1.2597e-005     1.224e-008     
  0.5             1.7835e-009     1.6197e-005     -1.7006e-008   
  0.55            7.848e-010      1.975e-005      9.045e-009     
  0.6             -2.6431e-009    2.3139e-005     7.199e-009     
  0.65            2.6951e-009     2.6263e-005     -1.1678e-008   
  0.7             -2.1087e-009    2.94e-005       1.3557e-008    
  0.75            1.769e-009      3.2285e-005     -1.8046e-008   
  0.8             7.915e-010      3.5139e-005     9.075e-009     
  0.85            -2.6466e-009    3.7914e-005     7.313e-009     
  0.9             2.6925e-009     4.0492e-005     -1.1463e-008   
  0.95            -2.0995e-009    4.31e-005       1.3591e-008    
  1               1.7484e-009     4.5551e-005     -1.7882e-008   
  1.05            -2.4058e-009    4.8011e-005     1.1231e-008    
  1.1             2.0224e-009     5.0298e-005     -1.6455e-008   
  1.15            -1.4333e-009    5.2698e-005     1.5874e-008    
  1.2             -1.0109e-009    5.4904e-005     -9.309e-009    
  1.25            2.7489e-009     5.705e-005      -7.149e-009    
  1.3             -1.26e-010      5.9292e-005     8.885e-009     
  1.35            -2.3641e-009    6.1363e-005     1.2018e-008    
  1.4             1.9106e-009     6.3375e-005     -1.6841e-008   
  1.45            -2.4719e-009    6.5467e-005     1.1058e-008    
  1.5             2.1658e-009     6.74e-005       -1.5743e-008   
  1.55            -1.5369e-009    6.9465e-005     1.8324e-008    
  1.6             -9.422e-010     7.1348e-005     -9.503e-009    
  1.65            2.7498e-009     7.3211e-005     -7.129e-009    
  1.7             -2.4637e-009    7.5122e-005     1.0878e-008    
  1.75            2.1484e-009     7.6913e-005     -1.5858e-008   
  1.8             -1.5212e-009    7.8835e-005     1.8076e-008    
END_DB

BEGIN_DB
 ICCAP_VAR VS         0              
 ICCAP_VAR VB         -0.9           
 ICCAP_VAR VD         1.8            

 #VG              IG              ID              IB             
  0               -4.538e-010     1.3482e-009     1.2459e-008    
  0.05            -2.6116e-009    3.083e-009      6.762e-009     
  0.1             -2.2548e-009    1.6637e-008     -1.0262e-008   
  0.15            2.575e-009      8.9994e-008     -1.272e-008    
  0.2             -8.879e-010     4.0304e-007     1.3474e-008    
  0.25            1.5086e-009     1.4106e-006     6.903e-009     
  0.3             -1.4149e-009    4.0308e-006     1.5116e-008    
  0.35            -1.0206e-009    8.4009e-006     -9.036e-009    
  0.4             1.9692e-009     1.4664e-005     4.447e-009     
  0.45            -2.5058e-009    2.3019e-005     1.0865e-008    
  0.5             2.2233e-009     3.2484e-005     -1.5726e-008   
  0.55            -1.5708e-009    4.3934e-005     1.9171e-008    
  0.6             -9.206e-010     5.6178e-005     -9.571e-009    
  0.65            2.7438e-009     6.9428e-005     -6.79e-009     
  0.7             -2.4921e-009    8.4371e-005     1.1043e-008    
  0.75            2.1997e-009     9.935e-005      -1.5846e-008   
  0.8             -1.581e-010     0.00011554      -1.4509e-008   
  0.85            2.1463e-009     0.00013254      -1.5919e-008   
  0.9             -1.5099e-009    0.00015067      1.7948e-008    
  0.95            -9.549e-010     0.00016877      -9.533e-009    
  1               2.7492e-009     0.00018732      -6.748e-009    
  1.05            -2.4602e-009    0.00020731      1.1328e-008    
  1.1             2.1088e-009     0.00022666      -1.6151e-008   
  1.15            -1.489e-009     0.00024762      1.7361e-008    
  1.2             -9.693e-010     0.0002683       -9.615e-009    
  1.25            2.7519e-009     0.00028913      -7.151e-009    
  1.3             -2.4495e-009    0.00031142      1.1234e-008    
  1.35            2.0879e-009     0.00033273      -1.6076e-008   
  1.4             -1.4697e-009    0.00035568      1.6851e-008    
  1.45            -9.789e-010     0.0003781       -9.533e-009    
  1.5             2.752e-009      0.00040059      -6.986e-009    
  1.55            -2.4384e-009    0.00042444      1.1217e-008    
  1.6             2.0669e-009     0.00044722      -1.633e-008    
  1.65            -1.4557e-009    0.00047156      1.656e-008     
  1.7             -9.883e-010     0.0004952       -9.398e-009    
  1.75            2.7483e-009     0.00051887      -6.885e-009    
  1.8             -1.445e-010     0.00054373      9.379e-009     
END_DB

BEGIN_DB
 ICCAP_VAR VS         0              
 ICCAP_VAR VB         -1.8           
 ICCAP_VAR VD         0.1            

 #VG              IG              ID              IB             
  0               1.0407e-009     1.7301e-009     1.1302e-008    
  0.05            -2.5092e-009    4.986e-010      1.2221e-008    
  0.1             2.7119e-009     -3.043e-009     -8.638e-009    
  0.15            -2.5693e-009    9.853e-010      1.0988e-008    
  0.2             2.7472e-009     3.8175e-009     -9.226e-009    
  0.25            2.5866e-009     2.2063e-008     1.4188e-008    
  0.3             8.444e-010      1.02005e-007    9.154e-009     
  0.35            5.887e-010      4.2855e-007     -1.0977e-008   
  0.4             -2.4394e-009    1.4437e-006     -1.6981e-008   
  0.45            -7.629e-010     3.5656e-006     -9.774e-009    
  0.5             2.7152e-009     6.59e-006       -7.869e-009    
  0.55            -1.4644e-009    1.01851e-005    1.7429e-008    
  0.6             -1.7682e-009    1.3765e-005     -7.493e-009    
  0.65            -8.076e-010     1.7199e-005     -9.772e-009    
  0.7             2.73e-009       2.0477e-005     -7.828e-009    
  0.75            -1.408e-009     2.3754e-005     1.5189e-008    
  0.8             -1.031e-009     2.6779e-005     -9.12e-009     
  0.85            2.7477e-009     2.963e-005      -7.114e-009    
  0.9             -9.94e-011      3.2534e-005     8.768e-009     
  0.95            -2.3304e-009    3.5237e-005     1.2025e-008    
  1               1.8714e-009     3.7804e-005     -1.7021e-008   
  1.05            -2.4535e-009    4.0424e-005     1.1032e-008    
  1.1             2.1331e-009     4.2825e-005     -1.6164e-008   
  1.15            -1.5093e-009    4.5334e-005     1.773e-008     
  1.2             2.5e-009        4.759e-005      -1.3346e-008   
  1.25            -1.715e-009     4.9953e-005     1.6361e-008    
  1.3             -8.381e-010     5.2181e-005     -9.722e-009    
  1.35            2.738e-009      5.4327e-005     -7.415e-009    
  1.4             -1.3779e-009    5.6562e-005     1.4196e-008    
  1.45            -1.0587e-009    5.8635e-005     -8.747e-009    
  1.5             2.7412e-009     6.064e-005      -7.455e-009    
  1.55            -2.3329e-009    6.271e-005      1.1745e-008    
  1.6             1.8919e-009     6.4661e-005     -1.6853e-008   
  1.65            -2.4632e-009    6.6675e-005     1.0732e-008    
  1.7             2.1422e-009     6.8545e-005     -1.5874e-008   
  1.75            -1.5216e-009    7.0542e-005     1.8079e-008    
  1.8             2.5149e-009     7.2306e-005     -1.3178e-008   
END_DB

BEGIN_DB
 ICCAP_VAR VS         0              
 ICCAP_VAR VB         -1.8           
 ICCAP_VAR VD         1.8            

 #VG              IG              ID              IB             
  0               -7.648e-010     4.402e-010      -7.644e-009    
  0.05            -2.3256e-009    -1.8219e-009    4.265e-009     
  0.1             2.7488e-009     1.084e-010      -9.119e-009    
  0.15            -1.6723e-009    4.2037e-009     1.4173e-008    
  0.2             2.1445e-009     3.5321e-009     -1.6703e-008   
  0.25            2.5573e-009     3.3874e-008     8.755e-009     
  0.3             -2.2193e-009    1.5755e-007     1.4713e-008    
  0.35            2.5955e-009     6.6054e-007     -1.1632e-008   
  0.4             -2.6098e-009    2.2398e-006     -9.68e-009     
  0.45            1.425e-010      5.3624e-006     -9.252e-009    
  0.5             2.5658e-009     1.04633e-005    -1.2586e-008   
  0.55            -2.6477e-009    1.7591e-005     9.327e-009     
  0.6             2.7257e-009     2.6131e-005     -1.3404e-008   
  0.65            -2.218e-009     3.6603e-005     1.2829e-008    
  0.7             1.6942e-009     4.782e-005      -1.7204e-008   
  0.75            -2.3751e-009    6.0897e-005     1.1418e-008    
  0.8             1.9634e-009     7.4294e-005     -1.6845e-008   
  0.85            -1.4065e-009    8.9415e-005     1.5049e-008    
  0.9             2.3929e-009     0.000104559     -1.4373e-008   
  0.95            4.068e-010      0.00012136      1.5577e-008    
  1               -1.5712e-009    0.00013856      1.6687e-008    
  1.05            -9.157e-010     0.00015622      -9.599e-009    
  1.1             2.7496e-009     0.00017429      -7.132e-009    
  1.15            -2.4775e-009    0.00019385      1.0805e-008    
  1.2             -1.706e-010     0.00021284      -8.856e-009    
  1.25            2.1237e-009     0.00023288      -1.5976e-008   
  1.3             -1.5051e-009    0.00025388      1.7708e-008    
  1.35            2.4957e-009     0.00027414      -1.3368e-008   
  1.4             -1.7096e-009    0.00029608      1.6151e-008    
  1.45            -8.414e-010     0.00031755      -9.696e-009    
  1.5             2.7396e-009     0.00033924      -7.536e-009    
  1.55            -1.3722e-009    0.00036215      1.4018e-008    
  1.6             2.3342e-009     0.00038419      -1.4822e-008   
  1.65            -1.5211e-009    0.00040781      1.6843e-008    
  1.7             -9.45e-010      0.00043084      -9.457e-009    
  1.75            2.7508e-009     0.00045386      -7.133e-009    
  1.8             -2.4472e-009    0.00047823      1.0974e-008    
END_DB

