! VERSION = 6.00
BEGIN_HEADER
 ICCAP_INPUTS
  VG         V  B GROUND SMU4 0.001 LIN        2    0          5          6    1         
  VS         V  E GROUND SMU2 0.1 CON        0
  VD         V  S GROUND SMU1 0.1 LIN        1    0          5          101  0.05      
  VB         V  C GROUND SMU3 0.1 LIN        3    0          -2.5       2    -2.5      
 ICCAP_OUTPUTS
  ID         I  S GROUND SMU1 B
  IB         I  C GROUND SMU3 B
  IG         I  B GROUND SMU4 B
END_HEADER

BEGIN_DB
 ICCAP_VAR VG         0              
 ICCAP_VAR VS         0              
 ICCAP_VAR VB         0              

 #VD              ID              IB              IG             
  0               -7.568e-010     -2.404e-008     -8.047e-010    
  0.05            3.5102e-009     1.1553e-008     -2.5843e-009   
  0.1             4.4987e-009     -2.0358e-008    2.7184e-009    
  0.15            2.5202e-009     8.514e-009      1.7668e-009    
  0.2             3.6125e-009     9.456e-009      4.867e-010     
  0.25            5.9639e-009     1.5602e-008     -2.12e-009     
  0.3             2.4004e-009     3.203e-009      -1.8535e-009   
  0.35            2.796e-009      4.046e-009      -1.6188e-009   
  0.4             3.1211e-009     5.252e-009      -1.4365e-009   
  0.45            3.5546e-009     6.837e-009      -2.4612e-009   
  0.5             4.1292e-009     -1.0314e-008    -1.4708e-009   
  0.55            -3.318e-010     -1.0269e-008    -9.87e-010     
  0.6             4.8125e-009     -1.103e-008     2.6231e-009    
  0.65            6.3779e-009     2.1864e-008     -1.5504e-009   
  0.7             1.1212e-009     -1.7796e-008    -2.6011e-009   
  0.75            4.6678e-009     -2.4703e-008    2.6033e-009    
  0.8             8.4998e-009     1.2101e-008     -2.4889e-009   
  0.85            3.3547e-009     1.517e-009      -2.3231e-009   
  0.9             2.2798e-009     2.362e-009      -2.1136e-009   
  0.95            2.5452e-009     3.089e-009      -1.8683e-009   
  1               2.892e-009      3.989e-009      -1.6392e-009   
  1.05            3.3255e-009     5.257e-009      -1.4481e-009   
  1.1             3.4669e-009     6.689e-009      -1.3286e-009   
  1.15            4.1992e-009     8.852e-009      -2.5356e-009   
  1.2             6.3916e-009     -2.4032e-008    2.736e-009     
  1.25            3.1749e-009     -1.291e-009     2.6621e-009    
  1.3             6.0744e-009     1.7857e-008     -1.8103e-009   
  1.35            3.4023e-009     4.278e-009      -1.5724e-009   
  1.4             3.4876e-009     5.549e-009      -1.4027e-009   
  1.45            4.11e-009       7.455e-009      -2.4833e-009   
  1.5             4.3599e-009     -1.0345e-008    2.734e-009     
  1.55            6.1419e-009     1.8165e-008     -1.8538e-009   
  1.6             3.0882e-009     4.069e-009      -1.6102e-009   
  1.65            5.769e-009      2.559e-008      2.6551e-009    
  1.7             3.2749e-009     -1.738e-008     1.1699e-009    
  1.75            -2.042e-010     -1.8489e-008    -6.425e-010    
  1.8             4.8132e-009     -9.109e-009     2.5194e-009    
  1.85            5.0917e-009     1.1675e-008     -2.5976e-009   
  1.9             4.7167e-009     -1.7423e-008    2.2135e-009    
  1.95            3.6785e-009     -5.06e-009      1.9147e-009    
  2               2.3794e-009     -2.3498e-008    1.8674e-009    
  2.05            6.7542e-009     2.4236e-008     -1.3959e-009   
  2.1             3.9358e-009     7.641e-009      -2.4942e-009   
  2.15            4.2569e-009     -1.0127e-008    2.726e-009     
  2.2             6.2807e-009     1.8497e-008     -1.8196e-009   
  2.25            4.387e-009      -2.4152e-008    2.7382e-009    
  2.3             3.271e-009      -1.12e-009      2.6624e-009    
  2.35            6.3235e-009     2.0587e-008     -1.635e-009    
  2.4             3.6037e-009     5.235e-009      -1.4304e-009   
  2.45            6.5963e-009     6.23e-009       -2.4612e-009   
  2.5             4.4036e-009     -1.0303e-008    2.7418e-009    
  2.55            3.2303e-009     -1.406e-009     2.6815e-009    
  2.6             6.6812e-009     1.8599e-008     -1.8446e-009   
  2.65            3.3766e-009     4.301e-009      -1.5985e-009   
  2.7             3.3776e-009     5.399e-009      -1.4248e-009   
  2.75            3.7426e-009     6.918e-009      -2.4699e-009   
  2.8             4.0522e-009     -1.0295e-008    2.7359e-009    
  2.85            3.0388e-009     -1.364e-009     2.6694e-009    
  2.9             6.0267e-009     2.0188e-008     -1.6603e-009   
  2.95            3.3307e-009     5.225e-009      -1.4572e-009   
  3               3.4573e-009     6.762e-009      -1.3333e-009   
  3.05            3.9839e-009     8.672e-009      -2.5339e-009   
  3.1             3.8605e-009     -2.3927e-008    2.7379e-009    
  3.15            2.9807e-009     -1.481e-009     2.6667e-009    
  3.2             5.7421e-009     2.0292e-008     -1.6532e-009   
  3.25            3.1253e-009     5.182e-009      -1.4466e-009   
  3.3             2.1099e-009     -1.8516e-008    2.7245e-009    
  3.35            5.7739e-009     1.8406e-008     -1.812e-009    
  3.4             2.8206e-009     4.277e-009      -1.5679e-009   
  3.45            3.2042e-009     5.564e-009      -1.4035e-009   
  3.5             2.4473e-009     -1.9021e-008    2.707e-009     
  3.55            6.4286e-009     2.0047e-008     -1.9253e-009   
  3.6             3.2911e-009     3.862e-009      -1.6675e-009   
  3.65            9.169e-010      -1.6479e-008    -2.5779e-009   
  3.7             3.4817e-009     1.3229e-008     8.793e-010     
  3.75            5.5298e-009     1.2925e-008     -1.5267e-009   
  3.8             3.4103e-009     6.052e-009      -1.3662e-009   
  3.85            3.9703e-009     8.096e-009      -2.5019e-009   
  3.9             4.779e-009      -1.1631e-008    2.6538e-009    
  3.95            5.9688e-009     1.1583e-008     -2.44e-009     
  4               2.0107e-009     1.613e-009      -2.2545e-009   
  4.05            2.2497e-009     2.383e-009      -2.0288e-009   
  4.1             3.9851e-009     2.5911e-008     1.381e-010     
  4.15            6.1733e-009     2.6064e-008     -2.491e-009    
  4.2             1.9503e-009     1.61e-009       -2.3425e-009   
  4.25            2.1969e-009     1.95e-009       -2.1369e-009   
  4.3             3.6676e-009     -1.39e-008      2.2793e-009    
  4.35            3.8149e-009     -4.517e-009     1.9914e-009    
  4.4             3.9555e-009     -6.912e-009     1.7229e-009    
  4.45            4.3439e-009     -8.95e-009      2.3784e-009    
  4.5             6.2043e-009     2.0251e-008     -1.6617e-009   
  4.55            3.384e-009      5.021e-009      -1.4607e-009   
  4.6             3.9964e-009     6.818e-009      -1.3359e-009   
  4.65            3.8895e-009     -2.0334e-008    2.111e-010     
  4.7             4.8548e-009     -2.0527e-008    1.7347e-009    
  4.75            4.992e-009      -9.09e-009      2.3696e-009    
  4.8             6.1629e-009     -1.023e-009     -2.1059e-009   
  4.85            3.9853e-009     -2.4272e-008    2.7136e-009    
  4.9             4.8e-011        -1.6882e-008    -7.263e-010    
  4.95            6.4085e-009     -1.66e-008      2.7403e-009    
  5               2.9539e-009     -1.271e-009     2.699e-009     
END_DB

BEGIN_DB
 ICCAP_VAR VG         1              
 ICCAP_VAR VS         0              
 ICCAP_VAR VB         0              

 #VD              ID              IB              IG             
  0               2.8653e-009     1.1458e-008     1.0629e-009    
  0.05            2.2444e-007     1.773e-009      2.1173e-009    
  0.1             4.352e-007      -1.989e-008     1.8745e-009    
  0.15            6.3192e-007     -1.9504e-008    1.4758e-009    
  0.2             8.1275e-007     -2.3583e-008    2.6529e-009    
  0.25            9.7921e-007     -2.4703e-008    2.5265e-009    
  0.3             1.13032e-006    -2.48e-008      2.3416e-009    
  0.35            1.2699e-006     1.3051e-008     2.1901e-009    
  0.4             1.3858e-006     -1.8605e-008    1.5733e-009    
  0.45            1.4921e-006     -1.7829e-008    1.7436e-009    
  0.5             1.5822e-006     -2.0315e-008    1.9097e-009    
  0.55            1.6544e-006     -2.245e-008     2.0897e-009    
  0.6             1.7129e-006     -1.5402e-008    2.0546e-009    
  0.65            1.7567e-006     -1.5521e-008    2.0194e-009    
  0.7             1.7908e-006     -2.3532e-008    2.1814e-009    
  0.75            1.8092e-006     -1.4936e-008    2.1551e-009    
  0.8             1.8266e-006     -1.5161e-008    2.1178e-009    
  0.85            1.8341e-006     -1.5384e-008    2.0843e-009    
  0.9             1.8407e-006     -2.4083e-008    2.248e-009     
  0.95            1.8438e-006     -1.0332e-008    -8.79e-011     
  1               1.8395e-006     1.1114e-008     -2.4646e-009   
  1.05            1.9053e-006     1.1258e-008     -2.45e-009     
  1.1             1.8421e-006     1.1155e-008     -2.4336e-009   
  1.15            1.8493e-006     2.3532e-008     -2.51e-009     
  1.2             1.8436e-006     2.177e-008      -1.3357e-009   
  1.25            1.8419e-006     2.2215e-008     -1.3252e-009   
  1.3             1.8448e-006     2.2473e-008     -1.3163e-009   
  1.35            1.8529e-006     1.4711e-008     -1.3735e-009   
  1.4             1.8458e-006     2.0836e-008     -1.3621e-009   
  1.45            1.8453e-006     2.1283e-008     -1.347e-009    
  1.5             1.8455e-006     2.1664e-008     -1.3347e-009   
  1.55            1.8471e-006     2.199e-008      -1.3282e-009   
  1.6             1.8432e-006     2.2245e-008     -1.3176e-009   
  1.65            1.8471e-006     2.2686e-008     -2.5365e-009   
  1.7             1.8525e-006     2.0798e-008     -1.3624e-009   
  1.75            1.8468e-006     2.1299e-008     -1.3466e-009   
  1.8             1.8529e-006     2.175e-008      -1.3357e-009   
  1.85            1.8473e-006     2.2167e-008     -1.3247e-009   
  1.9             1.8484e-006     2.2459e-008     -1.3159e-009   
  1.95            1.8409e-006     1.1161e-008     -2.4536e-009   
  2               1.8491e-006     2.3121e-008     -2.5274e-009   
  2.05            1.8476e-006     2.1342e-008     -1.348e-009    
  2.1             1.8487e-006     2.1774e-008     -1.3328e-009   
  2.15            1.8492e-006     2.2149e-008     -1.3242e-009   
  2.2             1.8556e-006     1.5183e-008     -1.39e-009     
  2.25            1.8511e-006     2.0552e-008     -1.3789e-009   
  2.3             1.8501e-006     2.0829e-008     -1.3628e-009   
  2.35            1.8495e-006     2.1313e-008     -1.3506e-009   
  2.4             1.85e-006       2.1648e-008     -1.3371e-009   
  2.45            1.8475e-006     2.1957e-008     -1.3244e-009   
  2.5             1.8617e-006     1.5143e-008     -1.3933e-009   
  2.55            1.8572e-006     2.0409e-008     -1.3746e-009   
  2.6             1.8499e-006     2.0907e-008     -1.3637e-009   
  2.65            1.8571e-006     2.1296e-008     -1.3505e-009   
  2.7             1.8507e-006     2.165e-008      -1.3368e-009   
  2.75            1.8505e-006     2.2089e-008     -1.326e-009    
  2.8             1.8444e-006     1.1365e-008     -2.4755e-009   
  2.85            1.8634e-006     1.2376e-008     -2.4545e-009   
  2.9             1.8438e-006     1.1258e-008     -2.4384e-009   
  2.95            1.8484e-006     1.1089e-008     -2.4208e-009   
  3               1.8473e-006     1.1166e-008     -2.4006e-009   
  3.05            1.8471e-006     1.1164e-008     -2.3809e-009   
  3.1             1.8561e-006     2.4306e-008     -2.4738e-009   
  3.15            1.8474e-006     1.1049e-008     -2.4567e-009   
  3.2             1.8486e-006     1.1013e-008     -2.4413e-009   
  3.25            1.848e-006      1.0793e-008     -2.4193e-009   
  3.3             1.8512e-006     1.0779e-008     -2.4038e-009   
  3.35            1.8483e-006     1.0767e-008     -2.3832e-009   
  3.4             1.8492e-006     1.077e-008      -2.3614e-009   
  3.45            1.85e-006       1.0809e-008     -2.3394e-009   
  3.5             2.1428e-006     1.191e-008      -2.317e-009    
  3.55            1.8513e-006     1.0777e-008     -2.2884e-009   
  3.6             1.851e-006      1.0839e-008     -2.2622e-009   
  3.65            1.8504e-006     1.0831e-008     -2.2364e-009   
  3.7             1.8499e-006     1.0741e-008     -2.2091e-009   
  3.75            1.8507e-006     1.0781e-008     -2.1801e-009   
  3.8             1.8515e-006     1.056e-008      -2.1528e-009   
  3.85            1.8524e-006     1.0438e-008     -2.1247e-009   
  3.9             1.8545e-006     1.0273e-008     -2.0919e-009   
  3.95            1.8546e-006     1.0116e-008     -2.07e-009     
  4               1.8548e-006     9.785e-009      -2.0296e-009   
  4.05            1.8558e-006     9.543e-009      -2.0003e-009   
  4.1             1.8561e-006     9.334e-009      -1.9732e-009   
  4.15            1.8585e-006     8.951e-009      -1.9452e-009   
  4.2             1.8581e-006     8.588e-009      -1.9134e-009   
  4.25            1.8634e-006     8.235e-009      -1.8791e-009   
  4.3             1.8577e-006     7.752e-009      -1.8511e-009   
  4.35            1.8612e-006     7.222e-009      -1.8136e-009   
  4.4             1.861e-006      6.51e-009       -1.7833e-009   
  4.45            1.8616e-006     6.122e-009      -1.7526e-009   
  4.5             1.8649e-006     5.249e-009      -1.7259e-009   
  4.55            1.8638e-006     4.535e-009      -1.6937e-009   
  4.6             1.8376e-006     -1.8039e-008    -2.5685e-009   
  4.65            1.8745e-006     -3.33e-010      -2.0124e-009   
  4.7             1.8752e-006     -1.542e-009     -1.969e-009    
  4.75            1.8465e-006     -8.102e-009     1.6029e-009    
  4.8             1.8785e-006     -3.8105e-008    1.8968e-009    
  4.85            1.8538e-006     -2.9223e-008    -1.783e-009    
  4.9             1.8825e-006     -3.112e-009     -1.54e-009     
  4.95            1.8515e-006     -1.5044e-008    1.8881e-009    
  5               1.884e-006      -3.8905e-008    2.7184e-009    
END_DB

BEGIN_DB
 ICCAP_VAR VG         2              
 ICCAP_VAR VS         0              
 ICCAP_VAR VB         0              

 #VD              ID              IB              IG             
  0               4.3469e-009     8.99e-009       2.691e-010     
  0.05            4.2693e-007     1.4816e-008     -1.0378e-009   
  0.1             8.4682e-007     2.5391e-008     -2.4046e-009   
  0.15            1.2514e-006     -1.0045e-008    -2.5931e-009   
  0.2             1.6456e-006     1.5291e-008     -1.7543e-009   
  0.25            2.025e-006      1.5624e-008     -1.7263e-009   
  0.3             2.392e-006      1.5924e-008     -1.692e-009    
  0.35            2.7464e-006     1.6244e-008     -1.6681e-009   
  0.4             3.087e-006      1.6621e-008     -1.6379e-009   
  0.45            3.4176e-006     1.6849e-008     -1.617e-009    
  0.5             3.7333e-006     1.7347e-008     -1.5833e-009   
  0.55            4.0366e-006     1.7537e-008     -1.555e-009    
  0.6             4.328e-006      9.168e-009      1.8836e-009    
  0.65            4.6024e-006     -1.481e-008     2.2309e-009    
  0.7             4.8669e-006     -2.4938e-008    2.3841e-009    
  0.75            5.122e-006      -1.0298e-008    -1.72e-011     
  0.8             5.3606e-006     1.1504e-008     -2.519e-009    
  0.85            5.5864e-006     2.1297e-008     -1.3476e-009   
  0.9             5.7993e-006     2.1551e-008     -1.3367e-009   
  0.95            6.0009e-006     1.1316e-008     -2.4818e-009   
  1               6.182e-006      1.9315e-008     -2.4669e-009   
  1.05            6.3536e-006     1.1297e-008     -2.4505e-009   
  1.1             6.5122e-006     1.1288e-008     -2.4317e-009   
  1.15            6.657e-006      1.1305e-008     -2.4108e-009   
  1.2             6.7852e-006     2.3766e-008     -2.4881e-009   
  1.25            6.9027e-006     1.1489e-008     -2.4762e-009   
  1.3             7.0081e-006     1.2578e-008     -2.461e-009    
  1.35            7.094e-006      1.1337e-008     -2.4478e-009   
  1.4             7.1691e-006     1.1959e-008     -2.4258e-009   
  1.45            7.2246e-006     1.132e-008      -2.4116e-009   
  1.5             7.2732e-006     1.1212e-008     -2.3845e-009   
  1.55            7.3103e-006     2.4155e-008     -2.4755e-009   
  1.6             7.3335e-006     1.1325e-008     -2.4621e-009   
  1.65            7.3504e-006     2.2896e-008     -2.5257e-009   
  1.7             7.3645e-006     2.101e-008      -1.3581e-009   
  1.75            7.3753e-006     2.1392e-008     -1.3429e-009   
  1.8             7.382e-006      1.5903e-008     -1.4189e-009   
  1.85            7.3755e-006     1.9876e-008     -1.4001e-009   
  1.9             7.3783e-006     2.0276e-008     -1.3846e-009   
  1.95            7.3814e-006     2.0633e-008     -1.3689e-009   
  2               7.3792e-006     2.1063e-008     -1.3543e-009   
  2.05            7.3794e-006     2.1503e-008     -1.3411e-009   
  2.1             7.3825e-006     2.1926e-008     -1.3276e-009   
  2.15            7.3791e-006     1.1452e-008     -2.4694e-009   
  2.2             7.3822e-006     1.1215e-008     -2.4567e-009   
  2.25            7.3862e-006     2.2953e-008     -2.5238e-009   
  2.3             7.3844e-006     2.1145e-008     -1.3536e-009   
  2.35            7.3876e-006     2.1518e-008     -1.3416e-009   
  2.4             7.387e-006      2.2128e-008     -1.327e-009    
  2.45            7.3904e-006     2.2403e-008     -1.3154e-009   
  2.5             7.3827e-006     1.1415e-008     -2.4508e-009   
  2.55            7.387e-006      1.13e-008       -2.4338e-009   
  2.6             7.3878e-006     2.3355e-008     -2.5064e-009   
  2.65            7.4008e-006     1.3404e-008     -2.4945e-009   
  2.7             7.4011e-006     1.3084e-008     -2.4841e-009   
  2.75            7.402e-006      1.27e-008       -2.4632e-009   
  2.8             7.4101e-006     1.2392e-008     -2.4457e-009   
  2.85            7.4037e-006     1.2011e-008     -2.4268e-009   
  2.9             7.3897e-006     1.1294e-008     -2.4093e-009   
  2.95            7.3943e-006     2.3885e-008     -2.4958e-009   
  3               7.4068e-006     1.2966e-008     -2.4773e-009   
  3.05            7.4029e-006     1.2573e-008     -2.4625e-009   
  3.1             7.4037e-006     1.2238e-008     -2.4458e-009   
  3.15            7.391e-006      1.1415e-008     -2.4266e-009   
  3.2             7.3887e-006     1.1285e-008     -2.4067e-009   
  3.25            7.3924e-006     1.1377e-008     -2.391e-009    
  3.3             7.3974e-006     2.4392e-008     -2.4793e-009   
  3.35            7.4092e-006     1.2376e-008     -2.4624e-009   
  3.4             7.405e-006      1.2123e-008     -2.4468e-009   
  3.45            7.4072e-006     1.1807e-008     -2.4201e-009   
  3.5             7.4013e-006     2.366e-008      -2.5004e-009   
  3.55            7.4082e-006     1.3054e-008     -2.4881e-009   
  3.6             7.4071e-006     1.2606e-008     -2.4752e-009   
  3.65            7.3933e-006     1.1205e-008     -2.4583e-009   
  3.7             7.3942e-006     1.1116e-008     -2.4398e-009   
  3.75            7.3931e-006     1.0981e-008     -2.4185e-009   
  3.8             7.4001e-006     1.0841e-008     -2.3973e-009   
  3.85            7.3967e-006     1.0788e-008     -2.3737e-009   
  3.9             7.3981e-006     1.0696e-008     -2.3567e-009   
  3.95            7.3974e-006     1.0831e-008     -2.333e-009    
  4               7.3979e-006     1.0649e-008     -2.3029e-009   
  4.05            7.4042e-006     1.0834e-008     -2.2831e-009   
  4.1             7.3983e-006     1.065e-008      -2.2544e-009   
  4.15            7.3987e-006     1.0615e-008     -2.2204e-009   
