! VERSION = 6.00
BEGIN_HEADER
 ICCAP_INPUTS
  VG         V  B GROUND SMU4 0.001 LIN        2    0          1.8        6    0.36      
  VS         V  E GROUND SMU3 0.1 CON        0
  VD         V  S GROUND SMU2 0.1 LIN        1    0          1.8        37   0.05      
  VB         V  C GROUND SMU1 0.1 LIN        3    0          -0.9       2    -0.9      
 ICCAP_OUTPUTS
  ID         I  S GROUND SMU2 B
  IB         I  C GROUND SMU1 B
  IG         I  B GROUND SMU4 B
END_HEADER

BEGIN_DB
 ICCAP_VAR VG         0              
 ICCAP_VAR VS         0              
 ICCAP_VAR VB         0              

 #VD              ID              IB              IG             
  0               -1.689e-010     1.1004e-008     1.3229e-009    
  0.05            5.3226e-008     1.3417e-008     2.525e-009     
  0.1             6.1725e-008     -1.2708e-008    2.5857e-009    
  0.15            6.489e-008      -7.298e-009     2.7586e-009    
  0.2             6.5232e-008     -1.6762e-008    1.5282e-009    
  0.25            6.4946e-008     -1.3361e-008    1.4973e-009    
  0.3             6.5999e-008     -1.3038e-008    1.4824e-009    
  0.35            6.7095e-008     -1.2814e-008    2.7477e-009    
  0.4             7.1329e-008     -7.905e-009     2.6985e-009    
  0.45            7.1252e-008     -1.6179e-008    2.0678e-009    
  0.5             7.2958e-008     -1.0277e-008    2.6754e-009    
  0.55            7.4061e-008     -7.247e-009     2.7428e-009    
  0.6             7.3629e-008     -1.655e-008     1.7415e-009    
  0.65            7.2908e-008     -1.6852e-008    1.7122e-009    
  0.7             7.3641e-008     -1.6341e-008    1.682e-009     
  0.75            7.4392e-008     -1.5939e-008    1.6533e-009    
  0.8             7.5408e-008     -1.5426e-008    1.6272e-009    
  0.85            7.606e-008      -1.4988e-008    1.595e-009     
  0.9             7.675e-008      -1.4571e-008    1.5786e-009    
  0.95            8.0111e-008     -1.4023e-008    1.549e-009     
  1               7.8061e-008     -1.3676e-008    1.5262e-009    
  1.05            8.1191e-008     -1.3232e-008    1.4993e-009    
  1.1             8.0057e-008     -1.2921e-008    2.7484e-009    
  1.15            8.3235e-008     -8.123e-009     2.6931e-009    
  1.2             8.2737e-008     -1.6191e-008    2.0847e-009    
  1.25            8.4203e-008     -1.0108e-008    2.6822e-009    
  1.3             8.5101e-008     -7.028e-009     2.7429e-009    
  1.35            8.4329e-008     -1.6373e-008    1.7616e-009    
  1.4             8.2973e-008     1.5485e-008     4.763e-010     
  1.45            8.3762e-008     -9.709e-009     -8.203e-010    
  1.5             8.6502e-008     -1.5449e-008    2.2211e-009    
  1.55            8.6853e-008     -1.6576e-008    -1.8952e-009   
  1.6             9.1209e-008     1.114e-008      -2.4978e-009   
  1.65            8.9784e-008     6.862e-009      -2.632e-009    
  1.7             9.1792e-008     1.5879e-008     -1.6425e-009   
  1.75            9.1595e-008     1.2269e-008     -2.3473e-009   
  1.8             9.136e-008      8.226e-009      -2.6035e-009   
END_DB

BEGIN_DB
 ICCAP_VAR VG         0.36           
 ICCAP_VAR VS         0              
 ICCAP_VAR VB         0              

 #VD              ID              IB              IG             
  0               8.064e-009      1.7012e-008     2.7489e-009    
  0.05            4.5313e-006     -1.6837e-008    -2.5376e-009   
  0.1             8.143e-006      1.4459e-008     -2.0107e-009   
  0.15            1.08183e-005    1.2123e-008     -2.3264e-009   
  0.2             1.2582e-005     -1.679e-008     7.541e-010     
  0.25            1.3709e-005     1.0803e-008     -2.5234e-009   
  0.3             1.4316e-005     1.1674e-008     -2.4305e-009   
  0.35            1.4674e-005     1.8505e-008     -1.559e-009    
  0.4             1.4906e-005     1.7564e-008     -1.3957e-009   
  0.45            1.5086e-005     1.9626e-008     -1.2929e-009   
  0.5             1.5234e-005     1.1062e-008     -2.4728e-009   
  0.55            1.5366e-005     1.2147e-008     -2.3562e-009   
  0.6             1.549e-005      1.6088e-008     -1.461e-009    
  0.65            1.56e-005       1.8642e-008     -1.327e-009    
  0.7             1.5706e-005     1.0955e-008     -2.5134e-009   
  0.75            1.5795e-005     1.1662e-008     -2.4155e-009   
  0.8             1.5889e-005     1.8058e-008     -1.5319e-009   
  0.85            1.5991e-005     1.79e-008       -1.3758e-009   
  0.9             1.6055e-005     1.9803e-008     -1.2773e-009   
  0.95            1.6138e-005     1.1355e-008     -2.4598e-009   
  1               1.6211e-005     1.227e-008      -2.3365e-009   
  1.05            1.6288e-005     1.532e-008      -1.4326e-009   
  1.1             1.6348e-005     1.8792e-008     -1.3118e-009   
  1.15            1.6429e-005     1.1154e-008     -2.501e-009    
  1.2             1.647e-005      1.1731e-008     -2.3908e-009   
  1.25            1.6543e-005     1.7187e-008     -1.4975e-009   
  1.3             1.6599e-005     1.8292e-008     -1.3521e-009   
  1.35            1.6662e-005     1.0558e-008     -2.5322e-009   
  1.4             1.672e-005      1.1545e-008     -2.4417e-009   
  1.45            1.6768e-005     1.908e-008      -1.5737e-009   
  1.5             1.6819e-005     1.7449e-008     -1.4052e-009   
  1.55            1.6874e-005     1.9148e-008     -1.2986e-009   
  1.6             1.692e-005      1.112e-008      -2.4843e-009   
  1.65            1.6978e-005     1.205e-008      -2.3723e-009   
  1.7             1.7022e-005     1.6385e-008     -1.463e-009    
  1.75            1.707e-005      1.8375e-008     -1.3351e-009   
  1.8             1.7112e-005     1.0801e-008     -2.5175e-009   
END_DB

BEGIN_DB
 ICCAP_VAR VG         0.72           
 ICCAP_VAR VS         0              
 ICCAP_VAR VB         0              

 #VD              ID              IB              IG             
  0               9.926e-010      -7.911e-009     -2.6198e-009   
  0.05            9.2284e-006     -1.704e-008     -2.4865e-009   
  0.1             1.7693e-005     -1.7097e-008    8.723e-010     
  0.15            2.5382e-005     9.132e-009      7.853e-010     
  0.2             3.2261e-005     1.0974e-008     -2.4971e-009   
  0.25            3.8238e-005     1.1466e-008     -2.3908e-009   
  0.3             4.333e-005      1.755e-008      -1.5258e-009   
  0.35            4.7501e-005     1.8406e-008     -1.3753e-009   
  0.4             5.0833e-005     1.0394e-008     -2.5291e-009   
  0.45            5.335e-005      1.1112e-008     -2.4395e-009   
  0.5             5.5182e-005     1.2052e-008     -2.3078e-009   
  0.55            5.6479e-005     1.5346e-008     -1.4318e-009   
  0.6             5.7412e-005     1.9335e-008     -1.3143e-009   
  0.65            5.8108e-005     1.1e-008        -2.4806e-009   
  0.7             5.8645e-005     1.1712e-008     -2.3717e-009   
  0.75            5.9085e-005     1.6868e-008     -1.4972e-009   
  0.8             5.9463e-005     1.8686e-008     -1.3531e-009   
  0.85            5.9811e-005     1.0797e-008     -2.5189e-009   
  0.9             6.0119e-005     1.1527e-008     -2.4214e-009   
  0.95            6.04e-005       1.8527e-008     -1.5706e-009   
  1               6.0658e-005     1.8057e-008     -1.4072e-009   
  1.05            6.0894e-005     1.9561e-008     -1.3008e-009   
  1.1             6.1147e-005     1.1054e-008     -2.4654e-009   
  1.15            6.1349e-005     1.1813e-008     -2.3433e-009   
  1.2             6.1557e-005     1.6201e-008     -1.464e-009    
  1.25            6.1753e-005     1.8792e-008     -1.3342e-009   
  1.3             6.196e-005      1.0809e-008     -2.5014e-009   
  1.35            6.2137e-005     1.1673e-008     -2.3937e-009   
  1.4             6.2303e-005     1.7616e-008     -1.5352e-009   
  1.45            6.2465e-005     1.8376e-008     -1.3775e-009   
  1.5             6.2636e-005     1.0612e-008     -2.5349e-009   
  1.55            6.2788e-005     1.1106e-008     -2.4454e-009   
  1.6             6.2934e-005     1.1911e-008     -2.3148e-009   
  1.65            6.3081e-005     1.5358e-008     -1.4358e-009   
  1.7             6.3226e-005     1.9315e-008     -1.3181e-009   
  1.75            6.3365e-005     1.0865e-008     -2.4854e-009   
  1.8             6.35e-005       1.1624e-008     -2.369e-009    
END_DB

BEGIN_DB
 ICCAP_VAR VG         1.08           
 ICCAP_VAR VS         0              
 ICCAP_VAR VB         0              

 #VD              ID              IB              IG             
  0               8.701e-009      -1.7196e-008    2.7475e-009    
  0.05            1.2934e-005     1.6957e-008     -9.191e-010    
  0.1             2.5216e-005     2.137e-009      -1.6395e-009   
  0.15            3.683e-005      1.7368e-008     -1.4649e-009   
  0.2             4.7707e-005     1.8896e-008     -1.3389e-009   
  0.25            5.7819e-005     1.083e-008      -2.5038e-009   
  0.3             6.7126e-005     1.1474e-008     -2.3988e-009   
  0.35            7.5584e-005     1.7889e-008     -1.5385e-009   
  0.4             8.3188e-005     1.8341e-008     -1.3865e-009   
  0.45            8.9943e-005     1.0364e-008     -2.5337e-009   
  0.5             9.5834e-005     1.1104e-008     -2.4498e-009   
  0.55            0.000100832     1.2039e-008     -2.3176e-009   
  0.6             0.000105057     1.5328e-008     -1.434e-009    
  0.65            0.000108511     1.9102e-008     -1.319e-009    
  0.7             0.000111255     1.0953e-008     -2.4884e-009   
  0.75            0.000113413     1.1728e-008     -2.3704e-009   
  0.8             0.00011494      -1.1039e-008    9.143e-010     
  0.85            0.00011611      -8.234e-009     -5.3e-012      
  0.9             0.0001172       -1.2187e-008    2.7192e-009    
  0.95            0.00011796      -7.712e-009     2.7525e-009    
  1               0.00011871      -7.31e-009      2.7598e-009    
  1.05            0.0001193       -6.896e-009     2.7563e-009    
  1.1             0.00011982      -7.678e-009     2.7395e-009    
  1.15            0.00012036      -8.12e-009      2.7067e-009    
  1.2             0.00012079      -7.732e-009     2.6594e-009    
  1.25            0.0001212       -1.7176e-008    1.5805e-009    
  1.3             0.0001216       -1.6892e-008    1.7782e-009    
  1.35            0.00012197      -1.657e-008     1.9774e-009    
  1.4             0.0001223       -1.5876e-008    2.1685e-009    
  1.45            0.00012267      -1.3269e-008    1.4828e-009    
  1.5             0.00012293      -1.7093e-008    1.6501e-009    
  1.55            0.0001232       -1.6814e-008    1.8507e-009    
  1.6             0.00012349      -1.6428e-008    2.0451e-009    
  1.65            0.00012375      -1.186e-008     2.7165e-009    
  1.7             0.00012397      -7.753e-009     2.748e-009     
  1.75            0.00012426      -7.183e-009     2.7606e-009    
  1.8             0.00012451      -7.117e-009     2.759e-009     
END_DB

BEGIN_DB
 ICCAP_VAR VG         1.44           
 ICCAP_VAR VS         0              
 ICCAP_VAR VB         0              

 #VD              ID              IB              IG             
  0               1.1355e-008     -1.1693e-008    3.218e-010     
  0.05            1.6117e-005     -1.7305e-008    8.901e-010     
  0.1             3.1606e-005     -3.862e-009     1.6282e-009    
  0.15            4.6497e-005     -1.7619e-008    1.4342e-009    
  0.2             6.0721e-005     -1.8918e-008    2.7241e-009    
  0.25            7.4234e-005     -1.024e-008     2.652e-009     
  0.3             8.7052e-005     -1.7308e-008    1.747e-009     
  0.35            9.9027e-005     -1.7331e-008    1.5044e-009    
  0.4             0.000110237     -1.8482e-008    2.7369e-009    
  0.45            0.00012069      -1.7113e-008    -5.993e-010    
  0.5             0.00013019      -1.6681e-008    1.9453e-009    
  0.55            0.0001389       -1.5982e-008    2.14e-009      
  0.6             0.00014675      -1.2804e-008    2.7283e-009    
  0.65            0.00015381      -7.566e-009     2.7535e-009    
  0.7             0.00016005      -7.247e-009     2.7554e-009    
  0.75            0.00016546      -7.067e-009     2.7522e-009    
  0.8             0.00017014      -7.644e-009     2.732e-009     
  0.85            0.00017408      -8.149e-009     2.6948e-009    
  0.9             0.00017735      -1.76e-008      1.4674e-009    
  0.95            0.00018005      -1.7169e-008    1.6377e-009    
  1               0.00018227      -1.6958e-008    1.8299e-009    
  1.05            0.00018409      -1.6573e-008    2.0314e-009    
  1.1             0.00018557      -1.1716e-008    2.7111e-009    
  1.15            0.00018673      -7.61e-009      2.7427e-009    
  1.2             0.00018777      -7.222e-009     2.7538e-009    
  1.25            0.0001887       -7.148e-009     2.7557e-009    
  1.3             0.00018947      -7.566e-009     2.7456e-009    
  1.35            0.00019017      -7.916e-009     2.7171e-009    
  1.4             0.00019084      -7.951e-009     2.6738e-009    
  1.45            0.00019141      -1.7276e-008    1.5418e-009    
  1.5             0.00019191      -1.688e-008     1.7274e-009    
  1.55            0.00019242      -1.6897e-008    1.9254e-009    
  1.6             0.00019292      -1.6298e-008    2.1185e-009    
  1.65            0.00019339      -1.2657e-008    2.7235e-009    
  1.7             0.00019368      -7.399e-009     2.749e-009     
  1.75            0.00019414      -7.021e-009     2.757e-009     
  1.8             0.00019448      -7.231e-009     2.7558e-009    
END_DB

BEGIN_DB
 ICCAP_VAR VG         1.8            
 ICCAP_VAR VS         0              
 ICCAP_VAR VB         0              

 #VD              ID              IB              IG             
  0               1.7939e-008     5.916e-009      1.2064e-009    
  0.05            1.8978e-005     -7.46e-009      -1.222e-010    
  0.1             3.7324e-005     1.1485e-008     -2.3856e-009   
  0.15            5.5176e-005     1.7376e-008     -1.5125e-009   
  0.2             7.2357e-005     1.8468e-008     -1.36e-009     
  0.25            8.8896e-005     1.0803e-008     -2.5209e-009   
  0.3             0.000104746     1.1538e-008     -2.4303e-009   
  0.35            0.00011982      1.2959e-008     1.584e-010     
  0.4             0.00013412      9.176e-009      7.743e-010     
  0.45            0.00014774      1.7624e-008     -1.4344e-009   
  0.5             0.00016049      1.6795e-008     -1.5629e-009   
  0.55            0.00017244      1.6072e-008     -1.7155e-009   
  0.6             0.00018355      1.5135e-008     -1.8794e-009   
  0.65            0.00019388      1.4047e-008     -2.0398e-009   
  0.7             0.00020336      1.6386e-008     -1.4684e-009   
  0.75            0.00021201      1.6467e-008     -1.609e-009    
  0.8             0.00021985      1.5804e-008     -1.7583e-009   
  0.85            0.00022692      1.4868e-008     -1.93e-009     
  0.9             0.00023321      1.4313e-008     -1.3896e-009   
  0.95            0.00023876      1.694e-008      -1.5069e-009   
  1               0.00024364      1.6445e-008     -1.6491e-009   
  1.05            0.00024779      1.5495e-008     -1.8086e-009   
  1.1             0.00025137      1.4684e-008     -1.9734e-009   
  1.15            0.00025445      1.5187e-008     -1.4167e-009   
  1.2             0.00025703      1.6896e-008     -1.5398e-009   
  1.25            0.00025916      1.6163e-008     -1.6924e-009   
  1.3             0.00026099      1.5317e-008     -1.8533e-009   
  1.35            0.00026251      1.4204e-008     -2.0165e-009   
  1.4             0.00026387      1.5928e-008     -1.4474e-009   
  1.45            0.00026501      1.6656e-008     -1.5775e-009   
  1.5             0.00026601      1.6078e-008     -1.7318e-009   
  1.55            0.0002669       1.5189e-008     -1.8956e-009   
  1.6             0.00026775      1.3842e-008     -1.3782e-009   
  1.65            0.00026844      1.7252e-008     -1.4804e-009   
  1.7             0.00026911      1.6384e-008     -1.6281e-009   
  1.75            0.00026975      1.5873e-008     -1.7855e-009   
  1.8             0.00027034      1.483e-008      -1.9401e-009   
END_DB

BEGIN_DB
 ICCAP_VAR VG         0              
 ICCAP_VAR VS         0              
 ICCAP_VAR VB         -0.9           

 #VD              ID              IB              IG             
  0               1.586e-010      -7.18e-009      7.437e-010     
  0.05            2.1256e-009     -5.457e-009     2.3719e-009    
  0.1             4.834e-010      1.0804e-008     -2.6065e-009   
  0.15            -2.4986e-009    -1.3024e-008    1.8614e-009    
  0.2             1.7274e-009     1.6994e-008     -1.853e-009    
  0.25            -8.727e-010     -1.6995e-008    2.1372e-009    
  0.3             1.556e-009      1.6139e-008     -2.0697e-009   
  0.35            -6.672e-010     -1.6562e-008    2.3624e-009    
  0.4             1.3714e-009     1.488e-008      -2.2649e-009   
  0.45            -4.137e-010     -1.5641e-008    2.534e-009     
  0.5             1.1644e-009     1.3639e-008     -2.4133e-009   
  0.55            -1.614e-010     -1.4419e-008    2.6529e-009    
  0.6             9.605e-010      1.201e-008      -2.5122e-009   
  0.65            -2.6781e-009    -8.635e-009     2.7174e-009    
  0.7             3.7388e-009     1.0219e-008     -1.4663e-009   
  0.75            -2.4083e-009    -1.3059e-008    1.8717e-009    
  0.8             2.906e-009      8.751e-009      1.7188e-009    
  0.85            3.4148e-009     1.5725e-008     -1.7847e-009   
  0.9             -2.1609e-009    -1.903e-008     2.2812e-009    
  0.95            1.5226e-009     1.5553e-008     -2.1962e-009   
  1               -4.456e-010     -1.6289e-008    2.4755e-009    
  1.05            1.3321e-009     1.4207e-008     -2.3587e-009   
  1.1             -1.93e-010      -1.5152e-008    2.6122e-009    
  1.15            1.1233e-009     1.2719e-008     -2.4768e-009   
  1.2             -2.6892e-009    -8.04e-009      2.696e-009     
  1.25            3.8794e-009     8.901e-009      -1.3951e-009   
  1.3             3.296e-010      -1.0626e-008    2.7435e-009    
  1.35            7.027e-010      1.0975e-008     -2.5961e-009   
  1.4             -2.3649e-009    -1.2147e-008    1.8005e-009    
  1.45            3.2967e-009     1.9943e-008     -1.9845e-009   
  1.5             -6.137e-010     -1.6827e-008    2.2851e-009    
  1.55            1.582e-009      1.554e-008      -2.1964e-009   
  1.6             -3.818e-010     -1.6228e-008    2.4797e-009    
  1.65            1.3893e-009     1.4131e-008     -2.3608e-009   
  1.7             -1.198e-010     -1.4804e-008    2.6149e-009    
  1.75            1.1829e-009     1.2543e-008     -2.4813e-009   
  1.8             -2.6317e-009    -8.163e-009     2.6972e-009    
END_DB

BEGIN_DB
 ICCAP_VAR VG         0.36           
 ICCAP_VAR VS         0              
 ICCAP_VAR VB         -0.9           

 #VD              ID              IB              IG             
  0               -1.446e-009     -8.971e-009     7.457e-010     
  0.05            2.0486e-006     -1.5468e-008    -2.2239e-009   
  0.1             3.2845e-006     1.1244e-008     -2.4304e-009   
  0.15            3.8888e-006     9.731e-009      -2.5626e-009   
  0.2             4.1479e-006     7.81e-009       -2.6216e-009   
  0.25            4.2663e-006     6.426e-009      -2.6429e-009   
  0.3             4.3514e-006     1.6948e-008     -1.4971e-009   
  0.35            4.4078e-006     1.5355e-008     -1.831e-009    
  0.4             4.4604e-006     1.5929e-008     -1.45e-009     
  0.45            4.5057e-006     1.5821e-008     -1.7655e-009   
  0.5             4.5474e-006     1.4737e-008     -1.4105e-009   
  0.55            4.5821e-006     1.5951e-008     -1.7008e-009   
