! VERSION = 6.00
BEGIN_HEADER
 ICCAP_INPUTS
  VG         V  B GROUND SMU4 0.001 LIN        1    0          5          101  0.05      
  VS         V  E GROUND SMU2 0.1 CON        0
  VB         V  C GROUND SMU3 0.1 LIN        3    0          -5         3    -2.5      
  VD         V  S GROUND SMU1 0.1 LIN        2    0.1        5          2    4.9       
 ICCAP_OUTPUTS
  IG         I  B GROUND SMU4 B
  ID         I  S GROUND SMU1 B
  IB         I  C GROUND SMU3 B
END_HEADER

BEGIN_DB
 ICCAP_VAR VS         0              
 ICCAP_VAR VB         0              
 ICCAP_VAR VD         0.1            

 #VG              IG              ID              IB             
  0               -1.0598e-009    1.009e-009      -1.7497e-008   
  0.05            -1.5021e-009    1.00674e-008    2.5129e-008    
  0.1             1.2762e-009     3.226e-008      1.0646e-008    
  0.15            2.8148e-009     9.2851e-008     -9.021e-009    
  0.2             -6.42e-010      1.9859e-007     1.1108e-008    
  0.25            -1.0223e-009    3.4802e-007     -1.0115e-008   
  0.3             1.3333e-009     5.1678e-007     -2.4316e-008   
  0.35            2.833e-009      6.947e-007      -8.451e-009    
  0.4             2.6197e-009     8.7583e-007     -7.8e-011      
  0.45            6.223e-010      1.05436e-006    1.0742e-008    
  0.5             -2.583e-009     1.2255e-006     -2.1521e-008   
  0.55            -2.0787e-009    1.3967e-006     4.11e-010      
  0.6             -1.5298e-009    1.5631e-006     2.959e-009     
  0.65            -1.3487e-009    1.7288e-006     6.984e-009     
  0.7             -1.272e-009     1.8881e-006     1.1052e-008    
  0.75            -2.3143e-009    2.0436e-006     1.2393e-008    
  0.8             -1.6794e-009    2.1935e-006     1.788e-009     
  0.85            -1.3824e-009    2.3434e-006     5.25e-009      
  0.9             -1.3023e-009    2.4902e-006     9.83e-009      
  0.95            -2.4913e-009    2.6356e-006     1.1054e-008    
  1               -1.8865e-009    2.7739e-006     9.78e-010      
  1.05            -1.445e-009     2.9138e-006     3.765e-009     
  1.1             -1.329e-009     3.0514e-006     8.563e-009     
  1.15            -2.6111e-009    3.188e-006      1.1379e-008    
  1.2             -2.1173e-009    3.3182e-006     5.99e-010      
  1.25            -1.5495e-009    3.4506e-006     2.554e-009     
  1.3             -1.3523e-009    3.5819e-006     6.698e-009     
  1.35            -1.2761e-009    3.7104e-006     1.1079e-008    
  1.4             -2.3536e-009    3.8391e-006     1.2293e-008    
  1.45            -7.782e-010     3.9607e-006     -1.1101e-008   
  1.5             -1.1313e-009    4.0857e-006     -9.129e-009    
  1.55            9.59e-011       4.2063e-006     -1.1134e-008   
  1.6             1.3079e-009     4.3301e-006     -2.4832e-008   
  1.65            2.8341e-009     4.4523e-006     -8.611e-009    
  1.7             2.5491e-009     4.5751e-006     -1.67e-010     
  1.75            6.858e-010      4.6941e-006     1.0735e-008    
  1.8             -1.5506e-009    4.8105e-006     1.7334e-008    
  1.85            -1.3525e-009    4.927e-006      6.877e-009     
  1.9             -1.2721e-009    5.0441e-006     1.094e-008     
  1.95            -2.3239e-009    5.16e-006       1.244e-008     
  2               -7.937e-010     5.2698e-006     -1.102e-008    
  2.05            -1.1511e-009    5.3836e-006     -9.047e-009    
  2.1             1.2815e-009     5.4956e-006     -2.5524e-008   
  2.15            2.8216e-009     5.6079e-006     -8.802e-009    
  2.2             -1.7059e-009    5.7213e-006     2.1542e-008    
  2.25            -1.3841e-009    5.8289e-006     5.232e-009     
  2.3             -1.303e-009     5.9384e-006     9.895e-009     
  2.35            -2.4949e-009    6.0479e-006     1.1086e-008    
  2.4             -1.8945e-009    6.1536e-006     1.169e-009     
  2.45            -1.4454e-009    6.2598e-006     3.917e-009     
  2.5             -1.329e-009     6.3661e-006     8.428e-009     
  2.55            -2.6129e-009    6.4718e-006     1.1349e-008    
  2.6             -2.1171e-009    6.5726e-006     3.25e-010      
  2.65            -1.5494e-009    6.6759e-006     2.684e-009     
  2.7             -1.3546e-009    6.7789e-006     6.671e-009     
  2.75            -1.2766e-009    6.8799e-006     1.1032e-008    
  2.8             -2.3491e-009    6.9828e-006     1.2441e-008    
  2.85            -7.826e-010     7.0764e-006     -1.1217e-008   
  2.9             -1.1343e-009    7.176e-006      -9.25e-009     
  2.95            9.35e-011       7.2703e-006     -1.1156e-008   
  3               -4.054e-010     7.3689e-006     -1.1058e-008   
  3.05            -8.595e-010     7.4643e-006     -1.0511e-008   
  3.1             1.4637e-009     7.556e-006      -1.282e-008    
  3.15            1.2618e-009     7.6541e-006     -8.166e-009    
  3.2             2.782e-009      7.7466e-006     -9.689e-009    
  3.25            4.182e-010      7.841e-006      1.0542e-008    
  3.3             -1.8543e-009    7.931e-006      1.5598e-008    
  3.35            -1.4259e-009    8.0176e-006     4.241e-009     
  3.4             -1.3189e-009    8.1069e-006     8.924e-009     
  3.45            -2.5915e-009    8.1961e-006     1.1224e-008    
  3.5             -2.0541e-009    8.2793e-006     4.31e-010      
  3.55            -1.514e-009     8.3646e-006     2.906e-009     
  3.6             -1.3458e-009    8.4508e-006     7.229e-009     
  3.65            -2.6599e-009    8.5347e-006     1.1094e-008    
  3.7             1.8308e-009     8.6141e-006     -1.8727e-008   
  3.75            1.3523e-009     8.6973e-006     -8.513e-009    
  3.8             1.2362e-009     8.7777e-006     -8.253e-009    
  3.85            2.6789e-009     8.858e-006      -1.1972e-008   
  3.9             5.751e-010      8.9364e-006     1.0792e-008    
  3.95            9.542e-010      9.0138e-006     9.5e-009       
  4               -1.886e-010     9.0851e-006     1.1741e-008    
  4.05            -1.3987e-009    9.1638e-006     2.4304e-008    
  4.1             -1.3062e-009    9.2359e-006     9.662e-009     
  4.15            -2.519e-009     9.3103e-006     1.1269e-008    
  4.2             -1.9212e-009    9.3781e-006     7.9e-010       
  4.25            -1.4577e-009    9.4485e-006     3.6e-009       
  4.3             -1.3315e-009    9.5185e-006     8.349e-009     
  4.35            -2.6241e-009    9.588e-006      1.1324e-008    
  4.4             -2.1452e-009    9.6513e-006     5.16e-010      
  4.45            -1.5613e-009    9.7184e-006     2.569e-009     
  4.5             -1.3577e-009    9.7846e-006     6.432e-009     
  4.55            -1.2817e-009    9.8488e-006     1.0818e-008    
  4.6             -2.3646e-009    9.9132e-006     1.2171e-008    
  4.65            -1.7256e-009    9.97e-006       1.6e-009       
  4.7             -1.3927e-009    1.00316e-005    4.96e-009      
  4.75            -1.3068e-009    1.00925e-005    9.653e-009     
  4.8             -2.5182e-009    1.0153e-005     1.1137e-008    
  4.85            -1.9337e-009    1.02053e-005    9.29e-010      
  4.9             -1.4545e-009    1.02629e-005    3.464e-009     
  4.95            -1.3326e-009    1.03174e-005    8.152e-009     
  5               -2.6248e-009    1.03743e-005    1.1461e-008    
END_DB

BEGIN_DB
 ICCAP_VAR VS         0              
 ICCAP_VAR VB         0              
 ICCAP_VAR VD         5              

 #VG              IG              ID              IB             
  0               2.8336e-009     4.4868e-009     -1.1294e-008   
  0.05            2.1111e-009     1.154e-008      1.023e-008     
  0.1             9.986e-010      3.938e-008      7.653e-009     
  0.15            -2.372e-009     1.09643e-007    8.096e-009     
  0.2             -2.062e-010     2.4792e-007     -1.6682e-008   
  0.25            -2.6134e-009    4.6091e-007     -2.99e-009     
  0.3             -2.2589e-009    7.5026e-007     -3.1991e-008   
  0.35            -2.5824e-009    1.12567e-006    -4.0128e-008   
  0.4             3.7e-011        1.5739e-006     -4.0907e-008   
  0.45            -4.862e-010     2.1084e-006     -6.5646e-008   
  0.5             -9.089e-010     2.7201e-006     -7.7161e-008   
  0.55            -1.2993e-009    3.4106e-006     -8.8312e-008   
  0.6             1.389e-009      4.1476e-006     -1.02113e-007  
  0.65            1.0591e-009     4.9721e-006     -1.03742e-007  
  0.7             1.4517e-009     5.8433e-006     -1.3818e-007   
  0.75            1.2595e-009     6.7863e-006     -1.3587e-007   
  0.8             2.7816e-009     7.7869e-006     -1.4865e-007   
  0.85            2.2687e-009     8.8638e-006     -1.497e-007    
  0.9             1.5894e-009     9.9811e-006     -1.6319e-007   
  0.95            1.2938e-009     1.11583e-005    -1.7578e-007   
  1               1.3981e-009     1.2391e-005     -1.8542e-007   
  1.05            2.8171e-009     1.3677e-005     -1.8989e-007   
  1.1             2.7316e-009     1.5032e-005     -1.8743e-007   
  1.15            2.1616e-009     1.6417e-005     -1.9334e-007   
  1.2             1.5134e-009     1.7854e-005     -2.0193e-007   
  1.25            1.2789e-009     1.9342e-005     -2.0796e-007   
  1.3             2.8138e-009     2.0873e-005     -2.1048e-007   
  1.35            2.3756e-009     2.2482e-005     -2.0303e-007   
  1.4             1.671e-009      2.411e-005      -2.0664e-007   
  1.45            1.316e-009      2.5785e-005     -2.1138e-007   
  1.5             2.8324e-009     2.7504e-005     -2.0977e-007   
  1.55            2.5655e-009     2.9296e-005     -1.9958e-007   
  1.6             1.8928e-009     3.11e-005       -1.9867e-007   
  1.65            1.3871e-009     3.2953e-005     -2.0163e-007   
  1.7             2.8226e-009     3.4851e-005     -1.9813e-007   
  1.75            2.7091e-009     3.6814e-005     -1.8537e-007   
  1.8             2.1141e-009     3.8791e-005     -1.8188e-007   
  1.85            1.4966e-009     4.0807e-005     -1.8179e-007   
  1.9             1.2755e-009     4.2865e-005     -1.7865e-007   
  1.95            2.8089e-009     4.496e-005      -1.7397e-007   
  2               2.3425e-009     4.713e-005      -1.5938e-007   
  2.05            1.6565e-009     4.93e-005       -1.5663e-007   
  2.1             1.3138e-009     5.1518e-005     -1.552e-007    
  2.15            2.8345e-009     5.3759e-005     -1.4869e-007   
  2.2             2.536e-009      5.6085e-005     -1.3409e-007   
  2.25            1.8581e-009     5.8397e-005     -1.2943e-007   
  2.3             1.3809e-009     6.0755e-005     -1.2928e-007   
  2.35            2.826e-009      6.3153e-005     -1.2296e-007   
  2.4             2.6918e-009     6.5649e-005     -1.0812e-007   
  2.45            2.0924e-009     6.8107e-005     -1.0303e-007   
  2.5             1.4885e-009     7.0596e-005     -1.0219e-007   
  2.55            1.2714e-009     7.3122e-005     -9.847e-008    
  2.6             2.7992e-009     7.5677e-005     -9.38e-008     
  2.65            -1.9526e-009    7.8359e-005     -6.4132e-008   
  2.7             -1.4641e-009    8.098e-005      -6.9299e-008   
  2.75            -1.3403e-009    8.3639e-005     -5.9434e-008   
  2.8             -2.623e-009     8.6334e-005     -5.1061e-008   
  2.85            -2.1423e-009    8.903e-005      -5.7158e-008   
  2.9             -1.5666e-009    9.1783e-005     -5.0799e-008   
  2.95            -1.3635e-009    9.4564e-005     -4.2401e-008   
  3               -2.6773e-009    9.7367e-005     -3.3592e-008   
  3.05            -2.3375e-009    0.000100166     -4.0153e-008   
  3.1             -1.7215e-009    0.000103027     -3.5282e-008   
  3.15            -1.3989e-009    0.000105912     -2.8492e-008   
  3.2             -1.312e-009     0.000108818     -2.0627e-008   
  3.25            -2.1853e-009    0.000111714     -2.6533e-008   
  3.3             2.8036e-009     0.00011461      -2.1865e-008   
  3.35            2.355e-009      0.00011756      -2.1973e-008   
  3.4             1.669e-009      0.00012055      -2.2824e-008   
  3.45            1.3175e-009     0.00012357      -2.5659e-008   
  3.5             2.8419e-009     0.00012658      -2.3495e-008   
  3.55            2.5526e-009     0.00012968      -1.3354e-008   
  3.6             1.8826e-009     0.00013274      -1.3728e-008   
  3.65            1.3845e-009     0.00013584      -1.8056e-008   
  3.7             1.2478e-009     0.00013892      -1.6912e-008   
  3.75            2.714e-009      0.00014206      -1.877e-008    
  3.8             2.1068e-009     0.00014523      -7.526e-009    
  3.85            1.4902e-009     0.00014835      -1.1315e-008   
  3.9             1.2722e-009     0.00015153      -1.2897e-008   
  3.95            2.8069e-009     0.00015471      -1.3133e-008   
  4               -1.5183e-009    0.00015802      1.7021e-008    
  4.05            -1.349e-009     0.00016124      4.773e-009     
  4.1             -2.6595e-009    0.00016449      9.178e-009     
  4.15            -1.3168e-009    0.0001678       -1.1442e-008   
  4.2             -1.234e-010     0.00017096      -1.2908e-008   
  4.25            -6.355e-010     0.00017424      -1.2618e-008   
  4.3             -1.0165e-009    0.00017759      -1.079e-008    
  4.35            -1.4273e-009    0.00018092      -1.1325e-008   
  4.4             -2.609e-010     0.00018411      -1.1946e-008   
  4.45            -7.555e-010     0.00018744      -1.1701e-008   
  4.5             -1.1116e-009    0.00019081      -1.01e-008     
  4.55            1.049e-010      0.00019406      -1.1623e-008   
  4.6             1.3229e-009     0.00019739      -2.5197e-008   
  4.65            2.8413e-009     0.0002007       -8.787e-009    
  4.7             2.5453e-009     0.00020409      -3.37e-010     
  4.75            2.4694e-009     0.00020746      7.959e-009     
  4.8             4.872e-010      0.00021088      1.0427e-008    
  4.85            -1.7567e-009    0.00021428      2.2371e-008    
  4.9             -1.4044e-009    0.00021765      4.775e-009     
  4.95            -1.3118e-009    0.00022101      9.371e-009     
  5               -2.529e-009     0.0002244       1.1087e-008    
END_DB

BEGIN_DB
 ICCAP_VAR VS         0              
 ICCAP_VAR VB         -2.5           
 ICCAP_VAR VD         0.1            

 #VG              IG              ID              IB             
  0               -8.519e-010     -8.335e-010     -2.5809e-008   
  0.05            -1.3012e-009    1.4407e-009     2.06e-008      
  0.1             -2.6509e-009    1.15e-010       1.1402e-008    
  0.15            -8.16e-011      -2.059e-009     -1.124e-008    
  0.2             -3.035e-010     -2.1356e-009    -1.1453e-008   
  0.25            -5.18e-010      -2.1863e-009    -1.1028e-008   
  0.3             -7.319e-010     -2.1892e-009    -1.0185e-008   
  0.35            1.2142e-009     -1.3646e-009    -1.5315e-008   
  0.4             2.7672e-009     1.9124e-009     -1.389e-008    
  0.45            1.887e-010      7.4576e-009     1.063e-008     
  0.5             -1.9855e-009    2.1839e-008     -1.9006e-008   
  0.55            -1.4833e-009    7.1385e-008     3.172e-009     
  0.6             1.3574e-009     1.6382e-007     -2.2324e-008   
  0.65            -1.291e-009     2.9508e-007     2.5654e-008    
  0.7             -2.4184e-009    4.3927e-007     1.1705e-008    
  0.75            -1.7853e-009    5.8882e-007     1.409e-009     
  0.8             -1.4092e-009    7.4293e-007     4.274e-009     
  0.85            -1.3191e-009    8.9649e-007     9.197e-009     
  0.9             -2.5759e-009    1.04862e-006    1.1136e-008    
  0.95            -1.6752e-009    1.1956e-006     -8.074e-009    
  1               -5.63e-010      1.3405e-006     -1.1324e-008   
  1.05            -9.595e-010     1.4864e-006     -1.0034e-008   
  1.1             2.675e-010      1.6268e-006     -1.1608e-008   
  1.15            1.4179e-009     1.7696e-006     -2.25e-008     
  1.2             2.8087e-009     1.91e-006       -8.185e-009    
  1.25            2.0495e-009     2.0488e-006     1.0361e-008    
  1.3             -1.3437e-009    2.1852e-006     2.7457e-008    
  1.35            -2.653e-009     2.3181e-006     1.1363e-008    
  1.4             -3.792e-010     2.4464e-006     -1.1222e-008   
  1.45            -8.327e-010     2.5773e-006     -1.0643e-008   
  1.5             1.4885e-009     2.7051e-006     -1.2989e-008   
  1.55            1.2669e-009     2.8358e-006     -8.221e-009    
  1.6             2.813e-009      2.962e-006      -9.531e-009    
  1.65            3.848e-010      3.0909e-006     1.0541e-008    
  1.7             -1.8903e-009    3.2143e-006     1.4775e-008    
  1.75            -1.4346e-009    3.3356e-006     3.667e-009     
  1.8             -1.3282e-009    3.4581e-006     8.609e-009     
  1.85            -2.6139e-009    3.58e-006       1.1435e-008    
  1.9             -2.1151e-009    3.6977e-006     4.64e-010      
  1.95            -1.541e-009     3.8165e-006     2.602e-009     
  2               -1.356e-009     3.9358e-006     6.664e-009     
  2.05            -2.6775e-009    4.053e-006      1.1053e-008    
  2.1             1.9157e-009     4.1669e-006     -2.0129e-008   
  2.15            1.3805e-009     4.2836e-006     -7.98e-009     
  2.2             1.2403e-009     4.3976e-006     -8.459e-009    
  2.25            2.7481e-009     4.5106e-006     -1.1079e-008   
  2.3             5.057e-010      4.6257e-006     1.0684e-008    
  2.35            -1.7247e-009    4.7374e-006     2.224e-008     
  2.4             -1.3894e-009    4.8465e-006     4.844e-009     
  2.45            -1.3021e-009    4.9573e-006     9.485e-009     
  2.5             -2.532e-009     5.0674e-006     1.1e-008       
  2.55            -1.9465e-009    5.172e-006      8.96e-010      
  2.6             -1.4619e-009    5.2794e-006     3.665e-009     
  2.65            -1.3349e-009    5.3862e-006     7.863e-009     
  2.7             -2.6393e-009    5.4924e-006     1.1352e-008    
  2.75            -2.1763e-009    5.594e-006      6.09e-010      
  2.8             -1.5907e-009    5.6978e-006     2.272e-009     
  2.85            -1.3598e-009    5.8013e-006     6.145e-009     
  2.9             -1.2835e-009    5.9026e-006     1.0452e-008    
  2.95            -2.3959e-009    6.0047e-006     1.1979e-008    
  3               -7.342e-010     6.1004e-006     -1.1321e-008   
  3.05            1.6235e-009     6.1966e-006     -1.5282e-008   
  3.1             1.2966e-009     6.2986e-006     -8.725e-009    
  3.15            2.8326e-009     6.3936e-006     -8.444e-009    
  3.2             -1.7999e-009    6.492e-006      2.3477e-008    
  3.25            -1.4057e-009    6.5837e-006     4.601e-009     
  3.3             -1.3136e-009    6.6781e-006     8.997e-009     
  3.35            -2.5593e-009    6.7713e-006     1.1053e-008    
  3.4             -2.0179e-009    6.8597e-006     6.12e-010      
  3.45            -1.4994e-009    6.9499e-006     3.228e-009     
  3.5             -1.3413e-009    7.0405e-006     7.473e-009     
  3.55            -2.6483e-009    7.1295e-006     1.1276e-008    
  3.6             -3.544e-010     7.2142e-006     -1.1128e-008   
  3.65            -8.176e-010     7.2999e-006     -1.0795e-008   
  3.7             1.5176e-009     7.3824e-006     -1.3567e-008   
  3.75            1.2737e-009     7.4705e-006     -8.287e-009    
  3.8             2.8052e-009     7.5543e-006     -9.033e-009    
  3.85            -1.6759e-009    7.6371e-006     2.1042e-008    
  3.9             -1.3785e-009    7.7152e-006     4.963e-009     
  3.95            -1.297e-009     7.7944e-006     1.0048e-008    
  4               -2.4777e-009    7.8745e-006     1.1138e-008    
  4.05            -1.8706e-009    7.9494e-006     9.31e-010      
  4.1             -1.4351e-009    8.0261e-006     3.976e-009     
  4.15            -1.3249e-009    8.1029e-006     8.662e-009     
