! VERSION = 6.00
BEGIN_HEADER
 ICCAP_INPUTS
  VG         V  B GROUND SMU4 0.001 LIN        2    0          1.8        6    0.36      
  VS         V  E GROUND SMU3 0.1 CON        0
  VD         V  S GROUND SMU2 0.1 LIN        1    0          1.8        37   0.05      
  VB         V  C GROUND SMU1 0.1 LIN        3    0          -0.9       2    -0.9      
 ICCAP_OUTPUTS
  ID         I  S GROUND SMU2 B
  IB         I  C GROUND SMU1 B
  IG         I  B GROUND SMU4 B
END_HEADER

BEGIN_DB
 ICCAP_VAR VG         0              
 ICCAP_VAR VS         0              
 ICCAP_VAR VB         0              

 #VD              ID              IB              IG             
  0               5.875e-010      8.612e-009      8.768e-010     
  0.05            5.8088e-008     -1.6188e-008    -2.5973e-009   
  0.1             7.2892e-008     1.3215e-008     -2.1612e-009   
  0.15            7.5467e-008     9.931e-009      -2.5633e-009   
  0.2             7.6594e-008     6.053e-009      -2.639e-009    
  0.25            8.0187e-008     1.5296e-008     -1.8733e-009   
  0.3             8.0802e-008     1.1191e-008     -2.4518e-009   
  0.35            8.1188e-008     7.292e-009      -2.6312e-009   
  0.4             8.4438e-008     1.6644e-008     -1.5757e-009   
  0.45            8.7156e-008     1.8198e-008     -1.5445e-009   
  0.5             8.8276e-008     1.7394e-008     -1.5097e-009   
  0.55            8.9216e-008     1.6784e-008     -1.4825e-009   
  0.6             9.0511e-008     1.6106e-008     -1.4527e-009   
  0.65            9.1632e-008     1.5448e-008     -1.4281e-009   
  0.7             9.2577e-008     1.4776e-008     -1.4031e-009   
  0.75            9.3566e-008     1.4091e-008     -1.38e-009     
  0.8             9.4271e-008     1.3493e-008     -1.3595e-009   
  0.85            9.3029e-008     1.4173e-008     -1.9886e-009   
  0.9             9.3371e-008     1.0784e-008     -2.4988e-009   
  0.95            9.9036e-008     -1.4337e-008    -2.59e-011     
  1               9.4352e-008     1.7394e-008     1.87e-009      
  1.05            9.4262e-008     9.231e-009      2.6e-009       
  1.1             9.6619e-008     1.7072e-008     2.7385e-009    
  1.15            9.5869e-008     9.112e-009      2.6063e-009    
  1.2             9.8134e-008     1.6967e-008     2.7405e-009    
  1.25            9.8758e-008     1.1781e-008     2.4147e-009    
  1.3             9.9499e-008     1.4976e-008     2.6368e-009    
  1.35            9.9599e-008     1.7814e-008     1.9021e-009    
  1.4             1.00949e-007    1.2573e-008     2.4858e-009    
  1.45            1.01658e-007    1.6174e-008     2.6937e-009    
  1.5             1.01503e-007    1.4559e-008     1.6843e-009    
  1.55            1.0042e-007     8.848e-009      -2.4299e-009   
  1.6             1.04e-007       1.0708e-008     -2.5077e-009   
  1.65            1.0455e-007     1.0026e-008     -2.5547e-009   
  1.7             1.0492e-007     8.979e-009      -2.5865e-009   
  1.75            1.0514e-007     7.946e-009      -2.611e-009    
  1.8             1.0568e-007     7.373e-009      -2.6356e-009   
END_DB

BEGIN_DB
 ICCAP_VAR VG         0.36           
 ICCAP_VAR VS         0              
 ICCAP_VAR VB         0              

 #VD              ID              IB              IG             
  0               3.3731e-010     8.895e-009      1.61e-010      
  0.05            7.0879e-006     -1.7012e-008    -2.5351e-009   
  0.1             1.2608e-005     -1.6966e-008    7.527e-010     
  0.15            1.6654e-005     1.0746e-008     -2.5066e-009   
  0.2             1.9261e-005     1.1625e-008     -2.3916e-009   
  0.25            2.0776e-005     1.7663e-008     -1.5174e-009   
  0.3             2.1619e-005     1.8471e-008     -1.3607e-009   
  0.35            2.2131e-005     1.0803e-008     -2.5164e-009   
  0.4             2.248e-005      1.1403e-008     -2.4124e-009   
  0.45            2.2751e-005     1.8172e-008     -1.5449e-009   
  0.5             2.2973e-005     1.822e-008      -1.3823e-009   
  0.55            2.318e-005      1.9851e-008     -1.2803e-009   
  0.6             2.3378e-005     1.1244e-008     -2.4376e-009   
  0.65            2.355e-005      1.225e-008      -2.2897e-009   
  0.7             2.3696e-005     1.4744e-008     -1.4047e-009   
  0.75            2.3849e-005     1.9728e-008     -1.2964e-009   
  0.8             2.4003e-005     1.1137e-008     -2.4574e-009   
  0.85            2.4143e-005     1.9818e-008     -1.62e-009     
  0.9             2.4253e-005     1.7785e-008     -1.4306e-009   
  0.95            2.4386e-005     1.9462e-008     -1.309e-009    
  1               2.4518e-005     1.1056e-008     -2.4723e-009   
  1.05            2.463e-005      1.1554e-008     -2.3415e-009   
  1.1             2.4734e-005     1.601e-008      -1.4554e-009   
  1.15            2.4843e-005     1.9106e-008     -1.3256e-009   
  1.2             2.4953e-005     1.0736e-008     -2.491e-009    
  1.25            2.5051e-005     1.1473e-008     -2.366e-009    
  1.3             2.5149e-005     1.6703e-008     -1.4828e-009   
  1.35            2.5237e-005     1.8742e-008     -1.3412e-009   
  1.4             2.5334e-005     1.1007e-008     -2.5037e-009   
  1.45            2.5425e-005     1.1529e-008     -2.3929e-009   
  1.5             2.551e-005      1.7729e-008     -1.5131e-009   
  1.55            2.5581e-005     1.8515e-008     -1.3626e-009   
  1.6             2.5681e-005     2.0349e-008     -1.2738e-009   
  1.65            2.5762e-005     1.1236e-008     -2.4138e-009   
  1.7             2.583e-005      1.8229e-008     -1.5496e-009   
  1.75            2.5904e-005     1.8125e-008     -1.3835e-009   
  1.8             2.5986e-005     1.0605e-008     -2.5324e-009   
END_DB

BEGIN_DB
 ICCAP_VAR VG         0.72           
 ICCAP_VAR VS         0              
 ICCAP_VAR VB         0              

 #VD              ID              IB              IG             
  0               1.1638e-008     -1.3668e-008    2.7213e-009    
  0.05            1.4858e-005     1.7603e-008     -1.8685e-009   
  0.1             2.8476e-005     1.062e-008      -2.5151e-009   
  0.15            4.0803e-005     1.1595e-008     -2.41e-009     
  0.2             5.176e-005      1.8072e-008     -1.5276e-009   
  0.25            6.1252e-005     1.8233e-008     -1.3673e-009   
  0.3             6.9289e-005     1.992e-008      -1.2696e-009   
  0.35            7.5846e-005     1.1453e-008     -2.4253e-009   
  0.4             8.0988e-005     1.86e-008       -1.5597e-009   
  0.45            8.4822e-005     1.7862e-008     -1.3886e-009   
  0.5             8.759e-005      1.9749e-008     -1.2796e-009   
  0.55            8.9556e-005     1.1057e-008     -2.4424e-009   
  0.6             9.0929e-005     1.9282e-008     -1.5801e-009   
  0.65            9.1962e-005     1.7583e-008     -1.3996e-009   
  0.7             9.2805e-005     1.9568e-008     -1.2936e-009   
  0.75            9.3491e-005     1.1119e-008     -2.4582e-009   
  0.8             9.4088e-005     1.1808e-008     -2.3244e-009   
  0.85            9.4606e-005     1.5279e-008     -1.4239e-009   
  0.9             9.5087e-005     1.9148e-008     -1.3029e-009   
  0.95            9.5543e-005     1.1011e-008     -2.4711e-009   
  1               9.595e-005      1.1753e-008     -2.3407e-009   
  1.05            9.6323e-005     1.593e-008      -1.446e-009    
  1.1             9.6699e-005     1.9042e-008     -1.3136e-009   
  1.15            9.7058e-005     1.0781e-008     -2.4825e-009   
  1.2             9.7389e-005     1.1846e-008     -2.3615e-009   
  1.25            9.7697e-005     1.65e-008       -1.4659e-009   
  1.3             9.7997e-005     1.889e-008      -1.3239e-009   
  1.35            9.8302e-005     1.0684e-008     -2.4949e-009   
  1.4             9.8581e-005     1.1591e-008     -2.3799e-009   
  1.45            9.8839e-005     1.7031e-008     -1.4881e-009   
  1.5             9.9106e-005     1.8584e-008     -1.3456e-009   
  1.55            9.9379e-005     1.082e-008      -2.51e-009     
  1.6             9.9612e-005     1.1317e-008     -2.3987e-009   
  1.65            9.9836e-005     1.7618e-008     -1.5117e-009   
  1.7             0.000100059     1.8241e-008     -1.3606e-009   
  1.75            0.000100288     2.0189e-008     -1.2682e-009   
  1.8             0.000100518     1.1283e-008     -2.4183e-009   
END_DB

BEGIN_DB
 ICCAP_VAR VG         1.08           
 ICCAP_VAR VS         0              
 ICCAP_VAR VB         0              

 #VD              ID              IB              IG             
  0               1.1203e-008     -1.6839e-008    8.817e-010     
  0.05            2.0947e-005     -7.595e-009     -7.12e-011     
  0.1             4.0758e-005     9.248e-009      7.79e-010      
  0.15            5.953e-005      1.0785e-008     -2.4956e-009   
  0.2             7.7103e-005     1.1657e-008     -2.3794e-009   
  0.25            9.344e-005      1.7148e-008     -1.4883e-009   
  0.3             0.000108436     1.8463e-008     -1.3397e-009   
  0.35            0.00012189      8.602e-009      1.9585e-009    
  0.4             0.00013409      -1.5718e-008    2.1527e-009    
  0.45            0.0001449       -1.2828e-008    2.7276e-009    
  0.5             0.00015425      -7.4e-009       2.7447e-009    
  0.55            0.00016228      -6.972e-009     2.7541e-009    
  0.6             0.00016893      -7.151e-009     2.7499e-009    
  0.65            0.0001743       -7.696e-009     2.7334e-009    
  0.7             0.0001786       -8.167e-009     2.7028e-009    
  0.75            0.00018193      -7.939e-009     2.6632e-009    
  0.8             0.00018446      -1.7257e-008    1.5396e-009    
  0.85            0.00018645      -1.692e-008     1.7151e-009    
  0.9             0.00018804      -1.6818e-008    1.8993e-009    
  0.95            0.0001893       -1.6346e-008    2.0762e-009    
  1               0.00019044      -1.2199e-008    2.7113e-009    
  1.05            0.00019128      -7.467e-009     2.7414e-009    
  1.1             0.00019219      -7.448e-009     2.7531e-009    
  1.15            0.00019294      -6.995e-009     2.7491e-009    
  1.2             0.00019368      -7.136e-009     2.7399e-009    
  1.25            0.00019432      -7.756e-009     2.7178e-009    
  1.3             0.00019492      -8.099e-009     2.6794e-009    
  1.35            0.0001955       -1.7302e-008    1.4812e-009    
  1.4             0.00019604      -1.7049e-008    1.6429e-009    
  1.45            0.00019657      -1.6869e-008    1.8249e-009    
  1.5             0.00019705      -1.6586e-008    2.0093e-009    
  1.55            0.00019753      -1.1411e-008    2.6981e-009    
  1.6             0.00019786      -7.85e-009      2.7325e-009    
  1.65            0.00019835      -7.598e-009     2.7464e-009    
  1.7             0.00019875      -7.2e-009       2.7507e-009    
  1.75            0.00019915      -7.271e-009     2.7451e-009    
  1.8             0.00019957      -7.475e-009     2.7243e-009    
END_DB

BEGIN_DB
 ICCAP_VAR VG         1.44           
 ICCAP_VAR VS         0              
 ICCAP_VAR VB         0              

 #VD              ID              IB              IG             
  0               2.0555e-008     7.077e-009      1.1601e-009    
  0.05            2.6091e-005     -8.682e-009     8.06e-011      
  0.1             5.1159e-005     1.3463e-008     -2.1044e-009   
  0.15            7.5295e-005     1.5144e-008     -1.879e-009    
  0.2             9.8365e-005     1.6171e-008     -1.6474e-009   
  0.25            0.00012027      1.0845e-008     -7.83e-011     
  0.3             0.00014097      1.6385e-008     -1.4499e-009   
  0.35            0.00016045      1.6774e-008     -1.5764e-009   
  0.4             0.00017862      1.6087e-008     -1.7149e-009   
  0.45            0.00019544      1.5185e-008     -1.8763e-009   
  0.5             0.00021098      1.3855e-008     -2.0282e-009   
  0.55            0.00022513      1.614e-008      -1.4509e-009   
  0.6             0.00023784      1.6529e-008     -1.5723e-009   
  0.65            0.00024924      1.6001e-008     -1.7186e-009   
  0.7             0.00025923      1.5258e-008     -1.8709e-009   
  0.75            0.00026801      1.3339e-008     -1.3558e-009   
  0.8             0.00027552      1.7484e-008     -1.4467e-009   
  0.85            0.00028181      1.6662e-008     -1.5688e-009   
  0.9             0.00028707      1.5918e-008     -1.7111e-009   
  0.95            0.00029136      1.5121e-008     -1.8656e-009   
  1               0.00029487      1.4018e-008     -2.0145e-009   
  1.05            0.00029766      1.5824e-008     -1.4424e-009   
  1.1             0.00030003      1.6659e-008     -1.5706e-009   
  1.15            0.0003019       1.6208e-008     -1.7126e-009   
  1.2             0.00030354      1.5225e-008     -1.863e-009    
  1.25            0.00030494      1.3114e-008     -1.3497e-009   
  1.3             0.00030616      1.7513e-008     -1.4446e-009   
  1.35            0.00030726      1.6596e-008     -1.5651e-009   
  1.4             0.00030823      1.5931e-008     -1.7075e-009   
  1.45            0.00030915      1.5238e-008     -1.8577e-009   
  1.5             0.00030997      1.4192e-008     -2.0098e-009   
  1.55            0.0003107       1.5745e-008     -1.4402e-009   
  1.6             0.0003115       1.671e-008      -1.557e-009    
  1.65            0.00031218      1.6176e-008     -1.7016e-009   
  1.7             0.00031283      1.5317e-008     -1.8512e-009   
  1.75            0.00031345      1.4042e-008     -2.0057e-009   
  1.8             0.00031409      1.5629e-008     -1.4332e-009   
END_DB

BEGIN_DB
 ICCAP_VAR VG         1.8            
 ICCAP_VAR VS         0              
 ICCAP_VAR VB         0              

 #VD              ID              IB              IG             
  0               2.1777e-008     1.6794e-008     9.084e-010     
  0.05            3.0695e-005     -6.855e-009     -1.3176e-009   
  0.1             6.0391e-005     1.1055e-008     -2.4822e-009   
  0.15            8.9208e-005     1.1541e-008     -2.3638e-009   
  0.2             0.00011706      -1.1525e-008    1.41e-011      
  0.25            0.00014382      -1.254e-008     2.7148e-009    
  0.3             0.00016944      -7.41e-009      2.7422e-009    
  0.35            0.00019392      -7.288e-009     2.7509e-009    
  0.4             0.00021717      -7.178e-009     2.7471e-009    
  0.45            0.0002392       -7.308e-009     2.7361e-009    
  0.5             0.00025992      -7.807e-009     2.7115e-009    
  0.55            0.00027929      -8.112e-009     2.6697e-009    
  0.6             0.00029733      -1.7247e-008    1.5092e-009    
  0.65            0.00031406      -1.6689e-008    1.6723e-009    
  0.7             0.00032944      -1.6792e-008    1.8688e-009    
  0.75            0.00034347      -1.6181e-008    2.0531e-009    
  0.8             0.00035616      -1.1755e-008    2.7078e-009    
  0.85            0.00036754      -7.596e-009     2.7377e-009    
  0.9             0.00037777      -7.144e-009     2.7467e-009    
  0.95            0.00038673      -7.014e-009     2.7476e-009    
  1               0.00039455      -7.393e-009     2.7392e-009    
  1.05            0.00040132      -7.879e-009     2.7178e-009    
  1.1             0.00040701      -8.069e-009     2.6817e-009    
  1.15            0.00041187      -1.7299e-008    1.4738e-009    
  1.2             0.00041593      -1.7038e-008    1.6327e-009    
  1.25            0.00041937      -1.6855e-008    1.8167e-009    
  1.3             0.00042222      -1.6376e-008    2.0027e-009    
  1.35            0.00042467      -1.1394e-008    2.6968e-009    
  1.4             0.00042662      -7.848e-009     2.732e-009     
  1.45            0.00042841      -7.415e-009     2.7471e-009    
  1.5             0.00043004      -6.891e-009     2.7487e-009    
  1.55            0.00043144      -6.935e-009     2.7449e-009    
  1.6             0.00043271      -7.823e-009     2.7284e-009    
  1.65            0.00043386      -8.139e-009     2.6929e-009    
  1.7             0.00043489      -1.7599e-008    1.4432e-009    
  1.75            0.00043586      -1.6897e-008    1.597e-009     
  1.8             0.00043675      -1.7029e-008    1.7735e-009    
END_DB

BEGIN_DB
 ICCAP_VAR VG         0              
 ICCAP_VAR VS         0              
 ICCAP_VAR VB         -0.9           

 #VD              ID              IB              IG             
  0               6.381e-010      1.2236e-008     -4.494e-010    
  0.05            -2.5454e-009    -1.3061e-008    1.8642e-009    
  0.1             2.798e-009      8.651e-009      1.7308e-009    
  0.15            3.3721e-009     1.5272e-008     -1.7636e-009   
  0.2             -9.388e-010     -1.701e-008     2.0115e-009    
  0.25            1.6745e-009     1.6638e-008     -1.9593e-009   
  0.3             -7.596e-010     -1.6947e-008    2.2388e-009    
  0.35            1.5107e-009     1.5979e-008     -2.147e-009    
  0.4             -5.468e-010     -1.6308e-008    2.4182e-009    
  0.45            1.3433e-009     1.4764e-008     -2.3013e-009   
  0.5             -3.231e-010     -1.5114e-008    2.5576e-009    
  0.55            1.1689e-009     1.3291e-008     -2.4254e-009   
  0.6             -8.45e-011      -1.3872e-008    2.6588e-009    
  0.65            9.83e-010       1.1965e-008     -2.5122e-009   
  0.7             -2.6407e-009    -8.674e-009     2.7178e-009    
  0.75            8.034e-010      1.1165e-008     -2.5678e-009   
  0.8             -2.4864e-009    -1.0446e-008    1.6072e-009    
  0.85            3.432e-009      1.6547e-008     -1.8062e-009   
  0.9             -8.007e-010     -1.6955e-008    2.076e-009     
  0.95            1.7305e-009     1.6332e-008     -2.0107e-009   
  1               -6.195e-010     -1.6859e-008    2.2861e-009    
  1.05            1.5628e-009     1.5526e-008     -2.1894e-009   
  1.1             -4.051e-010     -1.6111e-008    2.4576e-009    
  1.15            1.3876e-009     1.431e-008      -2.3344e-009   
  1.2             -1.801e-010     -1.4933e-008    2.5873e-009    
  1.25            1.2075e-009     1.298e-008      -2.4498e-009   
  1.3             -2.6944e-009    -8.165e-009     2.196e-010     
  1.35            7.762e-010      -7.441e-009     2.7463e-009    
  1.4             1.8236e-009     1.6483e-008     -1.9545e-009   
  1.45            -6.192e-010     -1.7096e-008    2.2267e-009    
  1.5             1.6582e-009     1.5878e-008     -2.1371e-009   
  1.55            -4.165e-010     -1.651e-008     2.4112e-009    
  1.6             1.4905e-009     1.4682e-008     -2.3021e-009   
  1.65            -1.9e-010       -1.5319e-008    2.557e-009     
  1.7             1.3131e-009     1.3335e-008     -2.4211e-009   
  1.75            3.84e-011       -1.4316e-008    2.6543e-009    
  1.8             4.0828e-009     8.11e-009       -1.33e-009     
END_DB

BEGIN_DB
 ICCAP_VAR VG         0.36           
 ICCAP_VAR VS         0              
 ICCAP_VAR VB         -0.9           

 #VD              ID              IB              IG             
  0               -3.099e-010     1.2111e-008     -5.53e-011     
  0.05            2.9397e-006     1.0918e-008     1.975e-009     
  0.1             4.5552e-006     -7.158e-009     2.7498e-009    
  0.15            5.2979e-006     -7.528e-009     2.7323e-009    
  0.2             5.6168e-006     -1.7684e-008    1.4593e-009    
  0.25            5.7805e-006     -1.7053e-008    1.8375e-009    
  0.3             5.8807e-006     -1.1958e-008    2.7074e-009    
  0.35            5.9541e-006     -7.055e-009     2.752e-009     
  0.4             6.0311e-006     -7.747e-009     2.7297e-009    
  0.45            6.1017e-006     -1.7608e-008    1.4634e-009    
  0.5             6.1668e-006     -1.6818e-008    1.8461e-009    
  0.55            6.2185e-006     -1.2115e-008    2.7076e-009    
