! VERSION = 6.00
BEGIN_HEADER
 ICCAP_INPUTS
  VG         V  B GROUND SMU4 0.001 LIN        1    0          1.8        37   0.05      
  VS         V  E GROUND SMU3 0.1 CON        0
  VB         V  C GROUND SMU1 0.1 LIN        3    0          -1.8       3    -0.9      
  VD         V  S GROUND SMU2 0.1 LIN        2    0.1        1.8        2    1.7       
 ICCAP_OUTPUTS
  IG         I  B GROUND SMU4 B
  ID         I  S GROUND SMU2 B
  IB         I  C GROUND SMU1 B
END_HEADER

BEGIN_DB
 ICCAP_VAR VS         0              
 ICCAP_VAR VB         0              
 ICCAP_VAR VD         0.1            

 #VG              IG              ID              IB             
  0               -3.962e-010     6.1268e-008     -9.38e-009     
  0.05            6.413e-010      2.5807e-007     -1.2136e-008   
  0.1             -2.6154e-009    8.6165e-007     5.647e-009     
  0.15            2.1351e-009     2.1465e-006     1.2709e-008    
  0.2             -1.2643e-009    4.201e-006      1.9941e-008    
  0.25            2.0712e-009     6.5938e-006     -1.5856e-008   
  0.3             -1.4261e-009    9.2807e-006     1.576e-008     
  0.35            2.53e-009       1.1838e-005     -9.277e-009    
  0.4             -1.6817e-009    1.4371e-005     1.57e-008      
  0.45            2.6321e-009     1.6697e-005     -1.1562e-008   
  0.5             -1.8496e-009    1.9055e-005     1.5079e-008    
  0.55            2.734e-009      2.1194e-005     -1.2902e-008   
  0.6             5.43e-011       2.3342e-005     7.857e-009     
  0.65            -2.1258e-009    2.5345e-005     1.3769e-008    
  0.7             1.7139e-009     2.7252e-005     -1.7551e-008   
  0.75            8.233e-010      2.9137e-005     9.047e-009     
  0.8             -2.6177e-009    3.0964e-005     7.227e-009     
  0.85            1.981e-010      3.2682e-005     -9.709e-009    
  0.9             2.6387e-009     3.4352e-005     -1.1397e-008   
  0.95            -1.8659e-009    3.605e-005      1.5006e-008    
  1               2.7361e-009     3.7638e-005     -1.308e-008    
  1.05            -2.2174e-009    3.9218e-005     1.319e-008     
  1.1             1.8452e-009     4.0725e-005     -1.9431e-008   
  1.15            -2.4531e-009    4.2247e-005     1.1385e-008    
  1.2             2.0522e-009     4.3669e-005     -1.6164e-008   
  1.25            -1.4248e-009    4.5173e-005     1.5911e-008    
  1.3             -1.0264e-009    4.6542e-005     -8.999e-009    
  1.35            2.7471e-009     4.788e-005      -7.206e-009    
  1.4             -7.62e-011      4.9298e-005     8.06e-009      
  1.45            -2.2988e-009    5.0584e-005     1.2508e-008    
  1.5             1.7358e-009     5.1864e-005     -1.6654e-008   
  1.55            8.102e-010      5.317e-005      9.022e-009     
  1.6             -2.6181e-009    5.4455e-005     7.166e-009     
  1.65            2.041e-010      5.5693e-005     -9.834e-009    
  1.7             2.6469e-009     5.6878e-005     -1.1263e-008   
  1.75            -1.8717e-009    5.8128e-005     1.5051e-008    
  1.8             2.7406e-009     5.9328e-005     -1.3085e-008   
END_DB

BEGIN_DB
 ICCAP_VAR VS         0              
 ICCAP_VAR VB         0              
 ICCAP_VAR VD         1.8            

 #VG              IG              ID              IB             
  0               -8.942e-010     9.6818e-008     1.3943e-008    
  0.05            -2.5375e-009    3.8388e-007     9.133e-009     
  0.1             1.6052e-009     1.2414e-006     7.537e-009     
  0.15            -1.9546e-009    3.286e-006      1.4786e-008    
  0.2             1.5315e-009     6.4811e-006     -1.4518e-008   
  0.25            -2.2594e-009    1.11913e-005    1.2545e-008    
  0.3             1.65e-009       1.6872e-005     5.396e-009     
  0.35            8.551e-010      2.377e-005      8.958e-009     
  0.4             -2.6165e-009    3.1782e-005     7.463e-009     
  0.45            1.557e-010      4.0221e-005     -9.345e-009    
  0.5             2.5852e-009     4.965e-005      -1.2469e-008   
  0.55            -1.7927e-009    6.0093e-005     1.5632e-008    
  0.6             -8.204e-010     7.0756e-005     -9.781e-009    
  0.65            2.7283e-009     8.1887e-005     -7.543e-009    
  0.7             -1.3574e-009    9.4071e-005     1.3834e-008    
  0.75            -1.0895e-009    0.00010632      -8.475e-009    
  0.8             7.08e-011       0.00011878      -1.0121e-008   
  0.85            2.477e-009      0.00013192      -1.3995e-008   
  0.9             -1.6234e-009    0.00014582      1.607e-008     
  0.95            -9.033e-010     0.00015956      -9.62e-009     
  1               2.7466e-009     0.00017357      -6.951e-009    
  1.05            -2.4712e-009    0.00018851      1.0885e-008    
  1.1             2.1248e-009     0.00020288      -1.59e-008     
  1.15            -1.4693e-009    0.00021844      1.7004e-008    
  1.2             -9.97e-010      0.00023357      -9.151e-009    
  1.25            2.7516e-009     0.00024889      -7.104e-009    
  1.3             -2.3766e-009    0.00026513      1.1499e-008    
  1.35            1.9209e-009     0.00028065      -1.663e-008    
  1.4             -2.4597e-009    0.0002973       1.1238e-008    
  1.45            2.0981e-009     0.00031326      -1.6076e-008   
  1.5             -1.4578e-009    0.00033022      1.6538e-008    
  1.55            -1.0048e-009    0.00034679      -8.998e-009    
  1.6             2.7484e-009     0.0003633       -7.429e-009    
  1.65            -8.68e-011      0.00038079      8.505e-009     
  1.7             -2.3013e-009    0.00039795      1.1998e-008    
  1.75            1.7763e-009     0.00041475      -1.6962e-008   
  1.8             8.042e-010      0.00043223      9.082e-009     
END_DB

BEGIN_DB
 ICCAP_VAR VS         0              
 ICCAP_VAR VB         -0.9           
 ICCAP_VAR VD         0.1            

 #VG              IG              ID              IB             
  0               1.229e-009      6.591e-010      1.0935e-008    
  0.05            -2.4948e-009    2.4592e-009     1.2612e-008    
  0.1             1.8062e-009     1.1619e-008     -2.1029e-008   
  0.15            7.569e-010      5.0744e-008     8.999e-009     
  0.2             6.901e-010      2.1053e-007     -1.3264e-008   
  0.25            -2.6142e-009    7.5467e-007     6.318e-009     
  0.3             2.1947e-009     1.9735e-006     1.2532e-008    
  0.35            -2.502e-009     3.9582e-006     1.146e-008     
  0.4             2.145e-009      6.274e-006      -1.5376e-008   
  0.45            -1.4698e-009    8.8515e-006     1.6977e-008    
  0.5             -9.799e-010     1.1297e-005     -8.905e-009    
  0.55            -1.9369e-009    1.3684e-005     1.3696e-008    
  0.6             1.4049e-009     1.5918e-005     -1.7117e-008   
  0.65            9.768e-010      1.8123e-005     8.162e-009     
  0.7             -2.5911e-009    2.0255e-005     8.567e-009     
  0.75            3.54e-011       2.2211e-005     -8.082e-009    
  0.8             2.4478e-009     2.4118e-005     -1.434e-008    
  0.85            -1.5566e-009    2.6039e-005     1.5698e-008    
  0.9             -9.305e-010     2.7819e-005     -9.296e-009    
  0.95            2.7387e-009     2.9529e-005     -6.775e-009    
  1               -2.4723e-009    3.1262e-005     1.1455e-008    
  1.05            2.066e-009      3.2859e-005     -1.5914e-008   
  1.1             -1.4282e-009    3.4528e-005     1.5768e-008    
  1.15            -1.0151e-009    3.606e-005      -8.931e-009    
  1.2             2.7491e-009     3.7549e-005     -7.336e-009    
  1.25            -8.68e-011      3.9105e-005     8.179e-009     
  1.3             -2.3161e-009    4.0535e-005     1.2692e-008    
  1.35            1.9926e-009     4.1937e-005     -2.1233e-008   
  1.4             -2.5064e-009    4.3363e-005     1.1119e-008    
  1.45            2.1878e-009     4.4697e-005     -1.552e-008    
  1.5             -1.4986e-009    4.6118e-005     1.7956e-008    
  1.55            -9.637e-010     4.7404e-005     -9.151e-009    
  1.6             2.744e-009      4.8681e-005     -7.181e-009    
  1.65            -1.391e-010     5.0033e-005     8.977e-009     
  1.7             -2.38e-009      5.1255e-005     1.2184e-008    
  1.75            1.8599e-009     5.2468e-005     -1.6159e-008   
  1.8             -2.4659e-009    5.3721e-005     1.1652e-008    
END_DB

BEGIN_DB
 ICCAP_VAR VS         0              
 ICCAP_VAR VB         -0.9           
 ICCAP_VAR VD         1.8            

 #VG              IG              ID              IB             
  0               1.0992e-009     1.9317e-009     1.585e-008     
  0.05            -2.5856e-009    3.2034e-009     1.1472e-008    
  0.1             -2.6078e-009    1.3352e-008     -1.7596e-008   
  0.15            2.6484e-009     7.533e-008      -1.1135e-008   
  0.2             -1.021e-010     3.3086e-007     -8.024e-009    
  0.25            1.9693e-009     1.1268e-006     1.123e-008     
  0.3             -1.3793e-009    3.041e-006      1.7446e-008    
  0.35            2.3568e-009     6.1235e-006     -1.4816e-008   
  0.4             1.9361e-009     1.05765e-005    8.777e-009     
  0.45            -2.6076e-009    1.6332e-005     8.905e-009     
  0.5             2.649e-009      2.2946e-005     -1.0908e-008   
  0.55            -1.8859e-009    3.0883e-005     1.4902e-008    
  0.6             2.7406e-009     3.92e-005       -1.3426e-008   
  0.65            3.36e-011       4.8714e-005     7.826e-009     
  0.7             -2.1361e-009    5.8803e-005     1.345e-008     
  0.75            1.7398e-009     6.9164e-005     -1.7824e-008   
  0.8             -2.4022e-009    8.0678e-005     1.1937e-008    
  0.85            1.9293e-009     9.2068e-005     -1.62e-008     
  0.9             -2.4832e-009    0.000104599     1.1294e-008    
  0.95            -2.5437e-009    0.00011709      -9.598e-009    
  1               2.3404e-009     0.00012992      -1.4895e-008   
  1.05            1.9544e-009     0.00014345      8.938e-009     
  1.1             -1.4084e-009    0.0001576       1.722e-008     
  1.15            2.4002e-009     0.00017133      -1.4587e-008   
  1.2             -1.5198e-009    0.00018623      1.632e-008     
  1.25            -9.518e-010     0.00020082      -9.283e-009    
  1.3             2.7479e-009     0.00021557      -7.024e-009    
  1.35            -1.484e-010     0.00023124      9.442e-009     
  1.4             -2.3803e-009    0.0002468       1.1919e-008    
  1.45            1.8978e-009     0.0002621       -1.6227e-008   
  1.5             -2.4659e-009    0.00027851      1.1407e-008    
  1.55            2.0812e-009     0.00029416      -1.5958e-008   
  1.6             -1.4371e-009    0.00031095      1.6082e-008    
  1.65            -1.0097e-009    0.00032728      -9.144e-009    
  1.7             2.7539e-009     0.00034367      -7.412e-009    
  1.75            -8.93e-011      0.00036097      8.305e-009     
  1.8             -2.308e-009     0.00037788      1.2339e-008    
END_DB

BEGIN_DB
 ICCAP_VAR VS         0              
 ICCAP_VAR VB         -1.8           
 ICCAP_VAR VD         0.1            

 #VG              IG              ID              IB             
  0               1.4665e-009     -8.01e-011      7.911e-009     
  0.05            -2.5828e-009    2.269e-010      1.1292e-008    
  0.1             1.647e-009      -2.8985e-009    -1.0477e-008   
  0.15            -1.8296e-009    3.4025e-009     1.6562e-008    
  0.2             1.5765e-009     4.1109e-009     -1.8336e-008   
  0.25            -2.456e-009     1.4101e-008     -1.4454e-008   
  0.3             -8.01e-010      7.4482e-008     -9.823e-009    
  0.35            -5.96e-010      3.2878e-007     1.0945e-008    
  0.4             1.4208e-009     1.0735e-006     -1.6859e-008   
  0.45            -2.3965e-009    2.5872e-006     -1.7127e-008   
  0.5             1.934e-009      4.667e-006      -1.6317e-008   
  0.55            -2.4744e-009    7.1128e-006     1.1254e-008    
  0.6             2.1181e-009     9.4758e-006     -1.6138e-008   
  0.65            5.495e-010      1.1874e-005     -1.561e-008    
  0.7             -2.6164e-009    1.4143e-005     4.864e-009     
  0.75            1.6654e-009     1.6264e-005     -1.6958e-008   
  0.8             8.466e-010      1.8354e-005     8.922e-009     
  0.85            -2.6117e-009    2.0374e-005     7.284e-009     
  0.9             2.6513e-009     2.2223e-005     -1.0621e-008   
  0.95            -1.9096e-009    2.4125e-005     1.4981e-008    
  1               1.4852e-009     2.5881e-005     -1.3717e-008   
  1.05            9.398e-010      2.762e-005      8.604e-009     
  1.1             -2.5917e-009    2.9327e-005     8.338e-009     
  1.15            7.51e-011       3.0929e-005     -8.09e-009     
  1.2             2.4873e-009     3.2499e-005     -1.387e-008    
  1.25            -1.6275e-009    3.4103e-005     1.6018e-008    
  1.3             -8.995e-010     3.5613e-005     -9.627e-009    
  1.35            2.7398e-009     3.7065e-005     -7.086e-009    
  1.4             -2.474e-009     3.8558e-005     1.1083e-008    
  1.45            2.133e-009      3.9942e-005     -1.6008e-008   
  1.5             -1.4655e-009    4.14e-005       1.702e-008     
  1.55            -9.909e-010     4.2733e-005     -9.113e-009    
  1.6             2.7428e-009     4.405e-005      -7.216e-009    
  1.65            -1.074e-010     4.544e-005      8.431e-009     
  1.7             -2.3282e-009    4.6705e-005     1.2469e-008    
  1.75            1.789e-009      4.7949e-005     -1.6614e-008   
  1.8             -2.4199e-009    4.924e-005      1.1756e-008    
END_DB

BEGIN_DB
 ICCAP_VAR VS         0              
 ICCAP_VAR VB         -1.8           
 ICCAP_VAR VD         1.8            

 #VG              IG              ID              IB             
  0               7.15e-010       -1.99e-011      -7.389e-009    
  0.05            2.4282e-009     1.7855e-009     -6.54e-009     
  0.1             -2.5642e-009    4.049e-010      1.1209e-008    
  0.15            2.7414e-009     8.542e-010      -9.575e-009    
  0.2             -1.6063e-009    8.241e-009      1.2942e-008    
  0.25            -2.6291e-009    2.7084e-008     -1.6692e-008   
  0.3             1.041e-010      1.3095e-007     -7.094e-009    
  0.35            -2.0118e-009    5.3193e-007     1.4345e-008    
  0.4             1.9279e-009     1.6473e-006     8.424e-009     
  0.45            -2.472e-009     4.0255e-006     1.0916e-008    
  0.5             2.1349e-009     7.5473e-006     -1.6233e-008   
  0.55            7.635e-010      1.2459e-005     -1.6626e-008   
  0.6             -2.6262e-009    1.8558e-005     6.767e-009     
  0.65            2.6863e-009     2.5388e-005     -1.1062e-008   
  0.7             -2.0515e-009    3.3529e-005     1.3982e-008    
  0.75            1.6379e-009     4.2071e-005     -1.6363e-008   
  0.8             8.598e-010      5.1576e-005     9.15e-009      
  0.85            -2.6089e-009    6.1911e-005     7.47e-009      
  0.9             2.6274e-009     7.2294e-005     -1.114e-008    
  0.95            -1.8762e-009    8.3937e-005     1.4974e-008    
  1               2.7278e-009     9.5446e-005     -1.3354e-008   
  1.05            -2.2025e-009    0.000108043     1.2862e-008    
  1.1             -1.6416e-009    0.00012091      -1.6982e-008   
  1.15            2.7001e-009     0.00013349      -1.1512e-008   
  1.2             -2.0973e-009    0.00014736      1.3944e-008    
  1.25            1.7008e-009     0.00016093      -1.7288e-008   
  1.3             8.354e-010      0.00017519      9.033e-009     
  1.35            -2.6143e-009    0.00018993      7.206e-009     
  1.4             2.6501e-009     0.00020423      -1.057e-008    
  1.45            -1.9319e-009    0.00021974      1.4785e-008    
  1.5             1.5147e-009     0.00023461      -1.4172e-008   
  1.55            9.241e-010      0.00025023      8.63e-009      
  1.6             -2.5948e-009    0.00026634      7.908e-009     
  1.65            9.12e-011       0.00028181      -8.354e-009    
  1.7             2.5043e-009     0.0002979       -1.3542e-008   
  1.75            -1.6663e-009    0.00031473      1.5763e-008    
  1.8             -8.758e-010     0.00033105      -9.675e-009    
END_DB

