! VERSION = 6.00
BEGIN_HEADER
 ICCAP_INPUTS
  VG         V  B GROUND SMU4 0.001 LIN        2    0          1.8        6    0.36      
  VS         V  E GROUND SMU3 0.1 CON        0
  VD         V  S GROUND SMU2 0.1 LIN        1    0          1.8        37   0.05      
  VB         V  C GROUND SMU1 0.1 LIN        3    0          -0.9       2    -0.9      
 ICCAP_OUTPUTS
  ID         I  S GROUND SMU2 B
  IB         I  C GROUND SMU1 B
  IG         I  B GROUND SMU4 B
END_HEADER

BEGIN_DB
 ICCAP_VAR VG         0              
 ICCAP_VAR VS         0              
 ICCAP_VAR VB         0              

 #VD              ID              IB              IG             
  0               1.1711e-009     9.256e-009      1.1589e-009    
  0.05            5.6077e-008     1.1241e-008     2.3612e-009    
  0.1             6.6142e-008     -8.592e-009     2.7128e-009    
  0.15            6.9155e-008     -7.848e-009     2.7271e-009    
  0.2             6.9771e-008     -1.6557e-008    1.8885e-009    
  0.25            7.2129e-008     -1.2309e-008    2.5793e-009    
  0.3             7.3645e-008     -7.227e-009     2.7499e-009    
  0.35            7.3767e-008     -1.6943e-008    1.494e-009     
  0.4             7.3217e-008     -1.3057e-008    2.7288e-009    
  0.45            7.7571e-008     -7.87e-009      2.7086e-009    
  0.5             7.754e-008      -1.6373e-008    1.9954e-009    
  0.55            7.9416e-008     -1.1105e-008    2.6215e-009    
  0.6             8.0428e-008     -6.881e-009     2.7477e-009    
  0.65            8.0163e-008     -1.6684e-008    1.5866e-009    
  0.7             7.951e-008      -1.4467e-008    1.5306e-009    
  0.75            8.0433e-008     -1.3637e-008    1.4835e-009    
  0.8             8.1421e-008     -1.2786e-008    2.7294e-009    
  0.85            8.537e-008      -7.956e-009     2.7084e-009    
  0.9             8.5027e-008     -1.6558e-008    1.9902e-009    
  0.95            8.3879e-008     1.524e-008      -1.2494e-009   
  1               8.9821e-008     1.5918e-008     -1.7061e-009   
  1.05            8.9802e-008     1.1786e-008     -2.3582e-009   
  1.1             8.9716e-008     7.829e-009      -2.5951e-009   
  1.15            9.2359e-008     1.7549e-008     -1.4073e-009   
  1.2             9.4542e-008     1.4326e-008     -1.3795e-009   
  1.25            9.5116e-008     1.3332e-008     -1.3485e-009   
  1.3             9.3977e-008     1.4315e-008     -1.9931e-009   
  1.35            9.5243e-008     -1.5894e-008    1.2774e-009    
  1.4             9.1397e-008     -1.7013e-008    -2.6281e-009   
  1.45            9.696e-008      5.559e-009      1.7163e-009    
  1.5             9.2037e-008     -7.633e-009     -1.8719e-009   
  1.55            9.759e-008      7.353e-009      1.9873e-009    
  1.6             9.7102e-008     1.0907e-008     2.3383e-009    
  1.65            9.7824e-008     1.4139e-008     2.5969e-009    
  1.7             9.7498e-008     1.9696e-008     1.9685e-009    
  1.75            9.9032e-008     1.2444e-008     2.4909e-009    
  1.8             9.9585e-008     1.6248e-008     2.706e-009     
END_DB

BEGIN_DB
 ICCAP_VAR VG         0.36           
 ICCAP_VAR VS         0              
 ICCAP_VAR VB         0              

 #VD              ID              IB              IG             
  0               -4.6784e-010    -1.893e-008     -2.6156e-009   
  0.05            4.4554e-006     1.5412e-008     2.4253e-009    
  0.1             7.9517e-006     -1.4259e-008    2.4438e-009    
  0.15            1.0541e-005     -1.0138e-008    2.6421e-009    
  0.2             1.2309e-005     1.2819e-008     -5.106e-010    
  0.25            1.3316e-005     -1.6924e-008    1.5934e-009    
  0.3             1.3894e-005     -1.7815e-008    1.3682e-009    
  0.35            1.4241e-005     -1.9487e-008    2.688e-009     
  0.4             1.4474e-005     -1.1763e-008    2.5888e-009    
  0.45            1.4686e-005     -1.5076e-008    1.5865e-009    
  0.5             1.4824e-005     -1.8004e-008    2.7418e-009    
  0.55            1.4947e-005     -8.764e-009     2.688e-009     
  0.6             1.5081e-005     -1.1782e-008    2.5912e-009    
  0.65            1.5224e-005     -1.5008e-008    1.5833e-009    
  0.7             1.531e-005      -1.7891e-008    1.3679e-009    
  0.75            1.5393e-005     -8.912e-009     2.6879e-009    
  0.8             1.5492e-005     -1.1774e-008    2.5828e-009    
  0.85            1.5615e-005     -1.4996e-008    1.5771e-009    
  0.9             1.5681e-005     -1.7796e-008    1.3591e-009    
  0.95            1.5744e-005     -8.931e-009     2.6862e-009    
  1               1.5823e-005     -1.1906e-008    2.5842e-009    
  1.05            1.5931e-005     -1.4974e-008    1.5739e-009    
  1.1             1.5984e-005     -1.7844e-008    1.3566e-009    
  1.15            1.605e-005      -1.9541e-008    2.6842e-009    
  1.2             1.6111e-005     -1.1929e-008    2.5798e-009    
  1.25            1.6206e-005     -1.486e-008     1.5695e-009    
  1.3             1.625e-005      -1.7882e-008    2.735e-009     
  1.35            1.6295e-005     -9.147e-009     2.6826e-009    
  1.4             1.6354e-005     -1.2068e-008    2.5797e-009    
  1.45            1.6438e-005     -1.467e-008     1.5677e-009    
  1.5             1.6484e-005     -1.7946e-008    2.7356e-009    
  1.55            1.6517e-005     -9.24e-009      2.6838e-009    
  1.6             1.6576e-005     -1.2167e-008    2.5774e-009    
  1.65            1.6653e-005     -1.4655e-008    1.556e-009     
  1.7             1.669e-005      -1.7881e-008    2.7357e-009    
  1.75            1.6714e-005     -9.237e-009     2.681e-009     
  1.8             1.677e-005      -1.2254e-008    2.5682e-009    
END_DB

BEGIN_DB
 ICCAP_VAR VG         0.72           
 ICCAP_VAR VS         0              
 ICCAP_VAR VB         0              

 #VD              ID              IB              IG             
  0               7.343e-009      1.513e-008      2.7415e-009    
  0.05            9.112e-006      1.3199e-008     2.2243e-009    
  0.1             1.7456e-005     1.4846e-008     -6.949e-010    
  0.15            2.5035e-005     1.629e-009      -2.0112e-009   
  0.2             3.1779e-005     1.5382e-008     -1.7824e-009   
  0.25            3.7645e-005     1.6314e-008     -1.5377e-009   
  0.3             4.2621e-005     1.765e-008      -1.3701e-009   
  0.35            4.6708e-005     1.9605e-008     -1.271e-009    
  0.4             4.9931e-005     1.1391e-008     -2.4308e-009   
  0.45            5.2371e-005     1.85e-008       -1.5358e-009   
  0.5             5.4119e-005     1.7527e-008     -1.3614e-009   
  0.55            5.5374e-005     1.0396e-008     -2.5244e-009   
  0.6             5.6266e-005     1.1524e-008     -2.4216e-009   
  0.65            5.6935e-005     1.8254e-008     -1.5238e-009   
  0.7             5.746e-005      1.7623e-008     -1.3588e-009   
  0.75            5.7913e-005     1.0619e-008     -2.5233e-009   
  0.8             5.8296e-005     1.1667e-008     -2.4207e-009   
  0.85            5.8637e-005     1.8074e-008     -1.5196e-009   
  0.9             5.8947e-005     1.7785e-008     -1.3585e-009   
  0.95            5.9228e-005     1.9999e-008     -1.2624e-009   
  1               5.9495e-005     1.1805e-008     -2.4193e-009   
  1.05            5.9743e-005     1.7811e-008     -1.5185e-009   
  1.1             5.9967e-005     1.7994e-008     -1.3491e-009   
  1.15            6.0195e-005     1.0638e-008     -2.5175e-009   
  1.2             6.0399e-005     1.1501e-008     -2.4136e-009   
  1.25            6.0599e-005     1.7824e-008     -1.51e-009     
  1.3             6.0815e-005     1.7917e-008     -1.347e-009    
  1.35            6.1001e-005     1.0569e-008     -2.5146e-009   
  1.4             6.1149e-005     1.1616e-008     -2.4051e-009   
  1.45            6.1307e-005     1.7559e-008     -1.4995e-009   
  1.5             6.1467e-005     1.7883e-008     -1.3415e-009   
  1.55            6.1635e-005     1.0735e-008     -2.5116e-009   
  1.6             6.1791e-005     1.1862e-008     -2.4042e-009   
  1.65            6.1931e-005     1.7303e-008     -1.4966e-009   
  1.7             6.2071e-005     1.8036e-008     -1.3368e-009   
  1.75            6.2219e-005     1.0947e-008     -2.5089e-009   
  1.8             6.2344e-005     1.1856e-008     -2.3992e-009   
END_DB

BEGIN_DB
 ICCAP_VAR VG         1.08           
 ICCAP_VAR VS         0              
 ICCAP_VAR VB         0              

 #VD              ID              IB              IG             
  0               1.1361e-008     -1.2443e-008    2.7065e-009    
  0.05            1.2804e-005     1.4048e-008     -1.9406e-009   
  0.1             2.4949e-005     1.1802e-008     -2.4413e-009   
  0.15            3.6442e-005     1.8164e-008     -1.5351e-009   
  0.2             4.7171e-005     1.7421e-008     -1.363e-009    
  0.25            5.7143e-005     1.0894e-008     -2.535e-009    
  0.3             6.6309e-005     1.1725e-008     -2.4432e-009   
  0.35            7.4636e-005     1.8019e-008     -1.5289e-009   
  0.4             8.211e-005      1.7819e-008     -1.3599e-009   
  0.45            8.874e-005      1.0982e-008     -2.5353e-009   
  0.5             9.4501e-005     1.1662e-008     -2.4371e-009   
  0.55            9.9407e-005     1.2693e-008     -2.2725e-009   
  0.6             0.000103507     1.3864e-008     -2.0557e-009   
  0.65            0.000106847     1.4934e-008     -1.8033e-009   
  0.7             0.000109498     1.5889e-008     -1.5563e-009   
  0.75            0.000111564     1.7437e-008     -1.3832e-009   
  0.8             0.000113177     1.9498e-008     -1.2803e-009   
  0.85            0.00011439      -1.1496e-008    -2.5919e-009   
  0.9             0.00011541      1.6058e-008     -1.5116e-009   
  0.95            0.00011623      1.5452e-008     -1.6439e-009   
  1               0.00011692      1.489e-008      -1.7847e-009   
  1.05            0.00011753      1.4156e-008     -1.931e-009    
  1.1             0.0001181       1.3984e-008     -1.3744e-009   
  1.15            0.00011853      1.6319e-008     -1.4653e-009   
  1.2             0.000119        1.5694e-008     -1.5876e-009   
  1.25            0.00011938      1.5266e-008     -1.7239e-009   
  1.3             0.00011979      1.4506e-008     -1.8765e-009   
  1.35            0.00012013      1.3931e-008     -2.0213e-009   
  1.4             0.00012052      1.5384e-008     -1.4251e-009   
  1.45            0.00012079      1.5761e-008     -1.5338e-009   
  1.5             0.00012112      1.5372e-008     -1.6652e-009   
  1.55            0.0001214       1.4933e-008     -1.8243e-009   
  1.6             0.00012166      1.4308e-008     -1.9738e-009   
  1.65            0.00012192      1.4473e-008     -1.3935e-009   
  1.7             0.0001222       1.6137e-008     -1.4927e-009   
  1.75            0.00012244      1.5499e-008     -1.6223e-009   
  1.8             0.00012265      1.5152e-008     -1.7672e-009   
END_DB

BEGIN_DB
 ICCAP_VAR VG         1.44           
 ICCAP_VAR VS         0              
 ICCAP_VAR VB         0              

 #VD              ID              IB              IG             
  0               1.0426e-008     -7.288e-009     5.238e-010     
  0.05            1.5987e-005     -1.6424e-008    7.465e-010     
  0.1             3.1353e-005     1.0645e-008     -2.51e-009     
  0.15            4.6119e-005     1.1458e-008     -2.4032e-009   
  0.2             6.0245e-005     1.7855e-008     -1.516e-009    
  0.25            7.3621e-005     1.831e-008      -1.3573e-009   
  0.3             8.6276e-005     1.0819e-008     -2.5067e-009   
  0.35            9.8137e-005     1.1676e-008     -2.3984e-009   
  0.4             0.000109227     1.7801e-008     -1.5228e-009   
  0.45            0.0001193       1.4513e-008     1.7222e-009    
  0.5             0.00012878      -7.129e-009     2.7426e-009    
  0.55            0.00013736      -7.416e-009     2.7266e-009    
  0.6             0.00014513      -7.965e-009     2.7007e-009    
  0.65            0.00015201      -8.093e-009     2.6635e-009    
  0.7             0.0001581       -1.7107e-008    1.5078e-009    
  0.75            0.00016339      -1.6762e-008    1.6748e-009    
  0.8             0.00016796      -1.6583e-008    1.8432e-009    
  0.85            0.0001718       -1.6029e-008    2.0189e-009    
  0.9             0.00017498      -1.5626e-008    2.1852e-009    
  0.95            0.0001776       -1.3278e-008    2.7293e-009    
  1               0.00017971      -7.358e-009     2.7437e-009    
  1.05            0.00018144      -7.384e-009     2.748e-009     
  1.1             0.00018285      -7.276e-009     2.743e-009     
  1.15            0.00018406      -7.477e-009     2.727e-009     
  1.2             0.00018507      -8.071e-009     2.6994e-009    
  1.25            0.00018595      -7.965e-009     2.6635e-009    
  1.3             0.00018666      -1.7172e-008    1.5226e-009    
  1.35            0.00018737      -1.6817e-008    1.6768e-009    
  1.4             0.00018799      -1.669e-008     1.853e-009     
  1.45            0.00018857      -1.6291e-008    2.0263e-009    
  1.5             0.00018906      -1.5608e-008    2.1901e-009    
  1.55            0.00018958      -1.3416e-008    2.7324e-009    
  1.6             0.00018994      -7.386e-009     2.7457e-009    
  1.65            0.00019043      -7.278e-009     2.7438e-009    
  1.7             0.00019085      -7.004e-009     2.744e-009     
  1.75            0.00019122      -7.616e-009     2.7256e-009    
  1.8             0.0001916       -8.186e-009     2.7027e-009    
END_DB

BEGIN_DB
 ICCAP_VAR VG         1.8            
 ICCAP_VAR VS         0              
 ICCAP_VAR VB         0              

 #VD              ID              IB              IG             
  0               1.1991e-008     -1.9442e-008    -8.876e-010    
  0.05            1.8832e-005     -1.4776e-008    4.621e-010     
  0.1             3.7091e-005     2.1826e-008     -1.6775e-009   
  0.15            5.4771e-005     1.6316e-008     -1.4674e-009   
  0.2             7.1825e-005     1.8338e-008     -1.3288e-009   
  0.25            8.8221e-005     1.1446e-008     -2.5145e-009   
  0.3             0.000103922     1.1875e-008     -2.3925e-009   
  0.35            0.00011887      1.152e-008      -8.06e-011     
  0.4             0.00013303      1.5845e-008     -1.4301e-009   
  0.45            0.00014644      1.5999e-008     -1.5423e-009   
  0.5             0.00015906      1.5195e-008     -1.6777e-009   
  0.55            0.00017086      1.4783e-008     -1.8244e-009   
  0.6             0.00018185      1.4188e-008     -1.9759e-009   
  0.65            0.00019201      1.3391e-008     -2.1173e-009   
  0.7             0.00020139      1.7209e-008     -1.4982e-009   
  0.75            0.00020986      1.5392e-008     -1.6339e-009   
  0.8             0.00021756      1.497e-008      -1.7823e-009   
  0.85            0.00022448      1.4412e-008     -1.9213e-009   
  0.9             0.00023063      1.3915e-008     -2.0787e-009   
  0.95            0.00023603      1.6443e-008     -1.4584e-009   
  1               0.00024077      1.5688e-008     -1.5769e-009   
  1.05            0.00024484      1.5093e-008     -1.7275e-009   
  1.1             0.00024833      1.4708e-008     -1.8776e-009   
  1.15            0.00025132      1.4118e-008     -2.0265e-009   
  1.2             0.00025378      1.553e-008      -1.4281e-009   
  1.25            0.00025586      1.5918e-008     -1.5422e-009   
  1.3             0.00025763      1.5215e-008     -1.6772e-009   
  1.35            0.00025911      1.4812e-008     -1.8288e-009   
  1.4             0.00026043      1.4241e-008     -1.9795e-009   
  1.45            0.00026153      1.4597e-008     -1.397e-009    
  1.5             0.00026249      1.6189e-008     -1.501e-009    
  1.55            0.00026334      1.566e-008      -1.6352e-009   
  1.6             0.00026412      1.4943e-008     -1.7842e-009   
  1.65            0.00026486      1.4414e-008     -1.926e-009    
  1.7             0.00026552      1.3704e-008     -2.0822e-009   
  1.75            0.00026617      1.6403e-008     -1.4657e-009   
  1.8             0.00026668      1.5762e-008     -1.5897e-009   
END_DB

BEGIN_DB
 ICCAP_VAR VG         0              
 ICCAP_VAR VS         0              
 ICCAP_VAR VB         -0.9           

 #VD              ID              IB              IG             
  0               1.0783e-009     1.4677e-008     -1.957e-010    
  0.05            -4.107e-010     -1.5238e-008    2.5955e-009    
  0.1             1.0743e-009     1.309e-008      -2.4386e-009   
  0.15            -1.747e-010     -1.4265e-008    2.6533e-009    
  0.2             9.58e-010       1.2175e-008     -2.4903e-009   
  0.25            -2.7718e-009    -8.212e-009     2.6931e-009    
  0.3             3.7995e-009     8.747e-009      -1.3803e-009   
  0.35            -3.5786e-009    -9.71e-009      -6.413e-010    
  0.4             -7.62e-010      -1.6862e-008    2.2263e-009    
  0.45            1.5729e-009     1.5949e-008     -2.0988e-009   
  0.5             -6.211e-010     -1.6549e-008    2.3537e-009    
  0.55            1.4625e-009     1.5181e-008     -2.2157e-009   
  0.6             -4.695e-010     -1.6232e-008    2.4658e-009    
  0.65            1.3585e-009     1.4394e-008     -2.3194e-009   
  0.7             -3.068e-010     -1.5667e-008    2.5588e-009    
  0.75            1.2474e-009     1.3782e-008     -2.4037e-009   
  0.8             -1.561e-010     -1.492e-008     2.6291e-009    
  0.85            1.1292e-009     1.2966e-008     -2.4677e-009   
  0.9             -2.743e-009     -8.023e-009     2.199e-010     
  0.95            7.041e-010      -7.679e-009     2.7342e-009    
  1               1.8176e-009     1.6371e-008     -1.9056e-009   
  1.05            -7.245e-010     -1.6476e-008    2.1463e-009    
  1.1             1.7163e-009     1.6126e-008     -2.0347e-009   
  1.15            -6.081e-010     -1.6773e-008    2.2857e-009    
  1.2             1.6152e-009     1.5436e-008     -2.1598e-009   
  1.25            -4.515e-010     -1.6147e-008    2.4063e-009    
  1.3             1.5105e-009     1.4933e-008     -2.2696e-009   
  1.35            -3.073e-010     -1.6101e-008    2.5179e-009    
  1.4             1.3984e-009     1.4362e-008     -2.3654e-009   
  1.45            -1.595e-010     -1.5299e-008    2.6002e-009    
  1.5             1.2824e-009     1.3417e-008     -2.4416e-009   
  1.55            4.9e-012        -1.4519e-008    2.6589e-009    
  1.6             1.1565e-009     1.229e-008      -2.4992e-009   
  1.65            -2.6019e-009    -7.987e-009     2.6989e-009    
  1.7             3.9851e-009     8.282e-009      -1.3694e-009   
  1.75            -3.4007e-009    -9.75e-009      -6.413e-010    
  1.8             -5.852e-010     -1.6755e-008    2.2235e-009    
END_DB

BEGIN_DB
 ICCAP_VAR VG         0.36           
 ICCAP_VAR VS         0              
 ICCAP_VAR VB         -0.9           

 #VD              ID              IB              IG             
  0               4.84e-009       1.5123e-008     2.7474e-009    
  0.05            2.0224e-006     -9.78e-009      -2.6253e-009   
  0.1             3.2218e-006     5.694e-009      -2.6359e-009   
  0.15            3.8194e-006     1.6727e-008     -1.5229e-009   
  0.2             4.0768e-006     1.5181e-008     -1.8637e-009   
  0.25            4.2107e-006     1.6472e-008     -1.4577e-009   
  0.3             4.2881e-006     1.5629e-008     -1.7669e-009   
  0.35            4.3551e-006     1.4615e-008     -1.3938e-009   
  0.4             4.4048e-006     1.5973e-008     -1.6685e-009   
  0.45            4.4528e-006     1.4333e-008     -2.0128e-009   
  0.5             4.5008e-006     1.221e-008      -2.3043e-009   
  0.55            4.539e-006      1.1017e-008     -2.4896e-009   
