! VERSION = 6.00
BEGIN_HEADER
 ICCAP_INPUTS
  VG         V  B GROUND SMU4 0.001 LIN        1    0          5          101  0.05      
  VS         V  E GROUND SMU2 0.1 CON        0
  VB         V  C GROUND SMU3 0.1 LIN        3    0          -5         3    -2.5      
  VD         V  S GROUND SMU1 0.1 LIN        2    0.1        5          2    4.9       
 ICCAP_OUTPUTS
  IG         I  B GROUND SMU4 B
  ID         I  S GROUND SMU1 B
  IB         I  C GROUND SMU3 B
END_HEADER

BEGIN_DB
 ICCAP_VAR VS         0              
 ICCAP_VAR VB         0              
 ICCAP_VAR VD         0.1            

 #VG              IG              ID              IB             
  0               -2.633e-009     1.0384e-007     1.1168e-008    
  0.05            -3.384e-010     4.6858e-007     -1.1178e-008   
  0.1             1.2599e-009     1.7731e-006     1.0724e-008    
  0.15            2.7806e-009     5.2548e-006     -8.731e-009    
  0.2             -2.6285e-009    1.1876e-005     1.0845e-008    
  0.25            -8.686e-010     2.0779e-005     -1.0572e-008   
  0.3             1.4147e-009     3.0602e-005     -1.2318e-008   
  0.35            1.2391e-009     4.0876e-005     -8.148e-009    
  0.4             2.7346e-009     5.0872e-005     -1.0047e-008   
  0.45            1.3312e-009     6.0502e-005     9.768e-009     
  0.5             2.397e-010      7.0135e-005     1.0548e-008    
  0.55            6.784e-010      7.8976e-005     1.0494e-008    
  0.6             -1.5139e-009    8.7591e-005     1.7128e-008    
  0.65            -1.3344e-009    9.6001e-005     6.948e-009     
  0.7             -2.6427e-009    0.00010398      1.1337e-008    
  0.75            1.8473e-009     0.000111445     -1.9465e-008   
  0.8             1.5394e-009     0.00011883      1.9693e-008    
  0.85            1.9678e-009     0.0001262       1.0054e-008    
  0.9             -1.338e-009     0.00013346      2.6471e-008    
  0.95            -2.6455e-009    0.00014029      1.1219e-008    
  1               1.8648e-009     0.00014684      -1.9695e-008   
  1.05            1.3573e-009     0.00015336      -7.961e-009    
  1.1             2.7849e-009     0.00015976      -8.313e-009    
  1.15            -1.8418e-009    0.00016622      1.553e-008     
  1.2             -1.4067e-009    0.00017229      4.08e-009      
  1.25            -1.3091e-009    0.00017833      9.034e-009     
  1.3             -2.5675e-009    0.0001843       1.1178e-008    
  1.35            -2.0392e-009    0.00019003      4.61e-010      
  1.4             -1.5054e-009    0.00019576      2.85e-009      
  1.45            -1.3326e-009    0.00020142      7.029e-009     
  1.5             -2.6425e-009    0.00020697      1.1142e-008    
  1.55            1.8465e-009     0.00021229      -1.9229e-008   
  1.6             1.349e-009      0.00021765      -8.281e-009    
  1.65            1.2233e-009     0.00022293      -8.082e-009    
  1.7             2.6676e-009     0.00022812      -1.1355e-008   
  1.75            5.292e-010      0.0002334       1.0651e-008    
  1.8             9.183e-010      0.00023837      9.681e-009     
  1.85            -1.369e-009     0.00024337      1.1974e-008    
  1.9             -1.2854e-009    0.00024841      9.847e-009     
  1.95            -2.4623e-009    0.00025336      1.1096e-008    
  2               -1.8585e-009    0.00025802      1.088e-009     
  2.05            -1.4258e-009    0.00026275      3.866e-009     
  2.1             -1.3107e-009    0.00026746      8.876e-009     
  2.15            -2.5803e-009    0.00027212      1.1125e-008    
  2.2             -2.0829e-009    0.00027655      5.9e-010       
  2.25            -1.5233e-009    0.00028107      2.719e-009     
  2.3             -1.3353e-009    0.00028555      6.915e-009     
  2.35            -2.6465e-009    0.0002899       1.1175e-008    
  2.4             1.8817e-009     0.00029422      -1.9944e-008   
  2.45            1.3621e-009     0.00029845      -8.083e-009    
  2.5             2.7826e-009     0.00030263      -8.448e-009    
  2.55            2.6764e-009     0.00030689      1.97e-010      
  2.6             5.114e-010      0.00031094      1.0695e-008    
  2.65            9.01e-010       0.00031489      9.741e-009     
  2.7             -1.371e-009     0.00031878      1.2181e-008    
  2.75            -1.2891e-009    0.00032288      9.65e-009      
  2.8             -2.4817e-009    0.00032677      1.1236e-008    
  2.85            -1.8812e-009    0.0003304       8.19e-010      
  2.9             -1.4236e-009    0.0003342       3.714e-009     
  2.95            -1.3131e-009    0.00033793      8.376e-009     
  3               -2.5906e-009    0.00034162      1.1394e-008    
  3.05            -2.1102e-009    0.00034505      6.87e-010      
  3.1             -1.5355e-009    0.00034858      2.656e-009     
  3.15            -1.3395e-009    0.00035217      6.465e-009     
  3.2             -2.6532e-009    0.00035552      1.1005e-008    
  3.25            1.9122e-009     0.00035888      -2.0465e-008   
  3.3             1.3728e-009     0.00036216      -7.736e-009    
  3.35            2.7796e-009     0.00036538      -8.318e-009    
  3.4             -1.8716e-009    0.00036873      1.5063e-008    
  3.45            -1.4176e-009    0.00037177      3.964e-009     
  3.5             -1.3116e-009    0.00037488      8.507e-009     
  3.55            -2.5903e-009    0.00037797      1.1326e-008    
  3.6             -2.0795e-009    0.00038086      5.95e-010      
  3.65            -1.5187e-009    0.00038382      2.868e-009     
  3.7             -1.3362e-009    0.0003868       6.675e-009     
  3.75            -2.6494e-009    0.00038961      1.1114e-008    
  3.8             1.8792e-009     0.00039237      -1.9987e-008   
  3.85            1.3587e-009     0.00039515      -7.952e-009    
  3.9             2.7836e-009     0.00039779      -8.334e-009    
  3.95            2.6814e-009     0.00040052      2.49e-010      
  4               5.051e-010      0.00040306      1.0572e-008    
  4.05            9.003e-010      0.0004056       9.899e-009     
  4.1             -1.3698e-009    0.00040793      1.2112e-008    
  4.15            -1.2894e-009    0.00041061      9.841e-009     
  4.2             -2.4811e-009    0.00041303      1.1118e-008    
  4.25            -1.8937e-009    0.0004153       9.58e-010      
  4.3             -1.4293e-009    0.00041764      3.704e-009     
  4.35            -1.3148e-009    0.00041991      8.229e-009     
  4.4             -2.6037e-009    0.00042218      1.1269e-008    
  4.45            -2.1239e-009    0.00042423      5.08e-010      
  4.5             -1.5395e-009    0.00042638      2.558e-009     
  4.55            -1.3414e-009    0.00042849      6.353e-009     
  4.6             -2.6592e-009    0.00043049      1.0721e-008    
  4.65            1.919e-009      0.00043253      -2.0629e-008   
  4.7             1.3756e-009     0.00043449      -7.651e-009    
  4.75            2.7762e-009     0.00043633      -8.067e-009    
  4.8             2.0339e-009     0.00043823      1.0528e-008    
  4.85            9.257e-010      0.00044003      9.603e-009     
  4.9             -2.009e-010     0.00044164      1.1695e-008    
  4.95            -1.3778e-009    0.0004436       2.4102e-008    
  5               -1.2956e-009    0.00044528      9.333e-009     
END_DB

BEGIN_DB
 ICCAP_VAR VS         0              
 ICCAP_VAR VB         0              
 ICCAP_VAR VD         5              

 #VG              IG              ID              IB             
  0               2.4502e-009     2.2383e-007     -1.6492e-008   
  0.05            2.7328e-009     9.5105e-007     -2.5847e-008   
  0.1             2.165e-010      3.4984e-006     -1.1318e-007   
  0.15            6.685e-010      9.9414e-006     -2.9912e-007   
  0.2             -1.8213e-009    2.1963e-005     -6.307e-007    
  0.25            8.81e-011       3.9212e-005     -1.1538e-006   
  0.3             -4.04e-010      6.2478e-005     -1.7519e-006   
  0.35            -8.48e-010      9.0575e-005     -2.4303e-006   
  0.4             -2.4396e-009    0.00012259      -3.1642e-006   
  0.45            -2.6412e-009    0.0001582       -3.9343e-006   
  0.5             -2.62e-009      0.00019683      -4.7104e-006   
  0.55            -2.171e-009     0.00023851      -5.4892e-006   
  0.6             -1.5789e-009    0.00028266      -6.2633e-006   
  0.65            -1.3525e-009    0.00032973      -7.0268e-006   
  0.7             -2.6602e-009    0.00037791      -7.7476e-006   
  0.75            -2.3749e-009    0.00042727      -8.4595e-006   
  0.8             -1.7511e-009    0.00047903      -9.124e-006    
  0.85            -1.3891e-009    0.00053203      -9.7454e-006   
  0.9             -1.3048e-009    0.00058638      -1.03188e-005  
  0.95            -2.5418e-009    0.00064198      -1.0857e-005   
  1               -1.9667e-009    0.00069798      -1.13617e-005  
  1.05            2.1288e-009     0.00075441      -1.1821e-005   
  1.1             1.4754e-009     0.00081294      -1.2208e-005   
  1.15            2.7205e-009     0.00087216      -1.257e-005    
  1.2             2.7796e-009     0.00093279      -1.2871e-005   
  1.25            2.341e-009      0.00099352      -1.3137e-005   
  1.3             1.641e-009      0.00105467      -1.3361e-005   
  1.35            1.2979e-009     0.00111666      -1.3548e-005   
  1.4             -1.775e-010     0.0011805       -1.3696e-005   
  1.45            2.437e-010      0.0012439       -1.377e-005    
  1.5             6.841e-010      0.0013071       -1.3829e-005   
  1.55            1.0435e-009     0.00137         -1.3858e-005   
  1.6             1.428e-009      0.0014339       -1.3848e-005   
  1.65            1.8525e-009     0.0014998       -1.3809e-005   
  1.7             2.2092e-009     0.0015658       -1.3739e-005   
  1.75            2.4762e-009     0.0016315       -1.3644e-005   
  1.8             2.7481e-009     0.0016977       -1.3517e-005   
  1.85            2.7599e-009     0.0017639       -1.3376e-005   
  1.9             2.2751e-009     0.0018303       -1.3206e-005   
  1.95            1.5856e-009     0.0018967       -1.3018e-005   
  2               1.2859e-009     0.0019636       -1.2814e-005   
  2.05            2.8039e-009     0.0020305       -1.2588e-005   
  2.1             2.4885e-009     0.0020989       -1.2336e-005   
  2.15            1.7817e-009     0.0021662       -1.2084e-005   
  2.2             1.339e-009      0.0022338       -1.1824e-005   
  2.25            1.2261e-009     0.0023015       -1.1551e-005   
  2.3             2.6617e-009     0.002369        -1.1271e-005   
  2.35            2.024e-009      0.0024379       -1.0971e-005   
  2.4             1.4263e-009     0.0025069       -1.0672e-005   
  2.45            1.2478e-009     0.0025751       -1.0379e-005   
  2.5             2.7582e-009     0.002643        -1.0073e-005   
  2.55            -1.8965e-009    0.0027137       -9.7393e-006   
  2.6             -1.4241e-009    0.002782        -9.4402e-006   
  2.65            -1.3162e-009    0.0028504       -9.1293e-006   
  2.7             -2.5985e-009    0.0029195       -8.8181e-006   
  2.75            -2.0948e-009    0.0029873       -8.5233e-006   
  2.8             -1.5187e-009    0.0030561       -8.2197e-006   
  2.85            -1.3384e-009    0.0031248       -7.9185e-006   
  2.9             -2.6512e-009    0.0031935       -7.6164e-006   
  2.95            -2.2985e-009    0.0032616       -7.3357e-006   
  3               -1.6705e-009    0.0033301       -7.0454e-006   
  3.05            -1.3654e-009    0.0033984       -6.7633e-006   
  3.1             -1.2891e-009    0.0034672       -6.4841e-006   
  3.15            -2.4764e-009    0.0035356       -6.2119e-006   
  3.2             -1.8554e-009    0.0036034       -5.9569e-006   
  3.25            -1.4159e-009    0.0036715       -5.6986e-006   
  3.3             -1.3135e-009    0.00374         -5.4425e-006   
  3.35            -2.5881e-009    0.0038083       -5.1954e-006   
  3.4             -2.0675e-009    0.0038757       -4.9692e-006   
  3.45            -1.511e-009     0.0039437       -4.7371e-006   
  3.5             -1.3358e-009    0.0040116       -4.514e-006    
  3.55            -2.6482e-009    0.0040792       -4.292e-006    
  3.6             -2.2693e-009    0.0041465       -4.0965e-006   
  3.65            -1.6419e-009    0.0042139       -3.8925e-006   
  3.7             -1.3621e-009    0.0042815       -3.6982e-006   
  3.75            -1.2859e-009    0.0043488       -3.5081e-006   
  3.8             -2.4474e-009    0.0044161       -3.3297e-006   
  3.85            -1.8159e-009    0.0044826       -3.1686e-006   
  3.9             -1.4081e-009    0.0045495       -2.999e-006    
  3.95            -1.3097e-009    0.0046162       -2.8384e-006   
  4               -2.5706e-009    0.0046831       -2.6848e-006   
  4.05            -2.022e-009     0.0047488       -2.552e-006    
  4.1             -1.4808e-009    0.0048152       -2.4103e-006   
  4.15            -1.3297e-009    0.0048825       -2.2737e-006   
  4.2             -2.6393e-009    0.004949        -2.1465e-006   
  4.25            -2.2269e-009    0.0050141       -2.0352e-006   
  4.3             -1.6149e-009    0.0050799       -1.9203e-006   
  4.35            -1.3545e-009    0.0051455       -1.8103e-006   
  4.4             -1.2801e-009    0.0052109       -1.7036e-006   
  4.45            -2.4152e-009    0.0052764       -1.603e-006    
  4.5             -1.7767e-009    0.0053408       -1.5212e-006   
  4.55            -1.3948e-009    0.0054056       -1.4291e-006   
  4.6             -1.3041e-009    0.0054704       -1.3417e-006   
  4.65            -2.5515e-009    0.0055351       -1.2573e-006   
  4.7             -1.9746e-009    0.0055988       -1.1939e-006   
  4.75            -1.4609e-009    0.0056632       -1.1229e-006   
  4.8             -1.3273e-009    0.0057271       -1.0517e-006   
  4.85            2.6898e-009     0.0057897       -9.8614e-007   
  4.9             2.8e-009        0.0058535       -9.3213e-007   
  4.95            2.4269e-009     0.0059167       -8.7651e-007   
  5               1.7247e-009     0.0059797       -8.251e-007    
END_DB

BEGIN_DB
 ICCAP_VAR VS         0              
 ICCAP_VAR VB         -2.5           
 ICCAP_VAR VD         0.1            

 #VG              IG              ID              IB             
  0               1.2785e-009     1.3259e-009     -1.1334e-008   
  0.05            1.1368e-009     2.1476e-009     -8.687e-009    
  0.1             -1.3601e-009    1.0864e-009     2.8028e-008    
  0.15            -1.1133e-009    -2.0446e-009    1.0175e-008    
  0.2             1.3733e-009     -8.29e-010      -2.6201e-008   
  0.25            2.6785e-009     2.1234e-009     -8.419e-009    
  0.3             -1.387e-009     7.5244e-009     2.7443e-008    
  0.35            2.4217e-009     3.3631e-008     2.6648e-008    
  0.4             -8.902e-010     1.675e-007      1.3276e-008    
  0.45            1.3853e-009     7.6413e-007     -1.1923e-008   
  0.5             2.6483e-009     2.818e-006      2.3531e-008    
  0.55            7.749e-010      7.6247e-006     1.014e-008     
  0.6             -2.587e-009     1.5286e-005     1.0646e-008    
  0.65            2.548e-010      2.4458e-005     -1.1443e-008   
  0.7             1.377e-009      3.4095e-005     -2.2961e-008   
  0.75            1.2304e-009     4.3599e-005     -8.327e-009    
  0.8             2.6982e-009     5.271e-005      -1.1069e-008   
  0.85            5.184e-010      6.1724e-005     1.0712e-008    
  0.9             -1.6603e-009    7.0209e-005     1.7307e-008    
  0.95            -1.3619e-009    7.8342e-005     5.294e-009     
  1               -1.2838e-009    8.6193e-005     1.0161e-008    
  1.05            -2.4412e-009    9.3798e-005     1.1313e-008    
  1.1             -1.8032e-009    0.000101072     1.383e-009     
  1.15            -1.3969e-009    0.000108241     4.176e-009     
  1.2             -1.7287e-009    0.00011524      8.137e-009     
  1.25            -1.3766e-009    0.00012199      4.985e-009     
  1.3             -1.2952e-009    0.00012862      9.416e-009     
  1.35            -2.4888e-009    0.00013512      1.1313e-008    
  1.4             -1.8751e-009    0.00014134      9.11e-010      
  1.45            -1.4223e-009    0.00014755      3.577e-009     
  1.5             -1.3132e-009    0.00015369      8.588e-009     
  1.55            -2.588e-009     0.00015963      1.1402e-008    
  1.6             -2.07e-009      0.00016542      5.4e-010       
  1.65            -1.5048e-009    0.00017118      2.69e-009      
  1.7             -1.3309e-009    0.00017687      7.174e-009     
  1.75            -2.6394e-009    0.00018242      1.1233e-008    
  1.8             1.8094e-009     0.00018777      -1.9085e-008   
  1.85            1.3286e-009     0.00019313      -8.541e-009    
  1.9             1.2203e-009     0.00019842      -8.504e-009    
  1.95            2.635e-009      0.00020362      -1.198e-008    
  2               5.82e-010       0.00020882      1.0808e-008    
  2.05            9.685e-010      0.00021382      9.453e-009     
  2.1             -1.3495e-009    0.00021894      2.5898e-008    
  2.15            -2.6578e-009    0.00022382      1.0481e-008    
  2.2             1.9492e-009     0.00022856      -2.0966e-008   
  2.25            1.3806e-009     0.00023331      -7.588e-009    
  2.3             2.7806e-009     0.00023796      -8.299e-009    
  2.35            -1.2921e-009    0.00024276      2.6809e-008    
  2.4             -2.4648e-009    0.00024739      1.1298e-008    
  2.45            -1.8449e-009    0.00025177      1.131e-009     
  2.5             -1.4112e-009    0.00025624      4.075e-009     
  2.55            -1.307e-009     0.00026058      8.634e-009     
  2.6             -2.5689e-009    0.00026494      1.13e-008      
  2.65            -2.0251e-009    0.00026909      5e-010         
  2.7             -1.4857e-009    0.00027328      2.912e-009     
  2.75            -1.3297e-009    0.00027743      7.454e-009     
  2.8             -2.6251e-009    0.0002815       1.1373e-008    
  2.85            1.7639e-009     0.00028539      -1.7997e-008   
  2.9             1.3176e-009     0.00028931      -8.609e-009    
  2.95            2.8071e-009     0.00029321      -8.476e-009    
  3               2.6001e-009     0.00029704      1.5e-011       
  3.05            6.166e-010      0.00030075      1.083e-008     
  3.1             9.901e-010      0.00030443      9.027e-009     
  3.15            -1.3447e-009    0.00030813      2.6462e-008    
  3.2             -2.6517e-009    0.00031169      1.0801e-008    
  3.25            1.8832e-009     0.0003152       -2.0121e-008   
  3.3             1.36e-009       0.00031865      -7.948e-009    
  3.35            2.7858e-009     0.00032203      -8.388e-009    
  3.4             -1.2856e-009    0.00032548      2.6496e-008    
  3.45            -2.4319e-009    0.00032882      1.1512e-008    
  3.5             -1.7927e-009    0.00033196      1.422e-009     
  3.55            -1.3949e-009    0.00033517      4.133e-009     
  3.6             -1.3053e-009    0.00033831      9.127e-009     
  3.65            -2.5402e-009    0.00034143      1.1184e-008    
  3.7             -1.9683e-009    0.00034433      6.17e-010      
  3.75            -1.455e-009     0.00034729      3.137e-009     
  3.8             -1.3256e-009    0.00035028      7.781e-009     
  3.85            -2.6192e-009    0.00035317      1.1599e-008    
  3.9             -2.1481e-009    0.00035584      5.47e-010      
  3.95            -1.5491e-009    0.00035866      2.389e-009     
  4               -1.343e-009     0.00036138      6.277e-009     
  4.05            -2.6547e-009    0.00036403      1.0959e-008    
  4.1             1.8873e-009     0.00036663      -2.0153e-008   
  4.15            1.3683e-009     0.00036924      -7.823e-009    
