! VERSION = 6.00
BEGIN_HEADER
 ICCAP_INPUTS
  VG         V  B GROUND SMU4 0.001 LIN        2    0          1.8        6    0.36      
  VS         V  E GROUND SMU3 0.1 CON        0
  VD         V  S GROUND SMU2 0.1 LIN        1    0          1.8        37   0.05      
  VB         V  C GROUND SMU1 0.1 LIN        3    0          -0.9       2    -0.9      
 ICCAP_OUTPUTS
  ID         I  S GROUND SMU2 B
  IB         I  C GROUND SMU1 B
  IG         I  B GROUND SMU4 B
END_HEADER

BEGIN_DB
 ICCAP_VAR VG         0              
 ICCAP_VAR VS         0              
 ICCAP_VAR VB         0              

 #VD              ID              IB              IG             
  0               2.0694e-009     1.5922e-008     -2.604e-010    
  0.05            6.8752e-008     1.743e-009      1.0866e-009    
  0.1             7.9905e-008     1.7358e-008     -1.418e-009    
  0.15            8.5009e-008     1.4554e-008     -1.394e-009    
  0.2             8.7182e-008     1.394e-008      -1.3744e-009   
  0.25            8.8932e-008     1.3352e-008     -1.3532e-009   
  0.3             8.8611e-008     1.4534e-008     -2.0023e-009   
  0.35            8.932e-008      1.0824e-008     -2.5062e-009   
  0.4             9.0056e-008     7.015e-009      -2.6356e-009   
  0.45            9.3213e-008     1.609e-008      -1.6971e-009   
  0.5             9.3775e-008     1.1928e-008     -2.3642e-009   
  0.55            9.4252e-008     8.116e-009      -2.5984e-009   
  0.6             9.7169e-008     6.683e-009      1.8362e-009    
  0.65            9.6208e-008     1.5856e-008     1.7826e-009    
  0.7             9.802e-008      1.3257e-008     2.5287e-009    
  0.75            9.9144e-008     1.6346e-008     2.7115e-009    
  0.8             1.00134e-007    1.095e-008      2.3455e-009    
  0.85            1.01127e-007    1.4404e-008     2.585e-009     
  0.9             1.0143e-007     8.624e-009      -2.6325e-009   
  0.95            1.0503e-007     1.749e-008      -1.4119e-009   
  1               1.0591e-007     1.6731e-008     -1.535e-009    
  1.05            1.0673e-007     1.6241e-008     -1.6873e-009   
  1.1             1.0744e-007     1.5472e-008     -1.8495e-009   
  1.15            1.1021e-007     1.264e-008      -1.338e-009    
  1.2             1.0978e-007     1.7285e-008     -1.432e-009    
  1.25            1.1051e-007     1.6543e-008     -1.5553e-009   
  1.3             1.112e-007      1.6051e-008     -1.7042e-009   
  1.35            1.1199e-007     1.5422e-008     -1.8674e-009   
  1.4             1.1262e-007     1.4592e-008     -2.0275e-009   
  1.45            1.154e-007      1.5807e-008     -1.4434e-009   
  1.5             1.1142e-007     -7.976e-009     2.6788e-009    
  1.55            1.1064e-007     -1.7136e-008    1.4959e-009    
  1.6             1.1158e-007     -1.6923e-008    1.6636e-009    
  1.65            1.125e-007      -1.692e-008     1.8594e-009    
  1.7             1.132e-007      -1.6289e-008    2.0518e-009    
  1.75            1.1207e-007     -1.1685e-008    2.7051e-009    
  1.8             1.1555e-007     -7.48e-009      2.7324e-009    
END_DB

BEGIN_DB
 ICCAP_VAR VG         0.36           
 ICCAP_VAR VS         0              
 ICCAP_VAR VB         0              

 #VD              ID              IB              IG             
  0               9.423e-009      -1.7101e-008    2.6226e-009    
  0.05            1.0014e-005     -6e-009         -1.9644e-009   
  0.1             1.7667e-005     -1.4838e-008    1.5598e-009    
  0.15            2.3131e-005     -1.8266e-008    1.3592e-009    
  0.2             2.6616e-005     -1.9679e-008    2.6869e-009    
  0.25            2.8573e-005     -1.1264e-008    2.5955e-009    
  0.3             2.9715e-005     -1.5515e-008    1.6291e-009    
  0.35            3.032e-005      -1.7765e-008    1.407e-009     
  0.4             3.0758e-005     -1.92e-008      2.7028e-009    
  0.45            3.1087e-005     -1.0648e-008    2.6247e-009    
  0.5             3.1468e-005     -1.6719e-008    1.6949e-009    
  0.55            3.1695e-005     -1.7473e-008    1.4611e-009    
  0.6             3.1931e-005     -1.8872e-008    2.7209e-009    
  0.65            3.2126e-005     -9.58e-009      2.6561e-009    
  0.7             3.2355e-005     -1.251e-008     2.5371e-009    
  0.75            3.2606e-005     -1.397e-008     1.5276e-009    
  0.8             3.2765e-005     -1.8531e-008    2.7314e-009    
  0.85            3.2906e-005     -8.845e-009     2.6741e-009    
  0.9             3.3092e-005     -1.1807e-008    2.5794e-009    
  0.95            3.3328e-005     -1.4927e-008    1.5881e-009    
  1               3.3445e-005     -1.8057e-008    1.3835e-009    
  1.05            3.3593e-005     -1.9426e-008    2.6973e-009    
  1.1             3.3715e-005     -1.1002e-008    2.6125e-009    
  1.15            3.3949e-005     -1.6134e-008    1.6448e-009    
  1.2             3.4044e-005     -1.7848e-008    1.4345e-009    
  1.25            3.416e-005      -1.9041e-008    2.711e-009     
  1.3             3.4266e-005     -1.0252e-008    2.6397e-009    
  1.35            3.4398e-005     -1.3187e-008    2.515e-009     
  1.4             3.4571e-005     -1.351e-008     2.7315e-009    
  1.45            3.4627e-005     -9.164e-009     2.6717e-009    
  1.5             3.4757e-005     -1.1818e-008    2.5737e-009    
  1.55            3.4943e-005     -1.4992e-008    1.5929e-009    
  1.6             3.5012e-005     -1.8142e-008    1.3811e-009    
  1.65            3.5108e-005     -1.9445e-008    2.6946e-009    
  1.7             3.5185e-005     -1.0951e-008    2.6099e-009    
  1.75            3.5376e-005     -1.6039e-008    1.66e-009      
  1.8             3.5426e-005     -1.7819e-008    1.4337e-009    
END_DB

BEGIN_DB
 ICCAP_VAR VG         0.72           
 ICCAP_VAR VS         0              
 ICCAP_VAR VB         0              

 #VD              ID              IB              IG             
  0               1.1609e-008     -1.0621e-008    -1.1714e-009   
  0.05            2.1268e-005     -7.672e-009     -1.4538e-009   
  0.1             4.0669e-005     1.8998e-008     -1.3257e-009   
  0.15            5.822e-005      1.0638e-008     -2.4874e-009   
  0.2             7.3773e-005     1.1648e-008     -2.3759e-009   
  0.25            8.7255e-005     1.7224e-008     -1.5021e-009   
  0.3             9.8586e-005     1.8452e-008     -1.3592e-009   
  0.35            0.000107818     1.0423e-008     -2.5113e-009   
  0.4             0.0001148       -4.213e-009     -2.445e-009    
  0.45            0.00012004      -1.3963e-008    1.502e-009     
  0.5             0.00012375      -1.7098e-008    1.6749e-009    
  0.55            0.0001264       -1.6983e-008    1.8657e-009    
  0.6             0.00012829      -1.6558e-008    2.0569e-009    
  0.65            0.00012973      -1.1998e-008    2.7039e-009    
  0.7             0.00013073      -7.423e-009     2.737e-009     
  0.75            0.0001317       -7.416e-009     2.7482e-009    
  0.8             0.00013252      -7.102e-009     2.7507e-009    
  0.85            0.00013327      -7.579e-009     2.7398e-009    
  0.9             0.00013392      -7.945e-009     2.7165e-009    
  0.95            0.00013452      -7.96e-009      2.6736e-009    
  1               0.00013508      -1.7378e-008    1.5386e-009    
  1.05            0.0001356       -1.7159e-008    1.7258e-009    
  1.1             0.0001361       -1.6846e-008    1.9067e-009    
  1.15            0.00013658      -1.6348e-008    2.1037e-009    
  1.2             0.000137        -1.2528e-008    2.7114e-009    
  1.25            0.00013739      -7.457e-009     2.7389e-009    
  1.3             0.00013787      -7.151e-009     2.7501e-009    
  1.35            0.00013824      -7.123e-009     2.7509e-009    
  1.4             0.00013865      -7.714e-009     2.734e-009     
  1.45            0.00013903      -8.075e-009     2.7044e-009    
  1.5             0.00013935      -7.776e-009     2.6586e-009    
  1.55            0.00013972      -1.7265e-008    1.5851e-009    
  1.6             0.00014005      -1.716e-008     1.7682e-009    
  1.65            0.00014037      -1.6882e-008    1.9655e-009    
  1.7             0.00014067      -1.6e-008       2.1472e-009    
  1.75            0.00014097      -1.3124e-008    2.7187e-009    
  1.8             0.00014123      -7.343e-009     2.7449e-009    
END_DB

BEGIN_DB
 ICCAP_VAR VG         1.08           
 ICCAP_VAR VS         0              
 ICCAP_VAR VB         0              

 #VD              ID              IB              IG             
  0               2.1532e-008     8.844e-009      8.42e-011      
  0.05            3.0002e-005     -9.841e-009     1.497e-010     
  0.1             5.8375e-005     8.571e-009      1.9835e-009    
  0.15            8.5143e-005     -1.144e-008     2.61e-009      
  0.2             0.000110273     -1.6211e-008    1.6771e-009    
  0.25            0.00013353      -1.5831e-008    -3.231e-010    
  0.3             0.00015496      -9.575e-009     -9.646e-010    
  0.35            0.00017431      1.68e-009       -1.9295e-009   
  0.4             0.00019179      1.4893e-008     -1.4104e-009   
  0.45            0.00020703      1.6917e-008     -1.5248e-009   
  0.5             0.00022034      1.6303e-008     -1.6721e-009   
  0.55            0.0002316       1.5729e-008     -1.8324e-009   
  0.6             0.00024096      1.4568e-008     -1.9996e-009   
  0.65            0.0002485       1.5523e-008     -1.4399e-009   
  0.7             0.00025451      1.68e-008       -1.5572e-009   
  0.75            0.00025915      1.6243e-008     -1.7097e-009   
  0.8             0.00026268      1.5333e-008     -1.8776e-009   
  0.85            0.00026552      1.3415e-008     -1.3688e-009   
  0.9             0.00026764      1.7324e-008     -1.467e-009    
  0.95            0.00026943      1.6544e-008     -1.6026e-009   
  1               0.00027094      1.5981e-008     -1.7556e-009   
  1.05            0.00027223      1.5014e-008     -1.9175e-009   
  1.1             0.00027343      1.3869e-008     -2.073e-009    
  1.15            0.00027448      1.7001e-008     -1.496e-009    
  1.2             0.00027542      1.6556e-008     -1.6361e-009   
  1.25            0.00027632      1.5718e-008     -1.7941e-009   
  1.3             0.00027713      1.495e-008      -1.9561e-009   
  1.35            0.00027798      1.4881e-008     -1.4092e-009   
  1.4             0.00027866      1.6842e-008     -1.5348e-009   
  1.45            0.00027933      1.6443e-008     -1.6816e-009   
  1.5             0.00028004      1.5562e-008     -1.8412e-009   
  1.55            0.00028065      1.452e-008      -2.0013e-009   
  1.6             0.0002813       1.5549e-008     -1.4367e-009   
  1.65            0.00028182      1.6815e-008     -1.5691e-009   
  1.7             0.00028239      1.6247e-008     -1.7178e-009   
  1.75            0.00028295      1.5341e-008     -1.8744e-009   
  1.8             0.00028348      1.41e-008       -2.0377e-009   
END_DB

BEGIN_DB
 ICCAP_VAR VG         1.44           
 ICCAP_VAR VS         0              
 ICCAP_VAR VB         0              

 #VD              ID              IB              IG             
  0               2.6352e-008     1.7015e-008     9.159e-010     
  0.05            3.7471e-005     -7.571e-009     -1.3968e-009   
  0.1             7.3411e-005     1.96e-008       -1.2938e-009   
  0.15            0.000107992     1.1158e-008     -2.4566e-009   
  0.2             0.00014094      1.6215e-008     4.817e-010     
  0.25            0.00017229      1.5345e-008     -1.8825e-009   
  0.3             0.00020193      1.4385e-008     -2.0454e-009   
  0.35            0.00022974      1.6268e-008     -1.4713e-009   
  0.4             0.00025558      1.6544e-008     -1.6103e-009   
  0.45            0.00027955      1.6058e-008     -1.7696e-009   
  0.5             0.00030154      1.5e-008        -1.935e-009    
  0.55            0.00032159      1.451e-008      -1.3957e-009   
  0.6             0.00033959      1.7031e-008     -1.5142e-009   
  0.65            0.00035564      1.6533e-008     -1.6604e-009   
  0.7             0.00036979      1.5617e-008     -1.8245e-009   
  0.75            0.00038206      1.4752e-008     -1.9882e-009   
  0.8             0.00039249      1.5375e-008     -1.436e-009    
  0.85            0.00040128      1.679e-008      -1.5568e-009   
  0.9             0.00040857      1.6115e-008     -1.7084e-009   
  0.95            0.00041454      1.5471e-008     -1.8754e-009   
  1               0.00041942      1.352e-008      -1.3641e-009   
  1.05            0.00042327      1.7152e-008     -1.4759e-009   
  1.1             0.00042646      1.6645e-008     -1.6111e-009   
  1.15            0.00042905      1.6007e-008     -1.7722e-009   
  1.2             0.00043135      1.4893e-008     -1.9378e-009   
  1.25            0.0004332       1.4403e-008     -1.3998e-009   
  1.3             0.00043487      1.7035e-008     -1.5165e-009   
  1.35            0.00043637      1.6445e-008     -1.6586e-009   
  1.4             0.00043779      1.5593e-008     -1.825e-009    
  1.45            0.00043905      1.4672e-008     -1.9901e-009   
  1.5             0.00044015      1.5494e-008     -1.4353e-009   
  1.55            0.00044123      1.6823e-008     -1.5586e-009   
  1.6             0.00044222      1.6108e-008     -1.7144e-009   
  1.65            0.00044315      1.5372e-008     -1.8783e-009   
  1.7             0.00044408      1.3517e-008     -1.3683e-009   
  1.75            0.00044488      1.7307e-008     -1.4729e-009   
  1.8             0.00044569      1.6557e-008     -1.6063e-009   
END_DB

BEGIN_DB
 ICCAP_VAR VG         1.8            
 ICCAP_VAR VS         0              
 ICCAP_VAR VB         0              

 #VD              ID              IB              IG             
  0               2.5771e-008     1.4686e-008     1.0021e-009    
  0.05            4.4009e-005     -1.695e-008     8.553e-010     
  0.1             8.6645e-005     -3.585e-009     1.7365e-009    
  0.15            0.00012798      -1.6285e-008    -4.117e-010    
  0.2             0.00016782      -1.5685e-008    2.2245e-009    
  0.25            0.00020625      -1.4275e-008    1.5337e-009    
  0.3             0.00024292      -1.6886e-008    1.7237e-009    
  0.35            0.00027785      -1.6961e-008    1.9204e-009    
  0.4             0.00031105      -1.6107e-008    2.1008e-009    
  0.45            0.00034253      -1.2691e-008    2.7136e-009    
  0.5             0.00037191      -7.315e-009     2.7394e-009    
  0.55            0.00039949      -7.38e-009      2.749e-009     
  0.6             0.00042512      -6.973e-009     2.746e-009     
  0.65            0.00044882      -7.765e-009     2.7305e-009    
  0.7             0.00047055      -8.13e-009      2.6959e-009    
  0.75            0.00049032      -1.7723e-008    1.4462e-009    
  0.8             0.00050822      -1.7017e-008    1.6214e-009    
  0.85            0.00052425      -1.6999e-008    1.8055e-009    
  0.9             0.00053846      -1.6766e-008    2.0064e-009    
  0.95            0.00055107      -1.1529e-008    2.6944e-009    
  1               0.00056172      -7.544e-009     2.7297e-009    
  1.05            0.00057117      -7.544e-009     2.7425e-009    
  1.1             0.00057914      -7.14e-009      2.7471e-009    
  1.15            0.00058586      -7.414e-009     2.7392e-009    
  1.2             0.00059146      -7.853e-009     2.7181e-009    
  1.25            0.00059615      -8.052e-009     2.6764e-009    
  1.3             0.00060006      -1.7298e-008    1.528e-009     
  1.35            0.00060336      -1.6901e-008    1.713e-009     
  1.4             0.00060623      -1.692e-008     1.9055e-009    
  1.45            0.00060869      -1.6126e-008    2.1008e-009    
  1.5             0.0006108       -1.2453e-008    2.7176e-009    
  1.55            0.00061262      -7.651e-009     2.738e-009     
  1.6             0.00061446      -6.984e-009     2.7455e-009    
  1.65            0.00061599      -7.262e-009     2.746e-009     
  1.7             0.00061739      -7.489e-009     2.7332e-009    
  1.75            0.00061872      -8.11e-009      2.7007e-009    
  1.8             0.00061998      -1.7631e-008    1.4471e-009    
END_DB

BEGIN_DB
 ICCAP_VAR VG         0              
 ICCAP_VAR VS         0              
 ICCAP_VAR VB         -0.9           

 #VD              ID              IB              IG             
  0               1.135e-009      1.5792e-008     -2.207e-010    
  0.05            -2.759e-010     -1.4622e-008    2.632e-009     
  0.1             3.8906e-009     7.955e-009      -1.3235e-009   
  0.15            8.02e-011       -1.2289e-008    2.713e-009     
  0.2             7.367e-010      1.1224e-008     -2.5697e-009   
  0.25            -2.5283e-009    -1.0679e-008    1.6439e-009    
  0.3             3.3181e-009     1.7403e-008     -1.8625e-009   
  0.35            -7.939e-010     -1.6799e-008    2.1641e-009    
  0.4             1.6001e-009     1.6035e-008     -2.0944e-009   
  0.45            -5.492e-010     -1.6485e-008    2.3931e-009    
  0.5             1.3996e-009     1.4956e-008     -2.296e-009    
  0.55            -2.808e-010     -1.5501e-008    2.564e-009     
  0.6             1.1874e-009     1.2993e-008     -2.4398e-009   
  0.65            7.2e-012        -1.3592e-008    2.6752e-009    
  0.7             3.9201e-009     8.399e-009      -1.3668e-009   
  0.75            -3.5089e-009    -9.631e-009     -6.203e-010    
  0.8             -6.029e-010     -1.69e-008      2.3009e-009    
  0.85            1.5434e-009     1.5539e-008     -2.2162e-009   
  0.9             -3.404e-010     -1.6069e-008    2.4965e-009    
  0.95            1.3286e-009     1.3893e-008     -2.3831e-009   
  1               -5.98e-011      -1.4749e-008    2.6365e-009    
  1.05            1.1094e-009     1.2176e-008     -2.4971e-009   
  1.1             -2.5732e-009    -8.516e-009     2.7116e-009    
  1.15            3.8661e-009     9.824e-009      -1.4569e-009   
  1.2             -2.281e-009     -1.3039e-008    1.8636e-009    
  1.25            3.0251e-009     8.58e-009       1.7158e-009    
  1.3             3.5336e-009     1.5959e-008     -1.7966e-009   
  1.35            -6.949e-010     -1.6954e-008    2.0849e-009    
  1.4             1.7993e-009     1.6234e-008     -2.0455e-009   
  1.45            -4.782e-010     -1.6761e-008    2.3368e-009    
  1.5             1.6004e-009     1.5161e-008     -2.2508e-009   
  1.55            -2.108e-010     -1.5886e-008    2.5248e-009    
  1.6             1.3811e-009     1.3763e-008     -2.4058e-009   
  1.65            6.13e-011       -1.4137e-008    2.6459e-009    
  1.7             1.1522e-009     1.2013e-008     -2.511e-009    
  1.75            -2.4641e-009    -8.641e-009     2.7183e-009    
  1.8             9.349e-010      1.0871e-008     -2.5734e-009   
END_DB

BEGIN_DB
 ICCAP_VAR VG         0.36           
 ICCAP_VAR VS         0              
 ICCAP_VAR VB         -0.9           

 #VD              ID              IB              IG             
  0               -6.28e-010      -1.6391e-008    6.847e-010     
  0.05            4.0144e-006     -9.772e-009     -2.6224e-009   
  0.1             6.1477e-006     6.081e-009      -2.6393e-009   
  0.15            7.0834e-006     1.7044e-008     -1.5076e-009   
  0.2             7.4714e-006     1.5435e-008     -1.8556e-009   
  0.25            7.6739e-006     1.6254e-008     -1.465e-009    
  0.3             7.809e-006      1.5663e-008     -1.7903e-009   
  0.35            7.9231e-006     1.5103e-008     -1.4214e-009   
  0.4             8.0154e-006     1.6002e-008     -1.7248e-009   
  0.45            8.1127e-006     1.4191e-008     -1.3844e-009   
  0.5             8.1918e-006     1.6368e-008     -1.6617e-009   
  0.55            8.2706e-006     1.4329e-008     -2.0167e-009   
