! VERSION = 6.00
BEGIN_HEADER
 ICCAP_INPUTS
  VG         V  B GROUND SMU4 0.001 LIN        1    0          1.8        37   0.05      
  VS         V  E GROUND SMU3 0.1 CON        0
  VB         V  C GROUND SMU1 0.1 LIN        3    0          -1.8       3    -0.9      
  VD         V  S GROUND SMU2 0.1 LIN        2    0.1        1.8        2    1.7       
 ICCAP_OUTPUTS
  IG         I  B GROUND SMU4 B
  ID         I  S GROUND SMU2 B
  IB         I  C GROUND SMU1 B
END_HEADER

BEGIN_DB
 ICCAP_VAR VS         0              
 ICCAP_VAR VB         0              
 ICCAP_VAR VD         0.1            

 #VG              IG              ID              IB             
  0               2.7574e-009     5.9144e-008     -1.642e-008    
  0.05            2.7348e-009     2.3981e-007     -9.256e-009    
  0.1             -2.1416e-009    7.4568e-007     1.3233e-008    
  0.15            2.2808e-009     1.7006e-006     1.3538e-008    
  0.2             -2.4561e-009    3.0876e-006     1.1795e-008    
  0.25            2.0612e-009     4.6069e-006     -1.579e-008    
  0.3             -1.4388e-009    6.2669e-006     1.586e-008     
  0.35            2.4904e-009     7.786e-006      -1.416e-008    
  0.4             -1.6249e-009    9.3551e-006     1.558e-008     
  0.45            -8.695e-010     1.07946e-005    -9.441e-009    
  0.5             -6.529e-010     1.2188e-005     1.4051e-008    
  0.55            2.6541e-009     1.3506e-005     -7.752e-009    
  0.6             -1.563e-009     1.4826e-005     1.92e-008      
  0.65            2.6051e-009     1.6018e-005     -1.243e-008    
  0.7             -1.7903e-009    1.7244e-005     1.4892e-008    
  0.75            2.7521e-009     1.8377e-005     -1.2321e-008   
  0.8             -2.2126e-009    1.9508e-005     1.2967e-008    
  0.85            1.8882e-009     2.0572e-005     -1.9804e-008   
  0.9             -2.4994e-009    2.1644e-005     1.1623e-008    
  0.95            2.1534e-009     2.2637e-005     -1.5374e-008   
  1               -1.5096e-009    2.3681e-005     1.7598e-008    
  1.05            -9.399e-010     2.4637e-005     -9.113e-009    
  1.1             2.7491e-009     2.5576e-005     -6.953e-009    
  1.15            -2.494e-009     2.6535e-005     1.1474e-008    
  1.2             2.1502e-009     2.7422e-005     -1.5498e-008   
  1.25            -1.5028e-009    2.8365e-005     1.7628e-008    
  1.3             -9.411e-010     2.9227e-005     -9.399e-009    
  1.35            2.7516e-009     3.0075e-005     -6.769e-009    
  1.4             -2.4883e-009    3.0949e-005     1.1707e-008    
  1.45            2.1454e-009     3.1767e-005     -1.5623e-008   
  1.5             -1.5016e-009    3.2637e-005     1.7592e-008    
  1.55            2.5424e-009     3.3405e-005     -1.3558e-008   
  1.6             -1.7085e-009    3.4228e-005     1.5443e-008    
  1.65            -8.271e-010     3.5018e-005     -9.627e-009    
  1.7             2.7221e-009     3.5791e-005     -7.442e-009    
  1.75            -1.3709e-009    3.6601e-005     1.378e-008     
  1.8             2.3926e-009     3.7306e-005     -1.4654e-008   
END_DB

BEGIN_DB
 ICCAP_VAR VS         0              
 ICCAP_VAR VB         0              
 ICCAP_VAR VD         1.8            

 #VG              IG              ID              IB             
  0               4.918e-010      9.2628e-008     1.7957e-008    
  0.05            -1.0818e-009    3.4999e-007     1.477e-008     
  0.1             2.7652e-009     1.04477e-006    -7.779e-009    
  0.15            -2.0412e-009    2.4885e-006     -1.3226e-008   
  0.2             2.7503e-009     4.7299e-006     -1.9019e-008   
  0.25            -2.1842e-009    7.8789e-006     1.3071e-008    
  0.3             -1.048e-010     1.1589e-005     1.0999e-008    
  0.35            2.259e-009      1.6017e-005     -1.5294e-008   
  0.4             -1.5832e-009    2.1185e-005     1.9484e-008    
  0.45            -8.986e-010     2.6649e-005     -9.245e-009    
  0.5             2.7392e-009     3.2542e-005     -6.837e-009    
  0.55            -2.5315e-009    3.9136e-005     1.1407e-008    
  0.6             2.2434e-009     4.5709e-005     -1.5031e-008   
  0.65            -1.5722e-009    5.3021e-005     1.9336e-008    
  0.7             -8.997e-010     6.0338e-005     -9.284e-009    
  0.75            2.7449e-009     6.7918e-005     -6.99e-009     
  0.8             -2.5278e-009    7.6121e-005     1.1195e-008    
  0.85            2.2227e-009     8.4103e-005     -1.5352e-008   
  0.9             -1.5605e-009    9.2777e-005     1.899e-008     
  0.95            -9.085e-010     0.000101303     -9.318e-009    
  1               2.7468e-009     0.00010999      -6.821e-009    
  1.05            1.5188e-009     0.00011886      2.005e-008     
  1.1             -1.3759e-009    0.00012845      1.3821e-008    
  1.15            2.4072e-009     0.00013752      -1.4638e-008   
  1.2             -1.5331e-009    0.00014734      1.5874e-008    
  1.25            -9.225e-010     0.00015686      -9.145e-009    
  1.3             2.7488e-009     0.0001665       -7.115e-009    
  1.35            -2.5149e-009    0.00017665      1.1398e-008    
  1.4             2.1777e-009     0.00018641      -1.5248e-008   
  1.45            -1.521e-009     0.00019687      1.8184e-008    
  1.5             -9.298e-010     0.00020695      -9.096e-009    
  1.55            2.7502e-009     0.00021711      -6.97e-009     
  1.6             -1.2855e-009    0.00022782      1.0677e-008    
  1.65            2.1681e-009     0.00023806      -1.5305e-008   
  1.7             -1.5111e-009    0.00024894      1.7773e-008    
  1.75            -9.394e-010     0.0002595       -9.168e-009    
  1.8             2.7524e-009     0.00027         -7.123e-009    
END_DB

BEGIN_DB
 ICCAP_VAR VS         0              
 ICCAP_VAR VB         -0.9           
 ICCAP_VAR VD         0.1            

 #VG              IG              ID              IB             
  0               7.501e-010      4.44e-010       -7.765e-009    
  0.05            1.7798e-009     3.1562e-009     -5.825e-009    
  0.1             2.6508e-009     1.2265e-008     -5.988e-009    
  0.15            -1.6127e-009    5.1959e-008     1.5881e-008    
  0.2             1.2493e-009     2.1155e-007     -1.6831e-008   
  0.25            -2.4559e-009    6.9684e-007     1.1638e-008    
  0.3             2.251e-009      1.6242e-006     1.1656e-008    
  0.35            -1.4414e-009    2.989e-006      1.6685e-008    
  0.4             2.4783e-009     4.4563e-006     -1.4141e-008   
  0.45            -1.6309e-009    6.0448e-006     1.6009e-008    
  0.5             -8.775e-010     7.5254e-006     -9.42e-009     
  0.55            2.7425e-009     8.9495e-006     -7.169e-009    
  0.6             -1.3204e-009    1.03718e-005    1.2267e-008    
  0.65            -1.8824e-009    1.1679e-005     1.6762e-008    
  0.7             1.6195e-009     1.2923e-005     -1.6487e-008   
  0.75            8.464e-010      1.4168e-005     8.849e-009     
  0.8             -2.6258e-009    1.5357e-005     7.332e-009     
  0.85            1.971e-010      1.6478e-005     -9.752e-009    
  0.9             2.6524e-009     1.7564e-005     -1.1159e-008   
  0.95            -1.9097e-009    1.8668e-005     1.4537e-008    
  1               1.5265e-009     1.9705e-005     -1.4091e-008   
  1.05            -2.2995e-009    2.0729e-005     1.2338e-008    
  1.1             2.0079e-009     2.1703e-005     -2.1093e-008   
  1.15            -1.418e-009     2.2711e-005     1.5343e-008    
  1.2             -1.0143e-009    2.3638e-005     -9.019e-009    
  1.25            2.7571e-009     2.4548e-005     -7.383e-009    
  1.3             -1.232e-010     2.5501e-005     8.813e-009     
  1.35            -2.371e-009     2.6369e-005     1.224e-008     
  1.4             1.897e-009      2.7226e-005     -1.6309e-008   
  1.45            -2.4894e-009    2.8113e-005     1.1438e-008    
  1.5             2.1579e-009     2.8934e-005     -1.5507e-008   
  1.55            -1.5101e-009    2.981e-005      1.7904e-008    
  1.6             -9.447e-010     3.061e-005      -9.338e-009    
  1.65            2.7533e-009     3.1409e-005     -6.809e-009    
  1.7             -2.4782e-009    3.2244e-005     1.0251e-008    
  1.75            2.1343e-009     3.2987e-005     -1.5779e-008   
  1.8             -1.4925e-009    3.3803e-005     1.7394e-008    
END_DB

BEGIN_DB
 ICCAP_VAR VS         0              
 ICCAP_VAR VB         -0.9           
 ICCAP_VAR VD         1.8            

 #VG              IG              ID              IB             
  0               -3.452e-010     1.4866e-009     -9.754e-009    
  0.05            -2.6445e-009    2.8447e-009     7.866e-009     
  0.1             -1.3891e-009    1.4442e-008     -9.44e-009     
  0.15            2.3784e-009     7.6315e-008     -1.4366e-008   
  0.2             4.02e-011       3.2225e-007     -7.584e-009    
  0.25            -2.1406e-009    1.01694e-006    1.3099e-008    
  0.3             2.4687e-009     2.4049e-006     1.6126e-008    
  0.35            -2.1355e-009    4.6829e-006     1.3229e-008    
  0.4             1.5705e-009     7.621e-006      -1.71e-008     
  0.45            9.1e-011        1.1351e-005     8.528e-009     
  0.5             2.5224e-009     1.5719e-005     -1.3169e-008   
  0.55            -1.7241e-009    2.0818e-005     1.5993e-008    
  0.6             2.6403e-009     2.6107e-005     -1.0618e-008   
  0.65            -1.9325e-009    3.2201e-005     1.4591e-008    
  0.7             1.5557e-009     3.8371e-005     -1.4705e-008   
  0.75            8.922e-010      4.5106e-005     9.01e-009      
  0.8             -2.6259e-009    5.2288e-005     7.978e-009     
  0.85            2.6239e-009     5.9386e-005     -1.0948e-008   
  0.9             -1.9009e-009    6.7256e-005     1.5035e-008    
  0.95            1.5194e-009     7.4955e-005     -1.4174e-008   
  1               9.089e-010      8.3142e-005     8.952e-009     
  1.05            -2.619e-009     9.169e-005      8.06e-009      
  1.1             2.6043e-009     9.998e-005      -1.1288e-008   
  1.15            -1.8604e-009    0.000109049     1.5318e-008    
  1.2             6.58e-011       0.00011773      -9.934e-009    
  1.25            2.4851e-009     0.00012686      -1.3808e-008   
  1.3             -1.6751e-009    0.00013644      1.646e-008     
  1.35            -8.617e-010     0.00014577      -9.586e-009    
  1.4             2.7506e-009     0.00015522      -7.628e-009    
  1.45            -1.3506e-009    0.00016524      1.3463e-008    
  1.5             2.2943e-009     0.00017482      -1.4977e-008   
  1.55            -1.4824e-009    0.00018505      1.7091e-008    
  1.6             -9.806e-010     0.00019511      -9.45e-009     
  1.65            2.7632e-009     0.00020508      -7.052e-009    
  1.7             -2.4249e-009    0.00021566      1.1295e-008    
  1.75            2.0566e-009     0.00022576      -1.61e-008     
  1.8             -1.4632e-009    0.0002365       1.6502e-008    
END_DB

BEGIN_DB
 ICCAP_VAR VS         0              
 ICCAP_VAR VB         -1.8           
 ICCAP_VAR VD         0.1            

 #VG              IG              ID              IB             
  0               1.0457e-009     1.7359e-009     1.1457e-008    
  0.05            -2.5116e-009    5.092e-010      1.2265e-008    
  0.1             2.7214e-009     -3.075e-009     -8.38e-009     
  0.15            -1.4349e-009    3.9351e-009     9.651e-009     
  0.2             2.7222e-009     3.2153e-009     -1.242e-008    
  0.25            -1.4557e-009    1.3121e-008     -5.249e-009    
  0.3             2.5193e-009     8.5543e-008     -1.3203e-008   
  0.35            5.321e-010      3.405e-007      -9.911e-009    
  0.4             -1.4126e-009    9.9096e-007     1.8023e-008    
  0.45            2.7455e-009     2.0658e-006     9.039e-009     
  0.5             -9.6e-012       3.4951e-006     7.88e-009      
  0.55            -2.2184e-009    4.9835e-006     1.299e-008     
  0.6             1.6742e-009     6.4177e-006     -1.6838e-008   
  0.65            8.361e-010      7.8656e-006     8.908e-009     
  0.7             -2.6351e-009    9.2443e-006     7.546e-009     
  0.75            1.958e-010      1.05211e-005    -1.0287e-008   
  0.8             -9.133e-010     1.1798e-005     -7.841e-009    
  0.85            -9.049e-010     1.3004e-005     -9.449e-009    
  0.9             2.7566e-009     1.4153e-005     -6.95e-009     
  0.95            -2.4957e-009    1.5311e-005     1.0815e-008    
  1               2.2093e-009     1.6371e-005     -1.5518e-008   
  1.05            -1.5644e-009    1.7475e-005     1.9134e-008    
  1.1             -9.215e-010     1.8492e-005     -9.412e-009    
  1.15            2.7603e-009     1.9483e-005     -7.188e-009    
  1.2             -2.4839e-009    2.0493e-005     1.1025e-008    
  1.25            2.1752e-009     2.1428e-005     -1.5598e-008   
  1.3             -1.5338e-009    2.2412e-005     1.8284e-008    
  1.35            -9.409e-010     2.3311e-005     -9.361e-009    
  1.4             2.7597e-009     2.4201e-005     -7.085e-009    
  1.45            -1.2819e-009    2.5123e-005     1.0841e-008    
  1.5             2.1293e-009     2.5951e-005     -1.6021e-008   
  1.55            -1.5055e-009    2.6853e-005     1.7803e-008    
  1.6             -9.64e-010      2.7672e-005     -9.271e-009    
  1.65            2.7576e-009     2.849e-005      -6.959e-009    
  1.7             -2.4402e-009    2.9344e-005     1.0258e-008    
  1.75            2.0957e-009     3.0105e-005     -1.6258e-008   
  1.8             -1.4691e-009    3.0941e-005     1.6913e-008    
END_DB

BEGIN_DB
 ICCAP_VAR VS         0              
 ICCAP_VAR VB         -1.8           
 ICCAP_VAR VD         1.8            

 #VG              IG              ID              IB             
  0               -3.407e-010     7.105e-010      1.2694e-008    
  0.05            -2.6459e-009    -3.026e-010     7.589e-009     
  0.1             -7.386e-010     -3.8793e-009    -9.589e-009    
  0.15            2.1074e-009     -2.766e-010     -1.6852e-008   
  0.2             -2.0312e-009    6.6655e-009     1.6398e-008    
  0.25            2.3065e-009     3.002e-008      1.1088e-008    
  0.3             -9.374e-010     1.2884e-007     1.3533e-008    
  0.35            2.7557e-009     4.9466e-007     -7.045e-009    
  0.4             -2.5457e-009    1.437e-006      -1.696e-008    
  0.45            -8.745e-010     3.1458e-006     -9.525e-009    
  0.5             2.7481e-009     5.6089e-006     -7.052e-009    
  0.55            -1.3276e-009    8.9665e-006     1.2616e-008    
  0.6             2.0735e-009     1.2802e-005     4.439e-009     
  0.65            -1.466e-009     1.747e-005      1.6595e-008    
  0.7             -9.823e-010     2.2505e-005     -9.104e-009    
  0.75            2.7598e-009     2.7959e-005     -7.256e-009    
  0.8             -2.4143e-009    3.4132e-005     1.1233e-008    
  0.85            2.0365e-009     4.0342e-005     -1.6396e-008   
  0.9             -1.4406e-009    4.7268e-005     1.5936e-008    
  0.95            -1.0009e-009    5.43e-005       -9.274e-009    
  1               2.7583e-009     6.1523e-005     -7.317e-009    
  1.05            -1.249e-010     6.9385e-005     8.985e-009     
  1.1             -2.3533e-009    7.7322e-005     1.1958e-008    
  1.15            1.8944e-009     8.5278e-005     -1.6753e-008   
  1.2             -2.4705e-009    9.3872e-005     1.0911e-008    
  1.25            2.1493e-009     0.000102241     -1.6055e-008   
  1.3             -1.5183e-009    0.000111268     1.7843e-008    
  1.35            -1.6849e-009    0.00012033      -1.5438e-008   
  1.4             2.1508e-009     0.00012911      -1.5766e-008   
  1.45            -1.5157e-009    0.00013864      1.7905e-008    
  1.5             -9.483e-010     0.00014804      -9.633e-009    
  1.55            2.7577e-009     0.00015743      -7.023e-009    
  1.6             -2.4558e-009    0.00016738      1.0306e-008    
  1.65            2.1142e-009     0.00017701      -1.5999e-008   
  1.7             -1.4923e-009    0.00018721      1.7374e-008    
  1.75            -9.657e-010     0.00019722      -9.276e-009    
  1.8             2.7599e-009     0.00020716      -7.012e-009    
END_DB

