! VERSION = 6.00
BEGIN_HEADER
 ICCAP_INPUTS
  VG         V  B GROUND SMU4 0.001 LIN        1    0          1.8        37   0.05      
  VS         V  E GROUND SMU3 0.1 CON        0
  VB         V  C GROUND SMU1 0.1 LIN        3    0          -1.8       3    -0.9      
  VD         V  S GROUND SMU2 0.1 LIN        2    0.1        1.8        2    1.7       
 ICCAP_OUTPUTS
  IG         I  B GROUND SMU4 B
  ID         I  S GROUND SMU2 B
  IB         I  C GROUND SMU1 B
END_HEADER

BEGIN_DB
 ICCAP_VAR VS         0              
 ICCAP_VAR VB         0              
 ICCAP_VAR VD         0.1            

 #VG              IG              ID              IB             
  0               -9.476e-010     6.6607e-008     -1.7137e-008   
  0.05            1.1428e-009     2.6269e-007     -1.6973e-008   
  0.1             -2.5084e-009    8.0396e-007     1.0443e-008    
  0.15            2.3736e-009     1.7906e-006     1.4703e-008    
  0.2             1.9027e-009     3.1675e-006     9.15e-009      
  0.25            -1.4921e-009    4.7879e-006     1.7151e-008    
  0.3             -9.776e-010     6.3926e-006     -9.494e-009    
  0.35            2.755e-009      7.9512e-006     -6.872e-009    
  0.4             -2.4182e-009    9.5167e-006     1.132e-008     
  0.45            2.0334e-009     1.09353e-005    -1.6441e-008   
  0.5             2.6028e-009     1.2354e-005     -7.545e-009    
  0.55            -1.8709e-009    1.3709e-005     1.5368e-008    
  0.6             2.7337e-009     1.4967e-005     -1.3697e-008   
  0.65            2.53e-011       1.6239e-005     7.887e-009     
  0.7             -2.1571e-009    1.742e-005      1.315e-008     
  0.75            1.8116e-009     1.8552e-005     -1.8711e-008   
  0.8             -2.4231e-009    1.969e-005      1.1472e-008    
  0.85            2.0343e-009     2.0745e-005     -1.6494e-008   
  0.9             -1.4301e-009    2.184e-005      1.5833e-008    
  0.95            -1.0191e-009    2.2847e-005     -9.185e-009    
  1               2.7523e-009     2.3825e-005     -7.375e-009    
  1.05            -9.18e-011      2.4847e-005     8.638e-009     
  1.1             -2.3033e-009    2.5781e-005     1.2058e-008    
  1.15            1.8184e-009     2.6694e-005     -1.7026e-008   
  1.2             -2.4198e-009    2.7634e-005     1.119e-008     
  1.25            2.0406e-009     2.8507e-005     -1.6489e-008   
  1.3             -1.4332e-009    2.9439e-005     1.6083e-008    
  1.35            -1.0121e-009    3.0279e-005     -9.239e-009    
  1.4             2.7514e-009     3.1112e-005     -7.095e-009    
  1.45            -2.3664e-009    3.1967e-005     1.1371e-008    
  1.5             1.935e-009      3.2771e-005     -1.6776e-008   
  1.55            -2.4682e-009    3.3606e-005     1.0811e-008    
  1.6             2.1452e-009     3.4384e-005     -1.6089e-008   
  1.65            -1.5107e-009    3.5218e-005     1.7747e-008    
  1.7             -9.612e-010     3.597e-005      -9.289e-009    
  1.75            2.7567e-009     3.6726e-005     -6.887e-009    
  1.8             -2.4252e-009    3.7494e-005     1.1054e-008    
END_DB

BEGIN_DB
 ICCAP_VAR VS         0              
 ICCAP_VAR VB         0              
 ICCAP_VAR VD         1.8            

 #VG              IG              ID              IB             
  0               -1.044e-010     1.0499e-007     1.39e-009      
  0.05            2.2174e-009     3.9502e-007     -1.5801e-008   
  0.1             2.5635e-009     1.1706e-006     1.6938e-008    
  0.15            8.205e-010      2.688e-006      9.261e-009     
  0.2             -2.6269e-009    5.0627e-006     7.223e-009     
  0.25            2.6674e-009     8.0991e-006     -9.445e-009    
  0.3             1.8616e-009     1.1936e-005     -1.5258e-008   
  0.35            -1.5474e-009    1.6541e-005     1.6503e-008    
  0.4             2.5362e-009     2.1443e-005     -1.3014e-008   
  0.45            -1.7311e-009    2.7156e-005     1.5981e-008    
  0.5             2.6368e-009     3.2967e-005     -1.0874e-008   
  0.55            -1.9188e-009    3.9567e-005     1.4993e-008    
  0.6             1.5211e-009     4.6173e-005     -1.4377e-008   
  0.65            9.122e-010      5.3319e-005     8.823e-009     
  0.7             -2.6053e-009    6.0892e-005     7.706e-009     
  0.75            1.15e-010       6.837e-005      -8.896e-009    
  0.8             2.5493e-009     7.6323e-005     -1.2778e-008   
  0.85            -1.7573e-009    8.4775e-005     1.5892e-008    
  0.9             -8.319e-010     9.31e-005       -9.792e-009    
  0.95            2.7321e-009     0.000101609     -7.588e-009    
  1               -1.3649e-009    0.000110688     1.399e-008     
  1.05            4.56e-011       0.00011941      -1.0608e-008   
  1.1             2.4648e-009     0.00012859      -1.3971e-008   
  1.15            -1.6249e-009    0.00013823      1.6205e-008    
  1.2             2.5849e-009     0.00014746      -1.1897e-008   
  1.25            -1.811e-009     0.0001574       1.5377e-008    
  1.3             2.7242e-009     0.0001669       -1.2796e-008   
  1.35            -2.1853e-009    0.00017709      1.3247e-008    
  1.4             1.8389e-009     0.00018687      -1.9066e-008   
  1.45            -2.4394e-009    0.00019725      1.1218e-008    
  1.5             2.0697e-009     0.00020721      -1.6055e-008   
  1.55            -1.4521e-009    0.00021778      1.6491e-008    
  1.6             -1.0007e-009    0.0002281       -9.249e-009    
  1.65            2.7491e-009     0.00023841      -7.143e-009    
  1.7             -1.149e-010     0.00024928      8.868e-009     
  1.75            -2.3532e-009    0.00025998      1.1995e-008    
  1.8             1.8721e-009     0.00027039      -1.6734e-008   
END_DB

BEGIN_DB
 ICCAP_VAR VS         0              
 ICCAP_VAR VB         -0.9           
 ICCAP_VAR VD         0.1            

 #VG              IG              ID              IB             
  0               1.2558e-009     7.463e-010      1.608e-009     
  0.05            6.827e-010      6.8099e-009     9.037e-009     
  0.1             2.7489e-009     1.4091e-008     8.853e-009     
  0.15            -2.3416e-009    6.0241e-008     1.1683e-008    
  0.2             1.0556e-009     2.4111e-007     -1.6759e-008   
  0.25            -2.5606e-009    7.6367e-007     9.881e-009     
  0.3             2.5593e-009     1.7327e-006     1.6982e-008    
  0.35            8.117e-010      3.0952e-006     9.089e-009     
  0.4             -2.6322e-009    4.642e-006      7.069e-009     
  0.45            2.198e-010      6.1523e-006     -1.0843e-008   
  0.5             2.6466e-009     7.6527e-006     -1.0337e-008   
  0.55            -1.9651e-009    9.142e-006      1.4775e-008    
  0.6             1.5771e-009     1.05008e-005    -1.5081e-008   
  0.65            2.5047e-009     1.1824e-005     2.103e-009     
  0.7             -1.6976e-009    1.3126e-005     1.6187e-008    
  0.75            -8.541e-010     1.4346e-005     -9.699e-009    
  0.8             2.7413e-009     1.5509e-005     -7.302e-009    
  0.85            -1.3471e-009    1.6695e-005     1.3252e-008    
  0.9             2.2927e-009     1.7755e-005     -1.5169e-008   
  0.95            1.9752e-009     1.8844e-005     8.725e-009     
  1               -1.414e-009     1.9906e-005     1.7614e-008    
  1.05            2.4005e-009     2.0898e-005     -1.4281e-008   
  1.1             1.8942e-009     2.1901e-005     8.934e-009     
  1.15            -1.5056e-009    2.2887e-005     1.6911e-008    
  1.2             -9.659e-010     2.3832e-005     -9.316e-009    
  1.25            2.7538e-009     2.4746e-005     -7.018e-009    
  1.3             -1.556e-010     2.5697e-005     9.923e-009     
  1.35            -2.3913e-009    2.6568e-005     1.1411e-008    
  1.4             1.9689e-009     2.7423e-005     -1.6631e-008   
  1.45            -1.4042e-009    2.8332e-005     1.5039e-008    
  1.5             -1.0401e-009    2.9159e-005     -8.907e-009    
  1.55            2.747e-009      2.9973e-005     -7.2e-009      
  1.6             -2.3464e-009    3.0809e-005     1.1616e-008    
  1.65            1.891e-009      3.1602e-005     -1.686e-008    
  1.7             -2.4567e-009    3.2414e-005     1.113e-008     
  1.75            2.1322e-009     3.3183e-005     -1.5989e-008   
  1.8             -1.4896e-009    3.3998e-005     1.7405e-008    
END_DB

BEGIN_DB
 ICCAP_VAR VS         0              
 ICCAP_VAR VB         -0.9           
 ICCAP_VAR VD         1.8            

 #VG              IG              ID              IB             
  0               8.854e-010      1.4121e-009     -8.138e-009    
  0.05            -1.8223e-009    6.8633e-009     1.6834e-008    
  0.1             2.6909e-009     2.2154e-008     1.6259e-008    
  0.15            -1.5548e-009    9.8863e-008     1.6685e-008    
  0.2             -9.72e-010      3.7155e-007     1.437e-008     
  0.25            -2.2644e-009    1.1321e-006     -1.5823e-008   
  0.3             2.5526e-009     2.592e-006      -1.2476e-008   
  0.35            -1.7868e-009    4.9557e-006     1.5912e-008    
  0.4             2.7186e-009     7.9811e-006     -1.2585e-008   
  0.45            -6.291e-010     1.1787e-005     1.456e-008     
  0.5             2.6632e-009     1.6153e-005     -7.891e-009    
  0.55            -1.6273e-009    2.1267e-005     1.6595e-008    
  0.6             2.5857e-009     2.6565e-005     -1.1844e-008   
  0.65            -1.8368e-009    3.2666e-005     1.5486e-008    
  0.7             2.7243e-009     3.8847e-005     -1.3192e-008   
  0.75            3.38e-011       4.5692e-005     7.993e-009     
  0.8             -2.1555e-009    5.2763e-005     1.358e-008     
  0.85            1.6105e-009     5.9925e-005     -1.6865e-008   
  0.9             -2.3241e-009    6.7756e-005     1.1876e-008    
  0.95            1.8573e-009     7.5439e-005     -1.6955e-008   
  1               -2.4486e-009    8.3818e-005     1.1218e-008    
  1.05            2.1039e-009     9.1946e-005     -1.6009e-008   
  1.1             -1.4912e-009    0.00010076      1.7371e-008    
  1.15            -9.689e-010     0.000109481     -9.3e-009      
  1.2             -7.759e-010     0.00011843      -1.7401e-008   
  1.25            2.718e-009      0.00012745      -7.851e-009    
  1.3             -1.4493e-009    0.00013693      1.634e-008     
  1.35            -1.0023e-009    0.00014631      -9.316e-009    
  1.4             2.7532e-009     0.00015575      -7.302e-009    
  1.45            -2.4044e-009    0.00016576      1.1384e-008    
  1.5             2.0061e-009     0.00017534      -1.6534e-008   
  1.55            -1.4358e-009    0.00018559      1.5704e-008    
  1.6             2.4251e-009     0.00019534      -1.4075e-008   
  1.65            -1.6054e-009    0.00020583      1.6552e-008    
  1.7             -8.998e-010     0.00021603      -9.679e-009    
  1.75            2.7487e-009     0.00022623      -7.038e-009    
  1.8             -2.4931e-009    0.00023698      1.094e-008     
END_DB

BEGIN_DB
 ICCAP_VAR VS         0              
 ICCAP_VAR VB         -1.8           
 ICCAP_VAR VD         0.1            

 #VG              IG              ID              IB             
  0               1.052e-009      1.7382e-009     1.1302e-008    
  0.05            5.34e-010       4.2521e-009     9.161e-009     
  0.1             -2.0517e-009    -1.721e-009     1.77e-009      
  0.15            2.4154e-009     -2.015e-010     -1.6604e-008   
  0.2             -2.3111e-009    5.2667e-009     1.4661e-008    
  0.25            1.3929e-009     2.8e-008        3.982e-009     
  0.3             -1.573e-009     1.07783e-007    1.8823e-008    
  0.35            1.1675e-009     3.7957e-007     -1.6965e-008   
  0.4             -2.4983e-009    1.08383e-006    1.0667e-008    
  0.45            2.5388e-009     2.1943e-006     1.6799e-008    
  0.5             -1.9806e-009    3.6286e-006     1.4353e-008    
  0.55            1.6114e-009     5.0948e-006     -1.5584e-008   
  0.6             8.641e-010      6.5586e-006     9.217e-009     
  0.65            -2.6278e-009    8.0447e-006     7.66e-009      
  0.7             1.852e-010      9.3806e-006     -1.0163e-008   
  0.75            2.6265e-009     1.06878e-005    -1.0819e-008   
  0.8             4.78e-010       1.1929e-005     1.1042e-008    
  0.85            2.7548e-009     1.3107e-005     -7.335e-009    
  0.9             -1.315e-010     1.4382e-005     9.574e-009     
  0.95            -2.3748e-009    1.55e-005       1.1669e-008    
  1               1.9594e-009     1.657e-005      -1.6831e-008   
  1.05            -1.4076e-009    1.7674e-005     1.4976e-008    
  1.1             -1.0351e-009    1.8694e-005     -9.099e-009    
  1.15            2.7523e-009     1.9686e-005     -7.406e-009    
  1.2             -2.3699e-009    2.0696e-005     1.1685e-008    
  1.25            1.9642e-009     2.1619e-005     -1.6598e-008   
  1.3             -2.4883e-009    2.2602e-005     1.1009e-008    
  1.35            2.2079e-009     2.3502e-005     -1.5503e-008   
  1.4             -1.573e-009     2.4444e-005     1.9066e-008    
  1.45            -9.142e-010     2.5295e-005     -9.574e-009    
  1.5             2.7546e-009     2.6173e-005     -7.302e-009    
  1.55            -2.4879e-009    2.705e-005      1.0641e-008    
  1.6             2.2138e-009     2.7869e-005     -1.574e-008    
  1.65            -1.4245e-009    2.8725e-005     1.7596e-008    
  1.7             -1.0103e-009    2.9534e-005     -9.167e-009    
  1.75            2.7556e-009     3.0326e-005     -7.353e-009    
  1.8             -2.3913e-009    3.1134e-005     1.1429e-008    
END_DB

BEGIN_DB
 ICCAP_VAR VS         0              
 ICCAP_VAR VB         -1.8           
 ICCAP_VAR VD         1.8            

 #VG              IG              ID              IB             
  0               4.111e-010      -8.317e-010     -1.4596e-008   
  0.05            2.6674e-009     5.096e-010      -7.383e-009    
  0.1             5.402e-010      4.4949e-009     9.165e-009     
  0.15            1.8633e-009     -1.5635e-009    -1.2967e-008   
  0.2             8.248e-010      1.1693e-008     -9.673e-009    
  0.25            8.6e-011        3.3755e-008     -8.563e-009    
  0.3             -2.1484e-009    1.6153e-007     1.6787e-008    
  0.35            2.6586e-009     5.7946e-007     -9.869e-009    
  0.4             -1.9526e-009    1.6028e-006     -1.038e-008    
  0.45            1.4389e-009     3.3619e-006     -1.7566e-008   
  0.5             -2.2057e-009    6.0111e-006     1.2883e-008    
  0.55            1.6664e-009     9.2424e-006     -1.7114e-008   
  0.6             1.8008e-009     1.319e-005      -1.6696e-008   
  0.65            -1.6522e-009    1.7917e-005     1.6521e-008    
  0.7             -8.708e-010     2.2964e-005     -9.615e-009    
  0.75            2.7491e-009     2.8442e-005     -7.388e-009    
  0.8             -2.5234e-009    3.4631e-005     1.0528e-008    
  0.85            2.3042e-009     4.0863e-005     -1.5178e-008   
  0.9             1.9603e-009     4.7627e-005     8.776e-009     
  0.95            -1.445e-009     5.4868e-005     1.7502e-008    
  1               -9.983e-010     6.2227e-005     -9.111e-009    
  1.05            2.7588e-009     6.9737e-005     -7.367e-009    
  1.1             -2.4124e-009    7.7878e-005     1.1216e-008    
  1.15            2.0407e-009     8.5826e-005     -1.6442e-008   
  1.2             -1.4522e-009    9.4428e-005     1.6136e-008    
  1.25            -9.97e-010      0.000102974     -9.15e-009     
  1.3             2.759e-009      0.000111576     -7.341e-009    
  1.35            1.6191e-009     0.00012037      1.7546e-008    
  1.4             -1.9655e-009    0.00012991      1.4728e-008    
  1.45            1.5996e-009     0.00013903      -1.5342e-008   
  1.5             -2.3255e-009    0.0001487       1.1737e-008    
  1.55            1.8638e-009     0.00015802      -1.6888e-008   
  1.6             -2.4555e-009    0.00016802      1.1158e-008    
  1.65            2.125e-009      0.0001776       -1.5745e-008   
  1.7             -1.5183e-009    0.00018787      1.781e-008     
  1.75            -9.518e-010     0.00019781      -9.277e-009    
  1.8             2.7583e-009     0.00020776      -6.882e-009    
END_DB

