! VERSION = 6.00
BEGIN_HEADER
 ICCAP_INPUTS
  VG         V  B GROUND SMU4 0.001 LIN        2    0          1.8        6    0.36      
  VS         V  E GROUND SMU3 0.1 CON        0
  VD         V  S GROUND SMU2 0.1 LIN        1    0          1.8        37   0.05      
  VB         V  C GROUND SMU1 0.1 LIN        3    0          -0.9       2    -0.9      
 ICCAP_OUTPUTS
  ID         I  S GROUND SMU2 B
  IB         I  C GROUND SMU1 B
  IG         I  B GROUND SMU4 B
END_HEADER

BEGIN_DB
 ICCAP_VAR VG         0              
 ICCAP_VAR VS         0              
 ICCAP_VAR VB         0              

 #VD              ID              IB              IG             
  0               1.1548e-009     1.1135e-008     -6.85e-011     
  0.05            5.5241e-008     -1.6282e-008    -2.6155e-009   
  0.1             7.0104e-008     1.3636e-008     -2.1247e-009   
  0.15            7.2891e-008     1.0265e-008     -2.5461e-009   
  0.2             7.4581e-008     6.25e-009       -2.6432e-009   
  0.25            7.8042e-008     1.5788e-008     -1.8212e-009   
  0.3             7.8856e-008     1.1421e-008     -2.4271e-009   
  0.35            7.9688e-008     7.352e-009      -2.6296e-009   
  0.4             8.2966e-008     1.701e-008      -1.526e-009    
  0.45            8.6025e-008     1.7295e-008     -1.5018e-009   
  0.5             8.7266e-008     1.6595e-008     -1.4726e-009   
  0.55            8.6101e-008     1.3263e-008     -2.1634e-009   
  0.6             8.6949e-008     9.852e-009      -2.5544e-009   
  0.65            8.7169e-008     6.04e-009       -2.6459e-009   
  0.7             8.9962e-008     1.553e-008      -1.8682e-009   
  0.75            9.0308e-008     1.0892e-008     -2.4505e-009   
  0.8             9.0473e-008     7.526e-009      -2.6348e-009   
  0.85            9.3606e-008     1.6648e-008     -1.5651e-009   
  0.9             9.4076e-008     1.2262e-008     -2.2568e-009   
  0.95            9.4502e-008     -9.273e-009     2.7582e-009    
  1               9.1009e-008     -7.599e-009     -1.8472e-009   
  1.05            9.676e-008      -1.1265e-008    -7.997e-010    
  1.1             9.7191e-008     1.7371e-008     2.7533e-009    
  1.15            9.6275e-008     8.835e-009      2.5679e-009    
  1.2             9.8909e-008     1.7438e-008     2.7499e-009    
  1.25            9.9588e-008     1.1897e-008     2.4572e-009    
  1.3             1.00354e-007    1.597e-008      2.6737e-009    
  1.35            1.00418e-007    1.6089e-008     1.7814e-009    
  1.4             1.01863e-007    1.3198e-008     2.5334e-009    
  1.45            1.02832e-007    1.648e-008      2.722e-009     
  1.5             1.0083e-007     9.076e-009      -2.5388e-009   
  1.55            1.0428e-007     8.989e-009      -2.5792e-009   
  1.6             1.0452e-007     7.906e-009      -2.6063e-009   
  1.65            1.0517e-007     7.446e-009      -2.626e-009    
  1.7             1.0588e-007     6.85e-009       -2.6391e-009   
  1.75            1.0629e-007     6.034e-009      -2.6421e-009   
  1.8             1.0709e-007     5.091e-009      -2.6317e-009   
END_DB

BEGIN_DB
 ICCAP_VAR VG         0.36           
 ICCAP_VAR VS         0              
 ICCAP_VAR VB         0              

 #VD              ID              IB              IG             
  0               7.171e-009      -1.7378e-008    2.7505e-009    
  0.05            4.6209e-006     -9.889e-009     -2.643e-009    
  0.1             8.2988e-006     1.7743e-008     -1.4134e-009   
  0.15            1.10278e-005    1.6043e-008     -1.7061e-009   
  0.2             1.2815e-005     -9.492e-009     2.7529e-009    
  0.25            1.3875e-005     -7.206e-009     2.7573e-009    
  0.3             1.4474e-005     -7.876e-009     2.7374e-009    
  0.35            1.4829e-005     -9.139e-009     2.6812e-009    
  0.4             1.5073e-005     -1.2084e-008    2.575e-009     
  0.45            1.5275e-005     -1.4811e-008    1.5657e-009    
  0.5             1.5418e-005     -1.8145e-008    1.3586e-009    
  0.55            1.5538e-005     -8.918e-009     2.6903e-009    
  0.6             1.5659e-005     -1.1736e-008    2.5894e-009    
  0.65            1.5808e-005     -1.5282e-008    1.5949e-009    
  0.7             1.5899e-005     -1.785e-008     1.3868e-009    
  0.75            1.5988e-005     -1.9353e-008    2.7017e-009    
  0.8             1.6076e-005     -1.1262e-008    2.614e-009     
  0.85            1.6193e-005     -1.5845e-008    1.6367e-009    
  0.9             1.6263e-005     -1.7959e-008    1.4073e-009    
  0.95            1.6341e-005     -1.9226e-008    2.7059e-009    
  1               1.6409e-005     -1.0957e-008    2.6202e-009    
  1.05            1.6515e-005     -1.6278e-008    1.6708e-009    
  1.1             1.6572e-005     -1.751e-008     1.4311e-009    
  1.15            1.6633e-005     -1.9117e-008    2.716e-009     
  1.2             1.6689e-005     -1.0445e-008    2.6345e-009    
  1.25            1.6796e-005     -1.6844e-008    1.7038e-009    
  1.3             1.6836e-005     -1.7463e-008    1.4579e-009    
  1.35            1.689e-005      -1.8778e-008    2.7232e-009    
  1.4             1.6938e-005     -1.0255e-008    2.6483e-009    
  1.45            1.7037e-005     -1.7443e-008    1.7334e-009    
  1.5             1.7072e-005     -1.745e-008     1.4816e-009    
  1.55            1.7118e-005     -1.8825e-008    2.7288e-009    
  1.6             1.716e-005      -9.912e-009     2.6617e-009    
  1.65            1.7223e-005     -1.2644e-008    2.5398e-009    
  1.7             1.7296e-005     -1.3951e-008    1.5061e-009    
  1.75            1.7328e-005     -1.8587e-008    2.7333e-009    
  1.8             1.7367e-005     -9.674e-009     2.673e-009     
END_DB

BEGIN_DB
 ICCAP_VAR VG         0.72           
 ICCAP_VAR VS         0              
 ICCAP_VAR VB         0              

 #VD              ID              IB              IG             
  0               7.795e-009      -1.7005e-008    2.7556e-009    
  0.05            9.3219e-006     1.3306e-008     2.2656e-009    
  0.1             1.787e-005      1.5067e-008     -7.103e-010    
  0.15            2.5644e-005     1.328e-009      -2.0029e-009   
  0.2             3.2576e-005     1.5876e-008     -1.7847e-009   
  0.25            3.8611e-005     1.6633e-008     -1.5606e-009   
  0.3             4.3743e-005     1.8122e-008     -1.3892e-009   
  0.35            4.7972e-005     1.9843e-008     -1.2825e-009   
  0.4             5.1322e-005     1.1094e-008     -2.4365e-009   
  0.45            5.385e-005      1.19e-008       -2.2972e-009   
  0.5             5.5694e-005     1.4907e-008     -1.4075e-009   
  0.55            5.6993e-005     1.9438e-008     -1.2946e-009   
  0.6             5.792e-005      1.0899e-008     -2.4575e-009   
  0.65            5.8595e-005     1.1879e-008     -2.3266e-009   
  0.7             5.9126e-005     1.5377e-008     -1.4272e-009   
  0.75            5.9567e-005     1.9228e-008     -1.3083e-009   
  0.8             5.995e-005      1.0907e-008     -2.4735e-009   
  0.85            6.0277e-005     1.1616e-008     -2.3415e-009   
  0.9             6.0576e-005     1.6035e-008     -1.4485e-009   
  0.95            6.0855e-005     1.9022e-008     -1.3187e-009   
  1               6.112e-005      1.08e-008       -2.4854e-009   
  1.05            6.137e-005      1.1507e-008     -2.3642e-009   
  1.1             6.1596e-005     1.6724e-008     -1.4753e-009   
  1.15            6.1796e-005     1.8911e-008     -1.3322e-009   
  1.2             6.2023e-005     1.0671e-008     -2.4942e-009   
  1.25            6.2215e-005     1.1513e-008     -2.3797e-009   
  1.3             6.2395e-005     1.7284e-008     -1.4962e-009   
  1.35            6.2573e-005     1.8633e-008     -1.3457e-009   
  1.4             6.2765e-005     1.0817e-008     -2.5026e-009   
  1.45            6.2932e-005     1.1495e-008     -2.3972e-009   
  1.5             6.308e-005      1.7918e-008     -1.5178e-009   
  1.55            6.3226e-005     1.8501e-008     -1.3657e-009   
  1.6             6.339e-005      1.0675e-008     -2.5183e-009   
  1.65            6.3533e-005     1.1463e-008     -2.4185e-009   
  1.7             6.367e-005      1.8613e-008     -1.5483e-009   
  1.75            6.3799e-005     1.8002e-008     -1.3818e-009   
  1.8             6.3956e-005     1.0539e-008     -2.5289e-009   
END_DB

BEGIN_DB
 ICCAP_VAR VG         1.08           
 ICCAP_VAR VS         0              
 ICCAP_VAR VB         0              

 #VD              ID              IB              IG             
  0               1.0055e-008     -1.6633e-008    8.79e-010      
  0.05            1.3054e-005     -7.306e-009     -1.235e-010    
  0.1             2.5397e-005     1.1982e-008     -2.3879e-009   
  0.15            3.7103e-005     1.6974e-008     -1.4836e-009   
  0.2             4.8039e-005     1.8341e-008     -1.3405e-009   
  0.25            5.8212e-005     1.0612e-008     -2.521e-009    
  0.3             6.7569e-005     1.1605e-008     -2.4153e-009   
  0.35            7.6089e-005     1.7885e-008     -1.5172e-009   
  0.4             8.3735e-005     1.8134e-008     -1.3583e-009   
  0.45            9.0522e-005     2.0091e-008     -1.2705e-009   
  0.5             9.644e-005      1.1657e-008     -2.4415e-009   
  0.55            0.000101482     1.8768e-008     -1.5548e-009   
  0.6             0.000105694     1.7581e-008     -1.3896e-009   
  0.65            0.000109153     1.9666e-008     -1.2836e-009   
  0.7             0.000111913     1.1395e-008     -2.4633e-009   
  0.75            0.000114048     1.9804e-008     -1.5992e-009   
  0.8             0.00011551      -7.752e-009     2.0127e-009    
  0.85            0.00011672      -1.114e-008     2.7129e-009    
  0.9             0.0001177       -8.01e-009      2.7469e-009    
  0.95            0.00011854      -7.582e-009     2.7585e-009    
  1               0.00011924      -7.092e-009     2.7546e-009    
  1.05            0.00011986      -7.017e-009     2.7441e-009    
  1.1             0.0001204       -7.711e-009     2.7201e-009    
  1.15            0.00012086      -8.11e-009      2.6867e-009    
  1.2             0.00012129      -1.7219e-008    1.4593e-009    
  1.25            0.00012165      -1.6731e-008    1.6048e-009    
  1.3             0.00012207      -1.6784e-008    1.7976e-009    
  1.35            0.00012243      -1.6317e-008    1.9785e-009    
  1.4             0.00012279      -1.0854e-008    2.7098e-009    
  1.45            0.00012303      -7.847e-009     2.7439e-009    
  1.5             0.00012334      -7.335e-009     2.7583e-009    
  1.55            0.00012365      -7.083e-009     2.7572e-009    
  1.6             0.00012392      -7.264e-009     2.7499e-009    
  1.65            0.00012419      -7.473e-009     2.7299e-009    
  1.7             0.00012445      -8.003e-009     2.6937e-009    
  1.75            0.00012468      -1.752e-008     1.4325e-009    
  1.8             0.00012494      -1.6655e-008    1.5855e-009    
END_DB

BEGIN_DB
 ICCAP_VAR VG         1.44           
 ICCAP_VAR VS         0              
 ICCAP_VAR VB         0              

 #VD              ID              IB              IG             
  0               1.1804e-008     -3.472e-009     3.227e-010     
  0.05            1.6205e-005     -1.6631e-008    8.077e-010     
  0.1             3.1796e-005     1.1403e-008     -2.4834e-009   
  0.15            4.6782e-005     1.2058e-008     -2.3506e-009   
  0.2             6.1119e-005     1.5478e-008     -1.4377e-009   
  0.25            7.4707e-005     1.9185e-008     -1.3201e-009   
  0.3             8.7574e-005     1.1068e-008     -2.5083e-009   
  0.35            9.9634e-005     1.169e-008      -2.3859e-009   
  0.4             0.000110905     1.2735e-008     -2.2075e-009   
  0.45            0.00012127      7.896e-009      2.0548e-009    
  0.5             0.00013084      -8.872e-009     2.7346e-009    
  0.55            0.00013957      -7.999e-009     2.7607e-009    
  0.6             0.00014749      -7.291e-009     2.7678e-009    
  0.65            0.00015454      -7.15e-009      2.7623e-009    
  0.7             0.00016079      -7.221e-009     2.7454e-009    
  0.75            0.0001662       -8.007e-009     2.7106e-009    
  0.8             0.00017085      -7.816e-009     2.6675e-009    
  0.85            0.00017478      -1.7168e-008    1.4982e-009    
  0.9             0.00017806      -1.6664e-008    1.6671e-009    
  0.95            0.00018077      -1.6253e-008    1.8504e-009    
  1               0.00018297      -1.5868e-008    2.0418e-009    
  1.05            0.00018477      -1.1573e-008    2.7336e-009    
  1.1             0.00018614      -7.826e-009     2.7592e-009    
  1.15            0.00018735      -7.549e-009     2.7686e-009    
  1.2             0.00018838      -6.854e-009     2.7626e-009    
  1.25            0.00018926      -7.51e-009      2.7406e-009    
  1.3             0.00019005      -7.813e-009     2.7072e-009    
  1.35            0.00019074      -7.851e-009     2.6632e-009    
  1.4             0.00019129      -1.7071e-008    1.5063e-009    
  1.45            0.00019186      -1.6522e-008    1.6739e-009    
  1.5             0.00019242      -1.6435e-008    1.8596e-009    
  1.55            0.00019289      -1.5757e-008    2.0498e-009    
  1.6             0.00019336      -1.1581e-008    2.7348e-009    
  1.65            0.00019372      -7.941e-009     2.7599e-009    
  1.7             0.00019414      -7.276e-009     2.7681e-009    
  1.75            0.00019451      -7.078e-009     2.7619e-009    
  1.8             0.00019489      -7.455e-009     2.7451e-009    
END_DB

BEGIN_DB
 ICCAP_VAR VG         1.8            
 ICCAP_VAR VS         0              
 ICCAP_VAR VB         0              

 #VD              ID              IB              IG             
  0               7.885e-009      -5.323e-009     -1.5294e-009   
  0.05            1.9033e-005     4.881e-009      1.8048e-009    
  0.1             3.7469e-005     -1.7068e-008    1.5453e-009    
  0.15            5.5357e-005     -1.8174e-008    2.7423e-009    
  0.2             7.2612e-005     -9e-009         2.6906e-009    
  0.25            8.9205e-005     -1.1687e-008    2.5906e-009    
  0.3             0.00010514      -1.5258e-008    1.6052e-009    
  0.35            0.00012028      -1.7006e-008    -5.418e-010    
  0.4             0.00013461      -1.6465e-008    2.0389e-009    
  0.45            0.00014824      -1.1625e-008    2.7127e-009    
  0.5             0.00016103      -7.858e-009     2.7447e-009    
  0.55            0.000173        -7.504e-009     2.7582e-009    
  0.6             0.00018415      -6.935e-009     2.7572e-009    
  0.65            0.00019446      -7.125e-009     2.7503e-009    
  0.7             0.00020396      -7.93e-009      2.7285e-009    
  0.75            0.00021261      -8.179e-009     2.688e-009     
  0.8             0.00022042      -1.7406e-008    1.4897e-009    
  0.85            0.00022749      -1.716e-008     1.661e-009     
  0.9             0.00023376      -1.686e-008     1.8404e-009    
  0.95            0.00023931      -1.6369e-008    2.0308e-009    
  1               0.0002441       -1.162e-008     2.7113e-009    
  1.05            0.00024824      -7.648e-009     2.7423e-009    
  1.1             0.00025184      -7.473e-009     2.7564e-009    
  1.15            0.00025487      -7.207e-009     2.7599e-009    
  1.2             0.0002574       -7.233e-009     2.7512e-009    
  1.25            0.00025955      -7.727e-009     2.7286e-009    
  1.3             0.00026132      -8.077e-009     2.6877e-009    
  1.35            0.00026281      -1.7402e-008    1.4906e-009    
  1.4             0.00026409      -1.7167e-008    1.6555e-009    
  1.45            0.00026524      -1.7089e-008    1.8428e-009    
  1.5             0.00026621      -1.6317e-008    2.0285e-009    
  1.55            0.00026706      -1.5351e-008    2.204e-009     
  1.6             0.00026783      -1.3769e-008    1.5045e-009    
  1.65            0.00026856      -1.7e-008       1.6695e-009    
  1.7             0.00026919      -1.7081e-008    1.86e-009      
  1.75            0.0002698       -1.6427e-008    2.0459e-009    
  1.8             0.0002704       -1.1846e-008    2.7137e-009    
END_DB

BEGIN_DB
 ICCAP_VAR VG         0              
 ICCAP_VAR VS         0              
 ICCAP_VAR VB         -0.9           

 #VD              ID              IB              IG             
  0               8.609e-010      1.3586e-008     -3.366e-010    
  0.05            -3.6667e-009    -9.694e-009     -5.553e-010    
  0.1             -6.164e-010     -1.6822e-008    2.3726e-009    
  0.15            1.4093e-009     1.4752e-008     -2.2617e-009   
  0.2             -3.668e-010     -1.554e-008     2.5242e-009    
  0.25            1.2392e-009     1.353e-008      -2.3895e-009   
  0.3             -1.323e-010     -1.4267e-008    2.6379e-009    
  0.35            1.0705e-009     1.228e-008      -2.4932e-009   
  0.4             -2.6567e-009    -8.393e-009     2.7086e-009    
  0.45            3.8579e-009     9.257e-009      -1.4135e-009   
  0.5             -3.503e-009     -9.67e-009      -5.773e-010    
  0.55            -5.425e-010     -1.6959e-008    2.3369e-009    
  0.6             1.5345e-009     1.5176e-008     -2.2313e-009   
  0.65            -3.207e-010     -1.5761e-008    2.4991e-009    
  0.7             1.3626e-009     1.3731e-008     -2.3696e-009   
  0.75            -8.94e-011      -1.4486e-008    2.6229e-009    
  0.8             1.1897e-009     1.2491e-008     -2.479e-009    
  0.85            -2.6075e-009    -8.283e-009     2.6959e-009    
  0.9             3.9743e-009     8.826e-009      -1.3872e-009   
  0.95            -3.4239e-009    -9.59e-009      -6.05e-010     
  1               -5.051e-010     -1.7088e-008    2.2991e-009    
  1.05            1.6393e-009     1.5641e-008     -2.1987e-009   
  1.1             -2.85e-010      -1.6102e-008    2.4777e-009    
  1.15            1.4719e-009     1.3898e-008     -2.3479e-009   
  1.2             -5.45e-011      -1.4964e-008    2.5981e-009    
  1.25            1.3033e-009     1.2802e-008     -2.4619e-009   
  1.3             -2.5766e-009    -8.188e-009     2.688e-009     
  1.35            1.1222e-009     1.1559e-008     -2.535e-009    
  1.4             -2.405e-009     -9.086e-009     1.4727e-009    
  1.45            9.324e-010      1.1008e-008     -2.5852e-009   
  1.5             -2.2615e-009    -1.1127e-008    1.6798e-009    
  1.55            3.543e-009      1.7778e-008     -1.8798e-009   
  1.6             -5.375e-010     -1.7095e-008    2.1546e-009    
  1.65            1.8481e-009     1.6135e-008     -2.0742e-009   
  1.7             -3.548e-010     -1.668e-008     2.3514e-009    
  1.75            1.6842e-009     1.5125e-008     -2.2403e-009   
  1.8             -1.371e-010     -1.5506e-008    2.5084e-009    
END_DB

BEGIN_DB
 ICCAP_VAR VG         0.36           
 ICCAP_VAR VS         0              
 ICCAP_VAR VB         -0.9           

 #VD              ID              IB              IG             
  0               -6.658e-009     -8.045e-009     8.247e-010     
  0.05            2.1232e-006     -1.5728e-008    -2.2703e-009   
  0.1             3.4167e-006     1.1502e-008     -2.3794e-009   
  0.15            4.0545e-006     1.019e-008      -2.5365e-009   
  0.2             4.3302e-006     8.074e-009      -2.6104e-009   
  0.25            4.4628e-006     6.709e-009      -2.6442e-009   
  0.3             4.5547e-006     1.7817e-008     -1.4071e-009   
  0.35            4.6166e-006     1.6124e-008     -1.6959e-009   
  0.4             4.6754e-006     1.3603e-008     -1.3617e-009   
  0.45            4.7178e-006     1.6546e-008     -1.6148e-009   
  0.5             4.7659e-006     1.4403e-008     -1.9631e-009   
  0.55            4.812e-006      1.2267e-008     -2.2747e-009   
