! VERSION = 6.00
BEGIN_HEADER
 ICCAP_INPUTS
  VG         V  B GROUND SMU4 0.001 LIN        1    0          5          101  0.05      
  VS         V  E GROUND SMU2 0.1 CON        0
  VB         V  C GROUND SMU3 0.1 LIN        3    0          -5         3    -2.5      
  VD         V  S GROUND SMU1 0.1 LIN        2    0.1        5          2    4.9       
 ICCAP_OUTPUTS
  IG         I  B GROUND SMU4 B
  ID         I  S GROUND SMU1 B
  IB         I  C GROUND SMU3 B
END_HEADER

BEGIN_DB
 ICCAP_VAR VS         0              
 ICCAP_VAR VB         0              
 ICCAP_VAR VD         0.1            

 #VG              IG              ID              IB             
  0               7.31e-010       1.4842e-008     2.6637e-008    
  0.05            1.7552e-009     5.2851e-008     -1.7919e-008   
  0.1             -8.529e-010     1.6221e-007     1.2507e-008    
  0.15            2.7137e-009     3.7853e-007     -1.3271e-008   
  0.2             -1.5784e-009    7.0738e-007     2.009e-008     
  0.25            -2.5312e-009    1.08329e-006    5.952e-009     
  0.3             -1.5661e-009    1.4833e-006     -8.755e-009    
  0.35            1.8459e-009     1.8694e-006     -1.944e-008    
  0.4             2.5106e-009     2.2534e-006     -8.286e-009    
  0.45            -2.3849e-009    2.6313e-006     1.1222e-008    
  0.5             -1.7793e-009    2.9804e-006     2.13e-009      
  0.55            -1.3376e-009    3.321e-006      4.483e-009     
  0.6             -2.6026e-009    3.6485e-006     9.191e-009     
  0.65            2.2628e-009     3.9605e-006     -2.407e-008    
  0.7             1.5565e-009     4.2668e-006     -4.897e-009    
  0.75            2.6182e-009     4.5594e-006     -9.041e-009    
  0.8             -2.3229e-009    4.8505e-006     2.5842e-008    
  0.85            -1.7057e-009    5.1217e-006     2.399e-009     
  0.9             -2.4809e-009    5.3912e-006     4.961e-009     
  0.95            -7.634e-010     5.6494e-006     -1.0221e-008   
  1               2.7343e-009     5.9019e-006     -1.5416e-008   
  1.05            2.4386e-009     6.1571e-006     -1.296e-009    
  1.1             2.4203e-009     6.3975e-006     6.3e-009       
  1.15            5.611e-010      6.6423e-006     9.616e-009     
  1.2             -1.6466e-009    6.8774e-006     1.6662e-008    
  1.25            -2.5044e-009    7.1049e-006     5.368e-009     
  1.3             2.046e-010      7.323e-006      -1.1458e-008   
  1.35            2.7308e-009     7.5487e-006     -2.0924e-008   
  1.4             -1.4963e-009    7.7727e-006     1.8362e-008    
  1.45            -2.5551e-009    7.9867e-006     6.71e-009      
  1.5             2.5082e-009     8.193e-006      -2.4456e-008   
  1.55            6.876e-010      8.4064e-006     9.586e-009     
  1.6             -1.4882e-009    8.6129e-006     1.8553e-008    
  1.65            -2.5569e-009    8.8129e-006     7.006e-009     
  1.7             2.5057e-009     9.0095e-006     -2.4503e-008   
  1.75            6.955e-010      9.213e-006      9.575e-009     
  1.8             -1.4804e-009    9.4078e-006     1.8763e-008    
  1.85            -2.5555e-009    9.5982e-006     7.005e-009     
  1.9             2.4911e-009     9.7875e-006     -2.4448e-008   
  1.95            7.065e-010      9.9791e-006     9.47e-009      
  2               -1.4763e-009    1.01652e-005    1.8776e-008    
  2.05            -2.5665e-009    1.03477e-005    7.086e-009     
  2.1             2.488e-009      1.05266e-005    -2.4546e-008   
  2.15            2.409e-009      1.07031e-005    6.468e-009     
  2.2             5.286e-010      1.08891e-005    9.576e-009     
  2.25            -1.6879e-009    1.10644e-005    1.61e-008      
  2.3             -2.491e-009     1.12364e-005    5.228e-009     
  2.35            1.5592e-009     1.1406e-005     -1.171e-008    
  2.4             1.9547e-009     1.1578e-005     8.924e-009     
  2.45            -2.3565e-009    1.1749e-005     2.5431e-008    
  2.5             -1.7604e-009    1.1912e-005     2.052e-009     
  2.55            -1.3246e-009    1.2078e-005     4.805e-009     
  2.6             -2.6054e-009    1.2243e-005     9.154e-009     
  2.65            2.0364e-009     1.2403e-005     -1.5536e-008   
  2.7             2.4368e-009     1.2562e-005     -6.701e-009    
  2.75            5.82e-010       1.2723e-005     9.659e-009     
  2.8             -1.6105e-009    1.2879e-005     1.7099e-008    
  2.85            -2.5191e-009    1.303e-005      5.679e-009     
  2.9             2.6143e-009     1.3181e-005     -2.3632e-008   
  2.95            5.848e-010      1.3336e-005     9.713e-009     
  3               -1.6087e-009    1.3484e-005     1.722e-008     
  3.05            -2.5178e-009    1.3628e-005     5.81e-009      
  3.1             2.6147e-009     1.3777e-005     -2.3738e-008   
  3.15            5.933e-010      1.3921e-005     9.64e-009      
  3.2             -1.5946e-009    1.4066e-005     1.7126e-008    
  3.25            -2.5211e-009    1.4202e-005     5.804e-009     
  3.3             2.6084e-009     1.434e-005      -2.3822e-008   
  3.35            6.064e-010      1.448e-005      9.671e-009     
  3.4             -1.5775e-009    1.4615e-005     2.024e-008     
  3.45            -2.5243e-009    1.4745e-005     5.804e-009     
  3.5             2.6008e-009     1.4878e-005     -2.387e-008    
  3.55            6.081e-010      1.5013e-005     9.677e-009     
  3.6             -1.5731e-009    1.514e-005      1.9997e-008    
  3.65            -2.5278e-009    1.5264e-005     5.783e-009     
  3.7             2.6013e-009     1.5394e-005     -2.4163e-008   
  3.75            -1.3068e-009    1.552e-005      2.2622e-008    
  3.8             -2.6043e-009    1.5638e-005     9.378e-009     
  3.85            2.1778e-009     1.576e-005      -2.3638e-008   
  3.9             2.3806e-009     1.5879e-005     -5.414e-009    
  3.95            -1.4868e-009    1.5994e-005     1.8013e-008    
  4               -2.5522e-009    1.611e-005      6.675e-009     
  4.05            2.5197e-009     1.6223e-005     -2.4642e-008   
  4.1             6.915e-010      1.6337e-005     9.597e-009     
  4.15            -1.465e-009     1.6452e-005     1.8263e-008    
  4.2             -2.5533e-009    1.6559e-005     6.652e-009     
  4.25            2.5071e-009     1.667e-005      -2.4781e-008   
  4.3             -2.4846e-009    1.6776e-005     1.1437e-008    
  4.35            -1.9422e-009    1.6872e-005     1.607e-009     
  4.4             -1.3977e-009    1.6977e-005     3.965e-009     
  4.45            -2.5697e-009    1.7086e-005     7.628e-009     
  4.5             -9.658e-010     1.718e-005      -9.257e-009    
  4.55            1.967e-010      1.727e-005      -1.098e-008    
  4.6             2.7367e-009     1.7377e-005     -2.1154e-008   
  4.65            -1.6131e-009    1.7473e-005     2.0886e-008    
  4.7             -2.5155e-009    1.7561e-005     5.382e-009     
  4.75            2.6384e-009     1.7658e-005     -2.398e-008    
  4.8             5.777e-010      1.7748e-005     9.767e-009     
  4.85            -1.6008e-009    1.7842e-005     1.6743e-008    
  4.9             -2.512e-009     1.7925e-005     5.515e-009     
  4.95            2.6338e-009     1.801e-005      -2.3978e-008   
  5               -1.3924e-009    1.809e-005      1.5315e-008    
END_DB

BEGIN_DB
 ICCAP_VAR VS         0              
 ICCAP_VAR VB         0              
 ICCAP_VAR VD         5              

 #VG              IG              ID              IB             
  0               9.652e-010      3.1502e-008     1.2237e-008    
  0.05            -8.933e-010     1.0986e-007     8.596e-009     
  0.1             -1.2393e-009    3.2464e-007     -1.9436e-008   
  0.15            -1.624e-009     7.3699e-007     -3.5014e-008   
  0.2             1.7875e-009     1.3615e-006     -3.766e-008    
  0.25            2.5257e-009     2.2066e-006     -7.8503e-008   
  0.3             -2.0371e-009    3.2531e-006     -1.03988e-007  
  0.35            2.746e-009      4.4467e-006     -1.2813e-007   
  0.4             2.3891e-009     5.8252e-006     -1.6538e-007   
  0.45            1.6885e-009     7.316e-006      -2.0233e-007   
  0.5             2.5486e-009     8.9233e-006     -2.4224e-007   
  0.55            2.7425e-009     1.06569e-005    -2.6379e-007   
  0.6             -2.5211e-009    1.2509e-005     -2.9407e-007   
  0.65            -2.0172e-009    1.4416e-005     -3.3436e-007   
  0.7             -1.4383e-009    1.6402e-005     -3.6387e-007   
  0.75            -2.554e-009     1.8456e-005     -3.9065e-007   
  0.8             -2.5788e-009    2.0554e-005     -4.2779e-007   
  0.85            -2.2304e-009    2.2726e-005     -4.5111e-007   
  0.9             -1.6064e-009    2.4967e-005     -4.74e-007     
  0.95            -2.5051e-009    2.726e-005      -4.9437e-007   
  1               -2.6069e-009    2.957e-005      -5.2384e-007   
  1.05            -2.4101e-009    3.1946e-005     -5.3844e-007   
  1.1             -1.8195e-009    3.4379e-005     -5.5375e-007   
  1.15            -1.347e-009     3.6842e-005     -5.6573e-007   
  1.2             -2.5899e-009    3.9342e-005     -5.7425e-007   
  1.25            -2.5297e-009    4.1847e-005     -5.9429e-007   
  1.3             -2.0488e-009    4.442e-005      -6.0064e-007   
  1.35            -1.4677e-009    4.7026e-005     -6.0542e-007   
  1.4             -2.5485e-009    4.9654e-005     -6.0775e-007   
  1.45            -2.5846e-009    5.2286e-005     -6.2044e-007   
  1.5             -2.2625e-009    5.496e-005      -6.1847e-007   
  1.55            -1.6398e-009    5.7679e-005     -6.1728e-007   
  1.6             -2.4934e-009    6.0408e-005     -6.1385e-007   
  1.65            -2.602e-009     6.3132e-005     -6.2042e-007   
  1.7             -2.4294e-009    6.5897e-005     -6.1252e-007   
  1.75            -1.8596e-009    6.8703e-005     -6.0637e-007   
  1.8             -1.3588e-009    7.152e-005      -5.9825e-007   
  1.85            -2.5857e-009    7.4353e-005     -5.8731e-007   
  1.9             -2.5386e-009    7.7169e-005     -5.8823e-007   
  1.95            -2.0911e-009    8.0039e-005     -5.7691e-007   
  2               -1.4947e-009    8.2924e-005     -5.6603e-007   
  2.05            -2.543e-009     8.5823e-005     -5.5274e-007   
  2.1             -2.5889e-009    8.8698e-005     -5.5072e-007   
  2.15            -2.2993e-009    9.162e-005      -5.3556e-007   
  2.2             -1.6747e-009    9.4564e-005     -5.224e-007    
  2.25            -2.4792e-009    9.7505e-005     -5.0779e-007   
  2.3             -2.6007e-009    0.000100448     -5.0444e-007   
  2.35            -2.4527e-009    0.000103411     -4.872e-007    
  2.4             -1.8949e-009    0.000106439     -4.7263e-007   
  2.45            -1.3791e-009    0.000109436     -4.5715e-007   
  2.5             -2.5776e-009    0.000112439     -4.4011e-007   
  2.55            -2.2351e-009    0.00011541      -4.4507e-007   
  2.6             -2.5162e-009    0.00011842      -4.2758e-007   
  2.65            -2.5984e-009    0.00012143      -4.1096e-007   
  2.7             -2.3874e-009    0.00012447      -3.937e-007    
  2.75            -1.7913e-009    0.00012749      -3.7911e-007   
  2.8             -1.3373e-009    0.00013055      -3.6364e-007   
  2.85            -2.5914e-009    0.0001336       -3.4634e-007   
  2.9             -2.515e-009     0.0001366       -3.427e-007    
  2.95            -2.0305e-009    0.00013965      -3.2791e-007   
  3               -1.4471e-009    0.00014275      -3.1348e-007   
  3.05            -2.5537e-009    0.00014582      -2.9804e-007   
  3.1             -2.58e-009      0.00014884      -2.9494e-007   
  3.15            -2.2456e-009    0.00015193      -2.7975e-007   
  3.2             -1.6166e-009    0.00015502      -2.6678e-007   
  3.25            -2.4987e-009    0.00015811      -2.5313e-007   
  3.3             -2.6025e-009    0.00016117      -2.5106e-007   
  3.35            -2.4198e-009    0.00016423      -2.3629e-007   
  3.4             -1.8347e-009    0.00016731      -2.2459e-007   
  3.45            -1.3532e-009    0.0001704       -2.1194e-007   
  3.5             -2.5868e-009    0.0001735       -1.9835e-007   
  3.55            -2.5335e-009    0.00017654      -1.9777e-007   
  3.6             -2.0733e-009    0.00017964      -1.8636e-007   
  3.65            -1.4729e-009    0.00018272      -1.7596e-007   
  3.7             -2.5445e-009    0.00018581      -1.6426e-007   
  3.75            -2.5858e-009    0.00018887      -1.6515e-007   
  3.8             -2.2765e-009    0.00019198      -1.535e-007    
  3.85            -1.6605e-009    0.00019505      -1.4432e-007   
  3.9             -2.4891e-009    0.00019814      -1.347e-007    
  3.95            -2.6019e-009    0.0002012       -1.3664e-007   
  4               -2.4393e-009    0.00020428      -1.2581e-007   
  4.05            -1.8763e-009    0.00020735      -1.1816e-007   
  4.1             -1.3713e-009    0.00021046      -1.0973e-007   
  4.15            -2.516e-009     0.00021356      -1.141e-007    
  4.2             -2.5787e-009    0.00021663      -9.451e-008    
  4.25            -1.4705e-009    0.00021968      -9.352e-008    
  4.3             2.4668e-009     0.00022264      -1.16636e-007  
  4.35            1.756e-009      0.00022573      -9.0138e-008   
  4.4             2.5308e-009     0.0002288       -9.0664e-008   
  4.45            2.7432e-009     0.00023188      -7.3366e-008   
  4.5             2.6105e-009     0.00023494      -7.4311e-008   
  4.55            2.0072e-009     0.00023796      -7.1743e-008   
  4.6             2.4309e-009     0.00024096      -7.2299e-008   
  4.65            2.6905e-009     0.00024402      -5.6487e-008   
  4.7             2.7094e-009     0.00024704      -5.8711e-008   
  4.75            2.2675e-009     0.00025008      -5.6934e-008   
  4.8             1.5663e-009     0.00025307      -5.6773e-008   
  4.85            2.6052e-009     0.00025608      -5.8275e-008   
  4.9             2.7489e-009     0.0002591       -4.4882e-008   
  4.95            2.484e-009      0.00026212      -4.5047e-008   
  5               1.8067e-009     0.00026512      -4.4483e-008   
END_DB

BEGIN_DB
 ICCAP_VAR VS         0              
 ICCAP_VAR VB         -2.5           
 ICCAP_VAR VD         0.1            

 #VG              IG              ID              IB             
  0               -9.348e-010     -8.615e-010     -1.7148e-008   
  0.05            -1.3383e-009    9.903e-010      2.5731e-008    
  0.1             -1.0069e-009    -2.1005e-009    8.807e-009     
  0.15            2.7374e-009     -1.6325e-009    -1.0684e-008   
  0.2             -1.7983e-009    7.382e-010      1.807e-008     
  0.25            -6.165e-010     -1.9332e-009    4.281e-009     
  0.3             2.1746e-009     -6.441e-010     -1.8146e-008   
  0.35            1.8616e-009     4.4885e-009     -5.194e-009    
  0.4             -2.025e-009     1.7914e-008     -2.0235e-008   
  0.45            -1.4542e-009    7.3057e-008     3.565e-009     
  0.5             1.1702e-009     2.1409e-007     -1.8211e-008   
  0.55            -2.2024e-009    4.7317e-007     2.6824e-008    
  0.6             -1.5685e-009    7.9807e-007     2.895e-009     
  0.65            -2.2495e-009    1.1582e-006     -1.5629e-008   
  0.7             1.7779e-009     1.5131e-006     -1.8348e-008   
  0.75            2.5116e-009     1.8637e-006     -8.304e-009    
  0.8             -2.3642e-009    2.2082e-006     1.127e-008     
  0.85            -1.7316e-009    2.5284e-006     2.183e-009     
  0.9             -2.4552e-009    2.8416e-006     4.588e-009     
  0.95            -7.069e-010     3.1387e-006     -1.0264e-008   
  1               1.6321e-009     3.4277e-006     -1.5929e-008   
  1.05            2.5768e-009     3.7121e-006     -8.971e-009    
  1.1             -2.39e-009      3.9923e-006     2.5716e-008    
  1.15            -1.7768e-009    4.2563e-006     1.986e-009     
  1.2             -1.3366e-009    4.5172e-006     4.231e-009     
  1.25            -2.588e-009     4.7709e-006     8.603e-009     
  1.3             2.2871e-009     5.0151e-006     -2.4557e-008   
  1.35            1.5862e-009     5.2599e-006     -4.46e-009     
  1.4             2.5891e-009     5.4969e-006     -8.953e-009    
  1.45            -2.3663e-009    5.7349e-006     2.5926e-008    
  1.5             -1.7437e-009    5.9598e-006     2.206e-009     
  1.55            -2.4499e-009    6.1857e-006     4.564e-009     
  1.6             -7.065e-010     6.4031e-006     -1.0341e-008   
  1.65            1.6405e-009     6.6192e-006     -1.5996e-008   
  1.7             2.5712e-009     6.8358e-006     -8.936e-009    
  1.75            -2.4004e-009    7.0518e-006     2.5651e-008    
  1.8             -1.7898e-009    7.2561e-006     1.979e-009     
  1.85            -1.3401e-009    7.4615e-006     4.215e-009     
  1.9             -2.5937e-009    7.664e-006      8.557e-009     
  1.95            2.2997e-009     7.8602e-006     -2.4704e-008   
  2               1.5893e-009     8.059e-006      -4.217e-009    
  2.05            2.5896e-009     8.2512e-006     -8.946e-009    
  2.1             -2.377e-009     8.4482e-006     2.5934e-008    
  2.15            -1.7523e-009    8.6318e-006     2.064e-009     
  2.2             -1.3269e-009    8.8215e-006     4.336e-009     
  2.25            -2.5926e-009    9.007e-006      8.708e-009     
  2.3             2.27e-009       9.1872e-006     -2.4502e-008   
  2.35            1.5643e-009     9.3707e-006     -4.452e-009    
  2.4             2.5987e-009     9.5506e-006     -8.92e-009     
  2.45            -2.3564e-009    9.73e-006       2.5944e-008    
  2.5             -1.7254e-009    9.8993e-006     2.301e-009     
  2.55            -2.4556e-009    1.00733e-005    4.663e-009     
  2.6             -7.15e-010      1.02417e-005    -1.021e-008    
  2.65            1.6278e-009     1.04071e-005    -1.6014e-008   
  2.7             2.583e-009      1.05777e-005    -8.985e-009    
  2.75            -2.3932e-009    1.07468e-005    2.5807e-008    
  2.8             -1.7783e-009    1.09027e-005    2.161e-009     
  2.85            -1.3334e-009    1.10644e-005    4.283e-009     
  2.9             -2.5909e-009    1.12241e-005    8.767e-009     
  2.95            2.2885e-009     1.13791e-005    -2.4508e-008   
  3               -1.1419e-009    1.1533e-005     2.3128e-008    
  3.05            2.07e-011       1.1678e-005     -1.0351e-008   
  3.1             2.6175e-009     1.1837e-005     -2.4102e-008   
  3.15            -1.3198e-009    1.199e-005      2.2139e-008    
  3.2             -2.5965e-009    1.2136e-005     9.143e-009     
  3.25            2.2384e-009     1.2281e-005     -2.4145e-008   
  3.3             2.3569e-009     1.2427e-005     -4.998e-009    
  3.35            -1.4071e-009    1.2571e-005     1.9571e-008    
  3.4             -2.5711e-009    1.2709e-005     7.447e-009     
  3.45            2.4337e-009     1.2846e-005     -2.4963e-008   
  3.5             2.4292e-009     1.2979e-005     6.278e-009     
  3.55            -1.3351e-009    1.3124e-005     2.1649e-008    
  3.6             -2.5916e-009    1.3253e-005     8.907e-009     
  3.65            2.2751e-009     1.3386e-005     -2.438e-008    
  3.7             1.5688e-009     1.3517e-005     -4.61e-009     
  3.75            2.6063e-009     1.3646e-005     -9.038e-009    
  3.8             -2.3492e-009    1.3772e-005     2.5752e-008    
  3.85            -1.7389e-009    1.3891e-005     2.271e-009     
  3.9             -2.4582e-009    1.4018e-005     4.766e-009     
  3.95            -7.195e-010     1.4141e-005     -1.026e-008    
  4               1.6403e-009     1.4256e-005     -1.627e-008    
  4.05            2.5857e-009     1.4379e-005     -9.009e-009    
  4.1             -2.3794e-009    1.4498e-005     2.5428e-008    
  4.15            -1.7809e-009    1.4607e-005     2.109e-009     
