! VERSION = 6.00
BEGIN_HEADER
 ICCAP_INPUTS
  VG         V  B GROUND SMU4 0.001 LIN        2    0          5          6    1         
  VS         V  E GROUND SMU2 0.1 CON        0
  VD         V  S GROUND SMU1 0.1 LIN        1    0          5          101  0.05      
  VB         V  C GROUND SMU3 0.1 LIN        3    0          -2.5       2    -2.5      
 ICCAP_OUTPUTS
  ID         I  S GROUND SMU1 B
  IB         I  C GROUND SMU3 B
  IG         I  B GROUND SMU4 B
END_HEADER

BEGIN_DB
 ICCAP_VAR VG         0              
 ICCAP_VAR VS         0              
 ICCAP_VAR VB         0              

 #VD              ID              IB              IG             
  0               1.226e-009      2.6343e-008     1.0324e-009    
  0.05            1.2784e-008     1.2583e-008     2.4068e-009    
  0.1             1.3956e-008     -1.8366e-008    1.5821e-009    
  0.15            1.4237e-008     -2.4792e-008    2.3325e-009    
  0.2             1.4183e-008     -1.1886e-008    2.6859e-009    
  0.25            1.3383e-008     -9.167e-009     -9.72e-010     
  0.3             1.6509e-008     1.4504e-008     -1.8467e-009   
  0.35            1.7288e-008     2.4548e-008     -2.4485e-009   
  0.4             1.7394e-008     1.7256e-008     -1.5894e-009   
  0.45            1.7974e-008     2.6458e-008     -2.2625e-009   
  0.5             1.7998e-008     1.98e-008       -1.4018e-009   
  0.55            1.8012e-008     1.4686e-008     -1.8043e-009   
  0.6             1.868e-008      2.4943e-008     -2.4227e-009   
  0.65            1.8684e-008     1.7641e-008     -1.5635e-009   
  0.7             1.8547e-008     1.3147e-008     -2.0507e-009   
  0.75            1.8499e-008     1.1313e-008     -2.457e-009    
  0.8             1.9378e-008     1.6996e-008     -1.6037e-009   
  0.85            2.0007e-008     2.6312e-008     -2.2714e-009   
  0.9             1.9951e-008     1.9708e-008     -1.4096e-009   
  0.95            1.9853e-008     1.4683e-008     -1.8253e-009   
  1               2.0493e-008     2.476e-008      -2.4369e-009   
  1.05            2.1173e-008     2.0105e-008     -1.5725e-009   
  1.1             2.0296e-008     1.3234e-008     -2.0629e-009   
  1.15            2.0116e-008     1.1254e-008     -2.4659e-009   
  1.2             2.1728e-008     2.0942e-008     -1.6121e-009   
  1.25            2.1622e-008     2.627e-008      -2.2701e-009   
  1.3             2.1501e-008     1.9428e-008     -1.4149e-009   
  1.35            2.1398e-008     1.4419e-008     -1.8265e-009   
  1.4             2.1966e-008     2.4771e-008     -2.4424e-009   
  1.45            2.2631e-008     2.0168e-008     -1.5772e-009   
  1.5             2.2344e-008     2.6422e-008     -2.2379e-009   
  1.55            2.3183e-008     1.5258e-008     -1.3933e-009   
  1.6             2.2213e-008     1.5047e-008     -1.7982e-009   
  1.65            2.2711e-008     2.5036e-008     -2.4176e-009   
  1.7             2.2706e-008     1.7612e-008     -1.548e-009    
  1.75            2.3265e-008     2.6617e-008     -2.2089e-009   
  1.8             2.3918e-008     1.4495e-008     -1.375e-009    
  1.85            2.3007e-008     1.5228e-008     -1.7561e-009   
  1.9             2.3642e-008     2.5426e-008     -2.3905e-009   
  1.95            2.3443e-008     1.784e-008      -1.5215e-009   
  2               2.4003e-008     2.6617e-008     -2.1754e-009   
  2.05            2.4664e-008     1.3961e-008     -1.3569e-009   
  2.1             2.3623e-008     1.5638e-008     -1.7194e-009   
  2.15            2.4271e-008     2.5554e-008     -2.3632e-009   
  2.2             2.4846e-008     1.8136e-008     -1.4909e-009   
  2.25            2.4707e-008     2.647e-008      -2.137e-009    
  2.3             2.5266e-008     1.3645e-008     -2.5006e-009   
  2.35            2.4409e-008     1.6084e-008     -1.6761e-009   
  2.4             2.4961e-008     2.5992e-008     -2.3462e-009   
  2.45            2.4776e-008     1.8506e-008     -1.4676e-009   
  2.5             2.4585e-008     1.3972e-008     -1.9216e-009   
  2.55            2.5149e-008     2.3843e-008     -2.485e-009    
  2.6             2.5013e-008     1.6575e-008     -1.6495e-009   
  2.65            2.5554e-008     2.6061e-008     -2.3145e-009   
  2.7             2.6115e-008     1.6611e-008     -1.4377e-009   
  2.75            2.5176e-008     1.4147e-008     -1.882e-009    
  2.8             2.5642e-008     2.42e-008       -2.463e-009    
  2.85            2.5633e-008     1.6784e-008     -1.6155e-009   
  2.9             2.6098e-008     2.6153e-008     -2.2764e-009   
  2.95            2.5988e-008     1.9447e-008     -1.417e-009    
  3               2.5785e-008     1.4608e-008     -1.8359e-009   
  3.05            2.631e-008      2.4762e-008     -2.4435e-009   
  3.1             2.6199e-008     1.7252e-008     -1.5826e-009   
  3.15            2.6784e-008     2.6298e-008     -2.2478e-009   
  3.2             2.652e-008      1.9896e-008     -1.4001e-009   
  3.25            2.6395e-008     1.4795e-008     -1.8021e-009   
  3.3             2.6929e-008     2.4992e-008     -2.4211e-009   
  3.35            2.675e-008      1.736e-008      -1.5548e-009   
  3.4             2.7288e-008     2.6519e-008     -2.2113e-009   
  3.45            2.7105e-008     2.0237e-008     -1.3813e-009   
  3.5             2.689e-008      1.524e-008      -1.7684e-009   
  3.55            2.7481e-008     2.5171e-008     -2.4015e-009   
  3.6             2.7351e-008     1.7739e-008     -1.523e-009    
  3.65            2.7826e-008     2.6391e-008     -2.1869e-009   
  3.7             2.769e-008      2.059e-008      -1.3616e-009   
  3.75            2.7697e-008     1.549e-008      -1.7338e-009   
  3.8             2.8085e-008     2.526e-008      -2.3751e-009   
  3.85            2.8095e-008     1.8125e-008     -1.5023e-009   
  3.9             2.7699e-008     1.344e-008      -1.9742e-009   
  3.95            2.7412e-008     1.109e-008      -2.4103e-009   
  4               2.8936e-008     1.9083e-008     -1.5384e-009   
  4.05            2.7943e-008     1.3121e-008     -2.0284e-009   
  4.1             2.7779e-008     1.1123e-008     -2.4422e-009   
  4.15            2.8592e-008     1.7004e-008     -1.5806e-009   
  4.2             2.8362e-008     1.2871e-008     -2.0789e-009   
  4.25            2.8274e-008     1.1015e-008     -2.4748e-009   
  4.3             2.8989e-008     1.6261e-008     -1.6271e-009   
  4.35            2.9605e-008     2.5771e-008     -2.2902e-009   
  4.4             2.9255e-008     1.8952e-008     -1.4289e-009   
  4.45            2.9171e-008     1.4057e-008     -1.8536e-009   
  4.5             2.9108e-008     1.0854e-008     -2.3328e-009   
  4.55            2.9773e-008     1.819e-008      -1.4572e-009   
  4.6             2.9576e-008     1.3388e-008     -1.8996e-009   
  4.65            2.9385e-008     1.0646e-008     -2.3661e-009   
  4.7             3.0395e-008     1.7544e-008     -1.4885e-009   
  4.75            3.0224e-008     1.2819e-008     -1.9551e-009   
  4.8             2.9932e-008     1.0429e-008     -2.4053e-009   
  4.85            3.0772e-008     1.6846e-008     -1.536e-009    
  4.9             3.0495e-008     1.2438e-008     -2.0154e-009   
  4.95            3.0418e-008     1.0261e-008     -2.4394e-009   
  5               3.1333e-008     1.6095e-008     -1.5768e-009   
END_DB

BEGIN_DB
 ICCAP_VAR VG         1              
 ICCAP_VAR VS         0              
 ICCAP_VAR VB         0              

 #VD              ID              IB              IG             
  0               4.3579e-008     -1.6836e-008    -9.718e-010    
  0.05            3.0492e-006     -2.4889e-008    -2.5934e-009   
  0.1             5.9358e-006     1.7263e-008     -1.5697e-009   
  0.15            8.6266e-006     8.922e-009      1.8717e-009    
  0.2             1.11333e-005    -1.4472e-008    2.2326e-009    
  0.25            1.3434e-005     -9.765e-009     2.6797e-009    
  0.3             1.5509e-005     -1.1548e-008    2.6693e-009    
  0.35            1.7378e-005     -1.5584e-008    1.9936e-009    
  0.4             1.9033e-005     -9.958e-009     -8.18e-010     
  0.45            2.0461e-005     9.048e-009      -2.5895e-009   
  0.5             2.1675e-005     1.1283e-008     -2.4103e-009   
  0.55            2.2651e-005     1.5931e-008     -1.6949e-009   
  0.6             2.3447e-005     1.1299e-008     -2.3528e-009   
  0.65            2.4064e-005     1.6743e-008     -1.6211e-009   
  0.7             2.4537e-005     2.5054e-008     -2.4243e-009   
  0.75            2.4896e-005     1.5794e-008     -1.7124e-009   
  0.8             2.5183e-005     1.1332e-008     -2.3682e-009   
  0.85            2.5401e-005     1.6627e-008     -1.6341e-009   
  0.9             2.5592e-005     2.4878e-008     -2.4353e-009   
  0.95            2.5745e-005     1.555e-008      -1.7319e-009   
  1               2.5897e-005     1.1257e-008     -2.3817e-009   
  1.05            2.6019e-005     1.6187e-008     -1.6511e-009   
  1.1             2.613e-005      2.479e-008      -2.4449e-009   
  1.15            2.6234e-005     1.5428e-008     -1.7465e-009   
  1.2             2.6298e-005     9.057e-009      7.916e-010     
  1.25            2.6356e-005     -2.4458e-008    2.5697e-009    
  1.3             2.646e-005      -2.148e-008     1.9956e-009    
  1.35            2.6552e-005     -9.885e-009     -8.246e-010    
  1.4             2.6663e-005     8.885e-009      -2.5915e-009   
  1.45            2.6747e-005     1.1304e-008     -2.4057e-009   
  1.5             2.6804e-005     1.6009e-008     -1.6878e-009   
  1.55            2.6888e-005     1.1387e-008     -2.3465e-009   
  1.6             2.6934e-005     1.6808e-008     -1.6137e-009   
  1.65            2.7001e-005     2.5205e-008     -2.417e-009    
  1.7             2.7068e-005     1.5779e-008     -1.702e-009    
  1.75            2.7127e-005     1.1296e-008     -2.3614e-009   
  1.8             2.717e-005      1.6571e-008     -1.624e-009    
  1.85            2.7236e-005     2.4923e-008     -2.4275e-009   
  1.9             2.7283e-005     1.5641e-008     -1.7193e-009   
  1.95            2.7335e-005     1.1332e-008     -2.3734e-009   
  2               2.7381e-005     1.6367e-008     -1.6429e-009   
  2.05            2.7435e-005     2.4825e-008     -2.4392e-009   
  2.1             2.7474e-005     1.5432e-008     -1.7395e-009   
  2.15            2.7485e-005     9.024e-009      7.961e-010     
  2.2             2.7504e-005     -2.4345e-008    2.5609e-009    
  2.25            2.7559e-005     -2.1347e-008    1.9864e-009    
  2.3             2.7618e-005     -9.979e-009     -8.277e-010    
  2.35            2.7687e-005     9.086e-009      -2.5962e-009   
  2.4             2.7735e-005     1.129e-008      -2.405e-009    
  2.45            2.7767e-005     1.5851e-008     -1.683e-009    
  2.5             2.7813e-005     1.1059e-008     -2.3437e-009   
  2.55            2.7836e-005     1.6433e-008     -1.6089e-009   
  2.6             2.7885e-005     1.1211e-008     -2.2777e-009   
  2.65            2.7904e-005     1.6844e-008     -1.5389e-009   
  2.7             2.7949e-005     1.1545e-008     -2.2095e-009   
  2.75            2.7925e-005     7.371e-009      1.9203e-009    
  2.8             2.7955e-005     -2.1659e-008    2.7372e-009    
  2.85            2.7987e-005     -1.2217e-008    -3.33e-011     
  2.9             2.8086e-005     1.175e-008      -1.8996e-009   
  2.95            2.8114e-005     8.486e-009      -2.4782e-009   
  3               2.814e-005      1.1117e-008     -1.8134e-009   
  3.05            2.818e-005      7.044e-009      -2.4411e-009   
  3.1             2.8203e-005     1.0222e-008     -1.7391e-009   
  3.15            2.8239e-005     5.345e-009      -2.3816e-009   
  3.2             2.8264e-005     9.199e-009      -1.6592e-009   
  3.25            2.8304e-005     3.036e-009      -2.3214e-009   
  3.3             2.8297e-005     -1.8422e-008    -1.9823e-009   
  3.35            2.8357e-005     -4.3e-010       -2.5e-009      
  3.4             2.8387e-005     4.29e-010       -1.8568e-009   
  3.45            2.8362e-005     -8.208e-009     2.1186e-009    
  3.5             2.8392e-005     -2.8669e-008    -4.133e-010    
  3.55            2.846e-005      -1.6352e-008    -2.4885e-009   
  3.6             2.8449e-005     -1.6294e-008    9.777e-010     
  3.65            2.8476e-005     -5.2266e-008    2.2666e-009    
  3.7             2.8538e-005     -4.0445e-008    -1.9358e-009   
  3.75            2.8582e-005     -2.6559e-008    2.208e-010     
  3.8             2.857e-005      -5.8733e-008    1.7572e-009    
  3.85            2.8636e-005     -5.4884e-008    -2.133e-009    
  3.9             2.8676e-005     -4.3581e-008    5.258e-010     
  3.95            2.8663e-005     -8.1054e-008    2.7312e-009    
  4               2.8783e-005     -7.754e-008     -1.6156e-009   
  4.05            2.8786e-005     -6.3617e-008    -2.4707e-009   
  4.1             2.8741e-005     -7.6175e-008    1.685e-009     
  4.15            2.8831e-005     -1.06474e-007   2.063e-010     
  4.2             2.8877e-005     -1.0691e-007    -2.4053e-009   
  4.25            2.886e-005      -1.1063e-007    1.7496e-009    
  4.3             2.8915e-005     -1.4414e-007    3.15e-011      
  4.35            2.9031e-005     -1.3567e-007    -2.0422e-009   
  4.4             2.9024e-005     -1.5718e-007    2.0268e-009    
  4.45            2.9066e-005     -1.9414e-007    -2.682e-010    
  4.5             2.9161e-005     -1.864e-007     -1.6051e-009   
  4.55            2.9178e-005     -2.174e-007     2.2364e-009    
  4.6             2.9225e-005     -2.591e-007     -6.18e-010     
  4.65            2.9322e-005     -2.5235e-007    -1.3272e-009   
  4.7             2.9333e-005     -2.9561e-007    2.4081e-009    
  4.75            2.9419e-005     -3.4188e-007    -9.066e-010    
  4.8             2.951e-005      -3.3851e-007    -2.3174e-009   
  4.85            2.9505e-005     -3.9114e-007    1.8374e-009    
  4.9             2.9588e-005     -4.4876e-007    -4.59e-011     
  4.95            2.9733e-005     -4.6529e-007    -1.8935e-009   
  5               2.978e-005      -5.1502e-007    2.1035e-009    
END_DB

BEGIN_DB
 ICCAP_VAR VG         2              
 ICCAP_VAR VS         0              
 ICCAP_VAR VB         0              

 #VD              ID              IB              IG             
  0               7.5479e-008     -1.4798e-008    -1.0305e-009   
  0.05            5.1926e-006     -1.0082e-008    -2.594e-009    
  0.1             1.02529e-005    1.5145e-008     -1.7785e-009   
  0.15            1.5157e-005     1.6003e-008     -8.017e-010    
  0.2             1.992e-005      8.819e-009      -2.5959e-009   
  0.25            2.4496e-005     1.2294e-008     -2.4254e-009   
  0.3             2.8904e-005     1.5722e-008     -1.7343e-009   
  0.35            3.3122e-005     1.1182e-008     -2.3746e-009   
  0.4             3.7137e-005     1.6435e-008     -1.6702e-009   
  0.45            4.0956e-005     2.452e-008      -2.4386e-009   
  0.5             4.4565e-005     1.5315e-008     -1.7588e-009   
  0.55            4.795e-005      9.197e-009      7.858e-010     
  0.6             5.1128e-005     -2.417e-008     2.5632e-009    
  0.65            5.4104e-005     -1.7129e-008    1.8049e-009    
  0.7             5.6859e-005     -2.362e-008     2.6301e-009    
  0.75            5.9408e-005     -1.6101e-008    1.9345e-009    
  0.8             6.1761e-005     -9.723e-009     -8.498e-010    
  0.85            6.3909e-005     2.5057e-008     -2.3861e-009   
  0.9             6.5836e-005     1.6214e-008     -1.686e-009    
  0.95            6.7574e-005     2.4236e-008     -2.4557e-009   
  1               6.9116e-005     1.516e-008      -1.7836e-009   
  1.05            7.0454e-005     9.237e-009      7.74e-010      
  1.1             7.1624e-005     -2.3931e-008    2.5755e-009    
  1.15            7.2667e-005     -1.6971e-008    1.8342e-009    
  1.2             7.3553e-005     -2.3229e-008    2.64e-009      
  1.25            7.4323e-005     -1.5958e-008    1.951e-009     
  1.3             7.5014e-005     -9.956e-009     -8.374e-010    
  1.35            7.56e-005       2.4999e-008     -2.4069e-009   
  1.4             7.6071e-005     1.5826e-008     -1.7052e-009   
  1.45            7.6482e-005     2.3995e-008     -2.4653e-009   
  1.5             7.6838e-005     1.4898e-008     -1.8133e-009   
  1.55            7.716e-005      1.1258e-008     -2.4238e-009   
  1.6             7.7421e-005     1.5651e-008     -1.7342e-009   
  1.65            7.7678e-005     1.1222e-008     -2.3763e-009   
  1.7             7.789e-005      1.6416e-008     -1.6681e-009   
  1.75            7.8101e-005     2.4492e-008     -2.4416e-009   
  1.8             7.8286e-005     1.5218e-008     -1.7695e-009   
  1.85            7.8418e-005     9.233e-009      7.815e-010     
  1.9             7.8541e-005     -2.4077e-008    2.5656e-009    
  1.95            7.8709e-005     -2.1537e-008    2.0144e-009    
  2               7.8875e-005     -9.991e-009     -8.08e-010     
  2.05            7.9036e-005     9.134e-009      -2.5995e-009   
  2.1             7.9147e-005     1.2142e-008     -2.4144e-009   
  2.15            7.9286e-005     1.5632e-008     -1.7296e-009   
  2.2             7.9353e-005     9.047e-009      8.107e-010     
  2.25            7.9428e-005     -2.4214e-008    2.5407e-009    
  2.3             7.9549e-005     -2.0953e-008    1.9738e-009    
  2.35            7.969e-005      -9.893e-009     -8.358e-010    
  2.4             7.9824e-005     2.5079e-008     -2.4122e-009   
  2.45            7.9911e-005     1.5928e-008     -1.7184e-009   
  2.5             8.0032e-005     1.1131e-008     -2.3597e-009   
  2.55            8.0083e-005     1.6636e-008     -1.6518e-009   
  2.6             8.0172e-005     2.4701e-008     -2.4305e-009   
  2.65            8.0271e-005     1.5313e-008     -1.7487e-009   
  2.7             8.0309e-005     9.053e-009      7.935e-010     
  2.75            8.0352e-005     -2.4492e-008    2.5545e-009    
  2.8             8.0438e-005     -2.1514e-008    1.9984e-009    
  2.85            8.0542e-005     -1.0163e-008    -8.198e-010    
  2.9             8.0638e-005     8.77e-009       -2.5993e-009   
  2.95            8.072e-005      1.0729e-008     -2.3987e-009   
  3               8.0768e-005     1.5286e-008     -1.6973e-009   
  3.05            8.0845e-005     1.0343e-008     -2.35e-009     
  3.1             8.0888e-005     1.5532e-008     -1.6275e-009   
  3.15            8.0965e-005     1.0073e-008     -2.2965e-009   
  3.2             8.1012e-005     1.5399e-008     -1.5746e-009   
  3.25            8.1091e-005     9.259e-009      -2.2291e-009   
  3.3             8.1139e-005     1.4771e-008     -1.5087e-009   
  3.35            8.1203e-005     8.291e-009      -2.1646e-009   
  3.4             8.1259e-005     5.706e-009      -2.566e-009    
  3.45            8.1315e-005     6.252e-009      -2.0929e-009   
  3.5             8.1371e-005     3.411e-009      -2.5497e-009   
  3.55            8.1414e-005     3.415e-009      -2.0158e-009   
  3.6             8.1477e-005     -5.65e-010      -2.5222e-009   
  3.65            8.1525e-005     -5.27e-010      -1.936e-009    
  3.7             8.1521e-005     -9.203e-009     2.0832e-009    
  3.75            8.1584e-005     -3.106e-008     -3.449e-010    
  3.8             8.1676e-005     -1.9682e-008    -2.4656e-009   
  3.85            8.1679e-005     -2.0457e-008    9.359e-010     
  3.9             8.1722e-005     -5.8293e-008    2.35e-009      
  3.95            8.1827e-005     -4.8462e-008    -1.9032e-009   
  4               8.19e-005       -3.6126e-008    1.562e-010     
  4.05            8.189e-005      -7.0315e-008    1.8827e-009    
  4.1             8.1993e-005     -6.9754e-008    -2.0859e-009   
  4.15            8.2051e-005     -6.1854e-008    4.561e-010     
