! VERSION = 6.00
BEGIN_HEADER
 ICCAP_INPUTS
  VG         V  B GROUND SMU4 0.001 LIN        2    0          5          6    1         
  VS         V  E GROUND SMU2 0.1 CON        0
  VD         V  S GROUND SMU1 0.1 LIN        1    0          5          101  0.05      
  VB         V  C GROUND SMU3 0.1 LIN        3    0          -2.5       2    -2.5      
 ICCAP_OUTPUTS
  ID         I  S GROUND SMU1 B
  IB         I  C GROUND SMU3 B
  IG         I  B GROUND SMU4 B
END_HEADER

BEGIN_DB
 ICCAP_VAR VG         0              
 ICCAP_VAR VS         0              
 ICCAP_VAR VB         0              

 #VD              ID              IB              IG             
  0               1.3289e-009     -1.1086e-008    1.2748e-009    
  0.05            2.6532e-009     -9.009e-009     2.8241e-009    
  0.1             2.8729e-009     1.78e-010       2.8338e-009    
  0.15            2.8922e-009     -1.02e-010      2.7744e-009    
  0.2             3.6369e-009     1.9075e-008     -1.2868e-009   
  0.25            2.367e-009      1.1936e-008     -2.6144e-009   
  0.3             1.3047e-009     6.08e-010       -2.4706e-009   
  0.35            1.3498e-009     1.092e-009      -2.2665e-009   
  0.4             1.4295e-009     1.83e-009       -2.0166e-009   
  0.45            1.5352e-009     3.153e-009      -1.7717e-009   
  0.5             1.6456e-009     4.597e-009      -1.5739e-009   
  0.55            1.7541e-009     6.256e-009      -1.447e-009    
  0.6             1.8756e-009     8.478e-009      -1.3807e-009   
  0.65            1.9947e-009     9.817e-009      -1.3444e-009   
  0.7             2.1281e-009     1.1129e-008     -1.3146e-009   
  0.75            2.2652e-009     1.0955e-008     -1.2821e-009   
  0.8             2.4086e-009     1.1868e-008     -2.6134e-009   
  0.85            1.3388e-009     4.48e-010       -2.4612e-009   
  0.9             1.3931e-009     9.29e-010       -2.2508e-009   
  0.95            1.4887e-009     2.059e-009      -2.008e-009    
  1               1.5507e-009     3.192e-009      -1.7623e-009   
  1.05            1.6579e-009     4.716e-009      -1.5644e-009   
  1.1             1.781e-009      6.582e-009      -1.4463e-009   
  1.15            1.9e-009        8.469e-009      -1.3793e-009   
  1.2             2.0203e-009     9.949e-009      -1.3424e-009   
  1.25            2.157e-009      1.126e-008      -1.3134e-009   
  1.3             2.2947e-009     1.1108e-008     -1.2801e-009   
  1.35            2.4383e-009     1.213e-008      -2.6083e-009   
  1.4             1.3436e-009     4.76e-010       -2.4488e-009   
  1.45            1.4086e-009     1.081e-009      -2.2359e-009   
  1.5             1.4933e-009     1.934e-009      -1.986e-009    
  1.55            1.5962e-009     3.355e-009      -1.7459e-009   
  1.6             1.6803e-009     4.75e-009       -1.5526e-009   
  1.65            1.7929e-009     6.555e-009      -1.439e-009    
  1.7             1.9204e-009     8.669e-009      -1.3787e-009   
  1.75            2.0543e-009     1.0236e-008     -1.3433e-009   
  1.8             2.1792e-009     1.1426e-008     -1.3121e-009   
  1.85            2.31e-009       1.1222e-008     -1.2765e-009   
  1.9             2.4689e-009     1.2183e-008     -2.5993e-009   
  1.95            1.3625e-009     3.73e-010       -2.4398e-009   
  2               1.4252e-009     1.087e-009      -2.2238e-009   
  2.05            1.5113e-009     2.046e-009      -1.9705e-009   
  2.1             1.615e-009      3.47e-009       -1.731e-009    
  2.15            1.7203e-009     4.895e-009      -1.5468e-009   
  2.2             1.8302e-009     6.704e-009      -1.4336e-009   
  2.25            1.9441e-009     8.904e-009      -1.3737e-009   
  2.3             2.0698e-009     1.029e-008      -1.338e-009    
  2.35            2.2005e-009     1.1423e-008     -1.3097e-009   
  2.4             2.3372e-009     1.1133e-008     -2.669e-009    
  2.45            2.2999e-009     -2.0086e-008    2.819e-009     
  2.5             3.0448e-009     2.13e-010       2.8236e-009    
  2.55            4.4314e-009     8.474e-009      9.551e-010     
  2.6             3.9848e-009     1.1807e-008     -1.4974e-009   
  2.65            1.8854e-009     7.513e-009      -1.4054e-009   
  2.7             2.0044e-009     9.177e-009      -1.3589e-009   
  2.75            2.1313e-009     1.0767e-008     -1.3262e-009   
  2.8             2.2715e-009     1.1195e-008     -1.2942e-009   
  2.85            2.3995e-009     1.1429e-008     -2.6417e-009   
  2.9             2.3526e-009     -1.119e-008     1.252e-009     
  2.95            2.237e-009      -1.0461e-008    2.8243e-009    
  3               3.0225e-009     -1.03e-010      2.7928e-009    
  3.05            3.7028e-009     2.09e-008       -1.2978e-009   
  3.1             2.4168e-009     1.1287e-008     -2.639e-009    
  3.15            2.3518e-009     -1.1179e-008    1.252e-009     
  3.2             2.2359e-009     -1.0286e-008    2.8327e-009    
  3.25            3.0263e-009     -2.24e-010      2.7852e-009    
  3.3             4.2429e-009     1.0484e-008     1.058e-010     
  3.35            4.3244e-009     1.078e-008      2.938e-010     
  3.4             4.3922e-009     1.0325e-008     4.749e-010     
  3.45            3.6302e-009     2.3247e-008     -1.3161e-009   
  3.5             2.3443e-009     1.1058e-008     -1.28e-009     
  3.55            2.502e-009      1.1978e-008     -2.6006e-009   
  3.6             1.3954e-009     4.31e-010       -2.4495e-009   
  3.65            1.4558e-009     1.206e-009      -2.2297e-009   
  3.7             1.5431e-009     1.893e-009      -1.9839e-009   
  3.75            1.648e-009      3.334e-009      -1.7421e-009   
  3.8             1.7583e-009     4.761e-009      -1.5484e-009   
  3.85            1.8694e-009     6.586e-009      -1.4294e-009   
  3.9             1.9825e-009     8.748e-009      -1.3708e-009   
  3.95            2.1099e-009     1.0161e-008     -1.3394e-009   
  4               2.2382e-009     1.1304e-008     -1.3097e-009   
  4.05            2.3722e-009     1.1103e-008     -1.2764e-009   
  4.1             2.5321e-009     1.2109e-008     -2.6002e-009   
  4.15            1.423e-009      4.5e-010        -2.4412e-009   
  4.2             1.4882e-009     1.039e-009      -2.2162e-009   
  4.25            1.5794e-009     2.29e-009       -1.9655e-009   
  4.3             1.6873e-009     3.425e-009      -1.7148e-009   
  4.35            1.8009e-009     4.931e-009      -1.5297e-009   
  4.4             1.9075e-009     6.823e-009      -1.4206e-009   
  4.45            2.0252e-009     8.664e-009      -1.3693e-009   
  4.5             2.1523e-009     1.0347e-008     -1.3349e-009   
  4.55            2.2755e-009     1.1324e-008     -1.3074e-009   
  4.6             2.427e-009      1.0866e-008     -1.2728e-009   
  4.65            2.5828e-009     1.2147e-008     -2.5879e-009   
  4.7             1.4652e-009     6.11e-010       -2.4163e-009   
  4.75            2.229e-009      -1.1455e-008    2.8224e-009    
  4.8             3.7392e-009     2.2273e-008     -1.309e-009    
  4.85            2.4572e-009     1.0917e-008     -1.2707e-009   
  4.9             2.6086e-009     1.2296e-008     -2.5829e-009   
  4.95            1.4943e-009     4.45e-010       -2.4132e-009   
  5               1.5741e-009     1.164e-009      -2.1867e-009   
END_DB

BEGIN_DB
 ICCAP_VAR VG         1              
 ICCAP_VAR VS         0              
 ICCAP_VAR VB         0              

 #VD              ID              IB              IG             
  0               2.2182e-008     2.2946e-008     6.875e-010     
  0.05            1.427e-006      -8.233e-009     -1.5237e-009   
  0.1             2.7714e-006     2.6741e-008     -1.3101e-009   
  0.15            4.0213e-006     2.6484e-008     -1.3063e-009   
  0.2             5.1811e-006     1.5691e-008     -1.8585e-009   
  0.25            6.2455e-006     1.0583e-008     2.361e-010     
  0.3             7.2037e-006     -1.3904e-008    2.5243e-009    
  0.35            8.076e-006      -1.1225e-008    1.211e-010     
  0.4             8.875e-006      1.1475e-008     -2.6448e-009   
  0.45            9.5548e-006     1.5309e-008     -1.482e-009    
  0.5             1.01374e-005    1.0883e-008     5.965e-010     
  0.55            1.06087e-005    -1.6845e-008    1.9937e-009    
  0.6             1.10002e-005    -2.3068e-008    1.228e-009     
  0.65            1.1304e-005     8.726e-009      -2.5356e-009   
  0.7             1.1527e-005     1.5521e-008     -1.8669e-009   
  0.75            1.165e-005      1.0301e-008     7.433e-010     
  0.8             1.1711e-005     -2.4929e-008    1.3083e-009    
  0.85            1.1767e-005     -1.9946e-008    1.9108e-009    
  0.9             1.1811e-005     -1.0642e-008    -8.563e-010    
  0.95            1.1854e-005     2.6689e-008     -1.3527e-009   
  1               1.1869e-005     2.1455e-008     -1.7045e-009   
  1.05            1.1887e-005     2.5842e-008     -1.3674e-009   
  1.1             1.1903e-005     2.3386e-008     -1.2691e-009   
  1.15            1.1915e-005     2.6269e-008     -1.356e-009    
  1.2             1.1926e-005     2.2232e-008     -1.7361e-009   
  1.25            1.1937e-005     2.5396e-008     -1.3727e-009   
  1.3             1.19e-005       9.237e-009      1.2588e-009    
  1.35            1.1922e-005     -1.7257e-008    1.7609e-009    
  1.4             1.1949e-005     -1.0178e-008    -9.339e-010    
  1.45            1.1975e-005     2.721e-008      -1.3349e-009   
  1.5             1.1975e-005     1.0532e-008     4.38e-010      
  1.55            1.1953e-005     -2.1113e-008    1.5137e-009    
  1.6             1.1963e-005     -2.5426e-008    1.2556e-009    
  1.65            1.1977e-005     -1.1376e-008    -5.542e-010    
  1.7             1.201e-005      2.2538e-008     -1.4494e-009   
  1.75            1.2021e-005     2.6992e-008     -1.3151e-009   
  1.8             1.2014e-005     1.0804e-008     5.653e-010     
  1.85            1.1993e-005     -2.3055e-008    1.408e-009     
  1.9             1.2005e-005     -2.3962e-008    1.2361e-009    
  1.95            1.2022e-005     -1.1469e-008    -6.972e-010    
  2               1.2049e-005     2.4535e-008     -1.397e-009    
  2.05            1.2057e-005     2.5503e-008     -1.2924e-009   
  2.1             1.2047e-005     1.0693e-008     6.783e-010     
  2.15            1.2025e-005     -2.4629e-008    1.3392e-009    
  2.2             1.204e-005      -2.1472e-008    2.0321e-009    
  2.25            1.2057e-005     -1.0955e-008    -8.06e-010     
  2.3             1.2079e-005     2.6099e-008     -1.365e-009    
  2.35            1.2084e-005     2.3225e-008     -1.8012e-009   
  2.4             1.207e-005      9.995e-009      7.933e-010     
  2.45            1.2057e-005     -2.5409e-008    1.2934e-009    
  2.5             1.2069e-005     -1.1268e-008    -3.665e-010    
  2.55            1.2097e-005     1.9428e-008     -1.5685e-009   
  2.6             1.2077e-005     9.206e-009      9.514e-010     
  2.65            1.2076e-005     -2.5088e-008    1.2505e-009    
  2.7             1.2089e-005     -1.1617e-008    -6.041e-010    
  2.75            1.212e-005      2.3005e-008     -1.4317e-009   
  2.8             1.2122e-005     1.4587e-008     -1.9084e-009   
  2.85            1.2111e-005     9.966e-009      7.17e-010      
  2.9             1.2091e-005     -2.5423e-008    1.3219e-009    
  2.95            1.2105e-005     -1.2187e-008    -2.615e-010    
  3               1.2137e-005     1.7315e-008     -1.645e-009    
  3.05            1.212e-005      8.657e-009      8.838e-010     
  3.1             1.2108e-005     -2.703e-008     1.2642e-009    
  3.15            1.2155e-005     -1.1867e-008    -1.5596e-009   
  3.2             1.2154e-005     1.169e-008      -2.0596e-009   
  3.25            1.2161e-005     8.626e-009      -2.6012e-009   
  3.3             1.2161e-005     1.1022e-008     -1.9932e-009   
  3.35            1.2169e-005     7.325e-009      -2.5711e-009   
  3.4             1.2167e-005     1.0351e-008     -1.9113e-009   
  3.45            1.2176e-005     5.827e-009      -2.5385e-009   
  3.5             1.2175e-005     9.523e-009      -1.8504e-009   
  3.55            1.2184e-005     3.969e-009      -2.4883e-009   
  3.6             1.2181e-005     8.214e-009      -1.7858e-009   
  3.65            1.2193e-005     1.88e-009       -2.4389e-009   
  3.7             1.2193e-005     6.192e-009      -1.7213e-009   
  3.75            1.2174e-005     -3.178e-009     2.281e-009     
  3.8             1.2177e-005     -2.5615e-008    -5.486e-010    
  3.85            1.2202e-005     -1.0153e-008    -1.3635e-009   
  3.9             1.2186e-005     -9.152e-009     2.6355e-009    
  3.95            1.221e-005      -3.0505e-008    -1.0466e-009   
  4               1.2225e-005     3.077e-009      -1.3128e-009   
  4.05            1.2204e-005     -1.9886e-008    2.8e-009       
  4.1             1.2239e-005     -3.9333e-008    -1.3212e-009   
  4.15            1.224e-005      -1.2208e-008    -1.6992e-009   
  4.2             1.2224e-005     -2.795e-008     2.2956e-009    
  4.25            1.2227e-005     -5.2978e-008    -5.724e-010    
  4.3             1.2259e-005     -2.3426e-008    -1.4448e-009   
  4.35            1.2245e-005     -4.3242e-008    2.4736e-009    
  4.4             1.2258e-005     -6.7534e-008    -8.598e-010    
  4.45            1.2286e-005     -3.6353e-008    -1.3536e-009   
  4.5             1.227e-005      -6.098e-008     2.6801e-009    
  4.55            1.2301e-005     -8.6323e-008    -1.0988e-009   
  4.6             1.2313e-005     -5.8994e-008    -1.3019e-009   
  4.65            1.2303e-005     -8.6968e-008    2.8179e-009    
  4.7             1.2316e-005     -1.03956e-007   1.2197e-009    
  4.75            1.2329e-005     -1.1714e-007    -2.7021e-009   
  4.8             1.2311e-005     -1.1428e-007    1.3546e-009    
  4.85            1.2341e-005     -1.4993e-007    1.6388e-009    
  4.9             1.2372e-005     -1.5635e-007    -2.3266e-009   
  4.95            1.2391e-005     -1.4988e-007    6.399e-010     
  5               1.2382e-005     -1.993e-007     1.3615e-009    
END_DB

BEGIN_DB
 ICCAP_VAR VG         2              
 ICCAP_VAR VS         0              
 ICCAP_VAR VB         0              

 #VD              ID              IB              IG             
  0               3.6238e-008     -8.307e-009     -1.3622e-009   
  0.05            2.6676e-006     -1.0173e-008    -2.6673e-009   
  0.1             5.2617e-006     1.6606e-008     -1.5219e-009   
  0.15            7.7825e-006     1.0853e-008     5.47e-010      
  0.2             1.02244e-005    -1.6411e-008    2.0737e-009    
  0.25            1.2585e-005     -1.8007e-008    1.7773e-009    
  0.3             1.4873e-005     -1.8843e-008    1.7175e-009    
  0.35            1.7086e-005     -1.0216e-008    -9.493e-010    
  0.4             1.9223e-005     2.7373e-008     -1.3361e-009   
  0.45            2.1257e-005     9.567e-009      1.4727e-009    
  0.5             2.3231e-005     -1.2878e-008    1.4889e-009    
  0.55            2.5125e-005     -2.4982e-008    2.3691e-009    
  0.6             2.6947e-005     -1.1543e-008    -5.911e-010    
  0.65            2.8695e-005     2.3057e-008     -1.4352e-009   
  0.7             3.0345e-005     1.4975e-008     -1.9123e-009   
  0.75            3.1906e-005     1.0757e-008     7.077e-010     
  0.8             3.3371e-005     -2.4846e-008    1.3265e-009    
  0.85            3.4781e-005     -2.0481e-008    1.9717e-009    
  0.9             3.611e-005      -1.1177e-008    -8.26e-010     
  0.95            3.7364e-005     2.6364e-008     -1.3632e-009   
  1               3.8513e-005     2.2257e-008     -1.7464e-009   
  1.05            3.9558e-005     1.0302e-008     8.119e-010     
  1.1             4.0515e-005     -2.5645e-008    1.2881e-009    
  1.15            4.1411e-005     -1.77e-008      1.7756e-009    
  1.2             4.2235e-005     -1.0289e-008    -9.227e-010    
  1.25            4.2969e-005     2.7299e-008     -1.3416e-009   
  1.3             4.3586e-005     1.0628e-008     4.261e-010     
  1.35            4.4091e-005     -2.112e-008     1.5265e-009    
  1.4             4.4549e-005     -2.5493e-008    1.2634e-009    
  1.45            4.4936e-005     -1.1444e-008    -5.47e-010     
  1.5             4.5271e-005     2.2594e-008     -1.4527e-009   
  1.55            4.5504e-005     2.6996e-008     -1.3225e-009   
  1.6             4.5657e-005     1.0917e-008     5.5e-010       
  1.65            4.574e-005      -2.3178e-008    1.4194e-009    
  1.7             4.5841e-005     -2.3901e-008    1.2425e-009    
  1.75            4.5936e-005     -1.1613e-008    -6.893e-010    
  1.8             4.6031e-005     2.4616e-008     -1.4016e-009   
  1.85            4.6006e-005     8.562e-009      1.1674e-009    
  1.9             4.6069e-005     -1.9493e-008    1.9028e-009    
  1.95            4.6134e-005     -1.0665e-008    -8.574e-010    
  2               4.6198e-005     2.6728e-008     -1.3553e-009   
  2.05            4.6228e-005     2.1183e-008     -1.7021e-009   
  2.1             4.626e-005      2.5858e-008     -1.3694e-009   
  2.15            4.6288e-005     2.3135e-008     -1.7903e-009   
  2.2             4.6278e-005     1.0147e-008     7.786e-010     
  2.25            4.627e-005      -2.551e-008     1.2985e-009    
  2.3             4.6307e-005     -1.8586e-008    1.8429e-009    
  2.35            4.636e-005      -1.0873e-008    -8.892e-010    
  2.4             4.6407e-005     2.7026e-008     -1.3501e-009   
  2.45            4.6422e-005     1.9975e-008     -1.6463e-009   
  2.5             4.64e-005       9.984e-009      8.842e-010     
  2.55            4.6402e-005     -2.5523e-008    1.2716e-009    
  2.6             4.6439e-005     -1.1469e-008    -5.013e-010    
  2.65            4.6496e-005     2.1784e-008     -1.4762e-009   
  2.7             4.6457e-005     9.101e-009      1.0339e-009    
  2.75            4.6478e-005     -2.2973e-008    2.1781e-009    
  2.8             4.6516e-005     -1.1611e-008    -7.259e-010    
  2.85            4.6572e-005     2.5155e-008     -1.3915e-009   
  2.9             4.6507e-005     8.536e-009      1.199e-009     
  2.95            4.6548e-005     -1.8639e-008    1.8485e-009    
  3               4.6593e-005     -1.0967e-008    -8.814e-010    
  3.05            4.6635e-005     2.6985e-008     -1.3484e-009   
  3.1             4.6641e-005     2.0238e-008     -1.6547e-009   
  3.15            4.6663e-005     2.6352e-008     -1.3626e-009   
  3.2             4.6675e-005     2.2259e-008     -1.7496e-009   
  3.25            4.6648e-005     9.891e-009      8.118e-010     
  3.3             4.6633e-005     -2.5742e-008    1.2878e-009    
  3.35            4.6664e-005     -1.165e-008     -3.986e-010    
  3.4             4.6718e-005     1.9765e-008     -1.5337e-009   
  3.45            4.6679e-005     8.634e-009      9.724e-010     
  3.5             4.6683e-005     -2.5226e-008    1.2528e-009    
  3.55            4.6766e-005     -1.2466e-008    -1.6535e-009   
  3.6             4.6767e-005     1.3637e-008     -1.8987e-009   
  3.65            4.675e-005      8.478e-009      7.204e-010     
  3.7             4.6727e-005     -2.7443e-008    1.3218e-009    
  3.75            4.6816e-005     -1.3144e-008    -1.3659e-009   
  3.8             4.6817e-005     8.124e-009      -2.3274e-009   
  3.85            4.6769e-005     5.078e-009      1.9377e-009    
  3.9             4.6776e-005     -1.7489e-008    -2.44e-011     
  3.95            4.6844e-005     7.592e-009      -1.898e-009    
  4               4.6867e-005     1.746e-009      -2.5241e-009   
  4.05            4.6868e-005     4.659e-009      -1.8275e-009   
  4.1             4.6841e-005     -3.814e-009     2.2254e-009    
  4.15            4.6846e-005     -2.7274e-008    -4.489e-010    
