! VERSION = 6.00
BEGIN_HEADER
 ICCAP_INPUTS
  VG         V  B GROUND SMU4 0.001 LIN        1    0          1.8        37   0.05      
  VS         V  E GROUND SMU3 0.1 CON        0
  VB         V  C GROUND SMU1 0.1 LIN        3    0          -1.8       3    -0.9      
  VD         V  S GROUND SMU2 0.1 LIN        2    0.1        1.8        2    1.7       
 ICCAP_OUTPUTS
  IG         I  B GROUND SMU4 B
  ID         I  S GROUND SMU2 B
  IB         I  C GROUND SMU1 B
END_HEADER

BEGIN_DB
 ICCAP_VAR VS         0              
 ICCAP_VAR VB         0              
 ICCAP_VAR VD         0.1            

 #VG              IG              ID              IB             
  0               -1.5814e-009    6.5566e-008     -4.719e-009    
  0.05            1.2969e-009     2.8265e-007     -1.7744e-008   
  0.1             -2.3891e-009    9.4407e-007     1.159e-008     
  0.15            2.3337e-009     2.281e-006      1.3891e-008    
  0.2             1.9318e-009     4.3341e-006     8.952e-009     
  0.25            -1.4675e-009    6.8886e-006     1.7385e-008    
  0.3             -9.92e-010      9.5059e-006     -9.387e-009    
  0.35            -1.0285e-009    1.2112e-005     1.8056e-008    
  0.4             2.7545e-009     1.4588e-005     -7.126e-009    
  0.45            -9.42e-011      1.7077e-005     8.581e-009     
  0.5             -2.3168e-009    1.9388e-005     1.2059e-008    
  0.55            1.8374e-009     2.154e-005      -1.6891e-008   
  0.6             -2.4355e-009    2.3716e-005     1.1249e-008    
  0.65            2.0717e-009     2.5698e-005     -1.6376e-008   
  0.7             -1.465e-009     2.773e-005      1.6558e-008    
  0.75            -9.938e-010     2.96e-005       -9.098e-009    
  0.8             2.754e-009      3.139e-005      -7.423e-009    
  0.85            -1.31e-010      3.3236e-005     9.4e-009       
  0.9             -2.356e-009     3.4933e-005     1.1748e-008    
  0.95            1.9113e-009     3.6565e-005     -1.6835e-008   
  1               -2.4665e-009    3.8241e-005     1.1086e-008    
  1.05            2.144e-009      3.9797e-005     -1.5873e-008   
  1.1             -1.5152e-009    4.1422e-005     1.7852e-008    
  1.15            -9.614e-010     4.2913e-005     -9.632e-009    
  1.2             2.7514e-009     4.4377e-005     -7.035e-009    
  1.25            -2.4394e-009    4.5867e-005     1.1185e-008    
  1.3             2.0855e-009     4.7266e-005     -1.6127e-008   
  1.35            -1.4698e-009    4.8743e-005     1.6904e-008    
  1.4             -9.869e-010     5.0095e-005     -9.481e-009    
  1.45            2.7535e-009     5.1422e-005     -6.948e-009    
  1.5             -2.4078e-009    5.2784e-005     1.1224e-008    
  1.55            2.0246e-009     5.4065e-005     -1.6578e-008   
  1.6             -1.4289e-009    5.5439e-005     1.5859e-008    
  1.65            -1.0159e-009    5.6682e-005     -9.258e-009    
  1.7             2.752e-009      5.7911e-005     -7.069e-009    
  1.75            -1.019e-010     5.9215e-005     8.594e-009     
  1.8             -2.3369e-009    6.0403e-005     1.1846e-008    
END_DB

BEGIN_DB
 ICCAP_VAR VS         0              
 ICCAP_VAR VB         0              
 ICCAP_VAR VD         1.8            

 #VG              IG              ID              IB             
  0               2.7423e-009     1.0822e-007     -1.144e-008    
  0.05            -2.2563e-009    4.2482e-007     1.2529e-008    
  0.1             9.76e-010       1.3409e-006     3.251e-009     
  0.15            -2.5954e-009    3.4142e-006     8.53e-009      
  0.2             6.25e-011       6.6754e-006     -8.118e-009    
  0.25            -1.474e-010     1.1374e-005     1.1282e-008    
  0.3             2.1622e-009     1.7272e-005     -1.569e-008    
  0.35            -1.5168e-009    2.4459e-005     1.7885e-008    
  0.4             -9.405e-010     3.2345e-005     -9.415e-009    
  0.45            2.7483e-009     4.1004e-005     -7.076e-009    
  0.5             -2.4775e-009    5.0875e-005     1.0587e-008    
  0.55            2.1366e-009     6.0884e-005     -1.579e-008    
  0.6             -1.5038e-009    7.2073e-005     1.7679e-008    
  0.65            -9.491e-010     8.3441e-005     -9.389e-009    
  0.7             2.7473e-009     9.5201e-005     -7.067e-009    
  0.75            -2.4697e-009    0.000108026     1.036e-008     
  0.8             -1.7784e-009    0.00012097      -1.1761e-008   
  0.85            1.8985e-009     0.0001339       -1.6689e-008   
  0.9             -2.4791e-009    0.00014796      1.1099e-008    
  0.95            2.1604e-009     0.00016158      -1.578e-008    
  1               -1.5207e-009    0.00017636      1.8191e-008    
  1.05            -9.409e-010     0.00019085      -9.478e-009    
  1.1             2.7509e-009     0.00020558      -6.949e-009    
  1.15            -1.2777e-009    0.00022116      1.0488e-008    
  1.2             2.1474e-009     0.0002363       -1.569e-008    
  1.25            -1.5071e-009    0.00025245      1.7705e-008    
  1.3             -9.511e-010     0.00026821      -9.402e-009    
  1.35            2.7477e-009     0.00028405      -7.019e-009    
  1.4             -2.4661e-009    0.00030082      1.029e-008     
  1.45            2.1337e-009     0.00031697      -1.595e-008    
  1.5             -1.4913e-009    0.00033412      1.746e-008     
  1.55            -9.562e-010     0.00035078      -9.275e-009    
  1.6             2.7477e-009     0.00036748      -7.108e-009    
  1.65            -2.4651e-009    0.00038513      1.1267e-008    
  1.7             2.1086e-009     0.00040192      -1.5969e-008   
  1.75            -1.4818e-009    0.00041977      1.7152e-008    
  1.8             2.5087e-009     0.00043673      -1.353e-008    
END_DB

BEGIN_DB
 ICCAP_VAR VS         0              
 ICCAP_VAR VB         -0.9           
 ICCAP_VAR VD         0.1            

 #VG              IG              ID              IB             
  0               -4.467e-010     -2.5655e-009    -1.6889e-008   
  0.05            2.4713e-009     3.5663e-009     -1.595e-008    
  0.1             2.7416e-009     1.2939e-008     -7.162e-009    
  0.15            -2.2789e-009    5.5439e-008     1.2166e-008    
  0.2             1.048e-009      2.3667e-007     -1.7135e-008   
  0.25            -2.5664e-009    8.366e-007      9.495e-009     
  0.3             2.5137e-009     2.1158e-006     1.6504e-008    
  0.35            7.39e-010       4.1268e-006     9.326e-009     
  0.4             -2.6399e-009    6.5744e-006     6.386e-009     
  0.45            2.7322e-009     9.0433e-006     -1.211e-008    
  0.5             1.9012e-009     1.1551e-005     -1.3001e-008   
  0.55            -1.4824e-009    1.4011e-005     1.638e-008     
  0.6             -9.542e-010     1.6299e-005     -9.51e-009     
  0.65            2.7544e-009     1.8455e-005     -6.746e-009    
  0.7             -2.4723e-009    2.063e-005      1.1288e-008    
  0.75            2.1243e-009     2.2599e-005     -1.5744e-008   
  0.8             -1.5059e-009    2.4628e-005     1.7471e-008    
  0.85            2.5372e-009     2.6441e-005     -1.3032e-008   
  0.9             -1.7219e-009    2.8317e-005     1.5378e-008    
  0.95            -8.18e-010      3.0073e-005     -9.725e-009    
  1               2.7153e-009     3.1768e-005     -7.359e-009    
  1.05            -1.3927e-009    3.3506e-005     1.4513e-008    
  1.1             2.4052e-009     3.5055e-005     -1.4182e-008   
  1.15            -1.5691e-009    3.67e-005       1.6174e-008    
  1.2             -9.008e-010     3.8246e-005     -9.457e-009    
  1.25            2.7401e-009     3.9743e-005     -6.848e-009    
  1.3             -1.3157e-009    4.1294e-005     1.201e-008     
  1.35            -1.1087e-009    4.2732e-005     -8.303e-009    
  1.4             2.7479e-009     4.4115e-005     -7.799e-009    
  1.45            -3.07e-011      4.5585e-005     7.791e-009     
  1.5             -2.2576e-009    4.6942e-005     1.2586e-008    
  1.55            1.7272e-009     4.8267e-005     -1.6898e-008   
  1.6             -2.4225e-009    4.9637e-005     1.144e-008     
  1.65            2.0389e-009     5.0917e-005     -1.645e-008    
  1.7             -1.4478e-009    5.2295e-005     1.6113e-008    
  1.75            -9.847e-010     5.3542e-005     -9.15e-009     
  1.8             2.7522e-009     5.4765e-005     -7.263e-009    
END_DB

BEGIN_DB
 ICCAP_VAR VS         0              
 ICCAP_VAR VB         -0.9           
 ICCAP_VAR VD         1.8            

 #VG              IG              ID              IB             
  0               2.6561e-009     4.9565e-009     1.4835e-008    
  0.05            -2.5241e-009    3.8162e-009     1.2007e-008    
  0.1             1.369e-009      2.3087e-008     4.12e-009      
  0.15            -2.3135e-009    8.556e-008      1.1937e-008    
  0.2             -6.787e-010     3.5405e-007     1.1495e-008    
  0.25            1.9691e-009     1.2055e-006     1.0837e-008    
  0.3             -1.4421e-009    3.1996e-006     1.7476e-008    
  0.35            -9.975e-010     6.4329e-006     -9.174e-009    
  0.4             2.7532e-009     1.09212e-005    -7.192e-009    
  0.45            -1.9447e-009    1.6827e-005     1.3742e-008    
  0.5             1.4558e-009     2.3582e-005     -1.7706e-008   
  0.55            9.348e-010      3.1463e-005     8.763e-009     
  0.6             -2.6103e-009    4.0355e-005     8.196e-009     
  0.65            2.5978e-009     4.9525e-005     -1.1669e-008   
  0.7             -1.8636e-009    5.9988e-005     1.5119e-008    
  0.75            1.5026e-009     7.0509e-005     -1.3794e-008   
  0.8             9.097e-010      8.1923e-005     8.928e-009     
  0.85            -2.6205e-009    9.4076e-005     8.132e-009     
  0.9             2.622e-009      0.000106041     -1.1067e-008   
  0.95            1.5201e-009     0.00011868      2.0638e-008    
  1               -1.4116e-009    0.00013245      1.4788e-008    
  1.05            -1.0167e-009    0.00014601      -9.167e-009    
  1.1             2.7594e-009     0.00015963      -7.241e-009    
  1.15            -2.3948e-009    0.00017436      1.1297e-008    
  1.2             2.0145e-009     0.00018855      -1.6621e-008   
  1.25            -1.4453e-009    0.00020385      1.607e-008     
  1.3             2.4442e-009     0.00021855      -1.3851e-008   
  1.35            -1.6388e-009    0.00023441      1.6398e-008    
  1.4             -8.695e-010     0.00024991      -9.651e-009    
  1.45            2.7451e-009     0.00026555      -7.515e-009    
  1.5             -1.3536e-009    0.00028206      1.324e-008     
  1.55            2.3156e-009     0.00029786      -1.5048e-008   
  1.6             -1.5072e-009    0.00031482      1.703e-008     
  1.65            -9.466e-010     0.00033132      -9.786e-009    
  1.7             2.7613e-009     0.00034781      -7.181e-009    
  1.75            -2.4632e-009    0.00036527      1.107e-008     
  1.8             2.1592e-009     0.00038186      -1.575e-008    
END_DB

BEGIN_DB
 ICCAP_VAR VS         0              
 ICCAP_VAR VB         -1.8           
 ICCAP_VAR VD         0.1            

 #VG              IG              ID              IB             
  0               -8.908e-010     -4.72e-010      6.611e-009     
  0.05            -1.9853e-009    -1.8801e-009    1.628e-009     
  0.1             2.5388e-009     -7.58e-010      -1.5826e-008   
  0.15            -2.4175e-009    1.3696e-009     1.3336e-008    
  0.2             2.4127e-009     4.9961e-009     -1.6366e-008   
  0.25            -1.4017e-009    1.3682e-008     -4.574e-009    
  0.3             2.5771e-009     8.9687e-008     -1.2204e-008   
  0.35            -1.1526e-009    3.7623e-007     1.608e-008     
  0.4             2.4897e-009     1.1783e-006     1.6619e-008    
  0.45            -1.6992e-009    2.7709e-006     1.6215e-008    
  0.5             2.6397e-009     4.8558e-006     -1.0567e-008   
  0.55            -1.9542e-009    7.3581e-006     1.458e-008     
  0.6             1.5886e-009     9.7439e-006     -1.5155e-008   
  0.65            2.7452e-009     1.2146e-005     -9.606e-009    
  0.7             -1.3411e-009    1.4477e-005     1.2818e-008    
  0.75            2.3078e-009     1.6595e-005     -1.498e-008    
  0.8             -1.6556e-009    1.8763e-005     2.1217e-008    
  0.85            2.6252e-009     2.0706e-005     -1.1125e-008   
  0.9             -1.9099e-009    2.2703e-005     1.5011e-008    
  0.95            1.5358e-009     2.4546e-005     -1.4368e-008   
  1               8.879e-010      2.6372e-005     9.038e-009     
  1.05            -2.6228e-009    2.8156e-005     7.49e-009      
  1.1             1.745e-010      2.9828e-005     -9.546e-009    
  1.15            2.62e-009       3.1465e-005     -1.14e-008     
  1.2             -1.9069e-009    3.314e-005      1.5082e-008    
  1.25            1.5274e-009     3.4705e-005     -1.4484e-008   
  1.3             -2.2942e-009    3.627e-005      1.2132e-008    
  1.35            1.8125e-009     3.7746e-005     -1.6769e-008   
  1.4             -2.4461e-009    3.9267e-005     1.1221e-008    
  1.45            2.1107e-009     4.0692e-005     -1.6108e-008   
  1.5             -1.4978e-009    4.2183e-005     1.7355e-008    
  1.55            -9.49e-010      4.3544e-005     -9.345e-009    
  1.6             2.7555e-009     4.4904e-005     -6.957e-009    
  1.65            -2.4676e-009    4.6286e-005     1.0871e-008    
  1.7             2.1521e-009     4.7584e-005     -1.5814e-008   
  1.75            -1.5324e-009    4.8967e-005     1.8298e-008    
  1.8             -9.335e-010     5.0228e-005     -9.501e-009    
END_DB

BEGIN_DB
 ICCAP_VAR VS         0              
 ICCAP_VAR VB         -1.8           
 ICCAP_VAR VD         1.8            

 #VG              IG              ID              IB             
  0               1.2995e-009     2.314e-010      1.0809e-008    
  0.05            6.176e-010      4.2992e-009     8.98e-009      
  0.1             -2.1248e-009    -1.6693e-009    2.413e-009     
  0.15            2.294e-009      -9.71e-011      -1.7001e-008   
  0.2             -2.2089e-009    6.6261e-009     1.5196e-008    
  0.25            1.4705e-009     3.4668e-008     4.2e-009       
  0.3             1.82e-010       1.4594e-007     -7.077e-009    
  0.35            -1.9263e-009    6.0598e-007     1.503e-008     
  0.4             1.9494e-009     1.7519e-006     1.0764e-008    
  0.45            -1.4595e-009    4.2039e-006     1.7462e-008    
  0.5             2.4615e-009     7.8149e-006     -1.3764e-008   
  0.55            4.794e-010      1.2896e-005     -1.4906e-008   
  0.6             -1.4858e-009    1.9088e-005     1.7447e-008    
  0.65            -9.652e-010     2.6196e-005     -9.65e-009     
  0.7             2.7575e-009     3.4098e-005     -7.365e-009    
  0.75            -2.4485e-009    4.3254e-005     1.0869e-008    
  0.8             2.1347e-009     5.2619e-005     -1.5928e-008   
  0.85            -1.5168e-009    6.3196e-005     1.7946e-008    
  0.9             2.5232e-009     7.3729e-005     -1.2985e-008   
  0.95            -1.7412e-009    8.553e-005      1.6149e-008    
  1               -8.19e-010      9.7387e-005     -9.72e-009     
  1.05            2.7346e-009     0.000109632     -7.871e-009    
  1.1             4.131e-010      0.0001227       1.5541e-008    
  1.15            -1.5756e-009    0.00013611      1.6835e-008    
  1.2             2.5664e-009     0.00014934      -1.2475e-008   
  1.25            -1.807e-009     0.00016375      1.5687e-008    
  1.3             2.7315e-009     0.00017772      -1.3024e-008   
  1.35            1.74e-011       0.00019269      7.977e-009     
  1.4             -2.1749e-009    0.00020767      1.2898e-008    
  1.45            1.6416e-009     0.00022243      -1.697e-008    
  1.5             8.445e-010      0.00023802      8.941e-009     
  1.55            -2.6329e-009    0.00025394      7.326e-009     
  1.6             2.178e-010      0.00026944      -1.0645e-008   
  1.65            2.6491e-009     0.00028542      -1.0111e-008   
  1.7             -1.9927e-009    0.00030223      1.4368e-008    
  1.75            1.6333e-009     0.00031837      -1.5809e-008   
  1.8             -2.3514e-009    0.00033535      1.1701e-008    
END_DB

