! VERSION = 6.00
BEGIN_HEADER
 ICCAP_INPUTS
  VG         V  B GROUND SMU4 0.001 LIN        2    0          5          6    1         
  VS         V  E GROUND SMU2 0.1 CON        0
  VD         V  S GROUND SMU1 0.1 LIN        1    0          5          101  0.05      
  VB         V  C GROUND SMU3 0.1 LIN        3    0          -2.5       2    -2.5      
 ICCAP_OUTPUTS
  ID         I  S GROUND SMU1 B
  IB         I  C GROUND SMU3 B
  IG         I  B GROUND SMU4 B
END_HEADER

BEGIN_DB
 ICCAP_VAR VG         0              
 ICCAP_VAR VS         0              
 ICCAP_VAR VB         0              

 #VD              ID              IB              IG             
  0               1.5183e-009     1.773e-008      1.1734e-009    
  0.05            1.1919e-008     2.5644e-008     2.6438e-009    
  0.1             1.0541e-008     -9.121e-009     -1.0044e-009   
  0.15            1.369e-008      1.5267e-008     -1.7916e-009   
  0.2             1.416e-008      2.4721e-008     -2.4087e-009   
  0.25            1.4026e-008     1.7657e-008     -1.5545e-009   
  0.3             1.4352e-008     2.6181e-008     -2.2047e-009   
  0.35            1.415e-008      2.0527e-008     -1.3812e-009   
  0.4             1.3945e-008     1.5153e-008     -1.7509e-009   
  0.45            1.4312e-008     2.5113e-008     -2.3959e-009   
  0.5             1.4176e-008     1.7864e-008     -1.5242e-009   
  0.55            1.3841e-008     1.3525e-008     -1.995e-009    
  0.6             1.3425e-008     1.1378e-008     -2.4247e-009   
  0.65            1.4928e-008     1.9732e-008     -1.5573e-009   
  0.7             1.46e-008       2.6202e-008     -2.2231e-009   
  0.75            1.4329e-008     2.0235e-008     -1.3831e-009   
  0.8             1.407e-008      1.5102e-008     -1.7692e-009   
  0.85            1.4514e-008     2.4976e-008     -2.405e-009    
  0.9             1.5013e-008     1.9234e-008     -1.5329e-009   
  0.95            1.3908e-008     1.3341e-008     -2.0109e-009   
  1               1.5353e-008     1.214e-008      -2.4387e-009   
  1.05            1.4297e-008     1.729e-008      -1.5706e-009   
  1.1             1.4653e-008     2.6371e-008     -2.2382e-009   
  1.15            1.5299e-008     1.5142e-008     -1.3896e-009   
  1.2             1.4212e-008     1.4779e-008     -1.7928e-009   
  1.25            1.4606e-008     2.4966e-008     -2.4156e-009   
  1.3             1.4397e-008     1.7604e-008     -1.5431e-009   
  1.35            1.4767e-008     2.6465e-008     -2.2114e-009   
  1.4             1.5393e-008     1.4412e-008     -1.3704e-009   
  1.45            1.4267e-008     1.5272e-008     -1.752e-009    
  1.5             1.4683e-008     2.5291e-008     -2.3989e-009   
  1.55            1.4452e-008     1.7781e-008     -1.5151e-009   
  1.6             1.4809e-008     2.6464e-008     -2.1755e-009   
  1.65            1.5448e-008     1.4048e-008     -1.3583e-009   
  1.7             1.4321e-008     1.5596e-008     -1.7209e-009   
  1.75            1.4773e-008     2.5501e-008     -2.381e-009    
  1.8             1.5354e-008     1.7924e-008     -1.4888e-009   
  1.85            1.4874e-008     2.6627e-008     -2.1441e-009   
  1.9             1.5482e-008     1.3612e-008     -2.508e-009    
  1.95            1.444e-008      1.6099e-008     -1.6845e-009   
  2               1.5705e-008     1.0226e-008     -6.5e-012      
  2.05            1.4548e-008     -8.515e-009     2.7118e-009    
  2.1             1.3432e-008     -2.478e-008     2.4911e-009    
  2.15            1.2905e-008     -1.3616e-008    2.7328e-009    
  2.2             1.3954e-008     -1.5746e-008    2.0283e-009    
  2.25            1.3615e-008     -2.3631e-008    2.6433e-009    
  2.3             1.1443e-008     -9.017e-009     -1.0226e-009   
  2.35            1.4413e-008     1.5475e-008     -1.754e-009    
  2.4             1.4832e-008     2.5273e-008     -2.3945e-009   
  2.45            1.5407e-008     1.8691e-008     -1.5176e-009   
  2.5             1.4997e-008     2.645e-008      -2.1752e-009   
  2.55            1.5562e-008     1.4083e-008     -1.3571e-009   
  2.6             1.4469e-008     1.5745e-008     -1.7199e-009   
  2.65            1.4893e-008     2.528e-008      -2.3731e-009   
  2.7             1.4681e-008     1.818e-008      -1.4963e-009   
  2.75            1.5047e-008     2.6288e-008     -2.1431e-009   
  2.8             1.5638e-008     1.3628e-008     -2.5066e-009   
  2.85            1.455e-008      1.604e-008      -1.6991e-009   
  2.9             1.4914e-008     2.5505e-008     -2.3449e-009   
  2.95            1.4694e-008     1.8555e-008     -1.479e-009    
  3               1.4391e-008     1.3812e-008     -1.9336e-009   
  3.05            1.4795e-008     2.3754e-008     -2.4867e-009   
  3.1             1.4572e-008     1.634e-008      -1.6667e-009   
  3.15            1.5001e-008     2.5784e-008     -2.3139e-009   
  3.2             1.4741e-008     1.8988e-008     -1.4562e-009   
  3.25            1.4421e-008     1.4161e-008     -1.8947e-009   
  3.3             1.4884e-008     2.409e-008      -2.4721e-009   
  3.35            1.4658e-008     1.6825e-008     -1.6314e-009   
  3.4             1.5052e-008     2.5814e-008     -2.2878e-009   
  3.45            1.481e-008      1.9167e-008     -1.4269e-009   
  3.5             1.4499e-008     1.4418e-008     -1.8491e-009   
  3.55            1.4944e-008     2.4312e-008     -2.4618e-009   
  3.6             1.4728e-008     1.7019e-008     -1.5969e-009   
  3.65            1.5103e-008     2.6078e-008     -2.2608e-009   
  3.7             1.4877e-008     1.9622e-008     -1.4068e-009   
  3.75            1.4593e-008     1.4492e-008     -1.8146e-009   
  3.8             1.4993e-008     2.4624e-008     -2.4333e-009   
  3.85            1.4788e-008     1.7239e-008     -1.5676e-009   
  3.9             1.5219e-008     2.6288e-008     -2.2359e-009   
  3.95            1.5796e-008     1.4851e-008     -1.3892e-009   
  4               1.4718e-008     1.5077e-008     -1.7865e-009   
  4.05            1.5128e-008     2.487e-008      -2.412e-009    
  4.1             1.4898e-008     1.7576e-008     -1.5395e-009   
  4.15            1.5281e-008     2.622e-008      -2.2012e-009   
  4.2             1.5842e-008     1.4288e-008     -1.3713e-009   
  4.25            1.4788e-008     1.517e-008      -1.7453e-009   
  4.3             1.5275e-008     2.513e-008      -2.3884e-009   
  4.35            1.5035e-008     1.7889e-008     -1.5116e-009   
  4.4             1.5391e-008     2.617e-008      -2.1699e-009   
  4.45            1.6013e-008     1.3757e-008     -1.3559e-009   
  4.5             1.4934e-008     1.5501e-008     -1.7078e-009   
  4.55            1.5362e-008     2.5253e-008     -2.3603e-009   
  4.6             1.5192e-008     1.801e-008      -1.4825e-009   
  4.65            1.4832e-008     1.3376e-008     -1.9532e-009   
  4.7             1.4435e-008     1.108e-008      -2.3988e-009   
  4.75            1.5199e-008     1.756e-008      -1.525e-009    
  4.8             1.4875e-008     1.2958e-008     -2.0006e-009   
  4.85            1.4519e-008     1.0943e-008     -2.4321e-009   
  4.9             1.5308e-008     1.7008e-008     -1.5634e-009   
  4.95            1.4956e-008     1.2442e-008     -2.0515e-009   
  5               1.4582e-008     1.0765e-008     -2.4605e-009   
END_DB

BEGIN_DB
 ICCAP_VAR VG         1              
 ICCAP_VAR VS         0              
 ICCAP_VAR VB         0              

 #VD              ID              IB              IG             
  0               2.1411e-007     1.1379e-008     -2.5668e-009   
  0.05            1.5149e-005     -2.1083e-008    1.6164e-009    
  0.1             2.9341e-005     -1.6488e-008    1.8656e-009    
  0.15            4.2566e-005     -9.501e-009     -8.862e-010    
  0.2             5.4841e-005     2.5647e-008     -2.3533e-009   
  0.25            6.6034e-005     1.6558e-008     -1.6187e-009   
  0.3             7.6243e-005     2.5115e-008     -2.4213e-009   
  0.35            8.5394e-005     1.5676e-008     -1.699e-009    
  0.4             9.3538e-005     1.1329e-008     -2.3591e-009   
  0.45            0.000100569     1.6623e-008     -1.6231e-009   
  0.5             0.000106596     2.4887e-008     -2.4253e-009   
  0.55            0.000111532     1.5594e-008     -1.7053e-009   
  0.6             0.00011538      1.4694e-008     3.986e-010     
  0.65            0.00011805      -8.947e-009     2.6133e-009    
  0.7             0.00012007      -1.156e-008     2.353e-010     
  0.75            0.00012161      1.2369e-008     -2.2125e-009   
  0.8             0.00012221      9.65e-009       6.124e-010     
  0.85            0.00012241      -2.3894e-008    2.6222e-009    
  0.9             0.00012277      -1.9967e-008    1.8898e-009    
  0.95            0.00012287      -2.422e-008     2.5742e-009    
  1               0.00012317      -1.8639e-008    1.7894e-009    
  1.05            0.00012321      -2.4809e-008    2.5112e-009    
  1.1             0.00012347      -1.7091e-008    1.6909e-009    
  1.15            0.00012356      -2.4887e-008    2.4284e-009    
  1.2             0.00012376      -1.0315e-008    -6.678e-010    
  1.25            0.00012407      8.686e-009      -2.6022e-009   
  1.3             0.0001242       2.485e-008      -2.4336e-009   
  1.35            0.00012427      1.7299e-008     -1.5609e-009   
  1.4             0.00012405      8.005e-009      1.0087e-009    
  1.45            0.00012405      -1.0465e-008    2.6549e-009    
  1.5             0.00012426      -2.0877e-008    1.9485e-009    
  1.55            0.00012428      -2.398e-008     2.6066e-009    
  1.6             0.00012444      -1.9432e-008    1.8589e-009    
  1.65            0.00012442      -2.4334e-008    2.5558e-009    
  1.7             0.00012458      -1.8014e-008    1.755e-009     
  1.75            0.00012457      -2.4827e-008    2.4884e-009    
  1.8             0.00012471      -1.6498e-008    1.6589e-009    
  1.85            0.00012472      -2.493e-008     2.411e-009     
  1.9             0.00012492      -1.0297e-008    -6.933e-010    
  1.95            0.00012525      2.4871e-008     -2.4455e-009   
  2               0.00012523      1.7057e-008     -1.5779e-009   
  2.05            0.00012502      7.932e-009      9.991e-010     
  2.1             0.00012507      -2.1536e-008    2.0277e-009    
  2.15            0.00012507      -2.3549e-008    2.6441e-009    
  2.2             0.00012518      -2.0573e-008    1.9252e-009    
  2.25            0.00012517      -2.418e-008     2.5944e-009    
  2.3             0.00012529      -1.9189e-008    1.8229e-009    
  2.35            0.00012521      -2.455e-008     2.5304e-009    
  2.4             0.00012539      -1.7801e-008    1.7227e-009    
  2.45            0.00012539      -2.5194e-008    2.4658e-009    
  2.5             0.00012551      -1.0704e-008    -6.423e-010    
  2.55            0.00012581      7.969e-009      -2.5972e-009   
  2.6             0.0001259       1.0552e-008     -2.3373e-009   
  2.65            0.00012556      7.226e-009      1.9585e-009    
  2.7             0.00012556      -2.4413e-008    2.6951e-009    
  2.75            0.00012572      -1.2762e-008    -3.527e-010    
  2.8             0.00012602      1.6774e-008     -1.4046e-009   
  2.85            0.00012607      1.0637e-008     -1.8151e-009   
  2.9             0.00012613      6.537e-009      -2.304e-009    
  2.95            0.00012615      4.658e-009      -2.5707e-009   
  3               0.00012619      5.695e-009      -1.866e-009    
  3.05            0.00012626      8.56e-010       -2.3414e-009   
  3.1             0.00012609      -1.7733e-008    -2.6039e-009   
  3.15            0.00012632      -4.403e-009     -2.2717e-009   
  3.2             0.00012602      -1.1348e-008    2.0054e-009    
  3.25            0.00012608      -3.4197e-008    -3.769e-010    
  3.3             0.00012638      -8.208e-009     -1.3856e-009   
  3.35            0.00012619      -2.7473e-008    2.4352e-009    
  3.4             0.0001264       -4.8881e-008    -1.0325e-009   
  3.45            0.00012654      -2.2256e-008    -1.918e-009    
  3.5             0.00012631      -4.743e-008     2.1821e-009    
  3.55            0.00012638      -7.4949e-008    -6.583e-010    
  3.6             0.00012667      -5.0646e-008    -2.4722e-009   
  3.65            0.00012625      -7.7504e-008    1.8254e-009    
  3.7             0.00012654      -1.10296e-007   -1.0668e-009   
  3.75            0.00012647      -1.1574e-007    2.4789e-009    
  3.8             0.00012669      -1.398e-007     -1.9183e-009   
  3.85            0.00012682      -1.3925e-007    3.1e-010       
  3.9             0.00012655      -1.8886e-007    2.7462e-009    
  3.95            0.00012704      -2.0205e-007    -1.6517e-009   
  4               0.00012692      -2.0638e-007    -9.74e-011     
  4.05            0.00012674      -2.5996e-007    2.1391e-009    
  4.1             0.00012696      -2.8354e-007    -2.0661e-009   
  4.15            0.00012709      -2.9933e-007    5.555e-010     
  4.2             0.00012685      -3.6983e-007    2.6758e-009    
  4.25            0.00012729      -3.9687e-007    -1.8189e-009   
  4.3             0.00012735      -4.2175e-007    1.193e-010     
  4.35            0.00012713      -4.9839e-007    1.735e-009     
  4.4             0.00012741      -5.4247e-007    -2.2523e-009   
  4.45            0.00012746      -5.8404e-007    7.863e-010     
  4.5             0.00012737      -6.8228e-007    2.4295e-009    
  4.55            0.00012772      -7.3526e-007    -1.945e-009    
  4.6             0.00012794      -7.9191e-007    3.619e-010     
  4.65            0.0001277       -9.0456e-007    2.7447e-009    
  4.7             0.00012827      -9.8317e-007    -1.6872e-009   
  4.75            0.00012824      -1.05838e-006   -5.13e-011     
  4.8             0.00012845      -1.1662e-006    -2.6045e-009   
  4.85            0.00012806      -1.2759e-006    1.4258e-009    
  4.9             0.00012839      -1.4181e-006    2.263e-010     
  4.95            0.00012895      -1.5256e-006    -2.1985e-009   
  5               0.00012882      -1.6642e-006    2.048e-009     
END_DB

BEGIN_DB
 ICCAP_VAR VG         2              
 ICCAP_VAR VS         0              
 ICCAP_VAR VB         0              

 #VD              ID              IB              IG             
  0               3.587e-007      2.6032e-008     -1.2374e-009   
  0.05            2.8583e-005     -1.0282e-008    2.5902e-009    
  0.1             5.6385e-005     -1.4153e-008    2.742e-009     
  0.15            8.3396e-005     -2.4903e-008    2.4528e-009    
  0.2             0.000109608     -1.8809e-008    1.8126e-009    
  0.25            0.00013501      -2.4196e-008    -1.0412e-009   
  0.3             0.00015959      1.1492e-008     -2.5108e-009   
  0.35            0.00018323      1.586e-008      -1.6642e-009   
  0.4             0.0002061       2.6047e-008     -2.337e-009    
  0.45            0.00022791      8.466e-009      1.9493e-009    
  0.5             0.000249        -2.2858e-008    2.7003e-009    
  0.55            0.00026925      -2.2173e-008    2.0583e-009    
  0.6             0.00028859      -1.1197e-008    2.248e-010     
  0.65            0.00030731      1.2537e-008     -2.1963e-009   
  0.7             0.0003248       9.725e-009      6.277e-010     
  0.75            0.00034132      -2.4311e-008    2.6205e-009    
  0.8             0.00035715      -1.9644e-008    1.8662e-009    
  0.85            0.00037196      -2.4656e-008    2.5664e-009    
  0.9             0.00038596      -1.7998e-008    1.7701e-009    
  0.95            0.00039894      -2.4995e-008    2.5045e-009    
  1               0.00041107      -1.6491e-008    1.6765e-009    
  1.05            0.00042212      -2.5044e-008    2.4298e-009    
  1.1             0.00043249      -1.0272e-008    -6.651e-010    
  1.15            0.00044209      2.4948e-008     -2.4619e-009   
  1.2             0.00045033      1.6863e-008     -1.5922e-009   
  1.25            0.00045773      2.6403e-008     -2.2687e-009   
  1.3             0.00046419      1.8738e-008     -1.5199e-009   
  1.35            0.00046915      8.043e-009      1.027e-009     
  1.4             0.00047379      -2.0458e-008    1.9578e-009    
  1.45            0.00047734      -2.4056e-008    2.6182e-009    
  1.5             0.00048033      -1.9528e-008    1.8704e-009    
  1.55            0.00048228      -2.452e-008     2.5588e-009    
  1.6             0.0004841       -1.805e-008     1.7744e-009    
  1.65            0.00048561      -8.918e-009     -1.0207e-009   
  1.7             0.00048664      1.1505e-008     -2.5247e-009   
  1.75            0.00048726      1.5445e-008     -1.7009e-009   
  1.8             0.00048791      2.5641e-008     -2.3614e-009   
  1.85            0.00048766      8.976e-009      1.9271e-009    
  1.9             0.00048802      -2.2471e-008    2.7059e-009    
  1.95            0.00048853      -2.2514e-008    2.099e-009     
  2               0.00048912      -9.601e-009     -8.663e-010    
  2.05            0.00048972      2.6447e-008     -2.2226e-009   
  2.1             0.00048983      9.641e-009      6.034e-010     
  2.15            0.00048961      -2.4031e-008    2.6359e-009    
  2.2             0.00049         -2.0089e-008    1.9031e-009    
  2.25            0.00049014      -2.4447e-008    2.5858e-009    
  2.3             0.00049048      -1.8735e-008    1.8085e-009    
  2.35            0.00049048      -2.4644e-008    2.5213e-009    
  2.4             0.00049088      -1.7224e-008    1.7262e-009    
  2.45            0.0004909       -2.4931e-008    2.4543e-009    
  2.5             0.00049142      -1.0281e-008    -6.412e-010    
  2.55            0.00049202      2.4592e-008     -2.4772e-009   
  2.6             0.00049213      1.639e-008      -1.6258e-009   
  2.65            0.00049238      2.6133e-008     -2.2984e-009   
  2.7             0.0004919       8.398e-009      1.9784e-009    
  2.75            0.00049198      -2.3298e-008    2.6774e-009    
  2.8             0.00049223      -2.1264e-008    2.0019e-009    
  2.85            0.0004922       -2.3938e-008    2.6354e-009    
  2.9             0.00049253      -2.0097e-008    1.9059e-009    
  2.95            0.00049248      -2.4413e-008    2.5889e-009    
  3               0.00049281      -1.8831e-008    1.8063e-009    
  3.05            0.00049332      -9.271e-009     -1.004e-009    
  3.1             0.0004936       1.1246e-008     -2.5347e-009   
  3.15            0.00049369      1.4601e-008     -1.7398e-009   
  3.2             0.00049384      1.1256e-008     -2.2424e-009   
  3.25            0.00049386      1.8506e-008     -1.3968e-009   
  3.3             0.00049403      1.2604e-008     -1.792e-009    
  3.35            0.00049421      8.927e-009      -2.2955e-009   
  3.4             0.00049425      1.5291e-008     -1.4271e-009   
  3.45            0.00049436      8.886e-009      -1.8556e-009   
  3.5             0.00049451      4.11e-009       -2.3313e-009   
  3.55            0.00049457      1.107e-009      -2.5795e-009   
  3.6             0.00049464      5.43e-010       -1.9109e-009   
  3.65            0.00049427      -9.242e-009     2.1848e-009    
  3.7             0.00049438      -3.2658e-008    -6.5e-010      
  3.75            0.0004949       -3.901e-009     -2.4721e-009   
  3.8             0.00049428      -2.6724e-008    1.8264e-009    
  3.85            0.00049449      -5.5282e-008    -1.493e-010    
  3.9             0.00049516      -3.827e-008     -1.5756e-009   
  3.95            0.00049486      -6.0629e-008    2.3239e-009    
  4               0.00049518      -9.2217e-008    -8.775e-010    
  4.05            0.0004956       -7.3731e-008    -2.211e-009    
  4.1             0.00049531      -1.2935e-007    -8.954e-010    
  4.15            0.00049577      -1.1687e-007    -2.1698e-009   
