! VERSION = 6.00
BEGIN_HEADER
 ICCAP_INPUTS
  VG         V  B GROUND SMU4 0.001 LIN        2    0          1.8        6    0.36      
  VS         V  E GROUND SMU3 0.1 CON        0
  VD         V  S GROUND SMU2 0.1 LIN        1    0          1.8        37   0.05      
  VB         V  C GROUND SMU1 0.1 LIN        3    0          -0.9       2    -0.9      
 ICCAP_OUTPUTS
  ID         I  S GROUND SMU2 B
  IB         I  C GROUND SMU1 B
  IG         I  B GROUND SMU4 B
END_HEADER

BEGIN_DB
 ICCAP_VAR VG         0              
 ICCAP_VAR VS         0              
 ICCAP_VAR VB         0              

 #VD              ID              IB              IG             
  0               -4.6451e-009    -1.1607e-008    -2.3624e-009   
  0.05            5.0305e-008     -1.1617e-008    -2.3255e-009   
  0.1             6.2959e-008     1.0607e-008     -2.5075e-009   
  0.15            6.5562e-008     6.673e-009      -2.6373e-009   
  0.2             6.9244e-008     1.6058e-008     -1.7302e-009   
  0.25            6.9917e-008     1.1662e-008     -2.3724e-009   
  0.3             7.0455e-008     7.862e-009      -2.6011e-009   
  0.35            7.394e-008      1.7284e-008     -1.4631e-009   
  0.4             7.6584e-008     1.5752e-008     -1.4342e-009   
  0.45            7.768e-008      1.5048e-008     -1.4087e-009   
  0.5             7.9011e-008     1.4271e-008     -1.3846e-009   
  0.55            7.9899e-008     1.361e-008      -1.3648e-009   
  0.6             7.9176e-008     1.4379e-008     -2.007e-009    
  0.65            7.9155e-008     1.0774e-008     -2.4998e-009   
  0.7             7.9391e-008     7.125e-009      -2.6349e-009   
  0.75            8.25e-008       1.6145e-008     -1.6974e-009   
  0.8             8.2452e-008     1.1928e-008     -2.3503e-009   
  0.85            8.2548e-008     8.19e-009       -2.5957e-009   
  0.9             8.5244e-008     1.7407e-008     -1.4328e-009   
  0.95            8.7741e-008     1.4932e-008     -1.4094e-009   
  1               8.6195e-008     1.3849e-008     -2.0835e-009   
  1.05            8.6251e-008     1.046e-008      -2.5266e-009   
  1.1             8.6281e-008     6.769e-009      -2.6337e-009   
  1.15            8.8662e-008     1.5575e-008     -1.7825e-009   
  1.2             8.9031e-008     1.1664e-008     -2.4009e-009   
  1.25            8.8844e-008     7.503e-009      -2.6113e-009   
  1.3             9.1392e-008     1.6771e-008     -1.4939e-009   
  1.35            9.3625e-008     1.647e-008      -1.4642e-009   
  1.4             9.4483e-008     1.5715e-008     -1.4331e-009   
  1.45            9.5052e-008     1.5092e-008     -1.4114e-009   
  1.5             9.5882e-008     1.4385e-008     -1.3846e-009   
  1.55            9.629e-008      1.3624e-008     -1.3647e-009   
  1.6             9.5087e-008     1.4515e-008     -2.01e-009     
  1.65            9.515e-008      -8.21e-009      2.7265e-009    
  1.7             9.5238e-008     1.523e-008      2.6293e-009    
  1.75            9.5007e-008     1.82e-008       1.9246e-009    
  1.8             9.5052e-008     9.392e-009      2.6261e-009    
END_DB

BEGIN_DB
 ICCAP_VAR VG         0.36           
 ICCAP_VAR VS         0              
 ICCAP_VAR VB         0              

 #VD              ID              IB              IG             
  0               -4.333e-009     -1.4038e-008    -2.6101e-009   
  0.05            6.9514e-006     1.3122e-008     2.2141e-009    
  0.1             1.2375e-005     2.0038e-008     -1.8181e-009   
  0.15            1.6273e-005     1.0022e-008     -2.5514e-009   
  0.2             1.8751e-005     1.1431e-008     -2.4846e-009   
  0.25            2.0188e-005     1.2327e-008     -2.3569e-009   
  0.3             2.0986e-005     1.5683e-008     -1.4309e-009   
  0.35            2.1467e-005     1.839e-008      -1.3036e-009   
  0.4             2.1813e-005     1.1153e-008     -2.4917e-009   
  0.45            2.2091e-005     1.2263e-008     -2.3832e-009   
  0.5             2.2329e-005     1.6361e-008     -1.4548e-009   
  0.55            2.2529e-005     1.7999e-008     -1.318e-009    
  0.6             2.2736e-005     1.1034e-008     -2.5045e-009   
  0.65            2.2919e-005     1.1956e-008     -2.4012e-009   
  0.7             2.3078e-005     1.6897e-008     -1.482e-009    
  0.75            2.3228e-005     1.7726e-008     -1.3333e-009   
  0.8             2.3381e-005     1.1034e-008     -2.518e-009    
  0.85            2.3534e-005     1.1891e-008     -2.4185e-009   
  0.9             2.3657e-005     1.7673e-008     -1.505e-009    
  0.95            2.3779e-005     1.7461e-008     -1.3467e-009   
  1               2.3915e-005     1.0713e-008     -2.5242e-009   
  1.05            2.4031e-005     1.1763e-008     -2.4293e-009   
  1.1             2.4151e-005     1.8385e-008     -1.5296e-009   
  1.15            2.4248e-005     1.7283e-008     -1.3656e-009   
  1.2             2.4375e-005     1.0491e-008     -2.5337e-009   
  1.25            2.447e-005      1.1578e-008     -2.4497e-009   
  1.3             2.4579e-005     1.8913e-008     -1.5644e-009   
  1.35            2.4659e-005     1.7143e-008     -1.3839e-009   
  1.4             2.4764e-005     1.9199e-008     -1.2762e-009   
  1.45            2.485e-005      1.1655e-008     -2.4669e-009   
  1.5             2.4941e-005     1.2498e-008     -2.3321e-009   
  1.55            2.5027e-005     1.485e-008      -1.4028e-009   
  1.6             2.5107e-005     1.8762e-008     -1.2903e-009   
  1.65            2.5197e-005     1.1366e-008     -2.4768e-009   
  1.7             2.5275e-005     2.0448e-008     -1.6216e-009   
  1.75            2.535e-005      1.6653e-008     -1.4242e-009   
  1.8             2.5418e-005     1.8434e-008     -1.2975e-009   
END_DB

BEGIN_DB
 ICCAP_VAR VG         0.72           
 ICCAP_VAR VS         0              
 ICCAP_VAR VB         0              

 #VD              ID              IB              IG             
  0               1.5986e-008     6.604e-009      1.1696e-009    
  0.05            1.4657e-005     -8.052e-009     -1.3e-012      
  0.1             2.8029e-005     9.345e-009      8.396e-010     
  0.15            4.0192e-005     1.1192e-008     -2.4455e-009   
  0.2             5.097e-005      1.2315e-008     -2.306e-009    
  0.25            6.032e-005      1.4907e-008     -1.4039e-009   
  0.3             6.8205e-005     1.8925e-008     -1.2934e-009   
  0.35            7.4622e-005     1.1038e-008     -2.4597e-009   
  0.4             7.9631e-005     1.2198e-008     -2.3276e-009   
  0.45            8.339e-005      1.5393e-008     -1.425e-009    
  0.5             8.607e-005      1.8945e-008     -1.3054e-009   
  0.55            8.7967e-005     1.0942e-008     -2.4743e-009   
  0.6             8.9323e-005     1.1959e-008     -2.3525e-009   
  0.65            9.0316e-005     1.6021e-008     -1.4526e-009   
  0.7             9.1147e-005     1.8671e-008     -1.3202e-009   
  0.75            9.1858e-005     1.0983e-008     -2.4854e-009   
  0.8             9.2431e-005     1.1752e-008     -2.3673e-009   
  0.85            9.2976e-005     1.6696e-008     -1.4751e-009   
  0.9             9.3473e-005     1.845e-008      -1.3342e-009   
  0.95            9.3901e-005     1.0989e-008     -2.4966e-009   
  1               9.4332e-005     1.1473e-008     -2.3819e-009   
  1.05            9.4725e-005     1.7424e-008     -1.5039e-009   
  1.1             9.509e-005      1.8265e-008     -1.3558e-009   
  1.15            9.5478e-005     1.0807e-008     -2.5036e-009   
  1.2             9.5792e-005     1.1488e-008     -2.4029e-009   
  1.25            9.6099e-005     1.2404e-008     -2.2419e-009   
  1.3             9.6405e-005     1.396e-008      -2.05e-009     
  1.35            9.6706e-005     1.5487e-008     -1.8148e-009   
  1.4             9.6993e-005     1.6477e-008     -1.5942e-009   
  1.45            9.726e-005      1.7666e-008     -1.4157e-009   
  1.5             9.7519e-005     1.9388e-008     -1.3016e-009   
  1.55            9.7803e-005     1.1209e-008     -2.455e-009    
  1.6             9.8057e-005     1.1793e-008     -2.3218e-009   
  1.65            9.8266e-005     1.553e-008      -1.4341e-009   
  1.7             9.8485e-005     1.9068e-008     -1.3117e-009   
  1.75            9.8749e-005     1.1009e-008     -2.4682e-009   
  1.8             9.8954e-005     1.191e-008      -2.3406e-009   
END_DB

BEGIN_DB
 ICCAP_VAR VG         1.08           
 ICCAP_VAR VS         0              
 ICCAP_VAR VB         0              

 #VD              ID              IB              IG             
  0               1.031e-008      -1.4603e-008    -1.0933e-009   
  0.05            2.0603e-005     -1.7005e-008    7.105e-010     
  0.1             4.0152e-005     1.0488e-008     -2.5253e-009   
  0.15            5.8637e-005     1.1319e-008     -2.4303e-009   
  0.2             7.5972e-005     1.8946e-008     -1.5746e-009   
  0.25            9.2047e-005     1.7791e-008     -1.4017e-009   
  0.3             0.000106865     1.9688e-008     -1.2941e-009   
  0.35            0.0001203       1.0853e-008     -9.49e-011     
  0.4             0.00013236      1.6913e-008     -1.4734e-009   
  0.45            0.00014303      1.6565e-008     -1.6015e-009   
  0.5             0.0001523       1.6057e-008     -1.7432e-009   
  0.55            0.00016023      1.4978e-008     -1.895e-009    
  0.6             0.00016679      1.3782e-008     -1.3712e-009   
  0.65            0.00017213      1.7072e-008     -1.467e-009    
  0.7             0.00017635      1.6486e-008     -1.5915e-009   
  0.75            0.00017967      1.5862e-008     -1.7368e-009   
  0.8             0.00018218      1.5097e-008     -1.8873e-009   
  0.85            0.00018423      1.3458e-008     -1.364e-009    
  0.9             0.00018573      1.7256e-008     -1.4592e-009   
  0.95            0.00018706      1.6634e-008     -1.5818e-009   
  1               0.00018809      1.5963e-008     -1.7232e-009   
  1.05            0.00018912      1.4986e-008     -1.8763e-009   
  1.1             0.00018997      1.3409e-008     -1.3602e-009   
  1.15            0.00019073      1.7299e-008     -1.4581e-009   
  1.2             0.00019144      1.6554e-008     -1.5825e-009   
  1.25            0.0001921       1.6037e-008     -1.7242e-009   
  1.3             0.0001927       1.518e-008      -1.8729e-009   
  1.35            0.00019323      1.3266e-008     -1.3601e-009   
  1.4             0.00019381      1.7474e-008     -1.4516e-009   
  1.45            0.00019435      1.6706e-008     -1.5725e-009   
  1.5             0.0001948       1.6099e-008     -1.716e-009    
  1.55            0.00019528      1.5123e-008     -1.865e-009    
  1.6             0.00019571      1.4051e-008     -2.0154e-009   
  1.65            0.0001962       1.5762e-008     -1.4444e-009   
  1.7             0.00019655      1.6493e-008     -1.5626e-009   
  1.75            0.00019694      1.5995e-008     -1.7035e-009   
  1.8             0.00019735      1.5253e-008     -1.8535e-009   
END_DB

BEGIN_DB
 ICCAP_VAR VG         1.44           
 ICCAP_VAR VS         0              
 ICCAP_VAR VB         0              

 #VD              ID              IB              IG             
  0               1.673e-008      -1.6065e-008    -9.962e-010    
  0.05            2.5645e-005     -1.7349e-008    9.735e-010     
  0.1             5.0329e-005     -5.502e-009     1.4316e-009    
  0.15            7.4055e-005     -1.8207e-008    2.7334e-009    
  0.2             9.6773e-005     -2.128e-008     2.0332e-009    
  0.25            0.00011843      -9.721e-009     -1.8426e-009   
  0.3             0.00013887      7.831e-009      -2.5981e-009   
  0.35            0.00015805      7.008e-009      -2.6131e-009   
  0.4             0.00017601      6.48e-009       -2.6218e-009   
  0.45            0.00019266      5.742e-009      -2.6175e-009   
  0.5             0.00020799      4.97e-009       -2.6122e-009   
  0.55            0.00022194      1.6437e-008     -1.444e-009    
  0.6             0.00023458      1.5803e-008     -1.5719e-009   
  0.65            0.00024587      1.5527e-008     -1.72e-009     
  0.7             0.0002558       1.4766e-008     -1.8833e-009   
  0.75            0.0002645       1.2705e-008     -1.3413e-009   
  0.8             0.00027193      1.6332e-008     -1.4376e-009   
  0.85            0.00027822      1.5794e-008     -1.5622e-009   
  0.9             0.0002834       1.5222e-008     -1.7009e-009   
  0.95            0.00028768      1.4733e-008     -1.8715e-009   
  1               0.00029116      1.413e-008      -2.0343e-009   
  1.05            0.000294        1.5252e-008     -1.4258e-009   
  1.1             0.00029631      1.5496e-008     -1.5437e-009   
  1.15            0.0002982       1.5292e-008     -1.6928e-009   
  1.2             0.00029986      1.4813e-008     -1.8509e-009   
  1.25            0.00030128      1.4181e-008     -2.0135e-009   
  1.3             0.00030257      1.4911e-008     -1.4115e-009   
  1.35            0.00030357      1.5533e-008     -1.5296e-009   
  1.4             0.00030454      1.5239e-008     -1.6735e-009   
  1.45            0.00030545      1.4739e-008     -1.8301e-009   
  1.5             0.00030633      1.4109e-008     -1.9958e-009   
  1.55            0.00030721      1.4478e-008     -1.4026e-009   
  1.6             0.00030781      1.5591e-008     -1.5134e-009   
  1.65            0.00030852      1.5221e-008     -1.6608e-009   
  1.7             0.00030917      1.479e-008      -1.8195e-009   
  1.75            0.00030982      1.4104e-008     -1.9807e-009   
  1.8             0.00031041      1.4123e-008     -1.3925e-009   
END_DB

BEGIN_DB
 ICCAP_VAR VG         1.8            
 ICCAP_VAR VS         0              
 ICCAP_VAR VB         0              

 #VD              ID              IB              IG             
  0               2.5742e-008     5.256e-009      1.2066e-009    
  0.05            3.0162e-005     -7.719e-009     -8.75e-011     
  0.1             5.9353e-005     9.203e-009      7.511e-010     
  0.15            8.7743e-005     1.0918e-008     -2.5306e-009   
  0.2             0.00011509      -1.0531e-008    6.51e-011      
  0.25            0.00014149      -1.3247e-008    1.4757e-009    
  0.3             0.00016674      -1.6453e-008    1.631e-009     
  0.35            0.00019086      -1.6243e-008    1.8165e-009    
  0.4             0.0002138       -1.5814e-008    1.9993e-009    
  0.45            0.00023553      -1.5107e-008    2.1777e-009    
  0.5             0.00025603      -1.2765e-008    2.7582e-009    
  0.55            0.00027516      -7.287e-009     2.7605e-009    
  0.6             0.00029303      -6.974e-009     2.7558e-009    
  0.65            0.0003096       -7.322e-009     2.7435e-009    
  0.7             0.00032486      -7.608e-009     2.7191e-009    
  0.75            0.00033884      -7.849e-009     2.678e-009     
  0.8             0.00035142      -1.7344e-008    1.428e-009     
  0.85            0.00036282      -1.6261e-008    1.5683e-009    
  0.9             0.0003729       -1.6238e-008    1.7435e-009    
  0.95            0.00038186      -1.6104e-008    1.9291e-009    
  1               0.00038967      -1.0364e-008    2.7086e-009    
  1.05            0.00039628      -8.524e-009     2.7488e-009    
  1.1             0.00040206      -7.829e-009     2.7638e-009    
  1.15            0.00040695      -7.044e-009     2.7614e-009    
  1.2             0.00041103      -6.941e-009     2.7486e-009    
  1.25            0.00041451      -7.624e-009     2.7276e-009    
  1.3             0.0004174       -7.857e-009     2.696e-009     
  1.35            0.00041991      -7.721e-009     2.6527e-009    
  1.4             0.00042191      -1.6595e-008    1.5041e-009    
  1.45            0.00042374      -1.6169e-008    1.6717e-009    
  1.5             0.00042532      -1.6004e-008    1.8551e-009    
  1.55            0.00042672      -1.5701e-008    2.0388e-009    
  1.6             0.00042795      -1.1296e-008    2.7372e-009    
  1.65            0.00042907      -7.814e-009     2.7596e-009    
  1.7             0.00043015      -7.337e-009     2.7624e-009    
  1.75            0.00043117      -7.013e-009     2.7501e-009    
  1.8             0.00043207      -7.171e-009     2.7336e-009    
END_DB

BEGIN_DB
 ICCAP_VAR VG         0              
 ICCAP_VAR VS         0              
 ICCAP_VAR VB         -0.9           

 #VD              ID              IB              IG             
  0               -4.052e-010     6.667e-009      -8.835e-010    
  0.05            -1.5698e-009    2.022e-009      -2.0782e-009   
  0.1             -7.446e-010     -1.5942e-008    2.3654e-009    
  0.15            1.2958e-009     1.4722e-008     -2.2553e-009   
  0.2             -5.4e-010       -1.5596e-008    2.5208e-009    
  0.25            1.1676e-009     1.3676e-008     -2.3833e-009   
  0.3             -3.0603e-009    -8.46e-009      1.357e-010     
  0.35            4.019e-010      -8.697e-009     2.7515e-009    
  0.4             3.3155e-009     1.4967e-008     -1.7413e-009   
  0.45            -2.2812e-009    -1.8068e-008    2.214e-009     
  0.5             1.4758e-009     1.5168e-008     -2.1291e-009   
  0.55            -6.262e-010     -1.6119e-008    2.404e-009     
  0.6             1.3378e-009     1.4323e-008     -2.287e-009    
  0.65            -4.276e-010     -1.5414e-008    2.5481e-009    
  0.7             1.1919e-009     1.3481e-008     -2.4058e-009   
  0.75            -2.432e-010     -1.464e-008     2.6518e-009    
  0.8             3.9769e-009     7.791e-009      -2.499e-009    
  0.85            -2.7946e-009    -8.071e-009     2.7177e-009    
  0.9             8.78e-010       1.2024e-008     -2.558e-009    
  0.95            1.739e-010      -1.1924e-008    2.7535e-009    
  1               7.313e-010      1.1455e-008     -2.5892e-009   
  1.05            -2.5039e-009    -1.024e-008     1.6356e-009    
  1.1             3.3394e-009     1.6427e-008     -1.8232e-009   
  1.15            -2.1433e-009    -1.9221e-008    2.2916e-009    
  1.2             1.5036e-009     1.5135e-008     -2.1916e-009   
  1.25            -4.717e-010     -1.5791e-008    2.4641e-009    
  1.3             1.3552e-009     1.4223e-008     -2.3283e-009   
  1.35            -2.867e-010     -1.5052e-008    2.591e-009     
  1.4             4.136e-009      8.02e-009       -1.532e-010    
  1.45            -3.4818e-009    -9.024e-009     -8.156e-010    
  1.5             -9.027e-010     -1.6847e-008    1.9073e-009    
  1.55            3.1731e-009     2.1195e-008     -2.0507e-009   
  1.6             -5.889e-010     -1.6262e-008    2.3258e-009    
  1.65            1.5272e-009     1.4833e-008     -2.2159e-009   
  1.7             -4.034e-010     -1.5855e-008    2.4783e-009    
  1.75            1.3781e-009     1.4036e-008     -2.3497e-009   
  1.8             -2.203e-010     -1.5068e-008    2.6029e-009    
END_DB

BEGIN_DB
 ICCAP_VAR VG         0.36           
 ICCAP_VAR VS         0              
 ICCAP_VAR VB         -0.9           

 #VD              ID              IB              IG             
  0               4.52e-009       1.5906e-008     2.7426e-009    
  0.05            2.8379e-006     -1.2192e-008    -1.9987e-009   
  0.1             4.4303e-006     9.196e-009      -2.5773e-009   
  0.15            5.1062e-006     7.015e-009      -2.6158e-009   
  0.2             5.3966e-006     5.782e-009      -2.6259e-009   
  0.25            5.5641e-006     1.6377e-008     -1.4926e-009   
  0.3             5.6669e-006     1.5219e-008     -1.8281e-009   
  0.35            5.7639e-006     1.5626e-008     -1.4239e-009   
  0.4             5.8256e-006     1.5687e-008     -1.7339e-009   
  0.45            5.9025e-006     1.373e-008      -1.3687e-009   
  0.5             5.9602e-006     1.5938e-008     -1.6422e-009   
  0.55            6.0251e-006     1.4157e-008     -1.9989e-009   
