! VERSION = 6.00
BEGIN_HEADER
 ICCAP_INPUTS
  VG         V  B GROUND SMU2 0.001 LIN        2    0          5          6    1         
  VS         V  E GROUND SMU1 0.1 CON        0
  VD         V  S GROUND SMU4 0.1 LIN        1    0          5          101  0.05      
  VB         V  C GROUND SMU3 0.1 LIN        3    0          -2.5       2    -2.5      
 ICCAP_OUTPUTS
  ID         I  S GROUND SMU4 B
  IB         I  C GROUND SMU3 B
  IG         I  B GROUND SMU2 B
END_HEADER

BEGIN_DB
 ICCAP_VAR VG         0              
 ICCAP_VAR VS         0              
 ICCAP_VAR VB         0              

 #VD              ID              IB              IG             
  0               9.8743e-008     1.5982e-008     1.5082e-009    
  0.05            8.7511e-006     -5.204e-009     1.7846e-009    
  0.1             1.3622e-005     -1.5862e-008    -1.1244e-009   
  0.15            1.5462e-005     -1.3717e-008    -1.4247e-009   
  0.2             1.6476e-005     1.3599e-008     4.941e-010     
  0.25            1.6752e-005     1.5737e-008     1.1333e-009    
  0.3             1.6854e-005     -3.94e-009      1.8194e-009    
  0.35            1.6754e-005     -1.6366e-008    -1.1857e-009   
  0.4             1.6978e-005     5.838e-009      -1.8252e-009   
  0.45            1.735e-005      1.604e-008      1.283e-009     
  0.5             1.7371e-005     -8.806e-009     1.7894e-009    
  0.55            1.726e-005      -1.4746e-008    -1.3727e-009   
  0.6             1.7721e-005     1.2302e-008     4.608e-010     
  0.65            1.7791e-005     1.5582e-008     6.705e-010     
  0.7             1.7882e-005     1.6093e-008     1.2813e-009    
  0.75            1.7893e-005     -8.516e-009     1.7924e-009    
  0.8             1.775e-005      -1.4644e-008    -1.368e-009    
  0.85            1.8164e-005     1.2034e-008     4.561e-010     
  0.9             1.8269e-005     1.5558e-008     6.628e-010     
  0.95            1.8348e-005     1.6135e-008     1.2777e-009    
  1               1.8341e-005     -8.446e-009     1.7933e-009    
  1.05            1.8188e-005     -1.4809e-008    -1.3598e-009   
  1.1             1.8597e-005     1.1826e-008     4.548e-010     
  1.15            1.8694e-005     1.5557e-008     6.584e-010     
  1.2             1.8764e-005     1.6189e-008     1.2664e-009    
  1.25            1.8746e-005     -8.209e-009     1.7919e-009    
  1.3             1.8581e-005     -1.4862e-008    -1.3553e-009   
  1.35            1.9019e-005     1.1848e-008     4.486e-010     
  1.4             1.9088e-005     1.5447e-008     6.539e-010     
  1.45            1.9149e-005     1.6209e-008     1.2661e-009    
  1.5             1.9128e-005     -8.252e-009     1.7957e-009    
  1.55            1.8953e-005     -1.4965e-008    -1.3497e-009   
  1.6             1.9359e-005     1.1638e-008     4.471e-010     
  1.65            1.9461e-005     1.5563e-008     6.512e-010     
  1.7             1.9516e-005     1.6311e-008     1.263e-009     
  1.75            1.949e-005      -7.88e-009      1.7953e-009    
  1.8             1.9308e-005     -1.5111e-008    -1.3427e-009   
  1.85            1.9716e-005     1.1451e-008     4.419e-010     
  1.9             1.9815e-005     1.5605e-008     6.466e-010     
  1.95            1.9872e-005     1.6307e-008     1.2597e-009    
  2               1.9841e-005     -7.956e-009     1.7966e-009    
  2.05            1.9644e-005     -1.5226e-008    -1.3382e-009   
  2.1             2.005e-005      1.1154e-008     4.374e-010     
  2.15            2.0158e-005     1.5596e-008     6.459e-010     
  2.2             2.0212e-005     1.6356e-008     1.2548e-009    
  2.25            2.0168e-005     -7.748e-009     1.8006e-009    
  2.3             1.9972e-005     -1.5176e-008    -1.3377e-009   
  2.35            2.0382e-005     1.1165e-008     4.383e-010     
  2.4             2.0496e-005     1.5684e-008     6.37e-010      
  2.45            2.0538e-005     1.6235e-008     1.2501e-009    
  2.5             2.0496e-005     -7.715e-009     1.7994e-009    
  2.55            2.029e-005      -1.5306e-008    -1.3321e-009   
  2.6             2.0704e-005     1.1012e-008     4.334e-010     
  2.65            2.0811e-005     1.5656e-008     6.315e-010     
  2.7             2.0856e-005     1.6443e-008     1.2481e-009    
  2.75            2.0809e-005     -7.331e-009     1.7987e-009    
  2.8             2.0601e-005     -1.5412e-008    -1.33e-009     
  2.85            2.1005e-005     1.1017e-008     4.301e-010     
  2.9             2.1125e-005     1.5725e-008     6.303e-010     
  2.95            2.1174e-005     1.6332e-008     1.2433e-009    
  3               2.1131e-005     -7.33e-009      1.7988e-009    
  3.05            2.0902e-005     -1.5486e-008    -1.3206e-009   
  3.1             2.1307e-005     1.0521e-008     4.256e-010     
  3.15            2.1468e-005     1.5749e-008     6.232e-010     
  3.2             2.1489e-005     1.6386e-008     1.2397e-009    
  3.25            2.1425e-005     -7.064e-009     1.8001e-009    
  3.3             2.1198e-005     -1.5404e-008    -1.3201e-009   
  3.35            2.1604e-005     1.0396e-008     4.231e-010     
  3.4             2.1733e-005     1.5753e-008     6.213e-010     
  3.45            2.1774e-005     1.6403e-008     1.2365e-009    
  3.5             2.1713e-005     -6.995e-009     1.802e-009     
  3.55            2.1487e-005     -1.5558e-008    -1.314e-009    
  3.6             2.1893e-005     1.0337e-008     4.203e-010     
  3.65            2.2033e-005     1.5596e-008     6.17e-010      
  3.7             2.2066e-005     1.6428e-008     1.2371e-009    
  3.75            2.2007e-005     -6.795e-009     1.8029e-009    
  3.8             2.1773e-005     -1.5553e-008    -1.3081e-009   
  3.85            2.2182e-005     1.0135e-008     4.169e-010     
  3.9             2.2315e-005     1.5686e-008     6.143e-010     
  3.95            2.2362e-005     1.646e-008      1.2325e-009    
  4               2.2293e-005     -6.712e-009     1.8022e-009    
  4.05            2.2054e-005     -1.5696e-008    -1.3009e-009   
  4.1             2.2465e-005     1.0047e-008     4.141e-010     
  4.15            2.26e-005       1.571e-008      6.112e-010     
  4.2             2.2638e-005     1.6461e-008     1.2244e-009    
  4.25            2.2574e-005     -6.433e-009     1.8017e-009    
  4.3             2.2376e-005     -1.5757e-008    -1.3026e-009   
  4.35            2.2745e-005     9.798e-009      4.064e-010     
  4.4             2.2888e-005     1.5726e-008     6.074e-010     
  4.45            2.292e-005      1.6494e-008     1.2269e-009    
  4.5             2.2855e-005     -6.399e-009     1.8068e-009    
  4.55            2.2607e-005     -1.5803e-008    -1.2962e-009   
  4.6             2.3015e-005     9.736e-009      4.068e-010     
  4.65            2.3166e-005     1.5744e-008     6.028e-010     
  4.7             2.3196e-005     1.6487e-008     1.2218e-009    
  4.75            2.313e-005      -6.227e-009     1.805e-009     
  4.8             2.2877e-005     -1.5849e-008    -1.2919e-009   
  4.85            2.3288e-005     9.737e-009      4.048e-010     
  4.9             2.3443e-005     1.563e-008      5.99e-010      
  4.95            2.3476e-005     1.6431e-008     1.2178e-009    
  5               2.3403e-005     -6.078e-009     1.8066e-009    
END_DB

BEGIN_DB
 ICCAP_VAR VG         1              
 ICCAP_VAR VS         0              
 ICCAP_VAR VB         0              

 #VD              ID              IB              IG             
  0               3.3387e-007     1.3641e-008     1.7297e-009    
  0.05            6.8454e-005     -1.5947e-008    -1.1141e-009   
  0.1             0.00013468      -1.3445e-008    -9.071e-010    
  0.15            0.00019924      6.641e-009      -1.8251e-009   
  0.2             0.00026225      1.4267e-008     1.3999e-009    
  0.25            0.00032311      -1.4782e-008    -5.122e-010    
  0.3             0.00038244      -1.6668e-008    -1.1975e-009   
  0.35            0.00043997      8.66e-009       -1.8192e-009   
  0.4             0.00049592      1.311e-008      1.4616e-009    
  0.45            0.00054909      -1.5792e-008    -5.584e-010    
  0.5             0.00060081      -1.6526e-008    -1.2357e-009   
  0.55            0.00065091      1.0172e-008     4.129e-010     
  0.6             0.00069856      1.5679e-008     6.785e-010     
  0.65            0.00074385      1.5129e-008     1.3637e-009    
  0.7             0.00078606      -1.4063e-008    -4.878e-010    
  0.75            0.00082677      -1.6546e-008    -1.1728e-009   
  0.8             0.00086579      7.422e-009      -1.8187e-009   
  0.85            0.00090222      1.3857e-008     1.4185e-009    
  0.9             0.00093417      -1.5233e-008    -5.259e-010    
  0.95            0.00096473      -1.6737e-008    -1.2104e-009   
  1               0.00099345      8.938e-009      3.808e-010     
  1.05            0.00101877      1.5691e-008     6.486e-010     
  1.1             0.00104079      1.5705e-008     1.3291e-009    
  1.15            0.00105839      -1.2911e-008    -4.63e-010     
  1.2             0.00107481      -1.6421e-008    -1.1507e-009   
  1.25            0.00108903      6.418e-009      -1.8254e-009   
  1.3             0.00110175      1.4576e-008     1.3815e-009    
  1.35            0.00110907      -1.4476e-008    -5.031e-010    
  1.4             0.00111686      -1.658e-008     -1.1881e-009   
  1.45            0.00112382      8.024e-009      -1.8201e-009   
  1.5             0.00113075      1.3412e-008     1.4449e-009    
  1.55            0.00113347      -1.548e-008     -5.448e-010    
  1.6             0.00113791      -1.6617e-008    -1.2274e-009   
  1.65            0.0011423       9.748e-009      4.023e-010     
  1.7             0.0011481       1.2789e-008     4.766e-010     
  1.75            0.0011515       1.6299e-008     1.1636e-009    
  1.8             0.001154        -5.965e-009     1.8115e-009    
  1.85            0.0011557       -1.486e-008     -1.3578e-009   
  1.9             0.0011609       1.4308e-008     5.117e-010     
  1.95            0.0011636       1.6611e-008     1.1993e-009    
  2               0.0011656       -7.462e-009     1.805e-009     
  2.05            0.0011666       -1.3737e-008    -1.4199e-009   
  2.1             0.0011715       1.5529e-008     5.53e-010      
  2.15            0.001174        1.6484e-008     1.2366e-009    
  2.2             0.0011757       -9.109e-009     1.7938e-009    
  2.25            0.0011765       -1.2662e-008    -1.4906e-009   
  2.3             0.001181        1.5876e-008     5.991e-010     
  2.35            0.0011828       1.6355e-008     1.2782e-009    
  2.4             0.001183        -1.0929e-008    -4.196e-010    
  2.45            0.0011848       -1.5952e-008    -1.1152e-009   
  2.5             0.0011876       4.911e-009      -1.8286e-009   
  2.55            0.0011913       1.5442e-008     1.3258e-009    
  2.6             0.001191        -1.2858e-008    -4.608e-010    
  2.65            0.0011928       -1.6274e-008    -1.1502e-009   
  2.7             0.0011955       6.524e-009      -1.8252e-009   
  2.75            0.0011991       1.4704e-008     1.376e-009     
  2.8             0.0011985       -1.4438e-008    -4.991e-010    
  2.85            0.0012003       -1.6579e-008    -1.1836e-009   
  2.9             0.0012029       8.109e-009      -1.8186e-009   
  2.95            0.0012062       1.3521e-008     1.44e-009      
  3               0.0012055       -1.5502e-008    -5.421e-010    
  3.05            0.0012075       -1.6577e-008    -1.2213e-009   
  3.1             0.0012112       9.497e-009      4.009e-010     
  3.15            0.0012133       1.5595e-008     6.629e-010     
  3.2             0.0012149       1.5338e-008     1.3419e-009    
  3.25            0.0012143       -1.3377e-008    -4.745e-010    
  3.3             0.0012159       -1.6333e-008    -1.1615e-009   
  3.35            0.0012181       7.124e-009      -1.8218e-009   
  3.4             0.0012213       1.4084e-008     1.4003e-009    
  3.45            0.0012206       -1.4863e-008    -5.182e-010    
  3.5             0.0012223       -1.658e-008     -1.1994e-009   
  3.55            0.0012246       8.754e-009      -1.8169e-009   
  3.6             0.0012276       1.3062e-008     1.4634e-009    
  3.65            0.0012269       -1.5656e-008    -5.578e-010    
  3.7             0.0012288       -1.6437e-008    -1.2427e-009   
  3.75            0.001232        1.0272e-008     4.177e-010     
  3.8             0.0012341       1.5674e-008     6.806e-010     
  3.85            0.0012354       1.493e-008      1.3699e-009    
  3.9             0.0012343       -1.403e-008     -4.905e-010    
  3.95            0.0012361       -1.6442e-008    -1.1766e-009   
  4               0.0012378       7.735e-009      -1.8205e-009   
  4.05            0.0012412       1.3781e-008     1.4195e-009    
  4.1             0.0012402       -1.5171e-008    -5.314e-010    
  4.15            0.0012417       -1.6654e-008    -1.2109e-009   
  4.2             0.001245        9.123e-009      3.931e-010     
  4.25            0.0012473       1.5667e-008     6.53e-010      
  4.3             0.0012483       1.5566e-008     1.3377e-009    
  4.35            0.0012474       -1.295e-008     -4.657e-010    
  4.4             0.0012487       -1.6359e-008    -1.153e-009    
  4.45            0.0012506       6.631e-009      -1.8266e-009   
  4.5             0.0012536       1.4524e-008     1.3859e-009    
  4.55            0.0012527       -1.4699e-008    -5.075e-010    
  4.6             0.0012542       -1.6497e-008    -1.189e-009    
  4.65            0.0012559       8.201e-009      -1.8173e-009   
  4.7             0.0012591       1.3369e-008     1.4453e-009    
  4.75            0.0012578       -1.5599e-008    -5.486e-010    
  4.8             0.0012594       -1.6525e-008    -1.2275e-009   
  4.85            0.0012628       9.712e-009      4.062e-010     
  4.9             0.0012645       1.5641e-008     6.717e-010     
  4.95            0.0012657       1.5243e-008     1.3515e-009    
  5               0.0012644       -1.376e-008     -4.786e-010    
END_DB

BEGIN_DB
 ICCAP_VAR VG         2              
 ICCAP_VAR VS         0              
 ICCAP_VAR VB         0              

 #VD              ID              IB              IG             
  0               3.6924e-007     1.5922e-008     1.527e-009     
  0.05            9.7561e-005     -1.6112e-008    -1.2857e-009   
  0.1             0.00019332      -7.904e-009     1.795e-009     
  0.15            0.000288        -1.6429e-008    -1.1719e-009   
  0.2             0.00038169      7.551e-009      -1.8187e-009   
  0.25            0.00047438      1.3831e-008     1.4203e-009    
  0.3             0.00056563      -1.5022e-008    -5.286e-010    
  0.35            0.00065596      -1.6644e-008    -1.21e-009     
  0.4             0.00074547      8.89e-009       3.858e-010     
  0.45            0.00083346      1.5786e-008     6.503e-010     
  0.5             0.00092035      1.5596e-008     1.3244e-009    
  0.55            0.00100564      -1.2901e-008    -4.598e-010    
  0.6             0.00109006      -1.6281e-008    -1.1496e-009   
  0.65            0.0011735       1.587e-008      1.1354e-009    
  0.7             0.0012558       9.641e-009      4.101e-010     
  0.75            0.0013365       1.5637e-008     6.693e-010     
  0.8             0.0014171       1.5222e-008     1.3552e-009    
  0.85            0.0014944       -1.3557e-008    -4.808e-010    
  0.9             0.0015711       -1.6473e-008    -1.1658e-009   
  0.95            0.0016465       7.138e-009      -1.8211e-009   
  1               0.0017208       1.4124e-008     1.4031e-009    
  1.05            0.0017929       -1.5083e-008    -5.213e-010    
  1.1             0.0018641       -1.6535e-008    -1.2034e-009   
  1.15            0.0019339       8.739e-009      -1.8115e-009   
  1.2             0.0020028       1.2951e-008     1.4749e-009    
  1.25            0.0020686       -1.5637e-008    -5.646e-010    
  1.3             0.0021343       -1.6466e-008    -1.2417e-009   
  1.35            0.002199        1.0418e-008     4.189e-010     
  1.4             0.0022614       1.569e-008      6.796e-010     
  1.45            0.0023221       1.4914e-008     1.3708e-009    
  1.5             0.0023804       -1.3995e-008    -4.926e-010    
  1.55            0.0024382       -1.6532e-008    -1.1773e-009   
  1.6             0.0024945       7.762e-009      -1.8215e-009   
  1.65            0.0025498       1.3742e-008     1.4263e-009    
  1.7             0.0026013       -1.524e-008     -5.341e-010    
  1.75            0.0026524       -1.6509e-008    -1.2132e-009   
  1.8             0.0027033       9.261e-009      3.921e-010     
  1.85            0.0027512       1.562e-008      6.472e-010     
  1.9             0.0027974       1.5637e-008     1.3318e-009    
  1.95            0.0028398       -1.2819e-008    -4.642e-010    
  2               0.0028821       -1.638e-008     -1.1541e-009   
  2.05            0.0029228       6.597e-009      -1.8259e-009   
  2.1             0.0029625       1.4477e-008     1.3865e-009    
  2.15            0.0029971       -1.4463e-008    -5.048e-010    
  2.2             0.0030316       -1.6608e-008    -1.1898e-009   
  2.25            0.0030644       8.095e-009      -1.8189e-009   
  2.3             0.003096        1.3384e-008     1.4451e-009    
  2.35            0.0031219       -1.5644e-008    -5.43e-010     
  2.4             0.0031479       -1.6567e-008    -1.2214e-009   
  2.45            0.0031737       9.602e-009      4.031e-010     
  2.5             0.0031961       1.5718e-008     6.63e-010      
  2.55            0.0032155       1.5332e-008     1.35e-009      
  2.6             0.0032301       -1.3312e-008    -4.745e-010    
  2.65            0.003245        -1.6509e-008    -1.1619e-009   
  2.7             0.0032589       7.056e-009      -1.8238e-009   
  2.75            0.0032726       1.4216e-008     1.401e-009     
  2.8             0.0032802       -1.4848e-008    -5.173e-010    
  2.85            0.0032899       -1.6746e-008    -1.1972e-009   
  2.9             0.0032991       8.473e-009      -1.817e-009    
  2.95            0.003309        1.3116e-008     1.4627e-009    
  3               0.0033133       -1.573e-008     -5.579e-010    
  3.05            0.0033203       -1.6529e-008    -1.2351e-009   
  3.1             0.0033293       1.0153e-008     4.135e-010     
  3.15            0.0033358       1.5717e-008     6.779e-010     
  3.2             0.0033414       1.5048e-008     1.3642e-009    
  3.25            0.0033434       -1.398e-008     -4.894e-010    
  3.3             0.003349        -1.6606e-008    -1.1731e-009   
  3.35            0.0033545       7.513e-009      -1.8221e-009   
  3.4             0.0033613       1.3804e-008     1.4114e-009    
  3.45            0.0033631       -1.518e-008     -5.26e-010     
  3.5             0.0033675       -1.6702e-008    -1.2055e-009   
  3.55            0.0033744       8.99e-009       3.857e-010     
  3.6             0.0033793       1.5769e-008     6.45e-010      
  3.65            0.0033832       1.5776e-008     1.3285e-009    
  3.7             0.0033839       -1.2777e-008    -4.593e-010    
  3.75            0.0033877       -1.6264e-008    -1.1498e-009   
  3.8             0.0033923       6.363e-009      -1.8259e-009   
  3.85            0.003398        1.4499e-008     1.3761e-009    
  3.9             0.0033984       -1.4257e-008    -4.984e-010    
  3.95            0.003402        -1.6514e-008    -1.1819e-009   
  4               0.0034061       7.768e-009      -1.8191e-009   
  4.05            0.0034118       1.3525e-008     1.4363e-009    
  4.1             0.0034119       -1.5416e-008    -5.407e-010    
  4.15            0.0034153       -1.6654e-008    -1.2198e-009   
