! VERSION = 6.00
BEGIN_HEADER
 ICCAP_INPUTS
  VG         V  B GROUND SMU2 0.001 LIN        2    0          5          6    1         
  VS         V  E GROUND SMU1 0.1 CON        0
  VD         V  S GROUND SMU4 0.1 LIN        1    0          5          101  0.05      
  VB         V  C GROUND SMU3 0.1 LIN        3    0          -2.5       2    -2.5      
 ICCAP_OUTPUTS
  ID         I  S GROUND SMU4 B
  IB         I  C GROUND SMU3 B
  IG         I  B GROUND SMU2 B
END_HEADER

BEGIN_DB
 ICCAP_VAR VG         0              
 ICCAP_VAR VS         0              
 ICCAP_VAR VB         0              

 #VD              ID              IB              IG             
  0               1.0257e-007     1.5752e-008     1.8286e-009    
  0.05            7.5988e-006     -1.6409e-008    -5.743e-010    
  0.1             1.1881e-005     1.6972e-008     1.1541e-009    
  0.15            1.3878e-005     1.3174e-008     1.441e-009     
  0.2             1.4807e-005     -1.4102e-008    -4.756e-010    
  0.25            1.5314e-005     -1.6712e-008    -1.1251e-009   
  0.3             1.5759e-005     3.746e-009      -1.8473e-009   
  0.35            1.6111e-005     1.7248e-008     1.209e-009     
  0.4             1.6435e-005     -5.199e-009     1.8385e-009    
  0.45            1.6652e-005     -1.6493e-008    -1.2695e-009   
  0.5             1.6998e-005     8.829e-009      3.742e-010     
  0.55            1.7327e-005     1.63e-008       5.727e-010     
  0.6             1.7532e-005     1.7109e-008     1.2094e-009    
  0.65            1.7829e-005     -5.078e-009     1.839e-009     
  0.7             1.7995e-005     -1.6644e-008    -1.2695e-009   
  0.75            1.8289e-005     8.674e-009      3.725e-010     
  0.8             1.8571e-005     1.6572e-008     5.684e-010     
  0.85            1.8755e-005     1.7022e-008     1.2062e-009    
  0.9             1.9006e-005     -5.02e-009      1.8346e-009    
  0.95            1.9157e-005     -1.6617e-008    -1.2659e-009   
  1               1.9463e-005     8.602e-009      -1.8437e-009   
  1.05            1.9666e-005     1.4691e-008     1.3855e-009    
  1.1             1.9905e-005     -1.1909e-008    -4.352e-010    
  1.15            2.0066e-005     -1.6038e-008    -6.503e-010    
  1.2             2.0264e-005     -1.6739e-008    -1.2625e-009   
  1.25            2.0548e-005     8.53e-009       -1.8432e-009   
  1.3             2.0756e-005     1.481e-008      1.3813e-009    
  1.35            2.0969e-005     -1.1623e-008    -4.312e-010    
  1.4             2.111e-005      -1.615e-008     -6.463e-010    
  1.45            2.1293e-005     -1.6609e-008    -1.2588e-009   
  1.5             2.1569e-005     8.403e-009      -1.8411e-009   
  1.55            2.1766e-005     1.4916e-008     1.3798e-009    
  1.6             2.1999e-005     -1.1519e-008    -4.288e-010    
  1.65            2.2118e-005     -1.6213e-008    -6.409e-010    
  1.7             2.2293e-005     -1.6661e-008    -1.2537e-009   
  1.75            2.2587e-005     8.274e-009      -1.8376e-009   
  1.8             2.2772e-005     1.4969e-008     1.3794e-009    
  1.85            2.2998e-005     -1.1445e-008    -4.245e-010    
  1.9             2.31e-005       -1.615e-008     -6.379e-010    
  1.95            2.3274e-005     -1.6702e-008    -1.2503e-009   
  2               2.355e-005      8.132e-009      -1.8422e-009   
  2.05            2.3741e-005     1.4997e-008     1.3687e-009    
  2.1             2.3965e-005     -1.1297e-008    -4.235e-010    
  2.15            2.4068e-005     -1.6188e-008    -6.387e-010    
  2.2             2.4246e-005     -1.6728e-008    -1.2476e-009   
  2.25            2.4506e-005     8.101e-009      -1.8393e-009   
  2.3             2.4699e-005     1.5124e-008     1.3637e-009    
  2.35            2.4916e-005     -1.1177e-008    -4.206e-010    
  2.4             2.5005e-005     -1.6315e-008    -6.34e-010     
  2.45            2.5184e-005     -1.6865e-008    -1.2468e-009   
  2.5             2.5436e-005     7.949e-009      -1.8437e-009   
  2.55            2.5627e-005     1.5136e-008     1.369e-009     
  2.6             2.5855e-005     -1.1122e-008    -4.23e-010     
  2.65            2.5968e-005     -1.6294e-008    -6.334e-010    
  2.7             2.6096e-005     -1.6983e-008    -1.2472e-009   
  2.75            2.6386e-005     8.026e-009      -1.8536e-009   
  2.8             2.653e-005      1.5117e-008     1.3648e-009    
  2.85            2.6771e-005     -1.1294e-008    -4.226e-010    
  2.9             2.6885e-005     -1.6478e-008    -6.281e-010    
  2.95            2.7006e-005     -1.6941e-008    -1.242e-009    
  3               2.7274e-005     7.72e-009       -1.8487e-009   
  3.05            2.7447e-005     1.5161e-008     1.3564e-009    
  3.1             2.7698e-005     -1.1232e-008    -4.194e-010    
  3.15            2.778e-005      -1.6171e-008    -6.242e-010    
  3.2             2.793e-005      -1.7007e-008    -1.2418e-009   
  3.25            2.8193e-005     7.784e-009      -1.8515e-009   
  3.3             2.8393e-005     1.529e-008      1.3595e-009    
  3.35            2.8581e-005     -1.0953e-008    -4.138e-010    
  3.4             2.8679e-005     -1.6348e-008    -6.251e-010    
  3.45            2.881e-005      -1.702e-008     -1.2391e-009   
  3.5             2.9086e-005     7.673e-009      -1.853e-009    
  3.55            2.9291e-005     1.5413e-008     1.3543e-009    
  3.6             2.9488e-005     -1.0905e-008    -4.12e-010     
  3.65            2.9574e-005     -1.6318e-008    -6.207e-010    
  3.7             2.971e-005      -1.7006e-008    -1.2349e-009   
  3.75            2.9959e-005     7.679e-009      -1.8499e-009   
  3.8             3.0167e-005     1.5342e-008     1.3511e-009    
  3.85            3.0381e-005     -1.0543e-008    -4.078e-010    
  3.9             3.044e-005      -1.6415e-008    -6.18e-010     
  3.95            3.0601e-005     -1.7065e-008    -1.2297e-009   
  4               3.0841e-005     7.333e-009      -1.8524e-009   
  4.05            3.1032e-005     1.5511e-008     1.3462e-009    
  4.1             3.1266e-005     -1.0695e-008    -4.055e-010    
  4.15            3.132e-005      -1.6304e-008    -6.122e-010    
  4.2             3.1471e-005     -1.708e-008     -1.232e-009    
  4.25            3.1742e-005     7.302e-009      -1.8516e-009   
  4.3             3.1925e-005     1.5588e-008     1.3413e-009    
  4.35            3.216e-005      -1.0551e-008    -4.043e-010    
  4.4             3.2226e-005     -1.6397e-008    -6.1e-010      
  4.45            3.2344e-005     -1.713e-008     -1.2273e-009   
  4.5             3.2583e-005     7.223e-009      -1.8519e-009   
  4.55            3.2782e-005     1.5565e-008     1.3382e-009    
  4.6             3.3017e-005     -1.0336e-008    -4.003e-010    
  4.65            3.3075e-005     -1.6489e-008    -6.074e-010    
  4.7             3.3214e-005     -1.7149e-008    -1.2267e-009   
  4.75            3.3485e-005     7.103e-009      -1.8511e-009   
  4.8             3.3662e-005     1.5684e-008     1.3305e-009    
  4.85            3.3896e-005     -1.0013e-008    -3.999e-010    
  4.9             3.3959e-005     -1.6518e-008    -6.079e-010    
  4.95            3.4116e-005     -1.7108e-008    -1.2209e-009   
  5               3.433e-005      7.012e-009      -1.8554e-009   
END_DB

BEGIN_DB
 ICCAP_VAR VG         1              
 ICCAP_VAR VS         0              
 ICCAP_VAR VB         0              

 #VD              ID              IB              IG             
  0               3.2195e-007     -1.2453e-008    7.74e-011      
  0.05            6.8314e-005     -1.6285e-008    -6.285e-010    
  0.1             0.0001346       -5.52e-009      1.8436e-009    
  0.15            0.00019931      -1.7078e-008    -1.1337e-009   
  0.2             0.00026254      5.115e-009      -1.8655e-009   
  0.25            0.00032416      1.5271e-008     1.3456e-009    
  0.3             0.00038396      -1.3947e-008    -4.748e-010    
  0.35            0.00044214      -1.7428e-008    -1.1659e-009   
  0.4             0.00049874      6.944e-009      -1.8654e-009   
  0.45            0.00055358      1.3923e-008     1.4077e-009    
  0.5             0.00060627      -1.5381e-008    -5.17e-010     
  0.55            0.00065712      -1.7388e-008    -1.199e-009    
  0.6             0.00070651      8.685e-009      3.607e-010     
  0.65            0.00075343      1.6454e-008     6.266e-010     
  0.7             0.00079805      1.592e-008      1.3198e-009    
  0.75            0.00084024      -1.2715e-008    -4.491e-010    
  0.8             0.00088102      -1.7291e-008    -1.1474e-009   
  0.85            0.00091909      5.76e-009       -1.8658e-009   
  0.9             0.0009549       1.4666e-008     1.3734e-009    
  0.95            0.00098743      -1.4602e-008    -4.894e-010    
  1               0.00101757      -1.747e-008     -1.182e-009    
  1.05            0.00104592      7.746e-009      -1.8657e-009   
  1.1             0.00107106      1.3393e-008     1.4274e-009    
  1.15            0.00109294      -1.6055e-008    -5.313e-010    
  1.2             0.0011116       -1.7249e-008    -1.218e-009    
  1.25            0.00112916      9.357e-009      3.824e-010     
  1.3             0.0011415       1.6157e-008     6.443e-010     
  1.35            0.0011544       1.5165e-008     7.32e-010      
  1.4             0.0011633       1.3228e-008     1.4444e-009    
  1.45            0.0011706       -1.6134e-008    -5.393e-010    
  1.5             0.0011768       -1.7244e-008    -1.2238e-009   
  1.55            0.0011841       9.712e-009      3.936e-010     
  1.6             0.0011893       1.6119e-008     6.566e-010     
  1.65            0.0011932       1.5242e-008     1.3535e-009    
  1.7             0.0011967       -1.4084e-008    -4.714e-010    
  1.75            0.0012002       -1.7407e-008    -1.1689e-009   
  1.8             0.0012047       6.994e-009      -1.8662e-009   
  1.85            0.0012087       1.3812e-008     1.4104e-009    
  1.9             0.0012108       -1.5664e-008    -5.192e-010    
  1.95            0.0012137       -1.7257e-008    -1.2033e-009   
  2               0.0012185       8.891e-009      3.678e-010     
  2.05            0.0012213       1.637e-008      6.3e-010       
  2.1             0.0012237       1.5868e-008     1.3259e-009    
  2.15            0.0012256       -1.2865e-008    -4.56e-010     
  2.2             0.001228        -1.7277e-008    -1.1482e-009   
  2.25            0.0012311       5.87e-009       -1.8667e-009   
  2.3             0.0012341       1.4582e-008     1.3808e-009    
  2.35            0.0012355       -1.4756e-008    -4.943e-010    
  2.4             0.0012377       -1.7342e-008    -1.1808e-009   
  2.45            0.0012407       7.826e-009      -1.8652e-009   
  2.5             0.0012435       1.3333e-008     1.4348e-009    
  2.55            0.0012445       -1.5965e-008    -5.399e-010    
  2.6             0.0012468       -1.7153e-008    -1.222e-009    
  2.65            0.0012506       9.516e-009      3.868e-010     
  2.7             0.0012524       1.6089e-008     6.483e-010     
  2.75            0.0012543       1.552e-008      1.3475e-009    
  2.8             0.0012552       -1.3527e-008    -4.669e-010    
  2.85            0.0012573       -1.7227e-008    -1.1622e-009   
  2.9             0.0012599       6.639e-009      -1.8645e-009   
  2.95            0.0012623       1.4139e-008     1.4025e-009    
  3               0.0012634       -1.529e-008     -5.111e-010    
  3.05            0.0012651       -1.7337e-008    -1.1963e-009   
  3.1             0.0012674       8.495e-009      -1.8592e-009   
  3.15            0.00127         1.2824e-008     1.47e-009      
  3.2             0.0012708       -1.6263e-008    -5.56e-010     
  3.25            0.0012724       -1.7085e-008    -1.2373e-009   
  3.3             0.0012754       1.0191e-008     4.024e-010     
  3.35            0.0012774       1.5933e-008     6.693e-010     
  3.4             0.0012788       1.5098e-008     1.3689e-009    
  3.45            0.0012796       -1.4277e-008    -4.859e-010    
  3.5             0.0012813       -1.7357e-008    -1.176e-009    
  3.55            0.0012836       7.597e-009      -1.8572e-009   
  3.6             0.0012857       1.3508e-008     1.4278e-009    
  3.65            0.0012864       -1.5719e-008    -5.283e-010    
  3.7             0.0012879       -1.7215e-008    -1.2115e-009   
  3.75            0.0012911       8.957e-009      3.771e-010     
  3.8             0.0012929       1.6379e-008     6.413e-010     
  3.85            0.0012938       1.5583e-008     1.341e-009     
  3.9             0.0012949       -1.3358e-008    -4.614e-010    
  3.95            0.0012961       -1.7117e-008    -1.1585e-009   
  4               0.0012983       6.384e-009      -1.8613e-009   
  4.05            0.0013005       1.4292e-008     1.3938e-009    
  4.1             0.001301        -1.4967e-008    -5.043e-010    
  4.15            0.0013026       -1.7193e-008    -1.1939e-009   
  4.2             0.0013047       8.206e-009      -1.8523e-009   
  4.25            0.0013066       1.3081e-008     1.4547e-009    
  4.3             0.0013073       -1.6144e-008    -5.503e-010    
  4.35            0.0013085       -1.7143e-008    -1.2307e-009   
  4.4             0.0013114       9.913e-009      3.964e-010     
  4.45            0.0013128       1.5943e-008     6.622e-010     
  4.5             0.001314        1.5252e-008     1.361e-009     
  4.55            0.0013147       -1.4139e-008    -4.787e-010    
  4.6             0.0013159       -1.7311e-008    -1.1731e-009   
  4.65            0.0013181       7.117e-009      -1.8615e-009   
  4.7             0.0013202       1.3905e-008     1.4163e-009    
  4.75            0.0013209       -1.5615e-008    -5.209e-010    
  4.8             0.0013218       -1.7339e-008    -1.2068e-009   
  4.85            0.0013245       8.777e-009      3.737e-010     
  4.9             0.0013261       1.6352e-008     6.352e-010     
  4.95            0.0013269       1.5745e-008     1.3287e-009    
  5               0.001328        -1.3006e-008    -4.535e-010    
END_DB

BEGIN_DB
 ICCAP_VAR VG         2              
 ICCAP_VAR VS         0              
 ICCAP_VAR VB         0              

 #VD              ID              IB              IG             
  0               3.4827e-007     1.5987e-008     1.8378e-009    
  0.05            9.7138e-005     -1.6418e-008    -1.2783e-009   
  0.1             0.00019251      -7.278e-009     1.8253e-009    
  0.15            0.00028696      -1.6782e-008    -1.1653e-009   
  0.2             0.00038064      6.756e-009      -1.8484e-009   
  0.25            0.00047338      1.4455e-008     1.4061e-009    
  0.3             0.00056494      -1.4856e-008    -5.088e-010    
  0.35            0.00065562      -1.6825e-008    -1.2011e-009   
  0.4             0.00074551      8.144e-009      -1.8407e-009   
  0.45            0.00083429      1.3374e-008     1.4666e-009    
  0.5             0.00092151      -1.5728e-008    -5.515e-010    
  0.55            0.00100805      -1.6673e-008    -1.2377e-009   
  0.6             0.00109384      9.901e-009      3.992e-010     
  0.65            0.0011782       -1.5264e-008    -7.322e-010    
  0.7             0.0012617       -5.176e-009     1.7927e-009    
  0.75            0.0013434       -1.1632e-008    -1.5687e-009   
  0.8             0.001426        1.5893e-008     6.483e-010     
  0.85            0.0015056       1.5725e-008     1.3338e-009    
  0.9             0.0015836       -1.2555e-008    -4.51e-010     
  0.95            0.0016608       -1.6339e-008    -1.1491e-009   
  1               0.0017369       6.131e-009      -1.8415e-009   
  1.05            0.0018125       1.4741e-008     1.3821e-009    
  1.1             0.0018852       -1.4287e-008    -4.926e-010    
  1.15            0.0019575       -1.6623e-008    -1.1836e-009   
  1.2             0.0020287       7.613e-009      -1.8392e-009   
  1.25            0.0020988       1.3744e-008     1.4412e-009    
  1.3             0.0021663       -1.5534e-008    -5.363e-010    
  1.35            0.0022335       -1.6726e-008    -1.222e-009    
  1.4             0.0023          9.087e-009      3.818e-010     
  1.45            0.0023643       1.5799e-008     6.546e-010     
  1.5             0.002427        1.5564e-008     1.3432e-009    
  1.55            0.0024872       -1.2945e-008    -4.628e-010    
  1.6             0.002547        -1.6486e-008    -1.1577e-009   
  1.65            0.0026056       6.455e-009      -1.8439e-009   
  1.7             0.0026635       1.4737e-008     1.3958e-009    
  1.75            0.0027178       -1.4577e-008    -5.03e-010     
  1.8             0.0027716       -1.667e-008     -1.1899e-009   
  1.85            0.0028243       7.993e-009      -1.8338e-009   
  1.9             0.0028762       1.3431e-008     1.4533e-009    
  1.95            0.0029237       -1.557e-008     -5.441e-010    
  2               0.0029709       -1.6601e-008    -1.2284e-009   
  2.05            0.003018        9.366e-009      3.87e-010      
  2.1             0.0030621       1.5707e-008     6.671e-010     
  2.15            0.0031041       1.5463e-008     1.3545e-009    
  2.2             0.0031424       -1.3207e-008    -4.676e-010    
  2.25            0.0031808       -1.6586e-008    -1.1654e-009   
  2.3             0.0032176       6.733e-009      -1.8437e-009   
  2.35            0.0032535       1.4441e-008     1.4055e-009    
  2.4             0.003284        -1.4724e-008    -5.095e-010    
  2.45            0.0033146       -1.6774e-008    -1.1995e-009   
  2.5             0.0033435       8.388e-009      -1.8347e-009   
  2.55            0.0033715       1.3441e-008     1.4636e-009    
  2.6             0.0033931       -1.5582e-008    -5.541e-010    
  2.65            0.0034153       -1.6624e-008    -1.2361e-009   
  2.7             0.0034372       9.691e-009      3.943e-010     
  2.75            0.0034552       1.5873e-008     6.731e-010     
  2.8             0.0034706       1.5239e-008     1.3638e-009    
  2.85            0.0034812       -1.3631e-008    -4.78e-010     
  2.9             0.0034936       -1.6569e-008    -1.1689e-009   
  2.95            0.0035055       7.167e-009      -1.8412e-009   
  3               0.0035175       1.4269e-008     1.4182e-009    
  3.05            0.0035233       -1.5039e-008    -5.211e-010    
  3.1             0.003532        -1.656e-008     -1.2048e-009   
  3.15            0.0035409       8.695e-009      -1.8312e-009   
  3.2             0.0035504       1.3201e-008     1.4786e-009    
  3.25            0.003554        -1.5871e-008    -5.638e-010    
  3.3             0.0035607       -1.6478e-008    -1.2409e-009   
  3.35            0.0035699       1.0203e-008     4.015e-010     
  3.4             0.0035764       1.581e-008      6.826e-010     
  3.45            0.0035817       1.5101e-008     1.3757e-009    
  3.5             0.0035835       -1.3852e-008    -4.861e-010    
  3.55            0.0035889       -1.6557e-008    -1.1764e-009   
  3.6             0.0035953       7.562e-009      -1.838e-009    
  3.65            0.003602        1.3942e-008     1.4321e-009    
  3.7             0.0036034       -1.5224e-008    -5.293e-010    
  3.75            0.0036082       -1.6675e-008    -1.2139e-009   
  3.8             0.0036155       9.02e-009       3.709e-010     
  3.85            0.0036207       1.5921e-008     6.463e-010     
  3.9             0.0036245       1.563e-008      1.3354e-009    
  3.95            0.0036254       -1.2692e-008    -4.515e-010    
  4               0.0036292       -1.6316e-008    -1.1505e-009   
  4.05            0.0036338       6.1e-009        -1.8423e-009   
  4.1             0.0036402       1.4826e-008     1.387e-009     
  4.15            0.0036403       -1.411e-008     -4.949e-010    
