! VERSION = 6.00
BEGIN_HEADER
 ICCAP_INPUTS
  VG         V  B GROUND SMU2 0.001 LIN        1    0          5          101  0.05      
  VS         V  E GROUND SMU1 0.1 CON        0
  VB         V  C GROUND SMU3 0.1 LIN        3    0          -5         3    -2.5      
  VD         V  S GROUND SMU4 0.1 LIN        2    0.1        5          2    4.9       
 ICCAP_OUTPUTS
  IG         I  B GROUND SMU2 B
  ID         I  S GROUND SMU4 B
  IB         I  C GROUND SMU3 B
END_HEADER

BEGIN_DB
 ICCAP_VAR VS         0              
 ICCAP_VAR VB         0              
 ICCAP_VAR VD         0.1            

 #VG              IG              ID              IB             
  0               1.8443e-009     1.3552e-005     1.5708e-008    
  0.05            1.4791e-009     2.2553e-005     1.2746e-008    
  0.1             -9.091e-010     3.1621e-005     -1.3051e-008   
  0.15            -1.8677e-009    4.0533e-005     6.54e-009      
  0.2             9.768e-010      4.9068e-005     1.3288e-008    
  0.25            1.8399e-009     5.6905e-005     -8.899e-009    
  0.3             -1.0115e-009    6.4126e-005     -1.4234e-008   
  0.35            4.466e-010      7.1155e-005     1.174e-008     
  0.4             1.8455e-009     7.7542e-005     -5.404e-009    
  0.45            -9.829e-010     8.3503e-005     -1.3598e-008   
  0.5             4.217e-010      8.9356e-005     1.044e-008     
  0.55            1.4735e-009     9.4753e-005     1.2771e-008    
  0.6             -9.063e-010     9.9841e-005     -1.2932e-008   
  0.65            -1.8696e-009    0.000104755     6.339e-009     
  0.7             9.757e-010      0.000109528     1.3159e-008    
  0.75            1.8378e-009     0.00011399      -8.77e-009     
  0.8             1.3529e-009     0.00011843      1.5308e-008    
  0.85            -8.255e-010     0.00012253      -1.36e-008     
  0.9             -1.8606e-009    0.00012652      3.902e-009     
  0.95            9.001e-010      0.00013047      1.2941e-008    
  1               1.8454e-009     0.00013424      -5.138e-009    
  1.05            -9.36e-010      0.00013784      -1.3173e-008   
  1.1             -1.862e-009     0.00014137      8.088e-009     
  1.15            1.0042e-009     0.00014483      1.3557e-008    
  1.2             -4.1e-010       0.00014811      -1.0214e-008   
  1.25            -1.468e-009     0.00015136      -1.3031e-008   
  1.3             9.281e-010      0.00015458      1.3104e-008    
  1.35            1.8457e-009     0.00015767      -6.36e-009     
  1.4             -9.622e-010     0.00016067      -1.3196e-008   
  1.45            3.938e-010      0.00016364      9.32e-009      
  1.5             1.4358e-009     0.00016647      1.369e-008     
  1.55            -8.812e-010     0.00016925      -1.3006e-008   
  1.6             -1.8642e-009    0.00017198      5.201e-009     
  1.65            9.537e-010      0.00017469      1.2918e-008    
  1.7             1.8421e-009     0.00017733      -7.722e-009    
  1.75            -9.837e-010     0.00017985      -1.3491e-008   
  1.8             4.182e-010      0.00018242      1.0313e-008    
  1.85            1.4783e-009     0.00018486      1.2869e-008    
  1.9             -9.04e-010      0.00018725      -1.2835e-008   
  1.95            -1.8655e-009    0.00018957      6.517e-009     
  2               9.797e-010      0.00019191      1.3221e-008    
  2.05            1.8392e-009     0.00019417      -8.824e-009    
  2.1             -1.01e-009      0.00019639      -1.3807e-008   
  2.15            4.454e-010      0.00019858      1.1845e-008    
  2.2             1.8443e-009     0.00020071      -5.426e-009    
  2.25            -9.831e-010     0.00020279      -1.358e-008    
  2.3             4.208e-010      0.00020486      1.0137e-008    
  2.35            1.4748e-009     0.00020684      1.294e-008     
  2.4             -9.049e-010     0.00020882      -1.2986e-008   
  2.45            -1.8659e-009    0.00021077      6.27e-009      
  2.5             9.713e-010      0.00021263      1.316e-008     
  2.55            1.8387e-009     0.00021451      -8.585e-009    
  2.6             -1.0068e-009    0.00021631      -1.3904e-008   
  2.65            4.47e-010       0.00021813      1.1704e-008    
  2.7             1.8475e-009     0.00021989      -5.41e-009     
  2.75            -9.766e-010     0.00022159      -1.3524e-008   
  2.8             4.102e-010      0.00022332      1.002e-008     
  2.85            1.469e-009      0.00022494      1.3097e-008    
  2.9             -8.987e-010     0.00022659      -1.2924e-008   
  2.95            -1.8674e-009    0.00022812      6.06e-009      
  3               9.703e-010      0.00022966      1.3018e-008    
  3.05            1.8435e-009     0.00023126      -8.405e-009    
  3.1             -1.0007e-009    0.00023267      -1.3869e-008   
  3.15            4.365e-010      0.00023421      1.1275e-008    
  3.2             1.8518e-009     0.00023564      -5.375e-009    
  3.25            -9.712e-010     0.00023703      -1.3358e-008   
  3.3             4.04e-010       0.00023843      9.77e-009      
  3.35            1.4547e-009     0.00023974      1.3304e-008    
  3.4             -8.921e-010     0.0002411       -1.2703e-008   
  3.45            -1.8679e-009    0.00024235      6.072e-009     
  3.5             9.639e-010      0.00024364      1.3012e-008    
  3.55            1.8456e-009     0.00024489      -8.03e-009     
  3.6             -9.975e-010     0.00024609      -1.3826e-008   
  3.65            4.308e-010      0.00024729      1.1168e-008    
  3.7             1.8514e-009     0.00024844      -5.348e-009    
  3.75            -9.663e-010     0.00024954      -1.315e-008    
  3.8             4.026e-010      0.00025072      9.532e-009     
  3.85            1.4486e-009     0.00025185      1.3443e-008    
  3.9             -8.88e-010      0.00025289      -1.2712e-008   
  3.95            -1.8641e-009    0.0002539       5.637e-009     
  4               9.592e-010      0.00025491      1.2983e-008    
  4.05            1.8451e-009     0.00025594      -7.808e-009    
  4.1             -9.905e-010     0.00025693      -1.3596e-008   
  4.15            4.258e-010      0.00025792      1.0982e-008    
  4.2             1.4932e-009     0.00025885      1.2554e-008    
  4.25            -9.127e-010     0.00025975      -1.2714e-008   
  4.3             -1.8653e-009    0.00026065      6.945e-009     
  4.35            9.835e-010      0.00026148      1.3231e-008    
  4.4             -3.78e-010      0.00026234      -9.096e-009    
  4.45            -1.4186e-009    0.0002632       -1.3746e-008   
  4.5             9.009e-010      0.00026403      1.2851e-008    
  4.55            1.8513e-009     0.00026482      -5.103e-009    
  4.6             -9.365e-010     0.00026559      -1.2899e-008   
  4.65            -1.8668e-009    0.00026639      8.037e-009     
  4.7             1.0083e-009     0.00026711      1.3587e-008    
  4.75            -4.08e-010      0.00026775      -1.0311e-008   
  4.8             -1.8703e-009    0.00026855      5.437e-009     
  4.85            9.817e-010      0.0002692       1.3188e-008    
  4.9             -3.773e-010     0.00026988      -8.995e-009    
  4.95            -1.4204e-009    0.00027057      -1.3684e-008   
  5               9.019e-010      0.00027121      1.2927e-008    
END_DB

BEGIN_DB
 ICCAP_VAR VS         0              
 ICCAP_VAR VB         0              
 ICCAP_VAR VD         5              

 #VG              IG              ID              IB             
  0               1.82e-011       2.4898e-005     -1.3479e-008   
  0.05            7.866e-010      3.3101e-005     1.4342e-008    
  0.1             1.8455e-009     5.0516e-005     -3.682e-009    
  0.15            -8.347e-010     7.3969e-005     -1.3556e-008   
  0.2             -1.8591e-009    0.000105492     4.168e-009     
  0.25            1.2241e-009     0.00017823      1.7083e-008    
  0.3             -9.993e-010     0.00021709      -1.3971e-008   
  0.35            4.449e-010      0.0002688       1.1265e-008    
  0.4             1.8486e-009     0.00033887      -5.421e-009    
  0.45            -9.732e-010     0.00040389      -1.3394e-008   
  0.5             4.123e-010      0.00047118      9.84e-009      
  0.55            1.462e-009      0.00054432      1.2978e-008    
  0.6             -8.952e-010     0.00061376      -1.2744e-008   
  0.65            -1.8648e-009    0.00069226      6.073e-009     
  0.7             9.718e-010      0.00078425      1.3064e-008    
  0.75            1.8381e-009     0.00086955      -8.496e-009    
  0.8             -1.0034e-009    0.00095492      -1.3824e-008   
  0.85            4.464e-010      0.001046        1.1357e-008    
  0.9             1.8466e-009     0.00113744      -5.46e-009     
  0.95            -9.386e-010     0.001233        -1.2992e-008   
  1               -4.751e-010     0.0013286       -1.3464e-008   
  1.05            -1.8507e-009    0.0014288       5.62e-009      
  1.1             1.0388e-009     0.0015316       1.4074e-008    
  1.15            -4.498e-010     0.0016346       -1.2082e-008   
  1.2             -1.8589e-009    0.0017414       5.58e-009      
  1.25            1.0149e-009     0.0018511       1.3597e-008    
  1.3             -4.194e-010     0.0019606       -1.0674e-008   
  1.35            -1.8612e-009    0.0020735       5.487e-009     
  1.4             9.929e-010      0.0021893       1.3237e-008    
  1.45            -3.928e-010     0.0023047       -9.393e-009    
  1.5             -1.4378e-009    0.0024228       -1.345e-008    
  1.55            9.14e-010       0.0025445       1.2945e-008    
  1.6             1.845e-009      0.0026662       -5.596e-009    
  1.65            -9.508e-010     0.002789        -1.3061e-008   
  1.7             3.806e-010      0.0029161       8.527e-009     
  1.75            1.4209e-009     0.0030425       1.4152e-008    
  1.8             -8.696e-010     0.0031693       -1.3135e-008   
  1.85            -1.864e-009     0.0032993       4.973e-009     
  1.9             9.483e-010      0.0034324       1.2903e-008    
  1.95            1.845e-009      0.0035644       -7.104e-009    
  2               -9.796e-010     0.0036969       -1.347e-008    
  2.05            4.16e-010       0.0038341       1.0124e-008    
  2.1             1.4737e-009     0.0039705       1.29e-008      
  2.15            -9.035e-010     0.0041064       -1.2818e-008   
  2.2             -1.8627e-009    0.0042455       6.328e-009     
  2.25            9.777e-010      0.0043866       1.3133e-008    
  2.3             1.8385e-009     0.0045266       -8.714e-009    
  2.35            -1.0066e-009    0.0046665       -1.391e-008    
  2.4             4.473e-010      0.0048113       1.1663e-008    
  2.45            1.8425e-009     0.0049532       -5.412e-009    
  2.5             -9.835e-010     0.0050958       -1.3494e-008   
  2.55            4.212e-010      0.0052426       1.0242e-008    
  2.6             1.4794e-009     0.0053869       1.2813e-008    
  2.65            -9.074e-010     0.0055304       -1.2727e-008   
  2.7             -1.8653e-009    0.0056765       6.6e-009       
  2.75            9.823e-010      0.0058233       1.322e-008     
  2.8             1.8374e-009     0.0059682       -8.797e-009    
  2.85            -1.0126e-009    0.0061121       -1.4007e-008   
  2.9             4.54e-010       0.00626         1.2099e-008    
  2.95            1.8487e-009     0.0064033       -5.451e-009    
  3               -9.902e-010     0.0065442       -1.3684e-008   
  3.05            4.26e-010       0.0066868       1.0636e-008    
  3.1             1.4966e-009     0.0068209       1.2509e-008    
  3.15            -9.13e-010      0.0069476       -1.2737e-008   
  3.2             -1.8677e-009    0.0070702       6.812e-009     
  3.25            9.894e-010      0.0071872       1.3279e-008    
  3.3             -3.852e-010     0.0072952       -9.25e-009     
  3.35            -1.4284e-009    0.0073992       -1.3464e-008   
  3.4             9.09e-010       0.0074995       1.2848e-008    
  3.45            1.8522e-009     0.0075935       -5.275e-009    
  3.5             -9.474e-010     0.0076829       -1.3152e-008   
  3.55            3.745e-010      0.0077711       8.435e-009     
  3.6             1.4106e-009     0.0078537       1.405e-008     
  3.65            -8.666e-010     0.007932        -1.2962e-008   
  3.7             -1.8676e-009    0.0080092       4.74e-009      
  3.75            9.429e-010      0.008084        1.2907e-008    
  3.8             1.8513e-009     0.0081548       -7.135e-009    
  3.85            -9.786e-010     0.008223        -1.3523e-008   
  3.9             4.108e-010      0.0082904       9.881e-009     
  3.95            1.4594e-009     0.0083547       1.2854e-008    
  4               -9.034e-010     0.0084161       -1.2887e-008   
  4.05            -1.869e-009     0.0084768       6.199e-009     
  4.1             9.759e-010      0.0085357       1.3081e-008    
  4.15            1.841e-009      0.0085929       -8.827e-009    
  4.2             -1.0107e-009    0.0086482       -1.4185e-008   
  4.25            4.464e-010      0.0087031       1.2003e-008    
  4.3             1.8492e-009     0.0087548       -5.483e-009    
  4.35            -9.872e-010     0.0088055       -1.3649e-008   
  4.4             4.203e-010      0.0088557       1.0373e-008    
  4.45            1.4834e-009     0.0089039       1.2512e-008    
  4.5             -9.102e-010     0.0089499       -1.2593e-008   
  4.55            -1.8674e-009    0.0089956       6.822e-009     
  4.6             9.845e-010      0.00904         1.3214e-008    
  4.65            -3.809e-010     0.0090824       -9.155e-009    
  4.7             -1.4207e-009    0.0091237       -1.3514e-008   
  4.75            9.074e-010      0.0091589       1.2837e-008    
  4.8             1.8531e-009     0.009194        -5.388e-009    
  4.85            -9.416e-010     0.0092203       -1.2928e-008   
  4.9             3.71e-010       0.0092391       8.344e-009     
  4.95            1.4022e-009     0.0092616       1.4131e-008    
  5               -8.61e-010      0.0092782       -1.2955e-008   
END_DB

BEGIN_DB
 ICCAP_VAR VS         0              
 ICCAP_VAR VB         -2.5           
 ICCAP_VAR VD         0.1            

 #VG              IG              ID              IB             
  0               -1.68e-010      3.9288e-006     -4.357e-009    
  0.05            1.0565e-009     1.0463e-005     1.4625e-008    
  0.1             1.8419e-009     1.9071e-005     -8.194e-009    
  0.15            1.1742e-009     2.8293e-005     1.7096e-008    
  0.2             -6.279e-010     3.6914e-005     -1.6233e-008   
  0.25            -1.7318e-009    4.5268e-005     4.726e-009     
  0.3             6.497e-010      5.3211e-005     1.595e-008     
  0.35            1.7073e-009     6.0427e-005     -4.477e-009    
  0.4             -1.1435e-009    6.7065e-005     -1.7027e-008   
  0.45            6.217e-010      7.3596e-005     1.6166e-008    
  0.5             1.7323e-009     7.9556e-005     -4.757e-009    
  0.55            -6.208e-010     8.5104e-005     -1.6404e-008   
  0.6             -1.7431e-009    9.0511e-005     4.747e-009     
  0.65            6.386e-010      9.573e-005      1.6027e-008    
  0.7             1.7143e-009     0.000100581     -4.617e-009    
  0.75            -1.138e-009     0.000105145     -1.7038e-008   
  0.8             6.154e-010      0.000109732     1.6414e-008    
  0.85            1.7408e-009     0.000113988     -4.772e-009    
  0.9             -9.353e-010     0.00011808      -1.2957e-008   
  0.95            1.4463e-009     0.00012215      1.2924e-008    
  1               -8.898e-010     0.00012597      -1.256e-008    
  1.05            -1.8733e-009    0.00012967      5.881e-009     
  1.1             9.715e-010      0.00013332      1.3086e-008    
  1.15            1.8468e-009     0.00013681      -8.539e-009    
  1.2             -1.0079e-009    0.00014019      -1.4056e-008   
  1.25            4.469e-010      0.00014354      1.1918e-008    
  1.3             1.8542e-009     0.00014673      -5.479e-009    
  1.35            -9.903e-010     0.00014981      -1.3626e-008   
  1.4             4.267e-010      0.00015294      1.1067e-008    
  1.45            1.5023e-009     0.00015588      1.212e-008     
  1.5             -9.21e-010      0.00015877      -1.2727e-008   
  1.55            -1.8752e-009    0.00016161      7.368e-009     
  1.6             1.0007e-009     0.00016436      1.3493e-008    
  1.65            -4.002e-010     0.00016707      -1.0042e-008   
  1.7             -1.4599e-009    0.00016971      -1.2833e-008   
  1.75            9.304e-010      0.00017232      1.2837e-008    
  1.8             1.8626e-009     0.00017486      -6.408e-009    
  1.85            -9.666e-010     0.00017733      -1.3215e-008   
  1.9             3.999e-010      0.00017979      9.599e-009     
  1.95            1.4508e-009     0.00018213      1.2919e-008    
  2               -8.898e-010     0.00018444      -1.2683e-008   
  2.05            -1.8799e-009    0.00018669      5.937e-009     
  2.1             9.755e-010      0.00018896      1.3147e-008    
  2.15            1.8499e-009     0.00019116      -8.691e-009    
  2.2             -1.0081e-009    0.00019329      -1.4389e-008   
  2.25            4.526e-010      0.00019544      1.2125e-008    
  2.3             1.8597e-009     0.00019742      -5.525e-009    
  2.35            -9.904e-010     0.00019945      -1.3869e-008   
  2.4             4.329e-010      0.00020147      1.106e-008     
  2.45            1.5e-009        0.00020336      1.2058e-008    
  2.5             -9.198e-010     0.0002053       -1.2672e-008   
  2.55            -1.8796e-009    0.00020712      7.118e-009     
  2.6             1.0035e-009     0.00020898      1.3643e-008    
  2.65            -3.981e-010     0.00021075      -9.99e-009     
  2.7             -1.4542e-009    0.00021252      -1.2749e-008   
  2.75            9.27e-010       0.00021422      1.2716e-008    
  2.8             1.8712e-009     0.00021594      -6.182e-009    
  2.85            -9.628e-010     0.00021759      -1.3212e-008   
  2.9             3.965e-010      0.00021925      9.59e-009      
  2.95            1.4445e-009     0.00022081      1.2894e-008    
  3               -8.923e-010     0.00022237      -1.2412e-008   
  3.05            -1.8853e-009    0.00022386      6.022e-009     
  3.1             9.776e-010      0.00022539      1.3211e-008    
  3.15            1.8547e-009     0.00022684      -9.007e-009    
  3.2             -1.0106e-009    0.00022826      -1.4529e-008   
  3.25            4.494e-010      0.00022972      1.2339e-008    
  3.3             1.8612e-009     0.00023108      -5.58e-009     
  3.35            -9.926e-010     0.00023243      -1.3939e-008   
  3.4             4.343e-010      0.00023376      1.1435e-008    
  3.45            1.868e-009      0.00023502      -5.51e-009     
  3.5             -9.764e-010     0.00023632      -1.3611e-008   
  3.55            4.149e-010      0.00023753      1.0355e-008    
  3.6             1.4695e-009     0.00023874      1.2421e-008    
  3.65            -9.046e-010     0.00023993      -1.2507e-008   
  3.7             -1.8826e-009    0.00024109      6.539e-009     
  3.75            9.894e-010      0.0002422       1.3538e-008    
  3.8             -3.831e-010     0.00024333      -9.355e-009    
  3.85            -1.4304e-009    0.0002444       -1.2938e-008   
  3.9             9.152e-010      0.00024548      1.246e-008     
  3.95            1.873e-009      0.00024654      -5.892e-009    
  4               -9.564e-010     0.00024758      -1.3388e-008   
  4.05            3.826e-010      0.00024862      9.141e-009     
  4.1             1.4272e-009     0.00024954      1.3131e-008    
  4.15            -8.812e-010     0.0002505       -1.2428e-008   
