! VERSION = 6.00
BEGIN_HEADER
 ICCAP_INPUTS
  VG         V  B GROUND SMU4 0.001 LIN        2    0          5          6    1         
  VS         V  E GROUND SMU2 0.1 CON        0
  VD         V  S GROUND SMU1 0.1 LIN        1    0          5          101  0.05      
  VB         V  C GROUND SMU3 0.1 LIN        3    0          -2.5       2    -2.5      
 ICCAP_OUTPUTS
  ID         I  S GROUND SMU1 B
  IB         I  C GROUND SMU3 B
  IG         I  B GROUND SMU4 B
END_HEADER

BEGIN_DB
 ICCAP_VAR VG         0              
 ICCAP_VAR VS         0              
 ICCAP_VAR VB         0              

 #VD              ID              IB              IG             
  0               1.0119e-007     -1.2862e-008    2.16e-011      
  0.05            8.7799e-006     -1.3944e-008    -1.3774e-009   
  0.1             1.355e-005      1.5771e-008     -9.273e-010    
  0.15            1.5772e-005     1.3064e-008     -1.3865e-009   
  0.2             1.668e-005      1.1389e-008     -1.3936e-009   
  0.25            1.6849e-005     1.6519e-008     -1.3883e-009   
  0.3             1.7067e-005     1.2141e-008     -1.3973e-009   
  0.35            1.7172e-005     1.6546e-008     -1.3955e-009   
  0.4             1.7358e-005     1.2798e-008     -1.4001e-009   
  0.45            1.7417e-005     1.6469e-008     -1.3454e-009   
  0.5             1.7589e-005     1.485e-008      -1.3919e-009   
  0.55            1.769e-005      1.5422e-008     -1.3658e-009   
  0.6             1.7926e-005     1.5418e-008     -1.3908e-009   
  0.65            1.7865e-005     1.5532e-008     -1.3767e-009   
  0.7             1.7986e-005     1.5938e-008     -1.3879e-009   
  0.75            1.8068e-005     1.0883e-008     -1.3884e-009   
  0.8             1.8172e-005     1.6348e-008     -1.3846e-009   
  0.85            1.8434e-005     1.1633e-008     -1.3945e-009   
  0.9             1.8337e-005     1.6548e-008     -1.3931e-009   
  0.95            1.847e-005      1.2338e-008     -1.3976e-009   
  1               1.8499e-005     1.6616e-008     -1.3976e-009   
  1.05            1.8649e-005     1.3124e-008     -1.3947e-009   
  1.1             1.866e-005      1.6364e-008     -1.3556e-009   
  1.15            1.8943e-005     1.5277e-008     -1.3856e-009   
  1.2             1.8838e-005     1.5938e-008     -1.3703e-009   
  1.25            1.8948e-005     1.5916e-008     -1.3819e-009   
  1.3             1.9052e-005     1.5383e-008     -1.3815e-009   
  1.35            1.9093e-005     1.6413e-008     -1.3814e-009   
  1.4             1.928e-005      1.1098e-008     -1.3866e-009   
  1.45            1.9234e-005     1.6653e-008     -1.3882e-009   
  1.5             1.9347e-005     1.184e-008      -1.3906e-009   
  1.55            1.9371e-005     1.6681e-008     -1.3961e-009   
  1.6             1.9506e-005     1.2719e-008     -1.3901e-009   
  1.65            1.9507e-005     1.6451e-008     -1.4074e-009   
  1.7             1.9656e-005     1.3667e-008     -1.3875e-009   
  1.75            1.978e-005      1.6093e-008     -1.3612e-009   
  1.8             1.9776e-005     1.5763e-008     -1.3788e-009   
  1.85            1.9805e-005     1.5597e-008     -1.3738e-009   
  1.9             1.9896e-005     1.6088e-008     -1.3831e-009   
  1.95            1.994e-005      1.5196e-008     -1.3827e-009   
  2               2.0151e-005     1.6524e-008     -1.3849e-009   
  2.05            2.011e-005      1.1193e-008     -1.3901e-009   
  2.1             2.0152e-005     1.6637e-008     -1.392e-009    
  2.15            2.0258e-005     1.216e-008      -1.3905e-009   
  2.2             2.0269e-005     1.6642e-008     -1.4014e-009   
  2.25            2.0544e-005     1.3025e-008     -1.3889e-009   
  2.3             2.0393e-005     1.6351e-008     -1.3502e-009   
  2.35            2.0519e-005     1.5357e-008     -1.383e-009    
  2.4             2.0533e-005     1.5759e-008     -1.3648e-009   
  2.45            2.0636e-005     1.5855e-008     -1.3847e-009   
  2.5             2.0742e-005     1.5699e-008     -1.3759e-009   
  2.55            2.0755e-005     1.6231e-008     -1.3835e-009   
  2.6             2.0911e-005     1.0736e-008     -1.3869e-009   
  2.65            2.0872e-005     1.6703e-008     -1.3878e-009   
  2.7             2.0954e-005     1.1584e-008     -1.3905e-009   
  2.75            2.0979e-005     1.6638e-008     -1.3945e-009   
  2.8             2.1097e-005     1.2414e-008     -1.3882e-009   
  2.85            2.1091e-005     1.6548e-008     -1.4037e-009   
  2.9             2.1225e-005     1.3308e-008     -1.3881e-009   
  2.95            2.1208e-005     1.6288e-008     -1.3535e-009   
  3               2.1329e-005     1.5476e-008     -1.3844e-009   
  3.05            2.1341e-005     1.5808e-008     -1.3687e-009   
  3.1             2.1437e-005     1.5949e-008     -1.3832e-009   
  3.15            2.1466e-005     1.541e-008      -1.3798e-009   
  3.2             2.1548e-005     1.6275e-008     -1.3824e-009   
  3.25            2.1602e-005     1.1077e-008     -1.3866e-009   
  3.3             2.1653e-005     1.6614e-008     -1.3905e-009   
  3.35            2.1741e-005     1.1835e-008     -1.3902e-009   
  3.4             2.1809e-005     1.6594e-008     -1.3945e-009   
  3.45            2.2916e-005     1.2634e-008     -1.3917e-009   
  3.5             2.1865e-005     1.661e-008      -1.4051e-009   
  3.55            2.2068e-005     1.3482e-008     -1.3915e-009   
  3.6             2.1975e-005     1.6251e-008     -1.3591e-009   
  3.65            2.2093e-005     1.553e-008      -1.3829e-009   
  3.7             2.2071e-005     1.4946e-008     -1.3883e-009   
  3.75            2.2392e-005     1.66e-008       -1.3893e-009   
  3.8             2.2382e-005     1.1886e-008     -1.3907e-009   
  3.85            2.2275e-005     1.6573e-008     -1.3971e-009   
  3.9             2.2399e-005     1.2697e-008     -1.3916e-009   
  3.95            2.2376e-005     1.6574e-008     -1.4038e-009   
  4               2.2516e-005     1.3407e-008     -1.3911e-009   
  4.05            2.2482e-005     1.6216e-008     -1.358e-009    
  4.1             2.2605e-005     1.5494e-008     -1.3838e-009   
  4.15            2.2682e-005     1.5645e-008     -1.3724e-009   
  4.2             2.2705e-005     1.6136e-008     -1.3811e-009   
  4.25            2.2725e-005     1.5092e-008     -1.3827e-009   
  4.3             2.2802e-005     1.6522e-008     -1.3844e-009   
  4.35            2.2867e-005     1.1336e-008     -1.3882e-009   
  4.4             2.2902e-005     1.6474e-008     -1.3886e-009   
  4.45            2.3134e-005     1.1968e-008     -1.3924e-009   
  4.5             2.3289e-005     1.6682e-008     -1.3974e-009   
  4.55            2.3123e-005     1.2666e-008     -1.3916e-009   
  4.6             2.31e-005       1.6503e-008     -1.3454e-009   
  4.65            2.3221e-005     1.5103e-008     -1.3859e-009   
  4.7             2.3222e-005     1.5675e-008     -1.3612e-009   
  4.75            2.3323e-005     1.5666e-008     -1.3806e-009   
  4.8             2.333e-005      1.5543e-008     -1.3769e-009   
  4.85            2.3468e-005     1.6237e-008     -1.3836e-009   
  4.9             2.3514e-005     1.4754e-008     -1.382e-009    
  4.95            2.3511e-005     1.6542e-008     -1.3843e-009   
  5               2.4536e-005     1.1308e-008     -1.3888e-009   
END_DB

BEGIN_DB
 ICCAP_VAR VG         1              
 ICCAP_VAR VS         0              
 ICCAP_VAR VB         0              

 #VD              ID              IB              IG             
  0               3.2858e-007     8.166e-009      -4.897e-010    
  0.05            6.2064e-005     5.545e-009      1.3684e-009    
  0.1             0.00012317      -1.4049e-008    -9.079e-010    
  0.15            0.00018264      1.3384e-008     -1.3946e-009   
  0.2             0.00024068      1.4806e-008     -1.3491e-009   
  0.25            0.00029702      1.4293e-008     -1.4037e-009   
  0.3             0.0003519       1.6275e-008     -1.4098e-009   
  0.35            0.00040499      1.2556e-008     -1.397e-009    
  0.4             0.00045656      1.5961e-008     -1.3996e-009   
  0.45            0.00050606      1.5314e-008     -1.3912e-009   
  0.5             0.00055401      1.5718e-008     -1.3961e-009   
  0.55            0.00059995      1.5459e-008     -1.3845e-009   
  0.6             0.00064413      1.5504e-008     -1.3982e-009   
  0.65            0.0006863       1.471e-008      -1.3513e-009   
  0.7             0.00072662      1.4232e-008     -1.4001e-009   
  0.75            0.00076408      1.6215e-008     -1.4086e-009   
  0.8             0.00080015      1.2541e-008     -1.3986e-009   
  0.85            0.00083384      1.5962e-008     -1.3981e-009   
  0.9             0.00086462      1.522e-008      -1.3932e-009   
  0.95            0.00089302      1.5684e-008     -1.3959e-009   
  1               0.00091899      1.5614e-008     -1.3867e-009   
  1.05            0.00094306      1.5456e-008     -1.397e-009    
  1.1             0.00096372      1.4839e-008     -1.3496e-009   
  1.15            0.00098213      1.4279e-008     -1.402e-009    
  1.2             0.00099746      1.605e-008      -1.4086e-009   
  1.25            0.00101048      1.2541e-008     -1.3966e-009   
  1.3             0.00102077      1.5775e-008     -1.4029e-009   
  1.35            0.00102907      1.524e-008      -1.3932e-009   
  1.4             0.00103707      1.5757e-008     -1.3968e-009   
  1.45            0.00104271      1.4919e-008     -1.3648e-009   
  1.5             0.00104794      1.4656e-008     -1.3995e-009   
  1.55            0.00105225      1.6084e-008     -1.3505e-009   
  1.6             0.00105673      1.4175e-008     -1.3989e-009   
  1.65            0.00106004      1.6105e-008     -1.4079e-009   
  1.7             0.0010634       1.2505e-008     -1.3959e-009   
  1.75            0.00106635      1.5921e-008     -1.4018e-009   
  1.8             0.00106963      1.4519e-008     -1.3723e-009   
  1.85            0.00107254      1.5107e-008     -1.4014e-009   
  1.9             0.00107518      1.4491e-008     -1.3324e-009   
  1.95            0.00107824      1.3564e-008     -1.3996e-009   
  2               0.00108023      1.6224e-008     -1.4035e-009   
  2.05            0.00108252      1.1838e-008     -1.3906e-009   
  2.1             0.00108497      1.5717e-008     -1.4008e-009   
  2.15            0.0010867       1.5579e-008     -1.3815e-009   
  2.2             0.00108902      1.5344e-008     -1.4001e-009   
  2.25            0.00109118      1.4574e-008     -1.3447e-009   
  2.3             0.00109341      1.3982e-008     -1.4038e-009   
  2.35            0.00109466      1.6125e-008     -1.4061e-009   
  2.4             0.00109654      1.2365e-008     -1.3935e-009   
  2.45            0.00109825      1.5935e-008     -1.3998e-009   
  2.5             0.00110015      1.5452e-008     -1.3908e-009   
  2.55            0.00110236      1.5574e-008     -1.3972e-009   
  2.6             0.00110403      1.4826e-008     -1.3572e-009   
  2.65            0.00110576      1.4518e-008     -1.4056e-009   
  2.7             0.0011069       1.5969e-008     -1.3432e-009   
  2.75            0.00110941      1.4083e-008     -1.4008e-009   
  2.8             0.00111083      1.6124e-008     -1.4062e-009   
  2.85            0.00111222      1.2356e-008     -1.3952e-009   
  2.9             0.00111405      1.5788e-008     -1.3967e-009   
  2.95            0.00111522      1.5374e-008     -1.3913e-009   
  3               0.00111687      1.5653e-008     -1.3999e-009   
  3.05            0.00111823      1.5648e-008     -1.3816e-009   
  3.1             0.00111997      1.5255e-008     -1.3989e-009   
  3.15            0.00112125      1.4715e-008     -1.3426e-009   
  3.2             0.00112341      1.3997e-008     -1.4049e-009   
  3.25            0.00112462      1.6017e-008     -1.4074e-009   
  3.3             0.00112672      1.2325e-008     -1.3942e-009   
  3.35            0.00112808      1.5826e-008     -1.4012e-009   
  3.4             0.00112898      1.4734e-008     -1.3681e-009   
  3.45            0.00113013      1.4891e-008     -1.398e-009    
  3.5             0.00113172      1.4315e-008     -1.3248e-009   
  3.55            0.00113365      1.3285e-008     -1.4017e-009   
  3.6             0.0011336       1.609e-008      -1.403e-009    
  3.65            0.00113557      1.1635e-008     -1.3857e-009   
  3.7             0.00113738      1.5522e-008     -1.3972e-009   
  3.75            0.00113804      1.4882e-008     -1.3523e-009   
  3.8             0.00113941      1.4401e-008     -1.4026e-009   
  3.85            0.00114098      1.611e-008      -1.3389e-009   
  3.9             0.0011429       1.3804e-008     -8.289e-010    
  3.95            0.001144        1.2256e-008     -1.3966e-009   
  4               0.0011452       1.5884e-008     -1.4001e-009   
  4.05            0.0011459       1.5331e-008     -1.3877e-009   
  4.1             0.0011478       1.5571e-008     -1.3973e-009   
  4.15            0.0011488       1.5598e-008     -1.382e-009    
  4.2             0.0011504       1.5328e-008     -1.3972e-009   
  4.25            0.0011516       1.4645e-008     -1.3424e-009   
  4.3             0.0011531       1.4046e-008     -1.4019e-009   
  4.35            0.0011539       1.6196e-008     -1.403e-009    
  4.4             0.0011554       1.2299e-008     -1.3966e-009   
  4.45            0.0011566       1.5925e-008     -1.3968e-009   
  4.5             0.001157        1.5389e-008     -1.3911e-009   
  4.55            0.0011586       1.5485e-008     -1.3981e-009   
  4.6             0.0011613       1.4919e-008     -1.3574e-009   
  4.65            0.0011612       1.4506e-008     -1.4023e-009   
  4.7             0.0011618       1.6034e-008     -1.3448e-009   
  4.75            0.0011632       1.3978e-008     -1.4001e-009   
  4.8             0.001165        1.6239e-008     -1.4047e-009   
  4.85            0.0011671       1.2281e-008     -1.3944e-009   
  4.9             0.0011682       1.5874e-008     -1.3971e-009   
  4.95            0.001169        1.4771e-008     -1.3708e-009   
  5               0.0011693       1.4871e-008     -1.3983e-009   
END_DB

BEGIN_DB
 ICCAP_VAR VG         2              
 ICCAP_VAR VS         0              
 ICCAP_VAR VB         0              

 #VD              ID              IB              IG             
  0               3.7451e-007     -1.5914e-008    -1.116e-010    
  0.05            8.5505e-005     -1.2179e-008    -1.4091e-009   
  0.1             0.00017075      1.4474e-008     7.151e-010     
  0.15            0.00025491      -1.6071e-008    1.4014e-009    
  0.2             0.00033856      -1.4891e-008    1.3498e-009    
  0.25            0.00042096      -1.5776e-008    1.3852e-009    
  0.3             0.00050255      -1.5445e-008    1.3233e-009    
  0.35            0.00058296      -1.4306e-008    1.3704e-009    
  0.4             0.00066239      -1.5866e-008    1.4171e-009    
  0.45            0.00074119      -1.2368e-008    1.3589e-009    
  0.5             0.00081896      -1.6013e-008    1.389e-009     
  0.55            0.00089531      -1.5667e-008    1.3409e-009    
  0.6             0.00097135      -1.5305e-008    1.3771e-009    
  0.65            0.0010459       -1.5202e-008    1.4275e-009    
  0.7             0.0011195       -1.3622e-008    1.3634e-009    
  0.75            0.0011938       -1.6022e-008    -1.3807e-009   
  0.8             0.0012645       1.5331e-008     -1.3421e-009   
  0.85            0.0013356       1.4752e-008     -1.3756e-009   
  0.9             0.0014049       1.5596e-008     -1.4187e-009   
  0.95            0.001473        1.2767e-008     -1.3709e-009   
  1               0.0015401       1.609e-008      -1.3951e-009   
  1.05            0.0016048       1.5196e-008     -1.3582e-009   
  1.1             0.0016708       1.5618e-008     -1.3828e-009   
  1.15            0.0017346       1.541e-008      -1.3316e-009   
  1.2             0.001797        1.3822e-008     -1.3741e-009   
  1.25            0.0018588       1.606e-008      -1.4088e-009   
  1.3             0.0019221       1.1639e-008     -1.3693e-009   
  1.35            0.0019804       1.61e-008       -1.3825e-009   
  1.4             0.0020363       1.5665e-008     -1.3517e-009   
  1.45            0.002095        1.5065e-008     -1.3766e-009   
  1.5             0.0021476       1.5628e-008     -1.3425e-009   
  1.55            0.0022024       1.4486e-008     -1.3741e-009   
  1.6             0.0022551       1.5938e-008     -1.4122e-009   
  1.65            0.0023048       1.2231e-008     -1.3707e-009   
  1.7             0.0023581       1.6297e-008     -1.3909e-009   
  1.75            0.0024062       1.5484e-008     -1.3594e-009   
  1.8             0.0024535       1.5502e-008     -1.3777e-009   
  1.85            0.0024956       1.5457e-008     -1.3276e-009   
  1.9             0.0025404       1.3573e-008     -1.3718e-009   
  1.95            0.0025833       1.6167e-008     -1.399e-009    
  2               0.0026232       1.1447e-008     -1.3671e-009   
  2.05            0.0026614       1.6158e-008     -1.3825e-009   
  2.1             0.0026986       1.5736e-008     -1.3483e-009   
  2.15            0.0027313       1.4843e-008     -1.3732e-009   
  2.2             0.002763        1.5588e-008     -1.4211e-009   
  2.25            0.0027936       1.2756e-008     -1.3733e-009   
  2.3             0.0028217       1.628e-008      -1.3924e-009   
  2.35            0.0028477       1.4124e-008     -1.371e-009    
  2.4             0.0028732       1.62e-008       -1.3872e-009   
  2.45            0.0028971       1.5561e-008     -1.3551e-009   
  2.5             0.0029157       1.5453e-008     -1.3762e-009   
  2.55            0.0029354       1.5458e-008     -1.346e-009    
  2.6             0.0029519       1.4846e-008     -1.3772e-009   
  2.65            0.0029628       1.5666e-008     -1.3363e-009   
  2.7             0.0029752       1.4148e-008     -1.3732e-009   
  2.75            0.0029873       1.6046e-008     -1.4084e-009   
  2.8             0.0029955       1.1826e-008     -1.3729e-009   
  2.85            0.0030056       1.6327e-008     -1.3815e-009   
  2.9             0.0030165       1.5716e-008     -1.3604e-009   
  2.95            0.0030233       1.5376e-008     -1.3756e-009   
  3               0.0030286       1.5637e-008     -1.3473e-009   
  3.05            0.0030358       1.4719e-008     -1.3752e-009   
  3.1             0.00304         1.5955e-008     -1.4149e-009   
  3.15            0.003046        1.2428e-008     -1.375e-009    
  3.2             0.0030499       1.639e-008      -1.3847e-009   
  3.25            0.0030583       1.5366e-008     -1.3653e-009   
  3.3             0.0030622       1.5761e-008     -1.3738e-009   
  3.35            0.0030671       1.5417e-008     -1.3618e-009   
  3.4             0.0030729       1.5234e-008     -1.3736e-009   
  3.45            0.0030786       1.5765e-008     -1.3514e-009   
  3.5             0.0030805       1.4619e-008     -1.3767e-009   
  3.55            0.0030849       1.6064e-008     -1.4138e-009   
  3.6             0.0030893       1.2284e-008     -1.3757e-009   
  3.65            0.0030931       1.645e-008      -1.3881e-009   
  3.7             0.0030945       1.5376e-008     -1.3698e-009   
  3.75            0.0031008       1.5669e-008     -1.3773e-009   
  3.8             0.0031027       1.5623e-008     -1.3354e-009   
  3.85            0.0031063       1.3627e-008     -1.3785e-009   
  3.9             0.003111        1.6454e-008     -1.3995e-009   
  3.95            0.0031136       1.1339e-008     -1.3781e-009   
  4               0.0031161       1.6192e-008     -1.3767e-009   
  4.05            0.0031186       1.5855e-008     -1.3588e-009   
  4.1             0.0031217       1.4941e-008     -1.3788e-009   
  4.15            0.0031234       1.6141e-008     -1.3464e-009   
