! VERSION = 6.00
BEGIN_HEADER
 ICCAP_INPUTS
  VG         V  B GROUND SMU2 0.001 LIN        1    0          5          101  0.05      
  VS         V  E GROUND SMU1 0.1 CON        0
  VB         V  C GROUND SMU3 0.1 LIN        3    0          -5         3    -2.5      
  VD         V  S GROUND SMU4 0.1 LIN        2    0.1        5          2    4.9       
 ICCAP_OUTPUTS
  IG         I  B GROUND SMU2 B
  ID         I  S GROUND SMU4 B
  IB         I  C GROUND SMU3 B
END_HEADER

BEGIN_DB
 ICCAP_VAR VS         0              
 ICCAP_VAR VB         0              
 ICCAP_VAR VD         0.1            

 #VG              IG              ID              IB             
  0               1.859e-009      1.3676e-005     1.5935e-008    
  0.05            1.3708e-009     2.2749e-005     1.5079e-008    
  0.1             -8.261e-010     3.1915e-005     -1.3988e-008   
  0.15            -1.8478e-009    4.0961e-005     4.209e-009     
  0.2             8.886e-010      4.9657e-005     1.4046e-008    
  0.25            1.8322e-009     5.769e-005      -4.745e-009    
  0.3             -9.037e-010     6.5141e-005     -1.3509e-008   
  0.35            -1.8454e-009    7.2211e-005     6.417e-009     
  0.4             9.588e-010      7.8972e-005     1.3744e-008    
  0.45            1.8176e-009     8.524e-005      -7.857e-009    
  0.5             -9.721e-010     9.1105e-005     -1.3832e-008   
  0.55            3.981e-010      9.6879e-005     9.587e-009     
  0.6             1.4319e-009     0.000102252     1.3809e-008    
  0.65            -8.698e-010     0.000107338     -1.3778e-008   
  0.7             -1.8476e-009    0.000112271     4.997e-009     
  0.75            1.4471e-009     0.00011713      1.3514e-008    
  0.8             -1.1262e-009    0.00012164      -1.6217e-008   
  0.85            5.932e-010      0.00012614      1.6071e-008    
  0.9             1.75e-009       0.00013035      -4.877e-009    
  0.95            -5.572e-010     0.00013438      -1.5888e-008   
  1               -1.7803e-009    0.00013842      5.123e-009     
  1.05            5.476e-010      0.00014243      1.5338e-008    
  1.1             1.7777e-009     0.00014614      -5.086e-009    
  1.15            -5.206e-010     0.00014972      -1.5086e-008   
  1.2             -1.8029e-009    0.0001533       5.266e-009     
  1.25            1.0547e-009     0.00015686      1.4529e-008    
  1.3             -4.576e-010     0.00016017      -1.278e-008    
  1.35            -1.8317e-009    0.00016353      5.396e-009     
  1.4             1.0054e-009     0.00016678      1.3898e-008    
  1.45            -4.003e-010     0.00016992      -1.01e-008     
  1.5             -1.449e-009     0.00017304      -1.3568e-008   
  1.55            9.071e-010      0.00017609      1.3762e-008    
  1.6             1.8273e-009     0.00017908      -5.261e-009    
  1.65            -9.197e-010     0.00018195      -1.3402e-008   
  1.7             -1.8375e-009    0.00018477      7.25e-009      
  1.75            9.742e-010      0.00018759      1.3727e-008    
  1.8             1.8135e-009     0.00019035      -8.586e-009    
  1.85            -9.889e-010     0.00019299      -1.4055e-008   
  1.9             4.126e-010      0.00019567      1.0543e-008    
  1.95            1.4716e-009     0.00019822      1.3276e-008    
  2               -8.88e-010      0.00020073      -1.3505e-008   
  2.05            -1.8451e-009    0.00020318      5.825e-009     
  2.1             9.421e-010      0.00020563      1.366e-008     
  2.15            1.8218e-009     0.00020804      -7.174e-009    
  2.2             -9.588e-010     0.00021036      -1.3787e-008   
  2.25            3.808e-010      0.00021269      9.124e-009     
  2.3             1.4097e-009     0.00021499      1.4296e-008    
  2.35            -8.553e-010     0.00021716      -1.39e-008     
  2.4             -1.8485e-009    0.00021926      4.583e-009     
  2.45            9.159e-010      0.00022144      1.3671e-008    
  2.5             1.8256e-009     0.00022355      -5.659e-009    
  2.55            -9.265e-010     0.00022562      -1.3463e-008   
  2.6             -1.8427e-009    0.00022762      7.89e-009      
  2.65            9.832e-010      0.00022959      1.3831e-008    
  2.7             1.8094e-009     0.00023158      -9.073e-009    
  2.75            -9.977e-010     0.00023346      -1.4118e-008   
  2.8             4.305e-010      0.00023537      1.1195e-008    
  2.85            1.4873e-009     0.00023716      1.2824e-008    
  2.9             -8.987e-010     0.000239        -1.3388e-008   
  2.95            -1.8462e-009    0.00024072      6.065e-009     
  3               9.577e-010      0.00024247      1.3392e-008    
  3.05            1.8256e-009     0.00024418      -7.595e-009    
  3.1             -9.676e-010     0.00024584      -1.3729e-008   
  3.15            3.95e-010       0.00024747      9.504e-009     
  3.2             1.4264e-009     0.00024909      1.3782e-008    
  3.25            -8.664e-010     0.0002507       -1.3575e-008   
  3.3             -1.8489e-009    0.00025216      4.724e-009     
  3.35            9.242e-010      0.0002537       1.3328e-008    
  3.4             1.8311e-009     0.00025519      -6.053e-009    
  3.45            -9.392e-010     0.00025666      -1.3444e-008   
  3.5             -1.8442e-009    0.00025805      8.196e-009     
  3.55            9.921e-010      0.00025945      1.3699e-008    
  3.6             -3.853e-010     0.00026078      -9.415e-009    
  3.65            -1.418e-009     0.00026215      -1.3888e-008   
  3.7             8.872e-010      0.00026342      1.3481e-008    
  3.75            1.8319e-009     0.00026478      -4.7e-009      
  3.8             -9.088e-010     0.00026606      -1.3435e-008   
  3.85            -1.8499e-009    0.00026724      6.626e-009     
  3.9             9.655e-010      0.00026842      1.3431e-008    
  3.95            1.824e-009      0.00026962      -8.117e-009    
  4               -9.747e-010     0.00027077      -1.386e-008    
  4.05            4.039e-010      0.00027196      1.014e-008     
  4.1             1.4497e-009     0.000273        1.3367e-008    
  4.15            -8.748e-010     0.00027412      -1.3472e-008   
  4.2             -1.8548e-009    0.00027517      5.196e-009     
  4.25            9.31e-010       0.00027618      1.326e-008     
  4.3             1.8402e-009     0.00027723      -6.333e-009    
  4.35            -9.49e-010      0.00027825      -1.3326e-008   
  4.4             3.713e-010      0.00027919      8.623e-009     
  4.45            1.3884e-009     0.00028015      1.4327e-008    
  4.5             -8.35e-010      0.00028108      -1.3155e-008   
  4.55            -1.8568e-009    0.0002819       4.144e-009     
  4.6             8.974e-010      0.00028281      1.2888e-008    
  4.65            1.8414e-009     0.00028375      -5.003e-009    
  4.7             -9.175e-010     0.00028457      -1.2976e-008   
  4.75            -1.8615e-009    0.00028537      6.934e-009     
  4.8             9.721e-010      0.00028616      1.3136e-008    
  4.85            1.8314e-009     0.00028699      -8.52e-009     
  4.9             -9.888e-010     0.00028778      -1.3845e-008   
  4.95            4.178e-010      0.0002885       1.0545e-008    
  5               1.4577e-009     0.00028923      1.3e-008       
END_DB

BEGIN_DB
 ICCAP_VAR VS         0              
 ICCAP_VAR VB         0              
 ICCAP_VAR VD         5              

 #VG              IG              ID              IB             
  0               -1.8576e-009    2.3539e-005     -1.352e-008    
  0.05            -6.198e-010     4.1928e-005     -1.6173e-008   
  0.1             -1.7375e-009    6.8087e-005     4.682e-009     
  0.15            6.138e-010      0.000101152     1.632e-008     
  0.2             1.1992e-009     0.00014488      1.6902e-008    
  0.25            -9.648e-010     0.00018419      -1.3762e-008   
  0.3             3.933e-010      0.00023328      9.586e-009     
  0.35            1.4255e-009     0.00028915      1.3607e-008    
  0.4             -8.653e-010     0.00034637      -1.3145e-008   
  0.45            -1.8573e-009    0.00041268      4.603e-009     
  0.5             9.259e-010      0.00047946      1.3146e-008    
  0.55            1.8391e-009     0.00054939      -6.063e-009    
  0.6             -9.389e-010     0.00061972      -1.33e-008     
  0.65            -1.8493e-009    0.00069984      8.256e-009     
  0.7             9.957e-010      0.00078156      1.3674e-008    
  0.75            -3.805e-010     0.00085113      -9.57e-009     
  0.8             -1.4136e-009    0.00089382      -1.3573e-008   
  0.85            8.933e-010      0.0009306       1.311e-008     
  0.9             1.8421e-009     0.00097733      -4.692e-009    
  0.95            -9.049e-010     0.00104495      -1.3115e-008   
  1               -1.85e-009      0.0011232       6.561e-009     
  1.05            5.383e-010      0.001252        1.5565e-008    
  1.1             -1.6981e-009    0.0013143       4.464e-009     
  1.15            1.1595e-009     0.0013851       1.6655e-008    
  1.2             -5.932e-010     0.0014873       -1.6294e-008   
  1.25            -1.7597e-009    0.0015725       4.892e-009     
  1.3             5.917e-010      0.0016609       1.6179e-008    
  1.35            1.7611e-009     0.0017554       -4.961e-009    
  1.4             -5.547e-010     0.0018852       -1.6203e-008   
  1.45            -1.7828e-009    0.0020036       5.219e-009     
  1.5             5.499e-010      0.0021177       1.5793e-008    
  1.55            1.7872e-009     0.0022378       -5.223e-009    
  1.6             -5.152e-010     0.0023678       -1.5427e-008   
  1.65            -1.8087e-009    0.0024974       5.373e-009     
  1.7             5.216e-010      0.0026299       1.4982e-008    
  1.75            1.8087e-009     0.0027601       -5.335e-009    
  1.8             -1.0215e-009    0.0028718       -1.4792e-008   
  1.85            4.646e-010      0.002989        1.3083e-008    
  1.9             1.8291e-009     0.0031138       -5.41e-009     
  1.95            -9.762e-010     0.0032324       -1.3894e-008   
  2               4.084e-010      0.0033416       1.0183e-008    
  2.05            1.4481e-009     0.0034664       1.3253e-008    
  2.1             -8.743e-010     0.003583        -1.3223e-008   
  2.15            -1.8506e-009    0.0037116       5.172e-009     
  2.2             9.429e-010      0.0038437       1.3419e-008    
  2.25            1.8393e-009     0.0039776       -6.791e-009    
  2.3             -9.468e-010     0.0041055       -1.342e-008    
  2.35            3.763e-010      0.0042341       8.796e-009     
  2.4             1.3968e-009     0.0043986       1.4309e-008    
  2.45            -8.408e-010     0.00455         -1.3532e-008   
  2.5             -1.848e-009     0.0047175       4.318e-009     
  2.55            9.085e-010      0.0048752       1.3343e-008    
  2.6             1.8443e-009     0.0050419       -5.227e-009    
  2.65            -9.21e-010      0.0051932       -1.3132e-008   
  2.7             -1.8502e-009    0.0053579       7.423e-009     
  2.75            9.866e-010      0.005511        1.3337e-008    
  2.8             1.8332e-009     0.0056691       -9.092e-009    
  2.85            -9.933e-010     0.005816        -1.4189e-008   
  2.9             4.35e-010       0.005963        1.1301e-008    
  2.95            1.4928e-009     0.0061226       1.2426e-008    
  3               -8.921e-010     0.0062636       -1.2656e-008   
  3.05            -1.8597e-009    0.006416        6.17e-009      
  3.1             9.628e-010      0.0065594       1.3088e-008    
  3.15            1.8474e-009     0.0067134       -7.902e-009    
  3.2             -9.685e-010     0.0068505       -1.377e-008    
  3.25            4.062e-010      0.006991        9.96e-009      
  3.3             1.4469e-009     0.0071828       1.3281e-008    
  3.35            -8.695e-010     0.0072942       -1.2817e-008   
  3.4             -1.858e-009     0.0074104       5.063e-009     
  3.45            9.366e-010      0.0075176       1.2754e-008    
  3.5             1.8531e-009     0.0076193       -6.557e-009    
  3.55            -9.452e-010     0.007723        -1.3045e-008   
  3.6             3.777e-010      0.0078173       8.786e-009     
  3.65            1.3946e-009     0.0079182       1.4204e-008    
  3.7             -8.383e-010     0.0080112       -1.2763e-008   
  3.75            -1.8526e-009    0.0081179       4.118e-009     
  3.8             9.092e-010      0.0081963       1.2566e-008    
  3.85            1.855e-009      0.0082824       -5.219e-009    
  3.9             -9.195e-010     0.0083759       -1.2884e-008   
  3.95            -1.8611e-009    0.0084538       7.397e-009     
  4               9.892e-010      0.0085325       1.3253e-008    
  4.05            1.8378e-009     0.0086131       -9.036e-009    
  4.1             -9.981e-010     0.0086829       -1.4175e-008   
  4.15            4.316e-010      0.0087465       1.1143e-008    
  4.2             1.8502e-009     0.0088053       -5.424e-009    
  4.25            -9.527e-010     0.0088621       -1.3188e-008   
  4.3             3.791e-010      0.0089193       8.672e-009     
  4.35            1.3884e-009     0.0089736       1.3928e-008    
  4.4             -8.45e-010      0.0090254       -1.2744e-008   
  4.45            -1.8626e-009    0.0090765       4.112e-009     
  4.5             9.066e-010      0.0091275       1.2622e-008    
  4.55            1.8548e-009     0.0091759       -5.198e-009    
  4.6             -9.293e-010     0.0092228       -1.2877e-008   
  4.65            -1.8686e-009    0.009269        7.507e-009     
  4.7             9.865e-010      0.0093149       1.3235e-008    
  4.75            -3.751e-010     0.0093582       -9.322e-009    
  4.8             -1.3948e-009    0.009401        -1.3688e-008   
  4.85            8.783e-010      0.0094437       1.2748e-008    
  4.9             1.8506e-009     0.0094848       -4.276e-009    
  4.95            -9.027e-010     0.0095241       -1.2505e-008   
  5               -1.8704e-009    0.0095633       6.183e-009     
END_DB

BEGIN_DB
 ICCAP_VAR VS         0              
 ICCAP_VAR VB         -2.5           
 ICCAP_VAR VD         0.1            

 #VG              IG              ID              IB             
  0               1.8349e-009     3.939e-006      1.5888e-008    
  0.05            -1.3864e-009    1.03633e-005    -1.3849e-008   
  0.1             7.475e-010      1.9099e-005     1.4205e-008    
  0.15            1.3158e-009     2.8515e-005     1.5516e-008    
  0.2             -7.859e-010     3.7329e-005     -1.3602e-008   
  0.25            -1.8535e-009    4.5788e-005     3.605e-009     
  0.3             8.461e-010      5.3836e-005     1.2931e-008    
  0.35            1.8465e-009     6.1264e-005     -3.632e-009    
  0.4             -8.736e-010     6.8163e-005     -1.2709e-008   
  0.45            -1.8735e-009    7.4707e-005     4.799e-009     
  0.5             9.317e-010      8.0997e-005     1.2659e-008    
  0.55            1.8517e-009     8.6865e-005     -6.145e-009    
  0.6             -9.477e-010     9.2389e-005     -1.3011e-008   
  0.65            -1.8626e-009    9.7723e-005     8.354e-009     
  0.7             1.0034e-009     0.000102897     1.3767e-008    
  0.75            -3.905e-010     0.000107662     -1.014e-008    
  0.8             -1.4224e-009    0.000112382     -1.3251e-008   
  0.85            6.357e-010      0.00011699      1.5864e-008    
  0.9             1.8448e-009     0.00012136      -7.715e-009    
  0.95            -9.82e-010      0.00012551      -1.3725e-008   
  1               4.04e-010       0.00012966      1.0251e-008    
  1.05            1.4341e-009     0.00013362      1.3106e-008    
  1.1             -8.763e-010     0.00013738      -1.2913e-008   
  1.15            -1.8652e-009    0.00014109      4.788e-009     
  1.2             9.296e-010      0.00014473      1.2865e-008    
  1.25            1.8428e-009     0.00014827      -6.202e-009    
  1.3             -9.478e-010     0.00015169      -1.3197e-008   
  1.35            3.678e-010      0.00015509      8.291e-009     
  1.4             1.3797e-009     0.00015834      1.4471e-008    
  1.45            -8.333e-010     0.00016151      -1.3233e-008   
  1.5             -1.8546e-009    0.00016459      4.019e-009     
  1.55            8.954e-010      0.00016766      1.3254e-008    
  1.6             1.8401e-009     0.0001707       -4.793e-009    
  1.65            -9.148e-010     0.0001736       -1.327e-008    
  1.7             -1.8549e-009    0.00017642      6.607e-009     
  1.75            9.706e-010      0.00017921      1.3433e-008    
  1.8             1.8239e-009     0.000182        -8.262e-009    
  1.85            -9.808e-010     0.00018463      -1.3971e-008   
  1.9             4.098e-010      0.00018734      1.0224e-008    
  1.95            1.4461e-009     0.00018991      1.3331e-008    
  2               -8.797e-010     0.0001924       -1.3397e-008   
  2.05            -1.8522e-009    0.00019486      5.051e-009     
  2.1             9.322e-010      0.00019729      1.3446e-008    
  2.15            1.8337e-009     0.00019971      -6.492e-009    
  2.2             -9.494e-010     0.00020205      -1.3599e-008   
  2.25            -1.8421e-009    0.00020432      8.731e-009     
  2.3             1.0035e-009     0.00020658      1.3894e-008    
  2.35            -3.897e-010     0.0002088       -1.001e-008    
  2.4             -1.4341e-009    0.00021098      -1.3476e-008   
  2.45            8.997e-010      0.00021307      1.3403e-008    
  2.5             1.8371e-009     0.00021522      -5.033e-009    
  2.55            -9.178e-010     0.00021726      -1.3562e-008   
  2.6             -1.8531e-009    0.00021925      7.156e-009     
  2.65            9.717e-010      0.0002212       1.3426e-008    
  2.7             1.8233e-009     0.00022321      -8.444e-009    
  2.75            -9.861e-010     0.00022509      -1.4011e-008   
  2.8             4.119e-010      0.000227        1.0254e-008    
  2.85            1.4648e-009     0.00022878      1.3229e-008    
  2.9             -8.823e-010     0.00023059      -1.3424e-008   
  2.95            -1.8541e-009    0.00023231      5.471e-009     
  3               9.395e-010      0.00023403      1.3452e-008    
  3.05            1.8271e-009     0.00023578      -6.761e-009    
  3.1             -9.547e-010     0.00023742      -1.3655e-008   
  3.15            3.75e-010       0.00023905      8.818e-009     
  3.2             1.3994e-009     0.00024064      1.4441e-008    
  3.25            -8.485e-010     0.00024221      -1.3759e-008   
  3.3             -1.8515e-009    0.00024369      4.359e-009     
  3.35            9.044e-010      0.00024519      1.3525e-008    
  3.4             1.8315e-009     0.00024674      -5.243e-009    
  3.45            -9.193e-010     0.00024818      -1.3631e-008   
  3.5             -1.8429e-009    0.00024955      7.255e-009     
  3.55            9.739e-010      0.00025091      1.3618e-008    
  3.6             1.816e-009      0.00025232      -8.56e-009     
  3.65            -9.869e-010     0.00025363      -1.409e-008    
  3.7             4.165e-010      0.00025495      1.054e-008     
  3.75            1.4707e-009     0.00025622      1.3139e-008    
  3.8             -8.882e-010     0.00025749      -1.3353e-008   
  3.85            -1.8498e-009    0.00025866      5.546e-009     
  3.9             9.42e-010       0.00025983      1.357e-008     
  3.95            1.8242e-009     0.00026106      -7.02e-009     
  4               -9.547e-010     0.0002622       -1.3801e-008   
  4.05            3.793e-010      0.00026332      8.999e-009     
  4.1             1.4099e-009     0.00026442      1.4334e-008    
  4.15            -8.527e-010     0.00026548      -1.3726e-008   
