! VERSION = 6.00
BEGIN_HEADER
 ICCAP_INPUTS
  VG         V  B GROUND SMU2 0.001 LIN        1    0          5          101  0.05      
  VS         V  E GROUND SMU1 0.1 CON        0
  VB         V  C GROUND SMU3 0.1 LIN        3    0          -5         3    -2.5      
  VD         V  S GROUND SMU4 0.1 LIN        2    0.1        5          2    4.9       
 ICCAP_OUTPUTS
  IG         I  B GROUND SMU2 B
  ID         I  S GROUND SMU4 B
  IB         I  C GROUND SMU3 B
END_HEADER

BEGIN_DB
 ICCAP_VAR VS         0              
 ICCAP_VAR VB         0              
 ICCAP_VAR VD         0.1            

 #VG              IG              ID              IB             
  0               1.4406e-009     1.3651e-005     1.6585e-008    
  0.05            1.1238e-009     2.2622e-005     1.6778e-008    
  0.1             -5.632e-010     3.159e-005      -1.5881e-008   
  0.15            -1.7674e-009    4.0561e-005     4.861e-009     
  0.2             6.04e-010       4.919e-005      1.5911e-008    
  0.25            1.7238e-009     5.7015e-005     -4.574e-009    
  0.3             -1.1274e-009    6.4224e-005     -1.704e-008    
  0.35            6.087e-010      7.1311e-005     1.5877e-008    
  0.4             1.722e-009      7.7761e-005     -4.566e-009    
  0.45            -1.1323e-009    8.3717e-005     -1.7003e-008   
  0.5             6.195e-010      8.9642e-005     1.5874e-008    
  0.55            1.721e-009      9.5089e-005     -4.587e-009    
  0.6             -6.356e-010     0.000100188     -1.6022e-008   
  0.65            -1.7155e-009    0.000105156     4.516e-009     
  0.7             1.179e-009      0.000110027     1.6991e-008    
  0.75            -6.375e-010     0.00011457      -1.5892e-008   
  0.8             1.2604e-009     0.00011898      1.6775e-008    
  0.85            -7.473e-010     0.00012313      -1.4587e-008   
  0.9             -1.8577e-009    0.00012719      4.037e-009     
  0.95            8.615e-010      0.00013116      1.3452e-008    
  1               1.8556e-009     0.00013499      -4.195e-009    
  1.05            -9.21e-010      0.00013866      -1.3016e-008   
  1.1             -1.863e-009     0.00014225      7.906e-009     
  1.15            1.0182e-009     0.00014577      1.3809e-008    
  1.2             -4.189e-010     0.00014911      -1.1497e-008   
  1.25            -1.8646e-009    0.00015244      5.637e-009     
  1.3             1.0264e-009     0.00015566      1.4035e-008    
  1.35            -4.283e-010     0.00015875      -1.1777e-008   
  1.4             -1.8628e-009    0.00016182      5.57e-009      
  1.45            1.0296e-009     0.00016485      1.4093e-008    
  1.5             -4.329e-010     0.00016773      -1.1891e-008   
  1.55            -1.8651e-009    0.00017058      5.616e-009     
  1.6             1.0354e-009     0.0001734       1.4245e-008    
  1.65            -4.389e-010     0.00017607      -1.2439e-008   
  1.7             -1.8585e-009    0.00017876      5.621e-009     
  1.75            1.0421e-009     0.00018143      1.4256e-008    
  1.8             -4.445e-010     0.00018392      -1.2768e-008   
  1.85            -1.8545e-009    0.00018646      5.649e-009     
  1.9             1.0463e-009     0.00018891      1.4314e-008    
  1.95            -4.545e-010     0.00019129      -1.3133e-008   
  2               -1.8558e-009    0.00019364      5.547e-009     
  2.05            1.0533e-009     0.00019601      1.4506e-008    
  2.1             -4.635e-010     0.00019821      -1.3226e-008   
  2.15            -1.852e-009     0.00020049      5.564e-009     
  2.2             1.0587e-009     0.00020266      1.4582e-008    
  2.25            -4.699e-010     0.00020476      -1.3886e-008   
  2.3             -1.8488e-009    0.00020688      5.652e-009     
  2.35            1.0608e-009     0.00020899      1.5117e-008    
  2.4             -4.775e-010     0.00021092      -1.4269e-008   
  2.45            -1.8442e-009    0.00021292      5.536e-009     
  2.5             5.202e-010      0.00021494      1.5074e-008    
  2.55            1.8084e-009     0.00021683      -5.306e-009    
  2.6             -5.342e-010     0.00021862      -1.5857e-008   
  2.65            -1.8039e-009    0.00022046      5.096e-009     
  2.7             5.787e-010      0.00022234      1.5897e-008    
  2.75            1.7509e-009     0.00022406      -4.81e-009     
  2.8             -1.1099e-009    0.00022578      -1.6931e-008   
  2.85            5.851e-010      0.00022752      1.5581e-008    
  2.9             1.7397e-009     0.00022919      -4.626e-009    
  2.95            -6.014e-010     0.00023074      -1.5674e-008   
  3               -1.7209e-009    0.00023235      4.468e-009     
  3.05            1.1529e-009     0.00023397      1.7043e-008    
  3.1             -6.132e-010     0.00023545      -1.5294e-008   
  3.15            -1.7101e-009    0.00023698      4.312e-009     
  3.2             1.1574e-009     0.0002385       1.6954e-008    
  3.25            -6.214e-010     0.00023991      -1.5016e-008   
  3.3             -1.7038e-009    0.00024131      4.284e-009     
  3.35            1.1602e-009     0.00024273      1.7001e-008    
  3.4             -6.281e-010     0.00024406      -1.4996e-008   
  3.45            -1.698e-009     0.00024538      4.264e-009     
  3.5             1.1684e-009     0.00024675      1.7193e-008    
  3.55            -6.326e-010     0.00024797      -1.5311e-008   
  3.6             -1.6981e-009    0.00024925      4.341e-009     
  3.65            1.1755e-009     0.00025048      1.7244e-008    
  3.7             -6.384e-010     0.00025168      -1.534e-008    
  3.75            -1.7009e-009    0.00025283      4.279e-009     
  3.8             1.1817e-009     0.000254        1.7334e-008    
  3.85            -6.439e-010     0.00025512      -1.567e-008    
  3.9             -1.6991e-009    0.00025621      4.407e-009     
  3.95            1.1866e-009     0.00025732      1.7368e-008    
  4               -6.522e-010     0.00025835      -1.5805e-008   
  4.05            -1.6985e-009    0.0002594       4.53e-009      
  4.1             1.1916e-009     0.00026042      1.7254e-008    
  4.15            -6.575e-010     0.00026138      -1.5719e-008   
  4.2             -1.69e-009      0.00026232      4.456e-009     
  4.25            1.1993e-009     0.00026333      1.7224e-008    
  4.3             -6.644e-010     0.00026423      -1.563e-008    
  4.35            -1.6832e-009    0.00026511      4.337e-009     
  4.4             1.2028e-009     0.00026606      1.7379e-008    
  4.45            -6.743e-010     0.00026687      -1.556e-008    
  4.5             -1.6737e-009    0.00026772      4.361e-009     
  4.55            1.2091e-009     0.00026855      1.7264e-008    
  4.6             -6.827e-010     0.00026935      -1.5476e-008   
  4.65            -1.6665e-009    0.00027012      4.331e-009     
  4.7             1.2154e-009     0.00027091      1.7271e-008    
  4.75            -6.853e-010     0.00027169      -1.5371e-008   
  4.8             -1.6561e-009    0.0002724       4.244e-009     
  4.85            1.2182e-009     0.0002731       1.7248e-008    
  4.9             -6.927e-010     0.00027383      -1.5289e-008   
  4.95            -1.6433e-009    0.00027451      4.178e-009     
  5               1.2253e-009     0.00027518      1.7334e-008    
END_DB

BEGIN_DB
 ICCAP_VAR VS         0              
 ICCAP_VAR VB         0              
 ICCAP_VAR VD         5              

 #VG              IG              ID              IB             
  0               3.15e-011       2.3239e-005     -1.321e-008    
  0.05            8.078e-010      4.3672e-005     1.3413e-008    
  0.1             1.8754e-009     7.0327e-005     -3.758e-009    
  0.15            -8.794e-010     0.000102654     -1.3072e-008   
  0.2             -1.862e-009     0.00014146      5.515e-009     
  0.25            1.0893e-009     0.00018554      1.5792e-008    
  0.3             -5.077e-010     0.00023265      -1.5119e-008   
  0.35            -1.8154e-009    0.00028577      5.279e-009     
  0.4             5.428e-010      0.00034406      1.5486e-008    
  0.45            1.7889e-009     0.00040421      -5.035e-009    
  0.5             -5.598e-010     0.00046691      -1.5769e-008   
  0.55            -1.7838e-009    0.00053495      5.135e-009     
  0.6             5.992e-010      0.00060748      1.5731e-008    
  0.65            1.7475e-009     0.00068069      -4.743e-009    
  0.7             -6.147e-010     0.00075555      -1.616e-008    
  0.75            -1.7398e-009    0.00083531      4.653e-009     
  0.8             1.1604e-009     0.00091895      1.661e-008     
  0.85            -6.149e-010     0.00100094      -1.5727e-008   
  0.9             -1.7356e-009    0.00108823      4.587e-009     
  0.95            1.3564e-009     0.0011776       1.4964e-008    
  1               9.741e-010      0.0012706       1.3626e-008    
  1.05            1.8428e-009     0.0013639       -9.289e-009    
  1.1             -1.0226e-009    0.001458        -1.507e-008    
  1.15            4.632e-010      0.0015581       1.3285e-008    
  1.2             1.8412e-009     0.0016566       -5.332e-009    
  1.25            -1.0222e-009    0.0017565       -1.4956e-008   
  1.3             4.647e-010      0.0018623       1.3502e-008    
  1.35            1.8376e-009     0.0019667       -5.347e-009    
  1.4             -1.023e-009     0.0020715       -1.5106e-008   
  1.45            4.631e-010      0.0021826       1.3312e-008    
  1.5             1.833e-009      0.0022917       -5.376e-009    
  1.55            -1.0266e-009    0.0024014       -1.5087e-008   
  1.6             4.683e-010      0.0025171       1.3406e-008    
  1.65            1.8357e-009     0.0026308       -5.359e-009    
  1.7             -1.0308e-009    0.0027448       -1.5086e-008   
  1.75            4.722e-010      0.0028649       1.3402e-008    
  1.8             1.8336e-009     0.0029824       -5.355e-009    
  1.85            -1.0301e-009    0.0031003       -1.5085e-008   
  1.9             4.696e-010      0.0032242       1.3477e-008    
  1.95            1.833e-009      0.0033455       -5.33e-009     
  2               -1.0311e-009    0.003467        -1.5118e-008   
  2.05            4.746e-010      0.0035945       1.3869e-008    
  2.1             1.8317e-009     0.0037188       -5.366e-009    
  2.15            -1.0339e-009    0.0038436       -1.5235e-008   
  2.2             4.777e-010      0.0039742       1.3767e-008    
  2.25            1.8285e-009     0.0041013       -5.33e-009     
  2.3             -1.0363e-009    0.0042285       -1.5313e-008   
  2.35            4.769e-010      0.0043616       1.3718e-008    
  2.4             1.8301e-009     0.0044914       -5.317e-009    
  2.45            -1.0394e-009    0.0046208       -1.5317e-008   
  2.5             4.799e-010      0.0047565       1.3884e-008    
  2.55            1.8273e-009     0.0048877       -5.31e-009     
  2.6             -1.0418e-009    0.0050191       -1.5343e-008   
  2.65            4.839e-010      0.0051557       1.4058e-008    
  2.7             1.8207e-009     0.0052887       -5.308e-009    
  2.75            -4.956e-010     0.0054205       -1.4555e-008   
  2.8             -1.8149e-009    0.005556        5.197e-009     
  2.85            1.0776e-009     0.0056929       1.5925e-008    
  2.9             -5e-010         0.0058253       -1.4645e-008   
  2.95            -1.8062e-009    0.0059605       5.098e-009     
  3               1.0826e-009     0.0060971       1.5898e-008    
  3.05            -4.967e-010     0.0062287       -1.4622e-008   
  3.1             -1.7992e-009    0.006363        5.023e-009     
  3.15            5.351e-010      0.0064991       1.4837e-008    
  3.2             1.7592e-009     0.00663         -4.794e-009    
  3.25            -5.51e-010      0.0067556       -1.484e-008    
  3.3             -1.7501e-009    0.0068805       4.606e-009     
  3.35            1.1143e-009     0.0070024       1.6032e-008    
  3.4             -5.575e-010     0.0071129       -1.4831e-008   
  3.45            -1.7465e-009    0.0072206       4.609e-009     
  3.5             5.963e-010      0.0073264       1.4583e-008    
  3.55            1.7061e-009     0.0074247       -4.385e-009    
  3.6             -1.1159e-009    0.0075168       -1.6104e-008   
  3.65            6.019e-010      0.0076093       1.4399e-008    
  3.7             1.707e-009      0.0076957       -4.312e-009    
  3.75            -1.1158e-009    0.0077764       -1.6106e-008   
  3.8             6.043e-010      0.0078591       1.4313e-008    
  3.85            1.7061e-009     0.0079357       -4.35e-009     
  3.9             -1.1189e-009    0.0080081       -1.6136e-008   
  3.95            6.025e-010      0.0080821       1.4623e-008    
  4               1.7057e-009     0.0081512       -4.386e-009    
  4.05            -1.1188e-009    0.0082177       -1.6179e-008   
  4.1             6.032e-010      0.0082819       1.4606e-008    
  4.15            1.7041e-009     0.0083469       -4.321e-009    
  4.2             -1.1229e-009    0.0084068       -1.642e-008    
  4.25            6.094e-010      0.0084668       1.493e-008     
  4.3             1.7117e-009     0.0085224       -4.362e-009    
  4.35            -6.235e-010     0.008584        -1.5173e-008   
  4.4             -1.7028e-009    0.0086496       4.287e-009     
  4.45            1.1625e-009     0.008703        1.7089e-008    
  4.5             -6.251e-010     0.0087521       -1.5398e-008   
  4.55            -1.7051e-009    0.0088012       4.327e-009     
  4.6             1.1684e-009     0.0088514       1.7136e-008    
  4.65            -6.244e-010     0.0089017       -1.5604e-008   
  4.7             -1.7168e-009    0.0089487       4.484e-009     
  4.75            1.1693e-009     0.0089929       1.7219e-008    
  4.8             -6.266e-010     0.0090474       -1.5715e-008   
  4.85            -1.7226e-009    0.0090899       4.483e-009     
  4.9             1.1701e-009     0.0091379       1.7132e-008    
  4.95            -6.268e-010     0.009176        -1.6081e-008   
  5               -1.7264e-009    0.0092062       4.555e-009     
END_DB

BEGIN_DB
 ICCAP_VAR VS         0              
 ICCAP_VAR VB         -2.5           
 ICCAP_VAR VD         0.1            

 #VG              IG              ID              IB             
  0               -3.344e-010     3.9493e-006     1.6129e-008    
  0.05            1.1708e-009     1.05281e-005    1.7144e-008    
  0.1             -5.181e-010     1.917e-005      -1.5498e-008   
  0.15            -1.1471e-009    2.8136e-005     -1.7194e-008   
  0.2             6.369e-010      3.7216e-005     1.4927e-008    
  0.25            1.6733e-009     4.5519e-005     -4.102e-009    
  0.3             -1.1507e-009    5.3146e-005     -1.6994e-008   
  0.35            6.492e-010      6.0604e-005     1.4738e-008    
  0.4             1.6665e-009     6.7419e-005     -4.064e-009    
  0.45            -1.1504e-009    7.3678e-005     -1.673e-008    
  0.5             6.53e-010       7.9862e-005     1.4483e-008    
  0.55            1.6585e-009     8.5563e-005     -4.02e-009     
  0.6             -1.1531e-009    9.0885e-005     -1.6526e-008   
  0.65            6.585e-010      9.6156e-005     1.4482e-008    
  0.7             1.6574e-009     0.000101073     -3.996e-009    
  0.75            -1.1569e-009    0.000105696     -1.6416e-008   
  0.8             6.594e-010      0.000110312     1.4352e-008    
  0.85            1.6518e-009     0.00011458      -4.016e-009    
  0.9             8.442e-010      0.00011887      1.3431e-008    
  0.95            1.8805e-009     0.0001229       -4.319e-009    
  1               -9.072e-010     0.00012675      -1.3972e-008   
  1.05            -1.8756e-009    0.00013054      7.597e-009     
  1.1             9.972e-010      0.00013425      1.4839e-008    
  1.15            -3.889e-010     0.00013775      -1.0645e-008   
  1.2             -1.8711e-009    0.00014122      5.388e-009     
  1.25            1.0014e-009     0.00014461      1.4872e-008    
  1.3             -3.891e-010     0.0001478       -1.0654e-008   
  1.35            -1.8703e-009    0.00015103      5.539e-009     
  1.4             1.005e-009      0.00015417      1.513e-008     
  1.45            -3.941e-010     0.00015715      -1.0909e-008   
  1.5             -1.8637e-009    0.0001601       5.454e-009     
  1.55            1.0061e-009     0.00016304      1.5028e-008    
  1.6             -3.958e-010     0.00016583      -1.0722e-008   
  1.65            -1.866e-009     0.00016861      5.415e-009     
  1.7             1.007e-009      0.00017132      1.493e-008     
  1.75            -4.033e-010     0.00017391      -1.1041e-008   
  1.8             -1.8657e-009    0.00017654      5.408e-009     
  1.85            1.0111e-009     0.0001791       1.5046e-008    
  1.9             -4.063e-010     0.0001815       -1.1244e-008   
  1.95            -1.8661e-009    0.00018397      5.491e-009     
  2               1.0142e-009     0.00018637      1.5023e-008    
  2.05            -4.11e-010      0.00018864      -1.1618e-008   
  2.1             -1.8722e-009    0.00019097      5.528e-009     
  2.15            1.0175e-009     0.00019322      1.5071e-008    
  2.2             -4.087e-010     0.00019538      -1.1718e-008   
  2.25            -1.8629e-009    0.00019754      5.505e-009     
  2.3             1.019e-009      0.00019967      1.5197e-008    
  2.35            -4.137e-010     0.00020173      -1.1548e-008   
  2.4             -1.8563e-009    0.00020375      5.452e-009     
  2.45            1.0211e-009     0.00020574      1.5238e-008    
  2.5             -4.182e-010     0.00020767      -1.1966e-008   
  2.55            -1.8541e-009    0.00020962      5.417e-009     
  2.6             1.0242e-009     0.0002115       1.528e-008     
  2.65            -4.206e-010     0.00021331      -1.1936e-008   
  2.7             -1.8485e-009    0.00021515      5.409e-009     
  2.75            1.0294e-009     0.00021692      1.533e-008     
  2.8             -4.268e-010     0.00021863      -1.21e-008     
  2.85            -1.8485e-009    0.00022034      5.384e-009     
  2.9             1.0296e-009     0.00022202      1.5359e-008    
  2.95            -4.291e-010     0.00022363      -1.2143e-008   
  3               -1.85e-009      0.00022526      5.534e-009     
  3.05            1.0318e-009     0.00022683      1.5245e-008    
  3.1             -4.401e-010     0.00022835      -1.2576e-008   
  3.15            -1.8595e-009    0.00022986      5.48e-009      
  3.2             1.0341e-009     0.00023137      1.5309e-008    
  3.25            -4.368e-010     0.0002328       -1.2665e-008   
  3.3             -1.8615e-009    0.00023424      5.545e-009     
  3.35            1.0351e-009     0.0002356       1.5116e-008    
  3.4             -4.393e-010     0.00023696      -1.2721e-008   
  3.45            -1.866e-009     0.0002383       5.596e-009     
  3.5             1.0393e-009     0.0002396       1.5127e-008    
  3.55            -4.468e-010     0.00024088      -1.3077e-008   
  3.6             -1.8684e-009    0.00024216      5.538e-009     
  3.65            1.0422e-009     0.00024338      1.5303e-008    
  3.7             -4.515e-010     0.00024456      -1.3052e-008   
  3.75            -1.8646e-009    0.00024577      5.559e-009     
  3.8             1.0415e-009     0.0002469       1.5288e-008    
  3.85            -4.489e-010     0.000248        -1.3255e-008   
  3.9             -1.8606e-009    0.00024914      5.523e-009     
  3.95            1.0458e-009     0.00025022      1.522e-008     
  4               -4.499e-010     0.00025127      -1.31e-008     
  4.05            -1.8581e-009    0.00025231      5.588e-009     
  4.1             1.0473e-009     0.00025333      1.5491e-008    
  4.15            -4.515e-010     0.00025427      -1.3231e-008   
