! VERSION = 6.00
BEGIN_HEADER
 ICCAP_INPUTS
  VG         V  B GROUND SMU2 0.001 LIN        1    0          5          101  0.05      
  VS         V  E GROUND SMU1 0.1 CON        0
  VB         V  C GROUND SMU3 0.1 LIN        3    0          -5         3    -2.5      
  VD         V  S GROUND SMU4 0.1 LIN        2    0.1        5          2    4.9       
 ICCAP_OUTPUTS
  IG         I  B GROUND SMU2 B
  ID         I  S GROUND SMU4 B
  IB         I  C GROUND SMU3 B
END_HEADER

BEGIN_DB
 ICCAP_VAR VS         0              
 ICCAP_VAR VB         0              
 ICCAP_VAR VD         0.1            

 #VG              IG              ID              IB             
  0               -2.04e-011      1.3779e-005     1.3115e-008    
  0.05            -7.716e-010     2.2505e-005     -1.4566e-008   
  0.1             -1.8306e-009    3.1734e-005     4.035e-009     
  0.15            8.414e-010      4.0745e-005     1.4238e-008    
  0.2             1.8243e-009     4.9145e-005     -4.042e-009    
  0.25            -8.747e-010     5.6885e-005     -1.3566e-008   
  0.3             -1.8287e-009    6.4235e-005     5.637e-009     
  0.35            9.434e-010      7.1197e-005     1.3696e-008    
  0.4             1.8035e-009     7.7641e-005     -7.719e-009    
  0.45            -9.729e-010     8.362e-005      -1.3733e-008   
  0.5             4.147e-010      8.9472e-005     1.0122e-008    
  0.55            1.4645e-009     9.4902e-005     1.3449e-008    
  0.6             -8.93e-010      0.000100009     -1.363e-008    
  0.65            -1.8243e-009    0.000104949     6.329e-009     
  0.7             9.579e-010      0.000109745     1.3649e-008    
  0.75            1.7944e-009     0.00011427      -8.405e-009    
  0.8             1.326e-009      0.00011873      1.5511e-008    
  0.85            -8.039e-010     0.00012286      -1.4332e-008   
  0.9             -1.833e-009     0.00012687      4.162e-009     
  0.95            8.759e-010      0.00013086      1.4095e-008    
  1               1.8157e-009     0.00013466      -4.784e-009    
  1.05            -9.06e-010      0.00013832      -1.3717e-008   
  1.1             -1.8205e-009    0.00014189      7.085e-009     
  1.15            9.707e-010      0.00014539      1.3718e-008    
  1.2             1.7893e-009     0.00014879      -9.014e-009    
  1.25            -9.967e-010     0.00015202      -1.4141e-008   
  1.3             4.433e-010      0.00015531      1.1536e-008    
  1.35            1.8013e-009     0.00015842      -5.208e-009    
  1.4             -9.665e-010     0.00016143      -1.3865e-008   
  1.45            4.084e-010      0.00016446      9.966e-009     
  1.5             1.4593e-009     0.00016736      1.3487e-008    
  1.55            -8.872e-010     0.00017019      -1.3646e-008   
  1.6             -1.8245e-009    0.00017296      6.227e-009     
  1.65            9.552e-010      0.00017571      1.3787e-008    
  1.7             1.7968e-009     0.0001784       -8.122e-009    
  1.75            -9.793e-010     0.000181        -1.3955e-008   
  1.8             4.207e-010      0.00018356      1.0675e-008    
  1.85            1.482e-009      0.00018609      1.3098e-008    
  1.9             -9.052e-010     0.00018852      -1.3699e-008   
  1.95            -1.8268e-009    0.0001909       7.017e-009     
  2               9.675e-010      0.00019326      1.3846e-008    
  2.05            1.794e-009      0.00019563      -8.724e-009    
  2.1             -9.944e-010     0.00019783      -1.4145e-008   
  2.15            4.373e-010      0.00020012      1.1333e-008    
  2.2             1.8071e-009     0.00020232      -5.208e-009    
  2.25            -9.634e-010     0.00020443      -1.399e-008    
  2.3             4.072e-010      0.00020655      9.769e-009     
  2.35            1.4483e-009     0.0002086       1.3579e-008    
  2.4             -8.86e-010      0.0002106       -1.3692e-008   
  2.45            -1.8271e-009    0.00021255      6.022e-009     
  2.5             9.534e-010      0.00021451      1.3708e-008    
  2.55            1.7994e-009     0.00021646      -7.995e-009    
  2.6             -9.778e-010     0.00021831      -1.394e-008    
  2.65            4.224e-010      0.00022019      1.0453e-008    
  2.7             1.4775e-009     0.00022197      1.3186e-008    
  2.75            -9.002e-010     0.00022374      -1.3754e-008   
  2.8             -1.8265e-009    0.00022546      6.579e-009     
  2.85            9.648e-010      0.00022716      1.3777e-008    
  2.9             1.7924e-009     0.00022887      -8.477e-009    
  2.95            -9.917e-010     0.00023048      -1.4006e-008   
  3               4.373e-010      0.00023213      1.1054e-008    
  3.05            1.8031e-009     0.00023366      -5.217e-009    
  3.1             -9.642e-010     0.00023518      -1.3893e-008   
  3.15            4.025e-010      0.00023673      9.32e-009      
  3.2             1.4409e-009     0.0002382       1.3699e-008    
  3.25            -8.841e-010     0.00023968      -1.3728e-008   
  3.3             -1.8288e-009    0.00024105      5.778e-009     
  3.35            9.503e-010      0.00024245      1.3899e-008    
  3.4             1.8016e-009     0.00024384      -7.799e-009    
  3.45            -9.762e-010     0.00024516      -1.3922e-008   
  3.5             4.18e-010       0.00024652      1.0114e-008    
  3.55            1.4658e-009     0.00024778      1.3284e-008    
  3.6             -8.99e-010      0.00024908      -1.3761e-008   
  3.65            -1.8275e-009    0.00025023      6.342e-009     
  3.7             9.639e-010      0.00025145      1.3965e-008    
  3.75            1.7986e-009     0.00025267      -8.261e-009    
  3.8             -9.856e-010     0.0002538       -1.4062e-008   
  3.85            4.28e-010       0.00025497      1.0871e-008    
  3.9             1.4863e-009     0.00025606      1.2956e-008    
  3.95            -9.088e-010     0.00025718      -1.364e-008    
  4               -1.8233e-009    0.0002582       6.919e-009     
  4.05            9.699e-010      0.00025923      1.3804e-008    
  4.1             1.7907e-009     0.00026028      -8.772e-009    
  4.15            -9.98e-010      0.00026126      -1.4128e-008   
  4.2             4.433e-010      0.00026225      1.1207e-008    
  4.25            1.8039e-009     0.00026321      -5.208e-009    
  4.3             -9.69e-010      0.00026411      -1.3858e-008   
  4.35            4.08e-010       0.00026507      9.705e-009     
  4.4             1.4455e-009     0.00026594      1.36e-008      
  4.45            -8.884e-010     0.00026684      -1.3744e-008   
  4.5             -1.8299e-009    0.00026764      6.038e-009     
  4.55            9.546e-010      0.00026846      1.3819e-008    
  4.6             1.7994e-009     0.00026933      -7.951e-009    
  4.65            -9.785e-010     0.00027012      -1.4022e-008   
  4.7             4.211e-010      0.00027087      1.0319e-008    
  4.75            1.4721e-009     0.00027163      1.3298e-008    
  4.8             -8.999e-010     0.00027239      -1.393e-008    
  4.85            -1.8307e-009    0.00027308      6.623e-009     
  4.9             9.655e-010      0.00027378      1.381e-008     
  4.95            1.7962e-009     0.00027449      -8.422e-009    
  5               -9.884e-010     0.00027517      -1.4014e-008   
END_DB

BEGIN_DB
 ICCAP_VAR VS         0              
 ICCAP_VAR VB         0              
 ICCAP_VAR VD         5              

 #VG              IG              ID              IB             
  0               1.8247e-009     2.3536e-005     1.559e-008     
  0.05            5.588e-010      4.395e-005      1.5258e-008    
  0.1             1.759e-009      7.0415e-005     -5.107e-009    
  0.15            -5.446e-010     0.000102416     -1.5108e-008   
  0.2             -1.2432e-009    0.0001412       -1.6504e-008   
  0.25            5.111e-010      0.0001857       1.3994e-008    
  0.3             1.7788e-009     0.00023371      -5.241e-009    
  0.35            -1.0276e-009    0.00028546      -1.4443e-008   
  0.4             4.838e-010      0.0003437       1.3044e-008    
  0.45            1.7948e-009     0.00040379      -5.29e-009     
  0.5             -1e-009         0.00046697      -1.409e-008    
  0.55            4.511e-010      0.00053595      1.1524e-008    
  0.6             1.8068e-009     0.00060636      -5.243e-009    
  0.65            -9.728e-010     0.00067895      -1.3845e-008   
  0.7             4.13e-010       0.00075704      1.0128e-008    
  0.75            1.47e-009       0.00083634      1.328e-008     
  0.8             -8.994e-010     0.00091684      -1.3803e-008   
  0.85            -1.8288e-009    0.00100126      6.645e-009     
  0.9             9.69e-010       0.00108945      1.3707e-008    
  0.95            1.3144e-009     0.0011775       1.5967e-008    
  1               9.353e-010      0.0012708       1.3813e-008    
  1.05            1.8063e-009     0.001364        -7.114e-009    
  1.1             -9.628e-010     0.0014582       -1.3789e-008   
  1.15            3.983e-010      0.0015581       9.433e-009     
  1.2             1.4457e-009     0.0016575       1.3705e-008    
  1.25            -8.86e-010      0.0017577       -1.384e-008    
  1.3             -1.828e-009     0.0018611       5.917e-009     
  1.35            9.545e-010      0.0019681       1.3744e-008    
  1.4             1.7998e-009     0.0020745       -7.999e-009    
  1.45            -9.78e-010      0.0021818       -1.3983e-008   
  1.5             4.298e-010      0.0022942       1.0649e-008    
  1.55            1.4939e-009     0.0024062       1.3001e-008    
  1.6             -9.077e-010     0.0025176       -1.3766e-008   
  1.65            -1.8272e-009    0.0026323       6.993e-009     
  1.7             9.769e-010      0.0027503       1.3645e-008    
  1.75            1.7931e-009     0.0028681       -9.133e-009    
  1.8             -1.0055e-009    0.0029851       -1.4313e-008   
  1.85            4.587e-010      0.0031081       1.1911e-008    
  1.9             1.8057e-009     0.0032291       -5.255e-009    
  1.95            -9.815e-010     0.00335         -1.3874e-008   
  2               4.26e-010       0.0034761       1.0544e-008    
  2.05            1.4858e-009     0.0036007       1.2951e-008    
  2.1             -9.054e-010     0.0037249       -1.3581e-008   
  2.15            -1.8265e-009    0.0038522       6.979e-009     
  2.2             9.751e-010      0.0039824       1.3677e-008    
  2.25            1.7977e-009     0.0041111       -8.977e-009    
  2.3             -1.0033e-009    0.004239        -1.4176e-008   
  2.35            4.514e-010      0.0043723       1.1803e-008    
  2.4             1.8017e-009     0.0045031       -5.259e-009    
  2.45            -9.789e-010     0.0046332       -1.393e-008    
  2.5             4.215e-010      0.0047689       1.0495e-008    
  2.55            1.4816e-009     0.0049021       1.3061e-008    
  2.6             -9.063e-010     0.0050338       -1.3411e-008   
  2.65            -1.83e-009      0.005168        7.133e-009     
  2.7             9.746e-010      0.0053055       1.3733e-008    
  2.75            1.7922e-009     0.0054397       -9.05e-009     
  2.8             -1.004e-009     0.0055734       -1.4119e-008   
  2.85            4.545e-010      0.0057116       1.1845e-008    
  2.9             1.802e-009      0.005847        -5.26e-009     
  2.95            -9.801e-010     0.0059806       -1.3956e-008   
  3               4.248e-010      0.0061179       1.0493e-008    
  3.05            1.4836e-009     0.0062528       1.3025e-008    
  3.1             -9.065e-010     0.0063851       -1.3533e-008   
  3.15            -1.8302e-009    0.0065179       6.971e-009     
  3.2             9.746e-010      0.006651        1.3635e-008    
  3.25            1.7965e-009     0.0067795       -9.058e-009    
  3.3             -1.0036e-009    0.0069004       -1.4166e-008   
  3.35            4.568e-010      0.0070209       1.1847e-008    
  3.4             1.8042e-009     0.0071326       -5.224e-009    
  3.45            -9.784e-010     0.0072381       -1.3902e-008   
  3.5             4.237e-010      0.0073418       1.0597e-008    
  3.55            1.4834e-009     0.0074391       1.2997e-008    
  3.6             -9.082e-010     0.0075314       -1.362e-008    
  3.65            -1.8287e-009    0.0076203       7.012e-009     
  3.7             9.768e-010      0.0077077       1.3664e-008    
  3.75            1.7922e-009     0.007791        -9.049e-009    
  3.8             -1.0051e-009    0.0078701       -1.4112e-008   
  3.85            4.543e-010      0.0079473       1.1932e-008    
  3.9             1.8035e-009     0.0080213       -5.287e-009    
  3.95            -9.803e-010     0.0080926       -1.3959e-008   
  4               4.238e-010      0.0081631       1.0379e-008    
  4.05            1.478e-009      0.0082299       1.2967e-008    
  4.1             -9.046e-010     0.0082936       -1.373e-008    
  4.15            -1.8262e-009    0.008356        6.98e-009      
  4.2             9.752e-010      0.008419        1.3808e-008    
  4.25            1.7929e-009     0.0084782       -8.821e-009    
  4.3             -1.0031e-009    0.008535        -1.4161e-008   
  4.35            4.53e-010       0.0085921       1.1621e-008    
  4.4             1.8006e-009     0.0086462       -5.179e-009    
  4.45            -9.772e-010     0.0086992       -1.3907e-008   
  4.5             4.201e-010      0.0087514       1.0388e-008    
  4.55            1.4769e-009     0.0088022       1.3101e-008    
  4.6             -9.044e-010     0.0088516       -1.3841e-008   
  4.65            -1.8277e-009    0.0089001       6.901e-009     
  4.7             9.731e-010      0.0089472       1.3699e-008    
  4.75            1.7913e-009     0.0089939       -8.827e-009    
  4.8             -1.0011e-009    0.0090379       -1.4209e-008   
  4.85            4.475e-010      0.009081        1.1307e-008    
  4.9             1.8029e-009     0.0091235       -5.217e-009    
  4.95            -9.745e-010     0.0091637       -1.3857e-008   
  5               4.172e-010      0.0092047       1.0084e-008    
END_DB

BEGIN_DB
 ICCAP_VAR VS         0              
 ICCAP_VAR VB         -2.5           
 ICCAP_VAR VD         0.1            

 #VG              IG              ID              IB             
  0               6.1e-012        4.0727e-006     -1.375e-008    
  0.05            -9.338e-010     1.04674e-005    -1.3472e-008   
  0.1             -1.8355e-009    1.9179e-005     4.346e-009     
  0.15            -5.955e-010     2.8185e-005     -1.6027e-008   
  0.2             -1.7414e-009    3.7073e-005     4.992e-009     
  0.25            6.098e-010      4.5537e-005     1.5978e-008    
  0.3             1.7199e-009     5.3242e-005     -4.815e-009    
  0.35            -6.012e-010     6.0321e-005     -1.5791e-008   
  0.4             -1.7443e-009    6.7139e-005     4.999e-009     
  0.45            6.178e-010      7.3648e-005     1.5995e-008    
  0.5             1.7189e-009     7.9622e-005     -4.793e-009    
  0.55            -6.049e-010     8.5169e-005     -1.5965e-008   
  0.6             -1.7369e-009    9.0593e-005     4.933e-009     
  0.65            6.172e-010      9.5834e-005     1.6042e-008    
  0.7             1.7148e-009     0.000100709     -4.781e-009    
  0.75            -1.1028e-009    0.000105304     -1.5958e-008   
  0.8             5.828e-010      0.000109911     1.6069e-008    
  0.85            1.7445e-009     0.00011416      -5.017e-009    
  0.9             1.5024e-009     0.00011841      1.2367e-008    
  0.95            -9.152e-010     0.00012238      -1.3565e-008   
  1               -1.8336e-009    0.00012624      7.5e-009       
  1.05            9.872e-010      0.00013007      1.3591e-008    
  1.1             -3.914e-010     0.00013364      -9.569e-009    
  1.15            -1.4363e-009    0.00013722      -1.347e-008    
  1.2             9.108e-010      0.00014067      1.3495e-008    
  1.25            1.8189e-009     0.00014403      -5.848e-009    
  1.3             -9.412e-010     0.00014725      -1.3501e-008   
  1.35            3.778e-010      0.00015048      8.47e-009      
  1.4             1.4065e-009     0.00015355      1.4222e-008    
  1.45            -8.652e-010     0.00015655      -1.3573e-008   
  1.5             -1.8359e-009    0.00015946      5.066e-009     
  1.55            9.357e-010      0.0001624       1.3514e-008    
  1.6             1.8134e-009     0.00016524      -7.169e-009    
  1.65            -9.641e-010     0.00016795      -1.3651e-008   
  1.7             4.035e-010      0.00017067      9.641e-009     
  1.75            1.4499e-009     0.00017332      1.3363e-008    
  1.8             -8.953e-010     0.00017587      -1.3517e-008   
  1.85            -1.8355e-009    0.00017834      6.182e-009     
  1.9             9.598e-010      0.00018085      1.3479e-008    
  1.95            1.8062e-009     0.00018331      -8.207e-009    
  2               -9.891e-010     0.00018565      -1.3957e-008   
  2.05            4.328e-010      0.00018804      1.0943e-008    
  2.1             1.8175e-009     0.00019028      -5.264e-009    
  2.15            -9.621e-010     0.00019248      -1.3748e-008   
  2.2             4.053e-010      0.0001947       9.583e-009     
  2.25            1.4473e-009     0.00019685      1.3406e-008    
  2.3             -8.861e-010     0.00019896      -1.3353e-008   
  2.35            -1.8372e-009    0.00020099      5.929e-009     
  2.4             9.589e-010      0.00020305      1.3523e-008    
  2.45            1.8089e-009     0.00020505      -7.913e-009    
  2.5             -9.863e-010     0.000207        -1.3816e-008   
  2.55            4.282e-010      0.00020893      1.0645e-008    
  2.6             1.4867e-009     0.00021081      1.2589e-008    
  2.65            -9.085e-010     0.00021263      -1.334e-008    
  2.7             -1.8333e-009    0.00021441      7.036e-009     
  2.75            9.795e-010      0.00021619      1.3584e-008    
  2.8             1.7988e-009     0.00021795      -9.125e-009    
  2.85            -1.0072e-009    0.00021964      -1.424e-008    
  2.9             4.572e-010      0.00022135      1.2e-008       
  2.95            1.8144e-009     0.00022297      -5.339e-009    
  3               -9.858e-010     0.00022456      -1.3838e-008   
  3.05            4.249e-010      0.00022617      1.0606e-008    
  3.1             1.4864e-009     0.00022769      1.2752e-008    
  3.15            -9.084e-010     0.0002292       -1.333e-008    
  3.2             -1.8369e-009    0.00023062      6.983e-009     
  3.25            9.783e-010      0.00023212      1.3661e-008    
  3.3             1.8021e-009     0.0002336       -8.955e-009    
  3.35            -1.003e-009     0.00023494      -1.4019e-008   
  3.4             4.517e-010      0.00023633      1.2005e-008    
  3.45            1.8098e-009     0.00023768      -5.379e-009    
  3.5             -9.803e-010     0.00023897      -1.383e-008    
  3.55            4.246e-010      0.00024029      1.0505e-008    
  3.6             1.4774e-009     0.00024152      1.2977e-008    
  3.65            -9.015e-010     0.00024276      -1.3528e-008   
  3.7             -1.8307e-009    0.00024389      6.805e-009     
  3.75            9.709e-010      0.0002451       1.3535e-008    
  3.8             1.7948e-009     0.00024629      -8.667e-009    
  3.85            -1.0029e-009    0.0002474       -1.4055e-008   
  3.9             4.487e-010      0.00024854      1.1395e-008    
  3.95            1.8049e-009     0.00024962      -5.21e-009     
  4               -9.732e-010     0.00025068      -1.3854e-008   
  4.05            4.159e-010      0.00025172      1.0076e-008    
  4.1             1.4629e-009     0.00025272      1.3217e-008    
  4.15            -8.979e-010     0.00025371      -1.3795e-008   
