! VERSION = 6.00
BEGIN_HEADER
 ICCAP_INPUTS
  VG         V  B GROUND SMU2 0.001 LIN        2    0          5          6    1         
  VS         V  E GROUND SMU1 0.1 CON        0
  VD         V  S GROUND SMU4 0.1 LIN        1    0          5          101  0.05      
  VB         V  C GROUND SMU3 0.1 LIN        3    0          -2.5       2    -2.5      
 ICCAP_OUTPUTS
  ID         I  S GROUND SMU4 B
  IB         I  C GROUND SMU3 B
  IG         I  B GROUND SMU2 B
END_HEADER

BEGIN_DB
 ICCAP_VAR VG         0              
 ICCAP_VAR VS         0              
 ICCAP_VAR VB         0              

 #VD              ID              IB              IG             
  0               9.5612e-008     -1.6361e-008    3.439e-010     
  0.05            9.009e-006      1.2092e-008     1.5152e-009    
  0.1             1.4063e-005     -1.6578e-008    -1.2374e-009   
  0.15            1.651e-005      -1.4454e-008    -8.044e-010    
  0.2             1.744e-005      -1.3308e-008    -1.4566e-009   
  0.25            1.7991e-005     1.4236e-008     5.114e-010     
  0.3             1.8075e-005     1.624e-008      1.1519e-009    
  0.35            1.8216e-005     -3.983e-009     1.826e-009     
  0.4             1.8286e-005     -1.6679e-008    -1.2011e-009   
  0.45            1.8396e-005     6.515e-009      -1.8323e-009   
  0.5             1.8509e-005     1.5792e-008     1.3075e-009    
  0.55            1.8577e-005     -9.477e-009     1.7975e-009    
  0.6             1.8598e-005     -1.4241e-008    -1.4016e-009   
  0.65            1.8778e-005     1.3119e-008     4.733e-010     
  0.7             1.8804e-005     1.5764e-008     6.88e-010      
  0.75            1.8767e-005     1.6044e-008     1.2985e-009    
  0.8             1.8827e-005     -9.19e-009      1.8006e-009    
  0.85            1.8853e-005     -1.4246e-008    -1.3971e-009   
  0.9             1.9011e-005     1.2975e-008     4.72e-010      
  0.95            1.9047e-005     1.577e-008      6.82e-010      
  1               1.9032e-005     1.6052e-008     1.2986e-009    
  1.05            1.9122e-005     -9.171e-009     1.7937e-009    
  1.1             1.9143e-005     -1.4373e-008    -1.3931e-009   
  1.15            1.9314e-005     1.2722e-008     4.676e-010     
  1.2             1.9334e-005     1.5662e-008     6.805e-010     
  1.25            1.9336e-005     1.6076e-008     1.2936e-009    
  1.3             1.9426e-005     -8.962e-009     1.8018e-009    
  1.35            1.9433e-005     -1.4458e-008    -1.3813e-009   
  1.4             1.9609e-005     1.2638e-008     4.678e-010     
  1.45            1.964e-005      1.59e-008       6.746e-010     
  1.5             1.9674e-005     1.6107e-008     1.2872e-009    
  1.55            1.9723e-005     -8.782e-009     1.8009e-009    
  1.6             1.9749e-005     -1.4602e-008    -1.3789e-009   
  1.65            1.9917e-005     1.2415e-008     4.618e-010     
  1.7             1.9994e-005     1.5717e-008     6.68e-010      
  1.75            1.9993e-005     1.6228e-008     1.2839e-009    
  1.8             2.0051e-005     -8.724e-009     1.8035e-009    
  1.85            2.009e-005      -1.4738e-008    -1.374e-009    
  1.9             2.0208e-005     1.2176e-008     4.57e-010      
  1.95            2.0307e-005     1.571e-008      6.664e-010     
  2               2.0295e-005     1.6329e-008     1.2823e-009    
  2.05            2.036e-005      -8.618e-009     1.8063e-009    
  2.1             2.0361e-005     -1.4708e-008    -1.3644e-009   
  2.15            2.0545e-005     1.2109e-008     4.541e-010     
  2.2             2.0632e-005     1.5806e-008     6.638e-010     
  2.25            2.0616e-005     1.6383e-008     1.2778e-009    
  2.3             2.0686e-005     -8.417e-009     1.8046e-009    
  2.35            2.07e-005       -1.4796e-008    -1.3672e-009   
  2.4             2.0841e-005     1.2068e-008     4.542e-010     
  2.45            2.0907e-005     1.5841e-008     6.566e-010     
  2.5             2.0918e-005     1.6331e-008     1.2763e-009    
  2.55            2.099e-005      -8.347e-009     1.8048e-009    
  2.6             2.0993e-005     -1.488e-008     -1.3589e-009   
  2.65            2.1149e-005     1.1805e-008     4.471e-010     
  2.7             2.1199e-005     1.565e-008      6.528e-010     
  2.75            2.1202e-005     1.6364e-008     1.268e-009     
  2.8             2.127e-005      -8.249e-009     1.8088e-009    
  2.85            2.1277e-005     -1.4975e-008    -1.3532e-009   
  2.9             2.1445e-005     1.1671e-008     4.446e-010     
  2.95            2.1508e-005     1.5958e-008     6.518e-010     
  3               2.1512e-005     1.6445e-008     1.2667e-009    
  3.05            2.1602e-005     -8.205e-009     1.8098e-009    
  3.1             2.1588e-005     -1.5196e-008    -1.3498e-009   
  3.15            2.1738e-005     1.1582e-008     4.449e-010     
  3.2             2.1812e-005     1.5878e-008     6.477e-010     
  3.25            2.1825e-005     1.6437e-008     1.262e-009     
  3.3             2.1865e-005     -7.944e-009     1.8072e-009    
  3.35            2.1843e-005     -1.5023e-008    -1.3475e-009   
  3.4             2.2005e-005     1.1457e-008     4.394e-010     
  3.45            2.2099e-005     1.5809e-008     6.44e-010      
  3.5             2.2118e-005     1.6427e-008     1.2616e-009    
  3.55            2.2161e-005     -7.821e-009     1.8088e-009    
  3.6             2.2149e-005     -1.5259e-008    -1.3388e-009   
  3.65            2.2312e-005     1.1151e-008     4.328e-010     
  3.7             2.2399e-005     1.5947e-008     6.367e-010     
  3.75            2.2377e-005     1.661e-008      1.2589e-009    
  3.8             2.2453e-005     -7.714e-009     1.8121e-009    
  3.85            2.2438e-005     -1.5341e-008    -1.3386e-009   
  3.9             2.264e-005      1.1041e-008     4.337e-010     
  3.95            2.2701e-005     1.5962e-008     6.348e-010     
  4               2.2686e-005     1.6549e-008     1.252e-009     
  4.05            2.2743e-005     -7.536e-009     1.812e-009     
  4.1             2.2738e-005     -1.5478e-008    -1.3311e-009   
  4.15            2.2897e-005     1.1017e-008     4.288e-010     
  4.2             2.2987e-005     1.5938e-008     6.313e-010     
  4.25            2.2938e-005     1.6597e-008     1.2483e-009    
  4.3             2.3036e-005     -7.436e-009     1.8099e-009    
  4.35            2.3015e-005     -1.545e-008     -1.3264e-009   
  4.4             2.3165e-005     1.066e-008      4.258e-010     
  4.45            2.3248e-005     1.5959e-008     6.291e-010     
  4.5             2.3214e-005     1.6614e-008     1.249e-009     
  4.55            2.3287e-005     -7.228e-009     1.8142e-009    
  4.6             2.3273e-005     -1.5477e-008    -1.3205e-009   
  4.65            2.3409e-005     1.0701e-008     4.223e-010     
  4.7             2.3495e-005     1.5983e-008     6.217e-010     
  4.75            2.3481e-005     1.6496e-008     1.2397e-009    
  4.8             2.355e-005      -7.044e-009     1.8113e-009    
  4.85            2.3522e-005     -1.5587e-008    -1.3166e-009   
  4.9             2.3686e-005     1.0315e-008     4.182e-010     
  4.95            2.3791e-005     1.5789e-008     6.179e-010     
  5               2.375e-005      1.6564e-008     1.2333e-009    
END_DB

BEGIN_DB
 ICCAP_VAR VG         1              
 ICCAP_VAR VS         0              
 ICCAP_VAR VB         0              

 #VD              ID              IB              IG             
  0               3.0356e-007     1.3829e-008     3.485e-010     
  0.05            5.7871e-005     1.5922e-008     6.308e-010     
  0.1             0.00011527      1.3778e-008     9.168e-010     
  0.15            0.00017176      -1.6489e-008    -1.1453e-009   
  0.2             0.00022747      6.342e-009      -1.8305e-009   
  0.25            0.00028152      1.4598e-008     1.3803e-009    
  0.3             0.00033433      -1.4471e-008    -4.932e-010    
  0.35            0.00038649      -1.6686e-008    -1.1828e-009   
  0.4             0.00043754      7.945e-009      -1.8238e-009   
  0.45            0.00048627      1.3243e-008     1.4444e-009    
  0.5             0.00053343      -1.5632e-008    -5.38e-010     
  0.55            0.00058024      -1.6681e-008    -1.2233e-009   
  0.6             0.00062402      9.616e-009      4.031e-010     
  0.65            0.00066698      1.5645e-008     6.671e-010     
  0.7             0.00070776      1.5289e-008     1.3554e-009    
  0.75            0.00074549      -1.3719e-008    -4.752e-010    
  0.8             0.0007821       -1.6529e-008    -1.1667e-009   
  0.85            0.00081619      7.259e-009      -1.8258e-009   
  0.9             0.00084705      1.394e-008      1.4124e-009    
  0.95            0.00087517      -1.4944e-008    -5.168e-010    
  1               0.00090156      -1.6725e-008    -1.2028e-009   
  1.05            0.0009246       8.745e-009      3.83e-010      
  1.1             0.00094593      1.5828e-008     6.419e-010     
  1.15            0.00096441      1.5673e-008     1.3223e-009    
  1.2             0.00097984      -1.2909e-008    -4.545e-010    
  1.25            0.00099357      -1.6363e-008    -1.1485e-009   
  1.3             0.00100599      6.401e-009      -1.8262e-009   
  1.35            0.00101596      1.4607e-008     1.3827e-009    
  1.4             0.00102451      -1.4522e-008    -4.965e-010    
  1.45            0.00103295      -1.663e-008     -1.1854e-009   
  1.5             0.0010411       7.97e-009       -1.8171e-009   
  1.55            0.00104803      1.3383e-008     1.4494e-009    
  1.6             0.00105435      -1.5545e-008    -5.426e-010    
  1.65            0.00106093      -1.6641e-008    -1.2289e-009   
  1.7             0.00106723      9.52e-009       4.011e-010     
  1.75            0.00107373      1.5784e-008     6.689e-010     
  1.8             0.00107944      1.5215e-008     1.3539e-009    
  1.85            0.00108462      -1.358e-008     -4.786e-010    
  1.9             0.00108987      -1.6562e-008    -1.1678e-009   
  1.95            0.00109561      7.272e-009      -1.824e-009    
  2               0.00110047      1.3888e-008     1.4168e-009    
  2.05            0.00110505      -1.5313e-008    -5.246e-010    
  2.1             0.00111013      -1.6549e-008    -1.2087e-009   
  2.15            0.00111521      8.922e-009      3.852e-010     
  2.2             0.0011203       1.5787e-008     6.42e-010      
  2.25            0.00112466      1.5596e-008     1.3292e-009    
  2.3             0.00112881      -1.281e-008     -4.589e-010    
  2.35            0.00113305      -1.6322e-008    -1.1515e-009   
  2.4             0.00113775      6.634e-009      -1.8267e-009   
  2.45            0.0011428       1.4511e-008     1.3829e-009    
  2.5             0.0011468       1.2424e-008     1.506e-009     
  2.55            0.0011504       -1.5939e-008    -5.797e-010    
  2.6             0.0011546       -1.6218e-008    -1.2632e-009   
  2.65            0.0011586       1.1075e-008     4.323e-010     
  2.7             0.0011628       1.5592e-008     7.056e-010     
  2.75            0.0011664       1.4232e-008     1.408e-009     
  2.8             0.0011698       -1.4907e-008    -5.138e-010    
  2.85            0.0011736       -1.6585e-008    -1.198e-009    
  2.9             0.0011778       8.638e-009      -1.8188e-009   
  2.95            0.0011809       1.3e-008        1.4642e-009    
  3               0.0011844       -1.5887e-008    -5.604e-010    
  3.05            0.0011876       -1.6527e-008    -1.2422e-009   
  3.1             0.0011911       1.0135e-008     4.161e-010     
  3.15            0.0011952       1.5828e-008     6.84e-010      
  3.2             0.0011982       1.4847e-008     1.3721e-009    
  3.25            0.0012013       -1.4318e-008    -4.904e-010    
  3.3             0.0012046       -1.6749e-008    -1.1808e-009   
  3.35            0.0012085       7.914e-009      -1.8277e-009   
  3.4             0.0012115       1.3358e-008     1.4385e-009    
  3.45            0.0012145       -1.5729e-008    -5.344e-010    
  3.5             0.0012175       -1.6932e-008    -1.2235e-009   
  3.55            0.0012212       9.349e-009      4.011e-010     
  3.6             0.001225        1.5819e-008     6.556e-010     
  3.65            0.0012279       1.5352e-008     1.3436e-009    
  3.7             0.0012309       -1.3656e-008    -4.706e-010    
  3.75            0.0012336       -1.6844e-008    -1.1623e-009   
  3.8             0.0012371       6.833e-009      -1.8372e-009   
  3.85            0.00124         1.396e-008      1.4031e-009    
  3.9             0.0012424       -1.5225e-008    -5.145e-010    
  3.95            0.0012456       -1.6942e-008    -1.201e-009    
  4               0.0012492       8.629e-009      -1.8285e-009   
  4.05            0.0012523       1.2687e-008     1.4689e-009    
  4.1             0.0012546       -1.5856e-008    -5.596e-010    
  4.15            0.0012578       -1.6682e-008    -1.2435e-009   
  4.2             0.001261        1.0343e-008     4.184e-010     
  4.25            0.0012638       1.6e-008        1.1195e-009    
  4.3             0.0012671       -4.259e-009     1.8281e-009    
  4.35            0.001269        -1.5987e-008    -1.2911e-009   
  4.4             0.0012723       1.222e-008      4.582e-010     
  4.45            0.0012751       1.6645e-008     1.153e-009     
  4.5             0.0012781       -5.366e-009     1.8279e-009    
  4.55            0.0012799       -1.5027e-008    -1.3436e-009   
  4.6             0.0012832       1.4073e-008     4.974e-010     
  4.65            0.0012855       1.6868e-008     1.1872e-009    
  4.7             0.0012882       -7.235e-009     1.8225e-009    
  4.75            0.0012901       -1.3858e-008    -1.4046e-009   
  4.8             0.001293        1.5349e-008     5.395e-010     
  4.85            0.0012953       1.6952e-008     1.2248e-009    
  4.9             0.001298        -8.745e-009     1.8117e-009    
  4.95            0.0012998       -1.2596e-008    -1.4768e-009   
  5               0.0013026       1.6186e-008     5.833e-010     
END_DB

BEGIN_DB
 ICCAP_VAR VG         2              
 ICCAP_VAR VS         0              
 ICCAP_VAR VB         0              

 #VD              ID              IB              IG             
  0               3.5132e-007     7.01e-009       1.9631e-009    
  0.05            8.9937e-005     -1.1475e-008    -1.5713e-009   
  0.1             0.00018098      -1.6162e-008    -1.2633e-009   
  0.15            0.00027046      1.1091e-008     1.5969e-009    
  0.2             0.0003595       -1.5848e-008    -6.306e-010    
  0.25            0.0004484       -1.5619e-008    -1.3165e-009   
  0.3             0.00053621      1.339e-008      4.813e-010     
  0.35            0.0006239       1.6416e-008     1.1771e-009    
  0.4             0.00071099      -6.365e-009     1.818e-009     
  0.45            0.00079647      -1.4542e-008    -1.3752e-009   
  0.5             0.00088144      1.4492e-008     5.181e-010     
  0.55            0.00096607      1.662e-008      1.2114e-009    
  0.6             0.00104976      -8.022e-009     1.8086e-009    
  0.65            0.00113178      -1.3461e-008    -1.4329e-009   
  0.7             0.0012172       1.259e-008      1.4887e-009    
  0.75            0.0012975       1.5511e-008     7.297e-010     
  0.8             0.0013786       1.38e-008       1.4362e-009    
  0.85            0.0014565       -1.5359e-008    -5.357e-010    
  0.9             0.0015341       -1.6754e-008    -1.2133e-009   
  0.95            0.0016101       9.293e-009      3.971e-010     
  1               0.0016855       1.5871e-008     6.533e-010     
  1.05            0.0017596       1.5457e-008     1.3396e-009    
  1.1             0.0018316       -1.3229e-008    -4.647e-010    
  1.15            0.0019034       -1.6564e-008    -1.1517e-009   
  1.2             0.0019736       6.876e-009      -1.8303e-009   
  1.25            0.0020423       1.4264e-008     1.3972e-009    
  1.3             0.0021089       -1.4711e-008    -5.065e-010    
  1.35            0.0021751       -1.675e-008     -1.1927e-009   
  1.4             0.0022403       8.334e-009      -1.8242e-009   
  1.45            0.0023032       1.3118e-008     1.4614e-009    
  1.5             0.0023649       -1.5799e-008    -5.504e-010    
  1.55            0.0024254       -1.6534e-008    -1.2308e-009   
  1.6             0.0024846       9.869e-009      4.076e-010     
  1.65            0.0025431       1.5774e-008     6.729e-010     
  1.7             0.0025998       1.5021e-008     1.3597e-009    
  1.75            0.0026543       -1.3806e-008    -4.823e-010    
  1.8             0.0027079       -1.6717e-008    -1.1729e-009   
  1.85            0.0027601       7.421e-009      -1.8302e-009   
  1.9             0.00281         1.3839e-008     1.4241e-009    
  1.95            0.002858        -1.5288e-008    -5.294e-010    
  2               0.0029053       -1.6734e-008    -1.2068e-009   
  2.05            0.00295         8.891e-009      3.851e-010     
  2.1             0.0029938       1.5984e-008     6.441e-010     
  2.15            0.0030354       1.5596e-008     1.333e-009     
  2.2             0.0030745       -1.2815e-008    -4.584e-010    
  2.25            0.0031118       -1.6499e-008    -1.1509e-009   
  2.3             0.0031476       6.387e-009      -1.8329e-009   
  2.35            0.0031807       1.4593e-008     1.3849e-009    
  2.4             0.0032118       -1.4507e-008    -4.998e-010    
  2.45            0.0032407       -1.6795e-008    -1.1865e-009   
  2.5             0.003268        8.163e-009      -1.829e-009    
  2.55            0.0032923       1.331e-008      1.4463e-009    
  2.6             0.0033141       -1.5551e-008    -5.438e-010    
  2.65            0.0033339       -1.6714e-008    -1.224e-009    
  2.7             0.0033524       9.638e-009      3.999e-010     
  2.75            0.0033693       1.5809e-008     6.62e-010      
  2.8             0.003384        1.5279e-008     1.3504e-009    
  2.85            0.0033974       -1.359e-008     -4.764e-010    
  2.9             0.00341         -1.66e-008      -1.1646e-009   
  2.95            0.0034227       6.967e-009      -1.8312e-009   
  3               0.0034334       1.4055e-008     1.4113e-009    
  3.05            0.0034435       -1.4953e-008    -5.159e-010    
  3.1             0.0034531       -1.6782e-008    -1.2038e-009   
  3.15            0.0034636       8.761e-009      -1.8252e-009   
  3.2             0.003472        1.2827e-008     1.4733e-009    
  3.25            0.0034798       -1.5877e-008    -5.595e-010    
  3.3             0.0034878       -1.661e-008     -1.2447e-009   
  3.35            0.0034962       1.0299e-008     4.174e-010     
  3.4             0.0035035       1.5626e-008     1.121e-009     
  3.45            0.0035113       -4.14e-009      1.821e-009     
  3.5             0.0035177       -1.6047e-008    -1.2849e-009   
  3.55            0.003525        1.2144e-008     4.519e-010     
  3.6             0.0035315       1.6232e-008     1.1535e-009    
  3.65            0.0035387       -5.276e-009     1.8198e-009    
  3.7             0.0035438       -1.5299e-008    -1.3384e-009   
  3.75            0.0035505       1.3703e-008     4.913e-010     
  3.8             0.0035564       1.6582e-008     1.186e-009     
  3.85            0.0035626       -7.009e-009     1.8154e-009    
  3.9             0.0035673       -1.4037e-008    -1.3957e-009   
  3.95            0.0035738       1.5083e-008     5.333e-010     
  4               0.0035789       1.6719e-008     1.2254e-009    
  4.05            0.0035845       -8.507e-009     1.8067e-009    
  4.1             0.0035889       -1.2936e-008    -1.4586e-009   
  4.15            0.0035948       1.6051e-008     5.752e-010     
