! VERSION = 6.00
BEGIN_HEADER
 ICCAP_INPUTS
  vb         V  B GROUND SMU3 0.02 CON        0
  vc         V  C GROUND SMU2 0.1 LIN        1    0.5        1.1        61   0.01      
  ve         V  E GROUND SMU1 0.1 CON        0
  vs         V  S GROUND SMU4 0.001 CON        0
 ICCAP_OUTPUTS
  ib         I  B GROUND SMU3 B
  ie         I  E GROUND SMU1 B
END_HEADER

BEGIN_DB
 ICCAP_VAR vb         0              
 ICCAP_VAR ve         0              
 ICCAP_VAR vs         0              

 #vc              ib              ie             
  0.5             -7.8554e-006    -4.8755e-008   
  0.51            -1.09761e-005   -7.2603e-008   
  0.52            -1.5163e-005    -1.00762e-007  
  0.53            -2.0629e-005    -1.424e-007    
  0.54            -2.7493e-005    -1.9371e-007   
  0.55            -3.5897e-005    -2.6344e-007   
  0.56            -4.6009e-005    -3.507e-007    
  0.57            -5.7757e-005    -4.5945e-007   
  0.58            -7.112e-005     -5.9374e-007   
  0.59            -8.5869e-005    -7.5173e-007   
  0.6             -0.000102166    -9.4411e-007   
  0.61            -0.00011958     -1.1652e-006   
  0.62            -0.00013826     -1.4199e-006   
  0.63            -0.00015804     -1.7198e-006   
  0.64            -0.00017862     -2.055e-006    
  0.65            -0.00020027     -2.4397e-006   
  0.66            -0.00022253     -2.8697e-006   
  0.67            -0.0002457      -3.3555e-006   
  0.68            -0.00026906     -3.8934e-006   
  0.69            -0.00029329     -4.4819e-006   
  0.7             -0.00031811     -5.1491e-006   
  0.71            -0.00034336     -5.8633e-006   
  0.72            -0.00036865     -6.6457e-006   
  0.73            -0.00039456     -7.5147e-006   
  0.74            -0.00042131     -8.4597e-006   
  0.75            -0.00044807     -9.4812e-006   
  0.76            -0.00047491     -1.05552e-005  
  0.77            -0.00050235     -1.1729e-005   
  0.78            -0.0005296      -1.2987e-005   
  0.79            -0.00055701     -1.4297e-005   
  0.8             -0.00058475     -1.5755e-005   
  0.81            -0.00061346     -1.7383e-005   
  0.82            -0.00064272     -1.9009e-005   
  0.83            -0.0006692      -2.0638e-005   
  0.84            -0.0006972      -2.2423e-005   
  0.85            -0.00072572     -2.4312e-005   
  0.86            -0.00075447     -2.6492e-005   
  0.87            -0.00078443     -2.8428e-005   
  0.88            -0.00081023     -3.0626e-005   
  0.89            -0.00084272     -3.3235e-005   
  0.9             -0.00087233     -3.5737e-005   
  0.91            -0.00090411     -3.8551e-005   
  0.92            -0.0009306      -4.0802e-005   
  0.93            -0.00096052     -4.3688e-005   
  0.94            -0.00098966     -4.641e-005    
  0.95            -0.00101836     -4.9286e-005   
  0.96            -0.00104468     -5.2155e-005   
  0.97            -0.00106113     -5.4131e-005   
  0.98            -0.00108932     -5.7055e-005   
  0.99            -0.00111606     -6.0232e-005   
  1               -0.0011463      -6.3585e-005   
  1.01            -0.0011707      -6.696e-005    
  1.02            -0.0011994      -6.9967e-005   
  1.03            -0.0012239      -7.3574e-005   
  1.04            -0.0012544      -7.7236e-005   
  1.05            -0.001277       -8.0613e-005   
  1.06            -0.0013059      -8.4296e-005   
  1.07            -0.0013252      -8.7152e-005   
  1.08            -0.0013529      -9.1208e-005   
  1.09            -0.0013759      -9.3769e-005   
  1.1             -0.0013963      -9.7119e-005   
END_DB

