! VERSION = 6.00
BEGIN_HEADER
 ICCAP_INPUTS
  vb         V  B GROUND SMU4 0.02 CON        0
  vc         V  C GROUND SMU3 0.1 LIN        1    -0.5       -1.1       61   -0.01     
  ve         V  E GROUND SMU1 0.1 CON        0
  vs         V  S GROUND SMU2 0.001 CON        0
 ICCAP_OUTPUTS
  ib         I  B GROUND SMU4 B
  ie         I  E GROUND SMU1 B
  ic         I  C GROUND SMU3 B
END_HEADER

BEGIN_DB
 ICCAP_VAR vb         0              
 ICCAP_VAR ve         0              
 ICCAP_VAR vs         0              

 #vc              ib              ie              ic             
  -0.5            -1.967e-010     -3.221e-010     1.3444e-008    
  -0.51           1.2085e-009     2.0913e-009     -5.704e-009    
  -0.52           1.2631e-009     1.6276e-009     -1.3888e-008   
  -0.53           1.2244e-009     1.6323e-009     -1.6096e-008   
  -0.54           1.2357e-009     2.117e-009      -1.695e-008    
  -0.55           1.243e-009      3.8555e-009     -1.7606e-008   
  -0.56           1.2245e-009     6.1604e-009     -2.1685e-008   
  -0.57           7.438e-010      9.7449e-009     -2.2606e-008   
  -0.58           7.489e-010      1.8717e-008     -8.112e-009    
  -0.59           1.1949e-009     2.3776e-008     -4.1712e-008   
  -0.6            1.2601e-009     3.4162e-008     -4.3976e-008   
  -0.61           1.2878e-009     4.9538e-008     -6.1848e-008   
  -0.62           1.2198e-009     7.2515e-008     -8.7316e-008   
  -0.63           1.1858e-009     1.0825e-007     -9.072e-008    
  -0.64           -9.141e-010     1.5158e-007     -1.5376e-007   
  -0.65           -1.2156e-009    2.2112e-007     -2.0708e-007   
  -0.66           6.878e-010      3.0726e-007     -2.8981e-007   
  -0.67           1.1029e-009     4.2166e-007     -4.3612e-007   
  -0.68           1.1906e-009     5.6853e-007     -5.7544e-007   
  -0.69           1.2613e-009     7.5822e-007     -7.6384e-007   
  -0.7            1.2868e-009     9.9446e-007     -9.9184e-007   
  -0.71           1.0196e-009     1.274e-006      -1.2478e-006   
  -0.72           1.1959e-009     1.6005e-006     -1.6053e-006   
  -0.73           -6.532e-010     1.9457e-006     -1.9575e-006   
  -0.74           -1.2197e-009    2.4404e-006     -2.4268e-006   
  -0.75           6.452e-010      2.7951e-006     -2.778e-006    
  -0.76           1.245e-009      3.2629e-006     -3.2744e-006   
  -0.77           -6.048e-010     3.722e-006      -3.7259e-006   
  -0.78           -1.267e-009     4.2736e-006     -4.2593e-006   
  -0.79           -1.2592e-009    4.8533e-006     -4.7871e-006   
  -0.8            -1.2541e-009    5.3803e-006     -5.3577e-006   
  -0.81           6.092e-010      5.9461e-006     -5.9128e-006   
  -0.82           1.2775e-009     6.5428e-006     -6.5425e-006   
  -0.83           1.2719e-009     7.2073e-006     -7.1323e-006   
  -0.84           1.2654e-009     7.7662e-006     -7.7391e-006   
  -0.85           1.259e-009      8.378e-006      -8.4024e-006   
  -0.86           1.2517e-009     9.0111e-006     -9.0103e-006   
  -0.87           -5.966e-010     9.6782e-006     -9.6706e-006   
  -0.88           -1.2725e-009    1.02907e-005    -1.03317e-005  
  -0.89           -1.2682e-009    1.10133e-005    -1.0993e-005   
  -0.9            1.282e-009      1.1691e-005     -1.1675e-005   
  -0.91           -6.148e-010     1.2381e-005     -1.2332e-005   
  -0.92           -1.1199e-009    1.3076e-005     -1.3018e-005   
  -0.93           -1.2846e-009    1.3745e-005     -1.3702e-005   
  -0.94           6.466e-010      1.4451e-005     -1.4403e-005   
  -0.95           1.1678e-009     1.5153e-005     -1.5155e-005   
  -0.96           1.2901e-009     1.5854e-005     -1.5827e-005   
  -0.97           -6.5e-010       1.6582e-005     -1.6563e-005   
  -0.98           -1.1907e-009    1.7315e-005     -1.7302e-005   
  -0.99           -1.2804e-009    1.804e-005      -1.7989e-005   
  -1              6.786e-010      1.8785e-005     -1.8688e-005   
  -1.01           1.2318e-009     1.9435e-005     -1.951e-005    
  -1.02           1.2719e-009     2.0152e-005     -2.02e-005     
  -1.03           -6.804e-010     2.0883e-005     -2.089e-005    
  -1.04           -1.2481e-009    2.1601e-005     -2.1598e-005   
  -1.05           -1.256e-009     2.2335e-005     -2.2299e-005   
  -1.06           7.103e-010      2.3098e-005     -2.3087e-005   
  -1.07           1.2729e-009     2.3797e-005     -2.3778e-005   
  -1.08           -6.049e-010     2.4523e-005     -2.4588e-005   
  -1.09           -1.1037e-009    2.5108e-005     -2.5169e-005   
  -1.1            -1.2792e-009    2.6098e-005     -2.5955e-005   
END_DB

