! VERSION = 6.00
BEGIN_HEADER
 ICCAP_INPUTS
  vb         V  B GROUND SMU2 0.01 CON        0
  vc         V  C GROUND SMU3 0.1 CON        0
  ve         V  E GROUND SMU4 0.1 LIN        1    0.6        1          41   0.01      
  vs         V  S GROUND SMU1 0.0001 CON        0
 ICCAP_OUTPUTS
  ib         I  B GROUND SMU2 B
  ic         I  C GROUND SMU3 B
END_HEADER

BEGIN_DB
 ICCAP_VAR vb         0              
 ICCAP_VAR vc         0              
 ICCAP_VAR vs         0              

 #ve              ib              ic             
  0.6             1.3236e-009     1.2278e-008    
  0.61            -2.2743e-009    -1.8581e-008   
  0.62            -1.9464e-009    4.991e-009     
  0.63            -1.2716e-009    -1.6624e-008   
  0.64            -3.7962e-009    -1.7317e-008   
  0.65            -3.0036e-009    -2.7747e-008   
  0.66            -5.962e-009     -3.2938e-008   
  0.67            -7.9719e-009    -6.1448e-008   
  0.68            -1.1461e-008    -7.5129e-008   
  0.69            -1.9835e-008    -1.06441e-007  
  0.7             -2.4228e-008    -1.7466e-007   
  0.71            -3.9667e-008    -2.5669e-007   
  0.72            -5.4596e-008    -3.791e-007    
  0.73            -8.225e-008     -5.3981e-007   
  0.74            -1.1951e-007    -7.8418e-007   
  0.75            -1.7506e-007    -1.11653e-006  
  0.76            -2.5361e-007    -1.6155e-006   
  0.77            -3.7097e-007    -2.2772e-006   
  0.78            -5.3714e-007    -3.2156e-006   
  0.79            -7.7652e-007    -4.4201e-006   
  0.8             -1.1088e-006    -6.0678e-006   
  0.81            -1.5845e-006    -8.1596e-006   
  0.82            -2.2298e-006    -1.08736e-005  
  0.83            -3.1271e-006    -1.4264e-005   
  0.84            -4.3248e-006    -1.8396e-005   
  0.85            -5.9259e-006    -2.3449e-005   
  0.86            -8.0079e-006    -2.9435e-005   
  0.87            -1.06805e-005   -3.6498e-005   
  0.88            -1.4022e-005    -4.4524e-005   
  0.89            -1.8169e-005    -5.3738e-005   
  0.9             -2.3215e-005    -6.4075e-005   
  0.91            -2.9225e-005    -7.5536e-005   
  0.92            -3.6315e-005    -8.8178e-005   
  0.93            -4.448e-005     -0.000101745   
  0.94            -5.3876e-005    -0.00011649    
  0.95            -6.4546e-005    -0.00013238    
  0.96            -7.6491e-005    -0.00014919    
  0.97            -8.9674e-005    -0.00016687    
  0.98            -0.000104296    -0.00018564    
  0.99            -0.0001203      -0.00020541    
  1               -0.00013775     -0.00022602    
END_DB

