! VERSION = 6.00
BEGIN_HEADER
 ICCAP_INPUTS
  vb         V  B GROUND SMU4 0.02 CON        0
  vc         V  C GROUND SMU3 0.1 LIN        1    0.5        1.1        61   0.01      
  ve         V  E GROUND SMU2 0.1 CON        0
  vs         V  S GROUND SMU1 0.001 CON        0
 ICCAP_OUTPUTS
  ib         I  B GROUND SMU4 B
  ie         I  E GROUND SMU2 B
END_HEADER

BEGIN_DB
 ICCAP_VAR vb         0              
 ICCAP_VAR ve         0              
 ICCAP_VAR vs         0              

 #vc              ib              ie             
  0.5             -1.2288e-007    1.7817e-009    
  0.51            -1.7589e-007    1.8076e-009    
  0.52            -2.5169e-007    -9.715e-010    
  0.53            -3.6159e-007    -2.1296e-009   
  0.54            -5.1486e-007    9.298e-010     
  0.55            -7.1828e-007    -9.295e-010    
  0.56            -1.0045e-006    -2.6059e-009   
  0.57            -1.3785e-006    -1.8347e-009   
  0.58            -1.8768e-006    -2.0672e-009   
  0.59            -2.5161e-006    -1.1117e-009   
  0.6             -3.3292e-006    -5.6396e-009   
  0.61            -4.3472e-006    -4.59e-009     
  0.62            -5.6043e-006    -7.3139e-009   
  0.63            -7.1345e-006    -1.0987e-008   
  0.64            -8.9728e-006    -1.5234e-008   
  0.65            -1.11378e-005   -2.4948e-008   
  0.66            -1.37e-005      -3.5059e-008   
  0.67            -1.6692e-005    -4.9115e-008   
  0.68            -2.0161e-005    -6.5932e-008   
  0.69            -2.4145e-005    -9.7624e-008   
  0.7             -2.8661e-005    -1.3554e-007   
  0.71            -3.3824e-005    -1.8598e-007   
  0.72            -3.9663e-005    -2.5891e-007   
  0.73            -4.6244e-005    -3.5741e-007   
  0.74            -5.3561e-005    -4.8443e-007   
  0.75            -6.1818e-005    -6.6403e-007   
  0.76            -7.1026e-005    -8.9259e-007   
  0.77            -8.1304e-005    -1.2009e-006   
  0.78            -9.2734e-005    -1.5991e-006   
  0.79            -0.00010523     -2.1092e-006   
  0.8             -0.00011944     -2.7753e-006   
  0.81            -0.00013531     -3.628e-006    
  0.82            -0.00015304     -4.7e-006      
  0.83            -0.00017291     -6.0519e-006   
  0.84            -0.00019504     -7.7112e-006   
  0.85            -0.00022        -9.7593e-006   
  0.86            -0.00024793     -1.2239e-005   
  0.87            -0.0002792      -1.521e-005    
  0.88            -0.00031395     -1.8694e-005   
  0.89            -0.00035287     -2.2783e-005   
  0.9             -0.00039611     -2.7481e-005   
  0.91            -0.00044398     -3.2829e-005   
  0.92            -0.00049678     -3.8843e-005   
  0.93            -0.0005541      -4.5462e-005   
  0.94            -0.00061704     -5.2789e-005   
  0.95            -0.00068546     -6.0735e-005   
  0.96            -0.0007593      -6.9308e-005   
  0.97            -0.00083858     -7.8478e-005   
  0.98            -0.00092254     -8.8096e-005   
  0.99            -0.00101249     -9.8319e-005   
  1               -0.00110779     -0.000108981   
  1.01            -0.0012079      -0.00012013    
  1.02            -0.0013124      -0.00013155    
  1.03            -0.0014228      -0.00014342    
  1.04            -0.0015378      -0.00015561    
  1.05            -0.0016571      -0.00016807    
  1.06            -0.0017814      -0.00018079    
  1.07            -0.0019087      -0.00019365    
  1.08            -0.002041       -0.0002068     
  1.09            -0.0021772      -0.00022006    
  1.1             -0.0023172      -0.00023353    
END_DB

