! VERSION = 6.00
BEGIN_HEADER
 ICCAP_INPUTS
  vb         V  B GROUND SMU2 0.02 CON        0
  vc         V  C GROUND SMU1 0.1 LIN        1    0.5        1.1        61   0.01      
  ve         V  E GROUND SMU3 0.1 CON        0
  vs         V  S GROUND SMU4 0.001 CON        0
 ICCAP_OUTPUTS
  ib         I  B GROUND SMU2 B
  ie         I  E GROUND SMU3 B
END_HEADER

BEGIN_DB
 ICCAP_VAR vb         0              
 ICCAP_VAR ve         0              
 ICCAP_VAR vs         0              

 #vc              ib              ie             
  0.5             -1.1174e-007    -1.8956e-009   
  0.51            -1.6521e-007    -1.795e-009    
  0.52            -2.3769e-007    1.79e-009      
  0.53            -3.4137e-007    -2.0609e-009   
  0.54            -4.8337e-007    1.4476e-009    
  0.55            -6.8014e-007    -2.0866e-009   
  0.56            -9.4558e-007    6.829e-010     
  0.57            -1.2951e-006    -2.2603e-009   
  0.58            -1.7599e-006    -3.4919e-009   
  0.59            -2.3554e-006    -1.8265e-009   
  0.6             -3.1015e-006    -4.1107e-009   
  0.61            -4.0323e-006    -3.7778e-009   
  0.62            -5.1666e-006    -8.1188e-009   
  0.63            -6.5356e-006    -8.3594e-009   
  0.64            -8.1511e-006    -1.6057e-008   
  0.65            -1.00462e-005   -1.8268e-008   
  0.66            -1.2228e-005    -3.016e-008    
  0.67            -1.4735e-005    -4.054e-008    
  0.68            -1.7592e-005    -5.4e-008      
  0.69            -2.0796e-005    -7.4968e-008   
  0.7             -2.4356e-005    -1.02572e-007  
  0.71            -2.8336e-005    -1.3995e-007   
  0.72            -3.2731e-005    -1.8305e-007   
  0.73            -3.7498e-005    -2.478e-007    
  0.74            -4.2754e-005    -3.2287e-007   
  0.75            -4.8473e-005    -4.2765e-007   
  0.76            -5.4593e-005    -5.5217e-007   
  0.77            -6.1254e-005    -7.1396e-007   
  0.78            -6.8376e-005    -9.1276e-007   
  0.79            -7.5992e-005    -1.1561e-006   
  0.8             -8.4165e-005    -1.4534e-006   
  0.81            -9.2865e-005    -1.8162e-006   
  0.82            -0.000102106    -2.2449e-006   
  0.83            -0.000111967    -2.7648e-006   
  0.84            -0.00012242     -3.3738e-006   
  0.85            -0.00013335     -4.0742e-006   
  0.86            -0.00014496     -4.8924e-006   
  0.87            -0.00015745     -5.8298e-006   
  0.88            -0.00017031     -6.8819e-006   
  0.89            -0.00018407     -8.0781e-006   
  0.9             -0.00019815     -9.4009e-006   
  0.91            -0.00021329     -1.08624e-005  
  0.92            -0.00022897     -1.2469e-005   
  0.93            -0.00024528     -1.4194e-005   
  0.94            -0.00026208     -1.6029e-005   
  0.95            -0.00027952     -1.8056e-005   
  0.96            -0.00029781     -2.0166e-005   
  0.97            -0.00031634     -2.2415e-005   
  0.98            -0.00033587     -2.4772e-005   
  0.99            -0.00035535     -2.7237e-005   
  1               -0.00037587     -2.9758e-005   
  1.01            -0.00039663     -3.2429e-005   
  1.02            -0.00041759     -3.5138e-005   
  1.03            -0.00043929     -3.7944e-005   
  1.04            -0.0004613      -4.0778e-005   
  1.05            -0.0004845      -4.3845e-005   
  1.06            -0.00050627     -4.6786e-005   
  1.07            -0.00052942     -4.9837e-005   
  1.08            -0.00055272     -5.2795e-005   
  1.09            -0.00057535     -5.5968e-005   
  1.1             -0.00060101     -5.9083e-005   
END_DB

