! VERSION = 6.00
BEGIN_HEADER
 ICCAP_INPUTS
  vb         V  B GROUND SMU4 0.02 CON        0
  vc         V  C GROUND SMU3 0.1 LIN        1    -0.5       -1.1       61   -0.01     
  ve         V  E GROUND SMU1 0.1 CON        0
  vs         V  S GROUND SMU2 0.001 CON        0
 ICCAP_OUTPUTS
  ib         I  B GROUND SMU4 B
  ie         I  E GROUND SMU1 B
  ic         I  C GROUND SMU3 B
END_HEADER

BEGIN_DB
 ICCAP_VAR vb         0              
 ICCAP_VAR ve         0              
 ICCAP_VAR vs         0              

 #vc              ib              ie              ic             
  -0.5            8.637e-010      3.658e-010      -1.5779e-008   
  -0.51           1.2101e-009     -8.056e-010     -1.5324e-008   
  -0.52           1.2276e-009     -7.167e-010     -1.6251e-008   
  -0.53           1.2451e-009     -6.017e-010     -1.7033e-008   
  -0.54           1.2629e-009     -4.471e-010     -1.7336e-008   
  -0.55           8.251e-010      1.7315e-009     -1.7246e-008   
  -0.56           1.0949e-009     1.8807e-009     -1.3852e-008   
  -0.57           7.24e-010       1.9324e-009     -1.3589e-008   
  -0.58           1.2157e-009     1.6829e-009     -1.8753e-008   
  -0.59           1.2467e-009     1.5053e-009     -1.4104e-008   
  -0.6            1.2078e-009     2.7528e-009     -1.9323e-008   
  -0.61           1.2602e-009     4.8174e-009     -1.6779e-008   
  -0.62           1.0432e-009     7.6177e-009     -2.4755e-008   
  -0.63           -1.2612e-009    1.475e-008      -9.753e-009    
  -0.64           -1.22e-009      2.1242e-008     -3.867e-009    
  -0.65           -1.1112e-009    3.0892e-008     -1.571e-008    
  -0.66           -1.2121e-009    4.3979e-008     -3.0917e-008   
  -0.67           -1.2497e-009    6.3145e-008     -5.0367e-008   
  -0.68           -1.2554e-009    9.2021e-008     -7.606e-008    
  -0.69           -1.2205e-009    1.3048e-007     -1.1834e-007   
  -0.7            6.718e-010      1.9176e-007     -1.817e-007    
  -0.71           1.054e-009      2.7342e-007     -2.9032e-007   
  -0.72           1.1482e-009     3.8761e-007     -4.0271e-007   
  -0.73           1.2194e-009     5.4888e-007     -5.5818e-007   
  -0.74           1.26e-009       7.6124e-007     -7.7561e-007   
  -0.75           1.857e-010      1.0448e-006     -1.04777e-006  
  -0.76           1.2429e-009     1.3996e-006     -1.4129e-006   
  -0.77           1.2503e-009     1.846e-006      -1.8583e-006   
  -0.78           1.2589e-009     2.3771e-006     -2.3853e-006   
  -0.79           1.2631e-009     3.0052e-006     -3.0215e-006   
  -0.8            1.2621e-009     3.7226e-006     -3.7382e-006   
  -0.81           1.2674e-009     4.5212e-006     -4.5324e-006   
  -0.82           1.2632e-009     5.4133e-006     -5.4336e-006   
  -0.83           1.2638e-009     6.373e-006      -6.3816e-006   
  -0.84           1.2597e-009     7.4158e-006     -7.4193e-006   
  -0.85           1.256e-009      8.4981e-006     -8.509e-006    
  -0.86           1.2488e-009     9.6505e-006     -9.6502e-006   
  -0.87           1.2398e-009     1.0829e-005     -1.08437e-005  
  -0.88           -1.262e-009     1.2057e-005     -1.208e-005    
  -0.89           6.59e-010       1.3395e-005     -1.3361e-005   
  -0.9            1.1686e-009     1.4695e-005     -1.4696e-005   
  -0.91           1.2611e-009     1.6051e-005     -1.6021e-005   
  -0.92           -6.63e-010      1.743e-005      -1.742e-005    
  -0.93           -1.1989e-009    1.8828e-005     -1.8834e-005   
  -0.94           -1.247e-009     2.031e-005      -2.0269e-005   
  -0.95           6.976e-010      2.1785e-005     -2.1746e-005   
  -0.96           1.2354e-009     2.3213e-005     -2.3171e-005   
  -0.97           1.2339e-009     2.4704e-005     -2.4683e-005   
  -0.98           -6.996e-010     2.6244e-005     -2.6261e-005   
  -0.99           -1.2519e-009    2.785e-005      -2.786e-005    
  -1              6.335e-010      2.9436e-005     -2.9364e-005   
  -1.01           1.1218e-009     3.0937e-005     -3.0918e-005   
  -1.02           1.2645e-009     3.2511e-005     -3.2487e-005   
  -1.03           -6.363e-010     3.4137e-005     -3.4128e-005   
  -1.04           -1.165e-009     3.5772e-005     -3.58e-005     
  -1.05           -1.2577e-009    3.7514e-005     -3.7489e-005   
  -1.06           6.689e-010      3.9263e-005     -3.9127e-005   
  -1.07           1.2068e-009     4.0798e-005     -4.065e-005    
  -1.08           1.2489e-009     4.2435e-005     -4.2331e-005   
  -1.09           -6.738e-010     4.4092e-005     -4.4022e-005   
  -1.1            -1.2304e-009    4.5754e-005     -4.582e-005    
END_DB

