! VERSION = 6.00
BEGIN_HEADER
 ICCAP_INPUTS
  VG         V  B GROUND SMU4 0.001 LIN        2    0          -5         6    -1        
  VS         V  E GROUND SMU2 0.1 CON        0
  VD         V  S GROUND SMU1 0.1 LIN        1    0          -5         101  -0.05     
  VB         V  C GROUND SMU3 0.1 LIN        3    0          2.5        2    2.5       
 ICCAP_OUTPUTS
  ID         I  S GROUND SMU1 B
  IB         I  C GROUND SMU3 B
  IG         I  B GROUND SMU4 B
END_HEADER

BEGIN_DB
 ICCAP_VAR VG         0              
 ICCAP_VAR VS         0              
 ICCAP_VAR VB         0              

 #VD              ID              IB              IG             
  0               -1.3438e-009    -1.1187e-008    -1.5031e-009   
  -0.05           -2.3466e-009    -2.991e-009     -1.4364e-009   
  -0.1            -1.4742e-009    -3.242e-008     3.4353e-009    
  -0.15           2.7012e-009     1.3199e-008     3.733e-010     
  -0.2            2.72e-009       1.1568e-008     5.191e-010     
  -0.25           2.7241e-009     1.1328e-008     6.615e-010     
  -0.3            2.7126e-009     1.1412e-008     8.101e-010     
  -0.35           2.6723e-009     1.222e-008      9.819e-010     
  -0.4            2.5561e-009     1.3229e-008     1.1814e-009    
  -0.45           2.3566e-009     1.3632e-008     1.3834e-009    
  -0.5            2.0871e-009     1.3785e-008     1.6126e-009    
  -0.55           1.7807e-009     1.3739e-008     1.843e-009     
  -0.6            2.638e-009      1.3432e-008     1.468e-010     
  -0.65           2.6858e-009     1.2895e-008     3.172e-010     
  -0.7            2.7071e-009     1.1823e-008     4.794e-010     
  -0.75           2.7208e-009     1.125e-008      6.17e-010      
  -0.8            2.7153e-009     1.1234e-008     7.609e-010     
  -0.85           2.6897e-009     1.1806e-008     9.207e-010     
  -0.9            2.5976e-009     1.2893e-008     1.1029e-009    
  -0.95           2.4246e-009     1.3536e-008     1.3195e-009    
  -1              2.1691e-009     1.3731e-008     1.555e-009     
  -1.05           1.8763e-009     1.3867e-008     1.7732e-009    
  -1.1            2.4531e-009     1.3453e-008     -2.131e-010    
  -1.15           2.5589e-009     1.3473e-008     -2.53e-011     
  -1.2            2.6483e-009     1.342e-008      1.629e-010     
  -1.25           2.6889e-009     1.2773e-008     3.406e-010     
  -1.3            2.7134e-009     1.174e-008      4.969e-010     
  -1.35           2.7247e-009     1.1256e-008     6.338e-010     
  -1.4            2.7147e-009     1.1322e-008     7.81e-010      
  -1.45           2.6861e-009     1.1682e-008     9.526e-010     
  -1.5            2.5886e-009     1.2699e-008     1.1347e-009    
  -1.55           2.4036e-009     1.317e-008      1.3567e-009    
  -1.6            2.1402e-009     1.3546e-008     1.5912e-009    
  -1.65           1.8337e-009     1.3833e-008     1.8235e-009    
  -1.7            2.6316e-009     1.3493e-008     1.159e-010     
  -1.75           2.6843e-009     1.31e-008       2.932e-010     
  -1.8            2.7111e-009     1.2022e-008     4.567e-010     
  -1.85           2.7205e-009     1.1389e-008     6.001e-010     
  -1.9            2.7189e-009     1.1222e-008     7.348e-010     
  -1.95           2.6989e-009     1.1692e-008     8.957e-010     
  -2              2.6221e-009     1.2841e-008     1.0845e-009    
  -2.05           2.4634e-009     1.3433e-008     1.2891e-009    
  -2.1            2.2224e-009     1.3664e-008     1.5202e-009    
  -2.15           1.9232e-009     1.3866e-008     1.7504e-009    
  -2.2            2.4417e-009     1.3525e-008     -2.415e-010    
  -2.25           2.5494e-009     1.3473e-008     -5.98e-011     
  -2.3            2.6397e-009     1.3472e-008     1.336e-010     
  -2.35           2.6906e-009     1.2999e-008     3.099e-010     
  -2.4            2.7116e-009     1.1996e-008     4.744e-010     
  -2.45           2.7242e-009     1.1343e-008     6.136e-010     
  -2.5            2.7137e-009     1.1328e-008     7.606e-010     
  -2.55           2.6896e-009     1.1858e-008     9.203e-010     
  -2.6            2.6063e-009     1.2883e-008     1.1061e-009    
  -2.65           2.4324e-009     1.3521e-008     1.3156e-009    
  -2.7            2.185e-009      1.3687e-008     1.55e-009      
  -2.75           1.8906e-009     1.3825e-008     1.7785e-009    
  -2.8            2.4542e-009     1.3531e-008     -2.175e-010    
  -2.85           2.5609e-009     1.3529e-008     -3.87e-011     
  -2.9            2.6425e-009     1.3472e-008     1.501e-010     
  -2.95           2.6917e-009     1.2985e-008     3.36e-010      
  -3              2.7165e-009     1.2001e-008     4.915e-010     
  -3.05           2.7245e-009     1.1375e-008     6.314e-010     
  -3.1            2.7167e-009     1.1226e-008     7.768e-010     
  -3.15           2.683e-009      1.1765e-008     9.433e-010     
  -3.2            2.5912e-009     1.2554e-008     1.1274e-009    
  -3.25           2.4136e-009     1.3192e-008     1.3415e-009    
  -3.3            2.157e-009      1.3706e-008     1.5756e-009    
  -3.35           1.8443e-009     1.3849e-008     1.806e-009     
  -3.4            2.4639e-009     1.3472e-008     -1.995e-010    
  -3.45           2.5729e-009     1.3522e-008     -8.9e-012      
  -3.5            2.6556e-009     1.3408e-008     1.8e-010       
  -3.55           2.6919e-009     1.2667e-008     3.505e-010     
  -3.6            2.7148e-009     1.169e-008      5.093e-010     
  -3.65           2.7179e-009     1.12e-008       6.474e-010     
  -3.7            2.7092e-009     1.1282e-008     7.933e-010     
  -3.75           2.6708e-009     1.1704e-008     9.627e-010     
  -3.8            2.5678e-009     1.2662e-008     1.157e-009     
  -3.85           2.3751e-009     1.3237e-008     1.3804e-009    
  -3.9            2.1137e-009     1.3683e-008     1.6181e-009    
  -3.95           1.8067e-009     1.379e-008      1.8482e-009    
  -4              2.6255e-009     1.3515e-008     1.201e-010     
  -4.05           2.6797e-009     1.2957e-008     2.976e-010     
  -4.1            2.7069e-009     1.1941e-008     4.627e-010     
  -4.15           2.7092e-009     1.1427e-008     6.076e-010     
  -4.2            2.7031e-009     1.1203e-008     7.524e-010     
  -4.25           2.678e-009      1.1651e-008     9.164e-010     
  -4.3            2.5933e-009     1.2823e-008     1.0939e-009    
  -4.35           2.428e-009      1.354e-008      1.3045e-009    
  -4.4            2.1883e-009     1.3711e-008     1.5387e-009    
  -4.45           1.8884e-009     1.3856e-008     1.7708e-009    
  -4.5            2.4299e-009     1.3643e-008     -2.318e-010    
  -4.55           2.5369e-009     1.3558e-008     -4.76e-011     
  -4.6            2.62e-009       1.3497e-008     1.409e-010     
  -4.65           2.6664e-009     1.3039e-008     3.185e-010     
  -4.7            2.6862e-009     1.2064e-008     4.762e-010     
  -4.75           2.6882e-009     1.1297e-008     6.203e-010     
  -4.8            2.6784e-009     1.1262e-008     7.611e-010     
  -4.85           2.6434e-009     1.165e-008      9.264e-010     
  -4.9            2.5538e-009     1.2497e-008     1.1116e-009    
  -4.95           2.3745e-009     1.3229e-008     1.3272e-009    
  -5              2.1181e-009     1.3588e-008     1.5658e-009    
END_DB

BEGIN_DB
 ICCAP_VAR VG         -1             
 ICCAP_VAR VS         0              
 ICCAP_VAR VB         0              

 #VD              ID              IB              IG             
  0               -9.638e-008     -2.0931e-008    -1.4457e-009   
  -0.05           -4.0759e-006    -1.1289e-008    -2.0446e-009   
  -0.1            -5.9325e-006    1.388e-008      1.972e-009     
  -0.15           -6.5922e-006    -2.6149e-008    2.0965e-009    
  -0.2            -6.9531e-006    -3.0687e-008    2.3844e-009    
  -0.25           -7.1979e-006    -3.2786e-008    2.6675e-009    
  -0.3            -7.3876e-006    -3.2721e-008    2.9152e-009    
  -0.35           -7.5577e-006    -3.1729e-008    3.1276e-009    
  -0.4            -7.7108e-006    -2.9833e-008    3.2918e-009    
  -0.45           -7.8635e-006    -1.1036e-008    1.625e-010     
  -0.5            -7.7463e-006    1.3157e-008     -1.4879e-009   
  -0.55           -8.1164e-006    1.2087e-008     1.2775e-009    
  -0.6            -8.1813e-006    -3.0885e-008    3.2323e-009    
  -0.65           -8.2993e-006    -2.8463e-008    3.3559e-009    
  -0.7            -8.4286e-006    -1.2164e-008    2.046e-010     
  -0.75           -8.2765e-006    1.2812e-008     -1.4945e-009   
  -0.8            -8.623e-006     1.179e-008      1.1969e-009    
  -0.85           -8.7043e-006    -2.9662e-008    3.3008e-009    
  -0.9            -8.8297e-006    -1.1213e-008    1.752e-010     
  -0.95           -8.665e-006     1.3038e-008     -1.4892e-009   
  -1              -9.0302e-006    1.2125e-008     1.2607e-009    
  -1.05           -9.0845e-006    -3.0734e-008    3.2439e-009    
  -1.1            -9.2044e-006    -1.0829e-008    1.258e-010     
  -1.15           -9.0267e-006    1.3318e-008     -1.4827e-009   
  -1.2            -9.4212e-006    1.2106e-008     1.3219e-009    
  -1.25           -9.4408e-006    -3.1464e-008    3.1794e-009    
  -1.3            -9.5667e-006    -1.069e-008     8.98e-011      
  -1.35           -9.375e-006     1.3609e-008     -1.4717e-009   
  -1.4            -9.7952e-006    1.2239e-008     1.3927e-009    
  -1.45           -9.7865e-006    -3.2107e-008    3.1005e-009    
  -1.5            -9.8801e-006    -3.0129e-008    3.2669e-009    
  -1.55           -9.9991e-006    -1.0948e-008    1.414e-010     
  -1.6            -9.7941e-006    1.3232e-008     -1.486e-009    
  -1.65           -1.01936e-005   1.1997e-008     1.3064e-009    
  -1.7            -1.02121e-005   -3.1249e-008    3.2085e-009    
  -1.75           -1.03284e-005   -1.0739e-008    1.02e-010      
  -1.8            -1.01248e-005   1.3461e-008     -1.4754e-009   
  -1.85           -1.05479e-005   1.2252e-008     1.3714e-009    
  -1.9            -1.0534e-005    -3.2015e-008    3.1229e-009    
  -1.95           -1.0632e-005    -2.9725e-008    3.2892e-009    
  -2              -1.07456e-005   -1.1061e-008    1.53e-010      
  -2.05           -1.05234e-005   1.3102e-008     -1.4874e-009   
  -2.1            -1.0934e-005    1.1898e-008     1.2879e-009    
  -2.15           -1.09468e-005   -3.1024e-008    3.2255e-009    
  -2.2            -1.10694e-005   -1.0728e-008    1.176e-010     
  -2.25           -1.08364e-005   1.3401e-008     -1.4789e-009   
  -2.3            -1.12763e-005   1.2107e-008     1.3548e-009    
  -2.35           -1.12673e-005   -3.1689e-008    3.1537e-009    
  -2.4            -1.13879e-005   -1.0748e-008    3.3791e-009    
  -2.45           -1.156e-005     1.2601e-008     1.4476e-009    
  -2.5            -1.1497e-005    -2.1402e-008    1.8308e-009    
  -2.55           -1.1598e-005    -3.0698e-008    3.2335e-009    
  -2.6            -1.1634e-005    -3.0474e-008    2.3724e-009    
  -2.65           -1.1791e-005    -1.5487e-008    2.828e-010     
  -2.7            -1.1568e-005    1.4597e-008     -1.402e-009    
  -2.75           -1.1737e-005    4.02e-010       3.4191e-009    
  -2.8            -1.1965e-005    -3.2432e-008    2.887e-009     
  -2.85           -1.2039e-005    -2.276e-008     1.894e-009     
  -2.9            -1.2155e-005    -2.9827e-008    3.266e-009     
  -2.95           -1.2187e-005    -3.0923e-008    2.461e-009     
  -3              -1.2338e-005    -1.5928e-008    3.064e-010     
  -3.05           -1.2115e-005    1.5031e-008     -1.4118e-009   
  -3.1            -1.2291e-005    1.17e-009       3.4339e-009    
  -3.15           -1.2519e-005    -3.1662e-008    2.9469e-009    
  -3.2            -1.2585e-005    -2.3023e-008    1.9659e-009    
  -3.25           -1.2707e-005    -2.807e-008     3.3039e-009    
  -3.3            -1.2738e-005    -3.023e-008     2.5373e-009    
  -3.35           -1.2873e-005    -1.5362e-008    3.258e-010     
  -3.4            -1.2645e-005    1.7026e-008     -1.4231e-009   
  -3.45           -1.2933e-005    1.7143e-008     2.3166e-009    
  -3.5            -1.3094e-005    -1.8708e-008    1.5544e-009    
  -3.55           -1.2955e-005    -9.49e-010      -2.7137e-009   
  -3.6            -1.3063e-005    1.8338e-008     6.434e-010     
  -3.65           -1.3278e-005    -2.69e-009      3.4758e-009    
  -3.7            -1.3445e-005    -1.2125e-008    3.3123e-009    
  -3.75           -1.3475e-005    -1.3087e-008    2.2455e-009    
  -3.8            -1.3383e-005    4.955e-009      -2.3674e-009   
  -3.85           -1.3436e-005    2.6337e-008     3.447e-010     
  -3.9            -1.3636e-005    4.399e-009      3.3869e-009    
  -3.95           -1.3525e-005    7.798e-009      -1.2353e-009   
  -4              -1.3582e-005    4.0694e-008     -1.5008e-009   
  -4.05           -1.3833e-005    2.9199e-008     3.4753e-009    
  -4.1            -1.3663e-005    1.7793e-008     -1.5117e-009   
  -4.15           -1.381e-005     4.7415e-008     -1.452e-009    
  -4.2            -1.4037e-005    3.6818e-008     3.4678e-009    
  -4.25           -1.389e-005     3.1003e-008     -1.7972e-009   
  -4.3            -1.4073e-005    5.8604e-008     -1.5213e-009   
  -4.35           -1.4324e-005    6.7038e-008     3.195e-009     
  -4.4            -1.4338e-005    4.8187e-008     -9.708e-010    
  -4.45           -1.4303e-005    8.977e-008      -1.4864e-009   
  -4.5            -1.4617e-005    8.9973e-008     3.3927e-009    
  -4.55           -1.453e-005     7.8419e-008     -1.2212e-009   
  -4.6            -1.472e-005     1.1288e-007     4.943e-010     
  -4.65           -1.4679e-005    1.2412e-007     -1.4834e-009   
  -4.7            -1.4947e-005    1.3129e-007     3.4871e-009    
  -4.75           -1.4772e-005    1.3163e-007     -1.583e-009    
  -4.8            -1.4961e-005    1.7342e-007     -1.4069e-009   
  -4.85           -1.5209e-005    1.7798e-007     3.4676e-009    
  -4.9            -1.5085e-005    1.8629e-007     -1.8337e-009   
  -4.95           -1.5267e-005    2.2944e-007     -1.4609e-009   
  -5              -1.5566e-005    2.584e-007      3.2987e-009    
END_DB

BEGIN_DB
 ICCAP_VAR VG         -2             
 ICCAP_VAR VS         0              
 ICCAP_VAR VB         0              

 #VD              ID              IB              IG             
  0               -1.1938e-006    -1.3649e-008    -2.9053e-009   
  -0.05           -6.876e-005     1.9572e-008     -1.84e-009     
  -0.1            -0.00013293     1.206e-008      -1.5006e-009   
  -0.15           -0.00019399     1.3986e-008     2.0339e-009    
  -0.2            -0.00025103     -2.1451e-008    1.6861e-009    
  -0.25           -0.00030443     -3.3185e-008    2.8887e-009    
  -0.3            -0.0003539      -1.3413e-008    -8.458e-010    
  -0.35           -0.00039933     1.9632e-008     -1.489e-009    
  -0.4            -0.00044255     1.3531e-008     1.617e-009     
  -0.45           -0.0004802      -1.2908e-008    2.454e-010     
  -0.5            -0.00051332     1.5421e-008     -2.4507e-009   
  -0.55           -0.00054392     1.3249e-008     5.078e-010     
  -0.6            -0.00057095     -2.8933e-008    3.3673e-009    
  -0.65           -0.00059385     -3.0275e-008    2.3284e-009    
  -0.7            -0.00061406     -1.1739e-008    1.969e-010     
  -0.75           -0.00062939     1.5634e-008     -2.3444e-009   
  -0.8            -0.00064428     1.3013e-008     5.671e-010     
  -0.85           -0.00065707     -3.0513e-008    3.2959e-009    
  -0.9            -0.00066713     -2.7722e-008    2.146e-009     
  -0.95           -0.0006761      -3.1054e-008    3.252e-009     
  -1              -0.00068341     -2.6245e-008    2.0565e-009    
  -1.05           -0.00069038     -3.1739e-008    3.1953e-009    
  -1.1            -0.0006961      -2.4565e-008    1.9663e-009    
  -1.15           -0.00070161     -3.2297e-008    3.1491e-009    
  -1.2            -0.00070571     -1.3776e-008    -7.004e-010    
  -1.25           -0.00070918     1.8849e-008     -1.4888e-009   
  -1.3            -0.00071651     1.29e-008       1.4414e-009    
  -1.35           -0.00071909     -1.6317e-008    3.205e-010     
  -1.4            -0.00072114     1.4939e-008     -2.6261e-009   
  -1.45           -0.00072633     1.3605e-008     2.3406e-009    
  -1.5            -0.00072991     -2.5855e-008    3.4509e-009    
  -1.55           -0.00073269     -3.2981e-008    2.6563e-009    
  -1.6            -0.00073626     -1.4502e-008    2.759e-010     
  -1.65           -0.00073748     1.5251e-008     -2.5339e-009   
  -1.7            -0.00074123     1.3329e-008     4.468e-010     
  -1.75           -0.00074501     -9.363e-009     3.452e-009     
  -1.8            -0.00074811     -1.0987e-008    1.503e-010     
  -1.85           -0.0007489      1.5799e-008     -2.2564e-009   
  -1.9            -0.00075223     1.2659e-008     6.153e-010     
  -1.95           -0.00075605     -3.1919e-008    3.2306e-009    
  -2              -0.0007581      -2.5133e-008    2.0051e-009    
  -2.05           -0.00076103     -3.2107e-008    3.1803e-009    
  -2.1            -0.00076253     -1.3744e-008    -6.775e-010    
  -2.15           -0.00076418     1.2366e-008     -1.502e-009    
  -2.2            -0.00076989     1.3778e-008     1.7673e-009    
  -2.25           -0.00077058     -2.175e-008     2.1727e-009    
  -2.3            -0.00077285     -3.0881e-008    3.26e-009      
  -2.35           -0.00077486     -2.6287e-008    2.081e-009     
  -2.4            -0.00077734     -3.1637e-008    3.2192e-009    
  -2.45           -0.00077862     -1.3718e-008    -6.504e-010    
  -2.5            -0.00078005     1.2295e-008     -1.4997e-009   
  -2.55           -0.00078564     1.3754e-008     1.7347e-009    
  -2.6            -0.0007865      -1.1238e-008    1.711e-010     
  -2.65           -0.00078645     1.5856e-008     -2.313e-009    
  -2.7            -0.00078921     1.2982e-008     5.842e-010     
  -2.75           -0.00079234     -3.0811e-008    3.2774e-009    
  -2.8            -0.0007939      -2.6143e-008    2.0933e-009    
  -2.85           -0.0007965      -3.1008e-008    3.2333e-009    
  -2.9            -0.00079796     -2.4307e-008    2.0073e-009    
  -2.95           -0.00080031     -3.113e-008     3.1721e-009    
  -3              -0.00080176     -2.234e-008     1.9215e-009    
  -3.05           -0.00080391     -3.0867e-008    3.1232e-009    
  -3.1            -0.00080569     -1.9807e-008    1.8405e-009    
  -3.15           -0.00080781     -2.0645e-008    2.7814e-009    
  -3.2            -0.00081003     -1.4891e-008    3.3829e-009    
  -3.25           -0.00081163     -1.5973e-008    2.0339e-009    
  -3.3            -0.0008125      9.12e-010       -2.5884e-009   
  -3.35           -0.00081444     2.1055e-008     6.515e-010     
  -3.4            -0.00081726     1.43e-010       3.4874e-009    
  -3.45           -0.00081909     -9.529e-009     2.87e-009      
  -3.5            -0.00081983     1.205e-008      -2.245e-009    
  -3.55           -0.00082149     3.6537e-008     3.425e-010     
  -3.6            -0.00082442     3.762e-009      3.4755e-009    
  -3.65           -0.00082388     2.6774e-008     -1.9435e-009   
  -3.7            -0.00082585     5.6202e-008     -1.981e-010    
  -3.75           -0.00082931     3.2902e-008     2.3814e-009    
  -3.8            -0.00083033     6.1603e-008     -2.4477e-009   
  -3.85           -0.00083177     9.5802e-008     5.359e-010     
  -3.9            -0.00083462     7.1274e-008     -4.84e-011     
  -3.95           -0.00083628     1.3911e-007     -2.19e-010     
  -4              -0.00083588     1.6525e-007     -1.6893e-009   
  -4.05           -0.0008388      1.9304e-007     3.1066e-009    
  -4.1            -0.00084002     2.0385e-007     -1.0018e-009   
  -4.15           -0.00084081     2.7851e-007     -1.5053e-009   
