! VERSION = 6.00
BEGIN_HEADER
 ICCAP_INPUTS
  VG         V  B GROUND SMU4 0.001 LIN        1    0          -5         101  -0.05     
  VS         V  E GROUND SMU2 0.1 CON        0
  VB         V  C GROUND SMU3 0.1 LIN        3    0          5          3    2.5       
  VD         V  S GROUND SMU1 0.1 LIN        2    -0.1       -5         2    -4.9      
 ICCAP_OUTPUTS
  IG         I  B GROUND SMU4 B
  ID         I  S GROUND SMU1 B
  IB         I  C GROUND SMU3 B
END_HEADER

BEGIN_DB
 ICCAP_VAR VS         0              
 ICCAP_VAR VB         0              
 ICCAP_VAR VD         -0.1           

 #VG              IG              ID              IB             
  0               -2.391e-010     1.2143e-009     1.2229e-008    
  -0.05           -1.3712e-009    3.988e-010      1.6241e-008    
  -0.1            -2.3078e-009    5.62e-010       1.6757e-008    
  -0.15           -2.3883e-009    -1.3508e-009    1.145e-008     
  -0.2            -2.5764e-009    -1.3485e-009    -5.267e-009    
  -0.25           -1.08e-009      -2.5283e-009    -5.521e-009    
  -0.3            1.8271e-009     -1.9877e-009    -1.3616e-008   
  -0.35           6.33e-010       2.7312e-009     -1.0753e-008   
  -0.4            7.876e-010      2.7048e-009     1.1687e-008    
  -0.45           9.619e-010      2.6546e-009     1.21e-008      
  -0.5            1.1633e-009     2.4968e-009     1.3101e-008    
  -0.55           -1.4023e-009    1.8863e-009     1.3271e-008    
  -0.6            -2.4113e-009    -2.424e-010     1.6396e-008    
  -0.65           -2.1248e-009    -3.5618e-009    1.1649e-008    
  -0.7            -2.2074e-009    -1.1467e-008    -1.2091e-008   
  -0.75           3.0577e-009     -3.9519e-008    -3.152e-008    
  -0.8            -9.799e-010     -1.2942e-007    1.5802e-008    
  -0.85           2.914e-010      -4.1669e-007    -1.6958e-008   
  -0.9            2.7574e-009     -1.156e-006     1.3464e-008    
  -0.95           1.7111e-009     -2.8024e-006    -7.195e-009    
  -1              3.4367e-009     -5.8768e-006    -1.0501e-008   
  -1.05           3.476e-009      -1.05241e-005   1.121e-009     
  -1.1            -1.8903e-009    -1.6483e-005    9.2e-011       
  -1.15           -1.5027e-009    -2.3574e-005    1.2053e-008    
  -1.2            -1.493e-009     -3.1174e-005    1.2605e-008    
  -1.25           -1.4256e-009    -3.8949e-005    1.4213e-008    
  -1.3            -2.2347e-009    -4.6739e-005    1.5854e-008    
  -1.35           -1.6219e-009    -5.4428e-005    1.2051e-008    
  -1.4            -1.4843e-009    -6.1809e-005    1.231e-008     
  -1.45           -1.4782e-009    -6.8915e-005    1.3308e-008    
  -1.5            -1.3558e-009    -7.578e-005     1.4908e-008    
  -1.55           -1.8975e-009    -8.2366e-005    1.6385e-008    
  -1.6            -1.5023e-009    -8.8749e-005    1.209e-008     
  -1.65           -1.4966e-009    -9.4799e-005    1.248e-008     
  -1.7            -1.4267e-009    -0.000100595    1.4119e-008    
  -1.75           -2.2305e-009    -0.000106183    1.5841e-008    
  -1.8            -1.6224e-009    -0.0001116      1.2005e-008    
  -1.85           -1.4854e-009    -0.00011677     1.1825e-008    
  -1.9            -1.4882e-009    -0.00012179     1.2863e-008    
  -1.95           -1.3892e-009    -0.00012656     1.446e-008     
  -2              -2.0345e-009    -0.00013117     1.6194e-008    
  -2.05           -1.5368e-009    -0.00013567     1.2131e-008    
  -2.1            -1.4893e-009    -0.00013995     1.2563e-008    
  -2.15           -1.4526e-009    -0.00014407     1.3839e-008    
  -2.2            -2.3723e-009    -0.00014809     1.5601e-008    
  -2.25           -1.7117e-009    -0.00015199     1.1778e-008    
  -2.3            -1.4833e-009    -0.00015577     1.2119e-008    
  -2.35           -1.4909e-009    -0.00015941     1.2756e-008    
  -2.4            -1.3891e-009    -0.00016292     1.45e-008      
  -2.45           -2.0418e-009    -0.00016634     1.6154e-008    
  -2.5            -1.5357e-009    -0.00016974     1.2147e-008    
  -2.55           -1.4909e-009    -0.00017298     1.2449e-008    
  -2.6            -1.4553e-009    -0.0001761      1.39e-008      
  -2.65           -2.3762e-009    -0.00017913     1.5503e-008    
  -2.7            -1.7104e-009    -0.00018221     1.1724e-008    
  -2.75           -1.4839e-009    -0.00018508     1.2126e-008    
  -2.8            -1.4887e-009    -0.0001879      1.2811e-008    
  -2.85           -1.392e-009     -0.00019063     1.4494e-008    
  -2.9            -2.0437e-009    -0.00019328     1.617e-008     
  -2.95           -1.5364e-009    -0.00019594     1.2109e-008    
  -3              -1.4912e-009    -0.00019849     1.2486e-008    
  -3.05           -1.4557e-009    -0.00020101     1.3877e-008    
  -3.1            -2.3849e-009    -0.00020348     1.5543e-008    
  -3.15           -1.7181e-009    -0.0002059      1.1706e-008    
  -3.2            -1.4851e-009    -0.00020816     1.2117e-008    
  -3.25           -1.4888e-009    -0.00021042     1.2828e-008    
  -3.3            -1.3936e-009    -0.00021259     1.4467e-008    
  -3.35           -2.0474e-009    -0.00021475     1.6152e-008    
  -3.4            -1.5437e-009    -0.00021697     1.2052e-008    
  -3.45           -1.4911e-009    -0.00021904     1.2477e-008    
  -3.5            -1.4572e-009    -0.00022108     1.3834e-008    
  -3.55           -2.392e-009     -0.00022301     1.5529e-008    
  -3.6            -1.7316e-009    -0.00022504     1.1782e-008    
  -3.65           -1.4879e-009    -0.00022698     1.2122e-008    
  -3.7            -1.4913e-009    -0.00022878     1.2765e-008    
  -3.75           -1.3983e-009    -0.00023059     1.4381e-008    
  -3.8            -2.0601e-009    -0.00023239     1.6151e-008    
  -3.85           -1.5453e-009    -0.00023419     1.2116e-008    
  -3.9            -1.4907e-009    -0.00023593     1.2443e-008    
  -3.95           -1.4596e-009    -0.00023758     1.3739e-008    
  -4              -2.4051e-009    -0.00023918     1.5473e-008    
  -4.05           -1.7359e-009    -0.00024091     1.1756e-008    
  -4.1            -1.4852e-009    -0.00024244     1.2099e-008    
  -4.15           -1.4894e-009    -0.000244       1.2732e-008    
  -4.2            -1.3995e-009    -0.0002455      1.4313e-008    
  -4.25           -2.0742e-009    -0.00024698     1.6117e-008    
  -4.3            -1.5465e-009    -0.00024852     1.2076e-008    
  -4.35           -1.488e-009     -0.00024998     1.2479e-008    
  -4.4            -1.4605e-009    -0.00025142     1.3719e-008    
  -4.45           -2.4082e-009    -0.00025279     1.5352e-008    
  -4.5            -1.7505e-009    -0.00025426     1.1623e-008    
  -4.55           -1.4859e-009    -0.00025557     1.2105e-008    
  -4.6            -1.4901e-009    -0.00025687     1.2631e-008    
  -4.65           -1.4034e-009    -0.00025814     1.4279e-008    
  -4.7            -2.0913e-009    -0.00025939     1.605e-008     
  -4.75           -1.5535e-009    -0.00026074     1.2117e-008    
  -4.8            -1.488e-009     -0.00026194     1.2378e-008    
  -4.85           -1.464e-009     -0.0002632      1.3645e-008    
  -4.9            -2.4304e-009    -0.00026432     1.5355e-008    
  -4.95           -1.7565e-009    -0.00026559     1.1686e-008    
  -5              -1.4855e-009    -0.00026664     1.2109e-008    
END_DB

BEGIN_DB
 ICCAP_VAR VS         0              
 ICCAP_VAR VB         0              
 ICCAP_VAR VD         -5             

 #VG              IG              ID              IB             
  0               -2.88e-011      4.29e-011       1.2281e-008    
  -0.05           3.061e-009      -7.896e-010     -2.3116e-008   
  -0.1            1.13e-009       2.5065e-009     -4.799e-009    
  -0.15           1.3611e-009     2.3028e-009     1.3262e-008    
  -0.2            -1.3441e-009    2.1518e-009     1.3683e-008    
  -0.25           -2.1858e-009    5.639e-010      1.7079e-008    
  -0.3            -2.4698e-009    -1.4255e-009    1.1547e-008    
  -0.35           -2.6526e-009    -1.4147e-009    -5e-009        
  -0.4            -2.8196e-009    -1.3936e-009    -4.989e-009    
  -0.45           -1.2877e-009    -2.5573e-009    -4.303e-009    
  -0.5            3.4776e-009     -1.6201e-009    -2.9772e-008   
  -0.55           -1.4794e-009    1.0254e-009     1.2398e-008    
  -0.6            -1.4386e-009    -2.4768e-009    1.5342e-008    
  -0.65           -2.7447e-009    -1.0955e-008    -3.0223e-008   
  -0.7            -2.2325e-009    -3.7279e-008    1.1738e-008    
  -0.75           -1.4905e-009    -1.2971e-007    1.6255e-008    
  -0.8            -1.4762e-009    -4.301e-007     2.2048e-008    
  -0.85           -2.9011e-009    -1.2948e-006    -7.65e-009     
  -0.9            -2.6677e-009    -3.4105e-006    6.6007e-008    
  -0.95           -1.1557e-009    -7.8232e-006    1.1994e-007    
  -1              2.1826e-009     -1.5703e-005    2.5209e-007    
  -1.05           1.4655e-009     -2.7526e-005    3.9145e-007    
  -1.1            3.5822e-009     -4.3827e-005    5.9214e-007    
  -1.15           3.458e-009      -6.4233e-005    8.295e-007     
  -1.2            2.7798e-009     -8.929e-005     1.0774e-006    
  -1.25           3.384e-010      -0.00011857     1.3283e-006    
  -1.3            -3.9e-011       -0.00015099     1.5837e-006    
  -1.35           -5.737e-010     -0.00018641     1.8357e-006    
  -1.4            -9.86e-010      -0.00022517     2.0814e-006    
  -1.45           -1.4006e-009    -0.00026656     2.3119e-006    
  -1.5            -1.8062e-009    -0.00031131     2.5173e-006    
  -1.55           -2.0703e-009    -0.00035897     2.7088e-006    
  -1.6            -2.4868e-009    -0.00040817     2.8711e-006    
  -1.65           -2.8421e-009    -0.00045929     3.0124e-006    
  -1.7            -2.8325e-009    -0.00051237     3.1295e-006    
  -1.75           -2.6234e-009    -0.00056742     3.2287e-006    
  -1.8            -2.0475e-009    -0.0006236      3.3026e-006    
  -1.85           -1.5345e-009    -0.00068218     3.3484e-006    
  -1.9            -1.4513e-009    -0.0007413      3.3743e-006    
  -1.95           -1.4343e-009    -0.00080165     3.3767e-006    
  -2              -2.4397e-009    -0.00086381     3.3602e-006    
  -2.05           -1.7912e-009    -0.00092717     3.322e-006     
  -2.1            -1.4831e-009    -0.00099119     3.274e-006     
  -2.15           -1.4802e-009    -0.00105575     3.2097e-006    
  -2.2            -1.4076e-009    -0.00112164     3.1321e-006    
  -2.25           -6.695e-010     -0.001189       3.0422e-006    
  -2.3            -1.0946e-009    -0.0012568      2.9199e-006    
  -2.35           -1.4987e-009    -0.0013239      2.8157e-006    
  -2.4            -1.9059e-009    -0.0013933      2.7036e-006    
  -2.45           -2.1657e-009    -0.0014645      2.5894e-006    
  -2.5            -2.5631e-009    -0.0015351      2.4683e-006    
  -2.55           -2.9211e-009    -0.0016057      2.3491e-006    
  -2.6            -2.9194e-009    -0.0016777      2.2256e-006    
  -2.65           -2.7115e-009    -0.0017505      2.107e-006     
  -2.7            -2.1425e-009    -0.0018233      1.9931e-006    
  -2.75           -1.5999e-009    -0.0018964      1.8711e-006    
  -2.8            -1.4903e-009    -0.00197        1.7518e-006    
  -2.85           -1.4712e-009    -0.002044       1.6363e-006    
  -2.9            -2.4997e-009    -0.0021192      1.5237e-006    
  -2.95           -1.8503e-009    -0.0021948      1.4117e-006    
  -3              -1.5066e-009    -0.0022703      1.308e-006     
  -3.05           -1.4948e-009    -0.0023466      1.2082e-006    
  -3.1            -1.424e-009     -0.0024229      1.114e-006     
  -3.15           -2.2063e-009    -0.0025         1.025e-006     
  -3.2            3.376e-009      -0.0025794      9.3243e-007    
  -3.25           3.4928e-009     -0.0026572      8.4561e-007    
  -3.3            3.3227e-009     -0.0027343      7.6566e-007    
  -3.35           2.5811e-009     -0.0028123      6.9362e-007    
  -3.4            1.6247e-009     -0.0028916      6.2332e-007    
  -3.45           3.46e-009       -0.0029702      5.5992e-007    
  -3.5            3.4601e-009     -0.0030487      5.1438e-007    
  -3.55           3.0494e-009     -0.0031285      4.6091e-007    
  -3.6            2.0896e-009     -0.0032075      4.1009e-007    
  -3.65           3.3457e-009     -0.003289       3.6153e-007    
  -3.7            3.4891e-009     -0.0033671      3.362e-007     
  -3.75           3.344e-009      -0.0034478      2.9469e-007    
  -3.8            2.6329e-009     -0.0035288      2.6022e-007    
  -3.85           1.6723e-009     -0.0036092      2.2516e-007    
  -3.9            3.4439e-009     -0.0036901      1.955e-007     
  -3.95           3.4719e-009     -0.0037698      1.8229e-007    
  -4              3.0933e-009     -0.00385        1.5854e-007    
  -4.05           2.15e-009       -0.0039318      1.3596e-007    
  -4.1            -1.9583e-009    -0.0040117      1.3933e-007    
  -4.15           -1.5252e-009    -0.0040927      1.1982e-007    
  -4.2            -1.4945e-009    -0.0041741      1.0661e-007    
  -4.25           1.7358e-009     -0.0042572      6.192e-008     
  -4.3            3.4376e-009     -0.0043377      6.0251e-008    
  -4.35           3.4783e-009     -0.0044188      6.2367e-008    
  -4.4            3.1314e-009     -0.0045002      5.1781e-008    
  -4.45           2.2137e-009     -0.0045819      4.1849e-008    
  -4.5            3.3105e-009     -0.0046643      2.9454e-008    
  -4.55           3.4906e-009     -0.0047441      3.8964e-008    
  -4.6            3.3836e-009     -0.0048238      2.8597e-008    
  -4.65           2.7536e-009     -0.0049063      2.2826e-008    
  -4.7            3.3472e-009     -0.0049879      3.3416e-008    
  -4.75           3.4957e-009     -0.0050703      2.2679e-008    
  -4.8            2.482e-009      -0.0051504      2.8753e-008    
  -4.85           3.0022e-009     -0.0052316      2.6139e-008    
  -4.9            1.3658e-009     -0.005314       2.2832e-008    
  -4.95           1.9528e-009     -0.0053947      2.2829e-008    
  -5              2.5139e-009     -0.005468       2.1029e-008    
END_DB

BEGIN_DB
 ICCAP_VAR VS         0              
 ICCAP_VAR VB         2.5            
 ICCAP_VAR VD         -0.1           

 #VG              IG              ID              IB             
  0               -8.189e-010     -8.481e-010     -2.9097e-008   
  -0.05           -2.1722e-009    -1.3663e-009    1.3238e-008    
  -0.1            3.4571e-009     -1.4385e-009    -3.0705e-008   
  -0.15           3.245e-010      2.6961e-009     1.3129e-008    
  -0.2            4.891e-010      2.726e-009      1.2138e-008    
  -0.25           6.388e-010      2.7251e-009     1.1656e-008    
  -0.3            7.877e-010      2.7093e-009     1.1562e-008    
  -0.35           9.52e-010       2.6575e-009     1.2287e-008    
  -0.4            1.1551e-009     2.5405e-009     1.3218e-008    
  -0.45           1.389e-009      2.3312e-009     1.3655e-008    
  -0.5            1.6384e-009     2.0689e-009     1.3774e-008    
  -0.55           1.8713e-009     1.7414e-009     1.377e-008     
  -0.6            1.64e-010       2.653e-009      1.3368e-008    
  -0.65           3.508e-010      2.702e-009      1.303e-008     
  -0.7            5.129e-010      2.7254e-009     1.2063e-008    
  -0.75           6.581e-010      2.7286e-009     1.1546e-008    
  -0.8            8.088e-010      2.7039e-009     1.1503e-008    
  -0.85           9.76e-010       2.6493e-009     1.2361e-008    
  -0.9            1.1777e-009     2.5188e-009     1.3251e-008    
  -0.95           1.4127e-009     2.3077e-009     1.3676e-008    
  -1              1.6678e-009     2.0271e-009     1.3826e-008    
  -1.05           -2.962e-010     2.3689e-009     1.368e-008     
  -1.1            -1.068e-010     2.3953e-009     1.3289e-008    
  -1.15           1.025e-010      2.01e-009       1.3394e-008    
  -1.2            3.043e-010      -2.706e-010     1.3074e-008    
  -1.25           -2.6507e-009    -1.484e-008     -3.1617e-008   
  -1.3            -2.0575e-009    -5.9679e-008    1.1148e-008    
  -1.35           9.366e-010      -2.2901e-007    -2.2521e-008   
  -1.4            1.4593e-009     -7.806e-007     1.3133e-008    
  -1.45           -1.5174e-009    -2.0776e-006    -4.132e-009    
  -1.5            -1.4955e-009    -4.8056e-006    1.2444e-008    
  -1.55           -1.4408e-009    -9.2108e-006    1.3996e-008    
  -1.6            -2.715e-010     -1.5321e-005    1.4665e-008    
  -1.65           -8.159e-010     -2.2136e-005    -1.3415e-008   
  -1.7            1.891e-009      -2.9582e-005    -2.3117e-008   
  -1.75           3.4007e-009     -3.6979e-005    -1.083e-008    
  -1.8            2.0416e-009     -4.4325e-005    1.396e-008     
  -1.85           5.892e-010      -5.123e-005     1.3114e-008    
  -1.9            9.834e-010      -5.8031e-005    1.1555e-008    
  -1.95           1.5314e-009     -6.4577e-005    1.2915e-008    
  -2              2.0955e-009     -7.0573e-005    1.4003e-008    
  -2.05           6.194e-010      -7.6313e-005    1.2861e-008    
  -2.1            1.0237e-009     -8.2016e-005    1.1585e-008    
  -2.15           1.5851e-009     -8.7492e-005    1.3414e-008    
  -2.2            2.1427e-009     -9.2545e-005    1.3991e-008    
  -2.25           6.517e-010      -9.7448e-005    1.2513e-008    
  -2.3            1.0673e-009     -0.00010233     1.152e-008     
  -2.35           1.6366e-009     -0.000107009    1.3536e-008    
  -2.4            2.196e-009      -0.000111337    1.3937e-008    
  -2.45           2.4682e-009     -0.00011563     1.3848e-008    
  -2.5            1.5415e-009     -0.00011982     -8.709e-009    
  -2.55           3.4541e-009     -0.00012384     -9.662e-009    
  -2.6            3.435e-009      -0.00012773     5.21e-010      
  -2.65           2.9732e-009     -0.00013153     -1.193e-009    
  -2.7            1.9717e-009     -0.0001352      -5.313e-009    
  -2.75           3.3744e-009     -0.00013883     -1.0779e-008   
  -2.8            2.0049e-009     -0.00014236     1.3942e-008    
  -2.85           5.453e-010      -0.00014558     1.3223e-008    
  -2.9            9.441e-010      -0.00014891     1.155e-008     
  -2.95           1.4728e-009     -0.00015219     1.3077e-008    
  -3              2.0474e-009     -0.00015529     1.3994e-008    
  -3.05           5.782e-010      -0.00015824     1.3112e-008    
  -3.1            9.764e-010      -0.00016122     1.161e-008     
  -3.15           1.524e-009      -0.00016413     1.3248e-008    
  -3.2            2.0859e-009     -0.00016697     1.4031e-008    
  -3.25           6.127e-010      -0.00016962     1.2975e-008    
  -3.3            1.0175e-009     -0.0001723      1.1279e-008    
  -3.35           1.5811e-009     -0.00017497     1.3074e-008    
  -3.4            2.1357e-009     -0.00017749     1.4018e-008    
  -3.45           6.418e-010      -0.00017991     1.2804e-008    
  -3.5            1.0549e-009     -0.00018239     1.1503e-008    
  -3.55           1.6237e-009     -0.00018482     1.3525e-008    
  -3.6            2.1813e-009     -0.00018709     1.3972e-008    
  -3.65           6.754e-010      -0.00018932     1.2424e-008    
  -3.7            1.0976e-009     -0.00019159     1.1569e-008    
  -3.75           1.6774e-009     -0.00019383     1.3594e-008    
  -3.8            2.2227e-009     -0.00019598     1.3861e-008    
  -3.85           7e-010          -0.00019798     1.2197e-008    
  -3.9            1.1401e-009     -0.00020007     1.1652e-008    
  -3.95           1.7184e-009     -0.00020211     1.3667e-008    
  -4              2.2765e-009     -0.00020403     1.3806e-008    
  -4.05           7.37e-010       -0.0002059      1.1911e-008    
  -4.1            1.1898e-009     -0.00020787     1.1575e-008    
  -4.15           1.774e-009      -0.00020971     1.3652e-008    
