! VERSION = 6.00
BEGIN_HEADER
 ICCAP_INPUTS
  VG         V  B GROUND SMU4 0.001 LIN        1    0          -5         101  -0.05     
  VS         V  E GROUND SMU2 0.1 CON        0
  VB         V  C GROUND SMU3 0.1 LIN        3    0          5          3    2.5       
  VD         V  S GROUND SMU1 0.1 LIN        2    -0.1       -5         2    -4.9      
 ICCAP_OUTPUTS
  IG         I  B GROUND SMU4 B
  ID         I  S GROUND SMU1 B
  IB         I  C GROUND SMU3 B
END_HEADER

BEGIN_DB
 ICCAP_VAR VS         0              
 ICCAP_VAR VB         0              
 ICCAP_VAR VD         -0.1           

 #VG              IG              ID              IB             
  0               -1.2643e-009    -1.2223e-009    -2.1029e-008   
  -0.05           -2.1437e-009    -1.4194e-009    1.0495e-008    
  -0.1            3.5374e-009     -1.4431e-009    -3.3232e-008   
  -0.15           1.0406e-009     2.6621e-009     1.2744e-008    
  -0.2            1.2571e-009     2.4729e-009     1.3358e-008    
  -0.25           1.4957e-009     2.1814e-009     1.3464e-008    
  -0.3            1.7357e-009     1.8496e-009     1.3477e-008    
  -0.35           -2.364e-010     2.4394e-009     1.3289e-008    
  -0.4            -3.94e-011      2.524e-009      1.3552e-008    
  -0.45           1.572e-010      2.585e-009      1.3291e-008    
  -0.5            3.296e-010      2.5863e-009     1.2821e-008    
  -0.55           4.996e-010      2.477e-009      1.2262e-008    
  -0.6            -1.5141e-009    7.164e-010      1.2037e-008    
  -0.65           -1.5131e-009    -3.0319e-009    1.4246e-008    
  -0.7            -2.9159e-009    -1.1851e-008    -2.1954e-008   
  -0.75           -2.8105e-009    -3.8654e-008    4.995e-009     
  -0.8            4.087e-010      -1.235e-007     -1.9459e-008   
  -0.85           8.145e-010      -3.9268e-007    1.213e-008     
  -0.9            1.325e-009      -1.12178e-006   1.2619e-008    
  -0.95           -1.3633e-009    -2.6239e-006    -3.96e-009     
  -1              -1.905e-009     -5.4795e-006    1.5498e-008    
  -1.05           -1.5124e-009    -9.8698e-006    1.1917e-008    
  -1.1            1.8784e-009     -1.574e-005     1.1824e-008    
  -1.15           3.335e-009      -2.2397e-005    -9.816e-009    
  -1.2            2.0226e-009     -2.9683e-005    1.3677e-008    
  -1.25           5.465e-010      -3.6806e-005    1.2973e-008    
  -1.3            9.834e-010      -4.4317e-005    1.209e-008     
  -1.35           1.5299e-009     -5.1711e-005    1.3003e-008    
  -1.4            2.0855e-009     -5.8584e-005    1.371e-008     
  -1.45           5.956e-010      -6.525e-005     1.2797e-008    
  -1.5            1.0409e-009     -7.2001e-005    1.2172e-008    
  -1.55           1.6021e-009     -7.8433e-005    1.3475e-008    
  -1.6            2.1578e-009     -8.4377e-005    1.3681e-008    
  -1.65           6.438e-010      -9.0196e-005    1.2563e-008    
  -1.7            1.0985e-009     -9.6001e-005    1.2168e-008    
  -1.75           1.662e-009      -0.00010153     1.3503e-008    
  -1.8            2.211e-009      -0.000106629    1.3612e-008    
  -1.85           6.844e-010      -0.000111733    1.242e-008     
  -1.9            3.3843e-009     -0.0001167      1.2274e-008    
  -1.95           2.1148e-009     -0.00012148     1.3809e-008    
  -2              6.125e-010      -0.00012592     1.2871e-008    
  -2.05           1.0565e-009     -0.00013046     1.1977e-008    
  -2.1            1.6129e-009     -0.00013484     1.3098e-008    
  -2.15           2.1745e-009     -0.00013891     1.3776e-008    
  -2.2            6.577e-010      -0.00014289     1.2757e-008    
  -2.25           1.103e-009      -0.00014687     1.2055e-008    
  -2.3            1.6784e-009     -0.00015077     1.3256e-008    
  -2.35           2.2315e-009     -0.00015437     1.3741e-008    
  -2.4            6.984e-010      -0.00015789     1.2604e-008    
  -2.45           1.1623e-009     -0.00016146     1.215e-008     
  -2.5            1.7549e-009     -0.00016499     1.3369e-008    
  -2.55           2.3054e-009     -0.00016816     1.3687e-008    
  -2.6            7.431e-010      -0.00017138     1.2369e-008    
  -2.65           1.2266e-009     -0.00017458     1.2202e-008    
  -2.7            1.811e-009      -0.00017771     1.3392e-008    
  -2.75           3.959e-010      -0.0001806      1.3433e-008    
  -2.8            7.95e-010       -0.00018355     1.2028e-008    
  -2.85           1.2972e-009     -0.00018646     1.2355e-008    
  -2.9            1.8774e-009     -0.00018928     1.3528e-008    
  -2.95           4.386e-010      -0.00019189     1.3425e-008    
  -3              8.425e-010      -0.00019459     1.2065e-008    
  -3.05           1.3589e-009     -0.00019722     1.2867e-008    
  -3.1            1.94e-009       -0.00019979     1.3733e-008    
  -3.15           4.873e-010      -0.00020223     1.32e-008      
  -3.2            8.963e-010      -0.0002047      1.208e-008     
  -3.25           1.4279e-009     -0.00020713     1.3048e-008    
  -3.3            2.0031e-009     -0.00020943     1.3728e-008    
  -3.35           5.32e-010       -0.00021164     1.3146e-008    
  -3.4            9.547e-010      -0.00021389     1.1995e-008    
  -3.45           1.5036e-009     -0.00021619     1.2925e-008    
  -3.5            2.0604e-009     -0.00021834     1.3778e-008    
  -3.55           5.785e-010      -0.00022038     1.304e-008     
  -3.6            1.0104e-009     -0.00022249     1.1947e-008    
  -3.65           1.5714e-009     -0.00022461     1.3029e-008    
  -3.7            2.1336e-009     -0.00022651     1.3781e-008    
  -3.75           6.341e-010      -0.00022841     1.2748e-008    
  -3.8            1.0636e-009     -0.00023037     1.2017e-008    
  -3.85           1.6368e-009     -0.00023237     1.3132e-008    
  -3.9            2.2115e-009     -0.00023415     1.3692e-008    
  -3.95           6.787e-010      -0.0002359      1.2519e-008    
  -4              1.1431e-009     -0.00023771     1.205e-008     
  -4.05           1.7187e-009     -0.00023949     1.3296e-008    
  -4.1            2.2708e-009     -0.0002412      1.3675e-008    
  -4.15           7.241e-010      -0.00024282     1.2456e-008    
  -4.2            1.2025e-009     -0.00024451     1.2239e-008    
  -4.25           1.7812e-009     -0.00024615     1.3386e-008    
  -4.3            3.681e-010      -0.00024769     1.3411e-008    
  -4.35           7.811e-010      -0.00024924     1.2132e-008    
  -4.4            1.2712e-009     -0.00025085     1.231e-008     
  -4.45           1.8499e-009     -0.00025236     1.3413e-008    
  -4.5            4.237e-010      -0.00025379     1.3408e-008    
  -4.55           8.289e-010      -0.00025527     1.2031e-008    
  -4.6            1.3399e-009     -0.00025673     1.2762e-008    
  -4.65           1.9264e-009     -0.00025815     1.3691e-008    
  -4.7            4.678e-010      -0.00025948     1.3313e-008    
  -4.75           8.847e-010      -0.00026089     1.202e-008     
  -4.8            1.4169e-009     -0.00026224     1.2948e-008    
  -4.85           1.9874e-009     -0.00026358     1.3774e-008    
  -4.9            5.188e-010      -0.00026484     1.3177e-008    
  -4.95           9.347e-010      -0.00026615     1.1953e-008    
  -5              1.4888e-009     -0.00026746     1.2855e-008    
END_DB

BEGIN_DB
 ICCAP_VAR VS         0              
 ICCAP_VAR VB         0              
 ICCAP_VAR VD         -5             

 #VG              IG              ID              IB             
  0               -2.9117e-009    -1.0173e-009    -3.3276e-008   
  -0.05           1.8425e-009     -2.0744e-009    -1.3734e-008   
  -0.1            5.934e-010      2.6882e-009     -1.0561e-008   
  -0.15           7.582e-010      2.6933e-009     1.1993e-008    
  -0.2            9.508e-010      2.6652e-009     1.2254e-008    
  -0.25           1.1577e-009     2.5463e-009     1.2731e-008    
  -0.3            1.3981e-009     2.3248e-009     1.3106e-008    
  -0.35           1.6309e-009     2.0159e-009     1.3457e-008    
  -0.4            -3.292e-010     2.3464e-009     1.353e-008     
  -0.45           -1.413e-010     2.4285e-009     1.3436e-008    
  -0.5            6.19e-011       2.3518e-009     1.3491e-008    
  -0.55           -1.5282e-009    1.95e-010       1.3175e-008    
  -0.6            -1.4946e-009    -3.6518e-009    1.2203e-008    
  -0.65           -2.0011e-009    -1.3878e-008    -9.553e-009    
  -0.7            3.041e-010      -4.7507e-008    -1.4695e-008   
  -0.75           1.0284e-009     -1.452e-007     -1.8302e-008   
  -0.8            1.5924e-009     -4.7443e-007    2.2139e-008    
  -0.85           -1.4973e-009    -1.3109e-006    1.7392e-008    
  -0.9            -1.4464e-009    -3.364e-006     7.165e-008     
  -0.95           2.1455e-009     -7.7801e-006    1.3751e-007    
  -1              -2.7174e-009    -1.4988e-005    2.4225e-007    
  -1.05           -2.8603e-009    -2.6143e-005    3.6697e-007    
  -1.1            -2.7727e-009    -4.1732e-005    5.5614e-007    
  -1.15           -2.4255e-009    -6.1129e-005    7.7422e-007    
  -1.2            -1.7201e-009    -8.4662e-005    1.00676e-006   
  -1.25           -2.7535e-009    -0.000112487    1.2358e-006    
  -1.3            -1.1602e-009    -0.00014296     1.4549e-006    
  -1.35           -1.5914e-009    -0.00017694     1.7185e-006    
  -1.4            -1.9139e-009    -0.00021503     1.9461e-006    
  -1.45           -2.2119e-009    -0.00025578     2.168e-006     
  -1.5            -2.67e-009      -0.00029831     2.3649e-006    
  -1.55           -2.8286e-009    -0.00034346     2.5485e-006    
  -1.6            -2.7455e-009    -0.00039117     2.7138e-006    
  -1.65           -2.3816e-009    -0.00044037     2.8613e-006    
  -1.7            -1.7369e-009    -0.00049151     2.9808e-006    
  -1.75           -1.4286e-009    -0.00054457     3.0752e-006    
  -1.8            -1.4434e-009    -0.00059905     3.1486e-006    
  -1.85           -1.3749e-009    -0.00065596     3.2028e-006    
  -1.9            -2.1054e-009    -0.00071369     3.2348e-006    
  -1.95           -1.5417e-009    -0.0007729      3.2432e-006    
  -2              -1.4629e-009    -0.00083281     3.2373e-006    
  -2.05           -1.452e-009     -0.00089376     3.2145e-006    
  -2.1            -2.457e-009     -0.00095639     3.1748e-006    
  -2.15           -1.7815e-009    -0.00102016     3.1186e-006    
  -2.2            -1.4796e-009    -0.00108444     3.0539e-006    
  -2.25           -2.8048e-009    -0.0011496      2.9749e-006    
  -2.3            -2.9273e-009    -0.0012156      2.8736e-006    
  -2.35           -2.8164e-009    -0.0012828      2.7837e-006    
  -2.4            -2.4098e-009    -0.0013498      2.6932e-006    
  -2.45           -1.7581e-009    -0.0014179      2.5888e-006    
  -2.5            -1.4816e-009    -0.0014872      2.4785e-006    
  -2.55           -1.4957e-009    -0.0015564      2.3647e-006    
  -2.6            -1.4051e-009    -0.0016267      2.2505e-006    
  -2.65           -2.0872e-009    -0.0016978      2.1358e-006    
  -2.7            -1.5421e-009    -0.0017692      2.0159e-006    
  -2.75           -1.492e-009     -0.0018411      1.9008e-006    
  -2.8            -1.465e-009     -0.0019135      1.7877e-006    
  -2.85           -2.4176e-009    -0.0019864      1.6777e-006    
  -2.9            -1.7293e-009    -0.0020601      1.566e-006     
  -2.95           -1.4815e-009    -0.002134       1.461e-006     
  -3              -1.5024e-009    -0.0022077      1.3595e-006    
  -3.05           -1.3981e-009    -0.0022821      1.2617e-006    
  -3.1            -2.0544e-009    -0.0023571      1.1699e-006    
  -3.15           -1.5275e-009    -0.0024333      1.0774e-006    
  -3.2            3.4878e-009     -0.0025104      9.7953e-007    
  -3.25           3.2548e-009     -0.0025864      8.9636e-007    
  -3.3            2.2926e-009     -0.0026629      8.1767e-007    
  -3.35           3.2895e-009     -0.0027392      7.4199e-007    
  -3.4            3.4612e-009     -0.0028162      6.8964e-007    
  -3.45           3.4543e-009     -0.0028933      6.222e-007     
  -3.5            2.8371e-009     -0.0029721      5.6295e-007    
  -3.55           1.7496e-009     -0.0030498      5.0477e-007    
  -3.6            3.4038e-009     -0.0031279      4.5158e-007    
  -3.65           3.494e-009      -0.0032053      4.1777e-007    
  -3.7            3.2472e-009     -0.0032836      3.7309e-007    
  -3.75           2.2888e-009     -0.0033632      3.3117e-007    
  -3.8            3.2953e-009     -0.0034428      2.9106e-007    
  -3.85           3.4654e-009     -0.0035225      2.7379e-007    
  -3.9            3.4469e-009     -0.0036011      2.3908e-007    
  -3.95           2.8419e-009     -0.003681       2.1103e-007    
  -4              1.7784e-009     -0.0037616      1.8222e-007    
  -4.05           3.4073e-009     -0.0038419      1.5685e-007    
  -4.1            3.4865e-009     -0.0039199      1.4954e-007    
  -4.15           3.2512e-009     -0.0040001      1.2978e-007    
  -4.2            2.328e-009      -0.0040817      1.1118e-007    
  -4.25           -1.0503e-009    -0.0041596      1.1433e-007    
  -4.3            3.4633e-009     -0.0042414      9.4386e-008    
  -4.35           3.4437e-009     -0.004321       7.7761e-008    
  -4.4            2.8981e-009     -0.0044012      6.5882e-008    
  -4.45           1.836e-009      -0.004483       5.2381e-008    
  -4.5            3.4002e-009     -0.0045644      4.0701e-008    
  -4.55           3.4833e-009     -0.0046442      4.6534e-008    
  -4.6            3.2758e-009     -0.0047221      3.7762e-008    
  -4.65           2.3649e-009     -0.0048045      2.9947e-008    
  -4.7            3.422e-009      -0.0048859      3.8111e-008    
  -4.75           3.4817e-009     -0.0049654      2.6128e-008    
  -4.8            3.2158e-009     -0.0050457      2.0257e-008    
  -4.85           3.1893e-009     -0.0051273      3.123e-008     
  -4.9            3.4348e-009     -0.0052087      2.395e-008     
  -4.95           2.1882e-009     -0.005289       2.7019e-008    
  -5              2.7516e-009     -0.0053679      2.4725e-008    
END_DB

BEGIN_DB
 ICCAP_VAR VS         0              
 ICCAP_VAR VB         2.5            
 ICCAP_VAR VD         -0.1           

 #VG              IG              ID              IB             
  0               -8.232e-010     -1.3979e-009    -2.2182e-008   
  -0.05           3.4398e-009     1.619e-010      -9.809e-009    
  -0.1            1.6759e-009     2.0081e-009     1.3586e-008    
  -0.15           -3.134e-010     2.3922e-009     1.3605e-008    
  -0.2            -1.221e-010     2.5167e-009     1.3307e-008    
  -0.25           7.56e-011       2.61e-009       1.3475e-008    
  -0.3            2.623e-010      2.6702e-009     1.3205e-008    
  -0.35           4.266e-010      2.6976e-009     1.2512e-008    
  -0.4            5.875e-010      2.7095e-009     1.1894e-008    
  -0.45           7.417e-010      2.6948e-009     1.1778e-008    
  -0.5            9.148e-010      2.6636e-009     1.2197e-008    
  -0.55           1.1207e-009     2.5631e-009     1.2924e-008    
  -0.6            1.3536e-009     2.3728e-009     1.3391e-008    
  -0.65           1.6041e-009     2.0997e-009     1.363e-008     
  -0.7            -1.4901e-009    2.3435e-009     1.3682e-008    
  -0.75           -2.126e-009     -1.4552e-009    1.2626e-008    
  -0.8            3.511e-009      -1.4484e-009    -2.9918e-008   
  -0.85           9.819e-010      2.6354e-009     1.2149e-008    
  -0.9            1.2012e-009     2.5067e-009     1.28e-008      
  -0.95           1.4345e-009     2.2926e-009     1.318e-008     
  -1              1.6859e-009     1.995e-009      1.3666e-008    
  -1.05           -3.064e-010     2.3684e-009     1.3656e-008    
  -1.1            -1.143e-010     2.3891e-009     1.3317e-008    
  -1.15           9.82e-011       1.7952e-009     1.34e-008      
  -1.2            2.886e-010      -3.059e-010     1.3111e-008    
  -1.25           -2.6497e-009    -1.5083e-008    -3.235e-008    
  -1.3            -2.0355e-009    -5.9647e-008    1.1081e-008    
  -1.35           8.171e-010      -2.2228e-007    -2.3311e-008   
  -1.4            1.312e-009      -7.6735e-007    1.2282e-008    
  -1.45           -1.3811e-009    -2.0053e-006    -4.34e-009     
  -1.5            -1.9976e-009    -4.6325e-006    1.6133e-008    
  -1.55           -1.526e-009     -8.8266e-006    1.2057e-008    
  -1.6            1.7635e-009     -1.4609e-005    1.2263e-008    
  -1.65           3.441e-009      -2.1128e-005    -1.0639e-008   
  -1.7            2.1579e-009     -2.8118e-005    1.3896e-008    
  -1.75           6.335e-010      -3.4949e-005    1.2959e-008    
  -1.8            1.0743e-009     -4.1906e-005    1.1886e-008    
  -1.85           1.6479e-009     -4.8729e-005    1.3074e-008    
  -1.9            2.2103e-009     -5.4916e-005    1.3826e-008    
  -1.95           6.738e-010      -6.0922e-005    1.2636e-008    
  -2              1.12e-009       -6.69e-005      1.1889e-008    
  -2.05           1.7037e-009     -7.2589e-005    1.3161e-008    
  -2.1            2.2681e-009     -7.7857e-005    1.379e-008     
  -2.15           7.054e-010      -8.3039e-005    1.263e-008     
  -2.2            1.1642e-009     -8.8115e-005    1.1969e-008    
  -2.25           1.7564e-009     -9.3008e-005    1.3262e-008    
  -2.3            2.3139e-009     -9.7551e-005    1.3676e-008    
  -2.35           7.436e-010      -0.000102038    1.2319e-008    
  -2.4            1.2138e-009     -0.000106516    1.2178e-008    
  -2.45           1.7947e-009     -0.000110988    1.3608e-008    
  -2.5            -3.905e-010     -0.00011479     -1.1135e-008   
  -2.55           6.71e-011       -0.00011876     1.2855e-008    
  -2.6            5.201e-010      -0.00012268     1.318e-008     
  -2.65           9.283e-010      -0.0001265      1.2038e-008    
  -2.7            1.4737e-009     -0.00013026     1.2686e-008    
  -2.75           2.0499e-009     -0.00013382     1.3797e-008    
  -2.8            5.565e-010      -0.00013719     1.309e-008     
  -2.85           9.698e-010      -0.00014061     1.1826e-008    
  -2.9            1.5194e-009     -0.00014399     1.2843e-008    
  -2.95           2.093e-009      -0.00014722     1.3846e-008    
  -3              5.9e-010        -0.00015028     1.2992e-008    
  -3.05           1.0142e-009     -0.00015339     1.1955e-008    
  -3.1            1.5756e-009     -0.00015647     1.3278e-008    
  -3.15           2.1475e-009     -0.00015939     1.3864e-008    
  -3.2            6.229e-010      -0.00016215     1.2728e-008    
  -3.25           1.06e-009       -0.00016502     1.2097e-008    
  -3.3            1.6232e-009     -0.00016781     1.3341e-008    
  -3.35           2.1969e-009     -0.00017044     1.3822e-008    
  -3.4            6.618e-010      -0.00017303     1.2613e-008    
  -3.45           1.1054e-009     -0.00017566     1.1922e-008    
  -3.5            1.6853e-009     -0.0001782      1.3483e-008    
  -3.55           2.2433e-009     -0.00018064     1.376e-008     
  -3.6            6.998e-010      -0.00018299     1.2492e-008    
  -3.65           1.1594e-009     -0.00018537     1.2081e-008    
  -3.7            1.7384e-009     -0.00018773     1.3531e-008    
  -3.75           2.3075e-009     -0.00018996     1.3688e-008    
  -3.8            7.324e-010      -0.00019211     1.2293e-008    
  -3.85           1.201e-009      -0.00019436     1.2286e-008    
  -3.9            1.7944e-009     -0.00019654     1.3547e-008    
  -3.95           2.3555e-009     -0.00019859     1.3674e-008    
  -4              7.759e-010      -0.00020063     1.2207e-008    
  -4.05           1.2572e-009     -0.00020268     1.2348e-008    
  -4.1            1.8431e-009     -0.00020464     1.361e-008     
  -4.15           4.061e-010      -0.00020652     1.326e-008     
