! VERSION = 6.00
BEGIN_HEADER
 ICCAP_INPUTS
  VG         V  B GROUND SMU4 0.001 LIN        1    0          -5         101  -0.05     
  VS         V  E GROUND SMU2 0.1 CON        0
  VB         V  C GROUND SMU3 0.1 LIN        3    0          5          3    2.5       
  VD         V  S GROUND SMU1 0.1 LIN        2    -0.1       -5         2    -4.9      
 ICCAP_OUTPUTS
  IG         I  B GROUND SMU4 B
  ID         I  S GROUND SMU1 B
  IB         I  C GROUND SMU3 B
END_HEADER

BEGIN_DB
 ICCAP_VAR VS         0              
 ICCAP_VAR VB         0              
 ICCAP_VAR VD         -0.1           

 #VG              IG              ID              IB             
  0               -1.227e-009     -1.1535e-009    9.661e-009     
  -0.05           1.8081e-009     -8.194e-010     -1.9092e-008   
  -0.1            6.112e-010      2.0897e-009     -7.814e-009    
  -0.15           -1.8687e-009    6.196e-010      1.7456e-008    
  -0.2            -5.482e-010     -2.0466e-009    3.973e-009     
  -0.25           2.2474e-009     -6.406e-010     -1.6245e-008   
  -0.3            3.504e-010      1.977e-009      -4.327e-009    
  -0.35           -2.2593e-009    4.099e-010      1.3739e-008    
  -0.4            -1.1762e-009    -1.9732e-009    2.953e-009     
  -0.45           1.617e-010      -1.7265e-009    -1.0345e-008   
  -0.5            1.5976e-009     -9.372e-010     -2.1481e-008   
  -0.55           -2.4158e-009    1.628e-009      -8.699e-009    
  -0.6            -1.9065e-009    -1.4532e-009    2.046e-009     
  -0.65           -8.198e-010     -3.3627e-009    -9.031e-009    
  -0.7            1.8124e-009     -5.699e-009     -1.3315e-008   
  -0.75           -1.9687e-009    -1.1613e-008    -1.9972e-008   
  -0.8            -1.4258e-009    -2.2866e-008    3.239e-009     
  -0.85           -2.5291e-009    -3.7195e-008    6.497e-009     
  -0.9            2.458e-009      -5.3399e-008    -2.511e-008    
  -0.95           6.848e-010      -6.0197e-008    9.442e-009     
  -1              -1.4494e-009    -6.8864e-008    1.8235e-008    
  -1.05           -2.5239e-009    -7.619e-008     6.233e-009     
  -1.1            2.4828e-009     -7.9236e-008    -2.4964e-008   
  -1.15           6.715e-010      -7.8639e-008    9.496e-009     
  -1.2            -1.4724e-009    -7.9882e-008    1.8046e-008    
  -1.25           -2.5214e-009    -8.1333e-008    6.117e-009     
  -1.3            2.4981e-009     -8.2145e-008    -2.4844e-008   
  -1.35           -2.4875e-009    -7.7755e-008    1.3272e-008    
  -1.4            -1.9772e-009    -8.1947e-008    1.782e-009     
  -1.45           -1.4248e-009    -8.7406e-008    3.321e-009     
  -1.5            -2.53e-009      -9.0987e-008    6.577e-009     
  -1.55           2.4627e-009     -8.3816e-008    -2.5175e-008   
  -1.6            6.843e-010      -7.6807e-008    9.491e-009     
  -1.65           -1.4489e-009    -7.8904e-008    1.8155e-008    
  -1.7            -2.5236e-009    -8.5129e-008    6.365e-009     
  -1.75           2.4863e-009     -7.7668e-008    -2.5153e-008   
  -1.8            6.715e-010      -7.4241e-008    9.512e-009     
  -1.85           -1.4693e-009    -7.3986e-008    1.7312e-008    
  -1.9            -2.5227e-009    -6.8135e-008    6.058e-009     
  -1.95           2.4978e-009     -7.326e-008     -2.5072e-008   
  -2              -2.4822e-009    -7.0088e-008    1.3184e-008    
  -2.05           -1.9736e-009    -7.936e-008     1.662e-009     
  -2.1            -1.4198e-009    -7.6075e-008    3.577e-009     
  -2.15           -2.5298e-009    -8.0379e-008    6.504e-009     
  -2.2            2.4535e-009     -7.7212e-008    -2.5084e-008   
  -2.25           6.869e-010      -8.5594e-008    9.414e-009     
  -2.3            -1.4466e-009    -8.426e-008     1.8361e-008    
  -2.35           -2.5269e-009    -8.4864e-008    6.369e-009     
  -2.4            2.4704e-009     -8.1646e-008    -2.4953e-008   
  -2.45           6.741e-010      -8.3686e-008    9.443e-009     
  -2.5            -1.4591e-009    -8.4789e-008    1.8201e-008    
  -2.55           -2.5264e-009    -8.6049e-008    6.158e-009     
  -2.6            2.4897e-009     -8.6872e-008    -2.5064e-008   
  -2.65           6.599e-010      -8.8773e-008    9.445e-009     
  -2.7            -1.4791e-009    -9.3e-008       1.8045e-008    
  -2.75           -2.5216e-009    -8.4205e-008    5.918e-009     
  -2.8            2.5092e-009     -8.0381e-008    -2.4946e-008   
  -2.85           6.41e-010       -8.2802e-008    9.61e-009      
  -2.9            -1.4936e-009    -8.9673e-008    1.7623e-008    
  -2.95           -2.514e-009     -9.2775e-008    5.842e-009     
  -3              2.5256e-009     -9.1083e-008    -2.494e-008    
  -3.05           6.301e-010      -8.8512e-008    9.615e-009     
  -3.1            -1.5127e-009    -8.8844e-008    1.746e-008     
  -3.15           -2.5059e-009    -9.9209e-008    5.634e-009     
  -3.2            2.5425e-009     -9.9108e-008    -2.4734e-008   
  -3.25           -1.6994e-009    -1.0285e-007    2.6354e-008    
  -3.3            1.3541e-009     -7.9695e-008    -1.4191e-008   
  -3.35           -1.645e-009     -8.329e-008     1.5916e-008    
  -3.4            -2.4672e-009    -8.8651e-008    4.922e-009     
  -3.45           -7.746e-010     -8.3906e-008    -1.0173e-008   
  -3.5            2.7119e-009     -8.2793e-008    -1.461e-008    
  -3.55           -1.5106e-009    -8.4225e-008    1.7463e-008    
  -3.6            -2.5104e-009    -9.1955e-008    5.675e-009     
  -3.65           2.5456e-009     -9.0573e-008    -2.4619e-008   
  -3.7            6.103e-010      -9.8642e-008    9.745e-009     
  -3.75           -1.5261e-009    -1.00235e-007   1.7411e-008    
  -3.8            -2.5026e-009    -9.1364e-008    5.509e-009     
  -3.85           2.5667e-009     -9.1716e-008    -2.4476e-008   
  -3.9            5.905e-010      -9.2975e-008    9.744e-009     
  -3.95           -1.5557e-009    -9.5844e-008    1.6953e-008    
  -4              -1.79e-009      -9.6251e-008    5.269e-009     
  -4.05           -2.0515e-009    -9.3995e-008    -8.728e-009    
  -4.1            -1.4653e-009    -9.6129e-008    3.428e-009     
  -4.15           -2.5235e-009    -9.843e-008     6.106e-009     
  -4.2            2.5069e-009     -9.3815e-008    -2.4636e-008   
  -4.25           6.453e-010      -9.9997e-008    9.606e-009     
  -4.3            -1.4983e-009    -9.7687e-008    1.8642e-008    
  -4.35           -2.5482e-009    -9.6905e-008    5.771e-009     
  -4.4            2.525e-009      -1.0917e-007    -2.4578e-008   
  -4.45           -1.7147e-009    -1.0394e-007    2.623e-008     
  -4.5            -7.113e-010     -1.1413e-007    -9.993e-009    
  -4.55           1.5849e-009     -1.063e-007     -1.9061e-008   
  -4.6            2.5979e-009     -1.1061e-007    -8.992e-009    
  -4.65           -2.1889e-009    -1.1578e-007    1.1729e-008    
  -4.7            -8.22e-010      -1.1299e-007    -9.828e-009    
  -4.75           2.698e-009      -1.1646e-007    -1.3459e-008   
  -4.8            -1.4478e-009    -1.0585e-007    1.9596e-008    
  -4.85           -2.5688e-009    -1.0741e-007    6.406e-009     
  -4.9            2.4643e-009     -1.021e-007     -2.4693e-008   
  -4.95           6.608e-010      -1.1942e-007    9.199e-009     
  -5              -1.4626e-009    -1.0795e-007    1.9271e-008    
END_DB

BEGIN_DB
 ICCAP_VAR VS         0              
 ICCAP_VAR VB         0              
 ICCAP_VAR VD         -5             

 #VG              IG              ID              IB             
  0               8.806e-010      7.237e-010      1.8801e-008    
  -0.05           3.585e-010      1.9891e-009     -4.37e-009     
  -0.1            -2.2414e-009    3.992e-010      1.4157e-008    
  -0.15           -1.1817e-009    -1.9762e-009    2.767e-009     
  -0.2            2.6686e-009     -1.1314e-009    -2.5085e-008   
  -0.25           -1.6136e-009    7.164e-010      2.1117e-008    
  -0.3            -7.224e-010     -2.1238e-009    5.133e-009     
  -0.35           1.956e-009      -7.825e-010     -1.8882e-008   
  -0.4            5.163e-010      2.0564e-009     -6.567e-009    
  -0.45           6.836e-010      2.1027e-009     8.958e-009     
  -0.5            -1.7349e-009    5.765e-010      1.9647e-008    
  -0.55           -2.2614e-009    -1.3132e-009    4.475e-009     
  -0.6            1.8882e-009     -1.991e-009     -1.9219e-008   
  -0.65           1.5895e-009     -3.9592e-009    -6.824e-009    
  -0.7            -2.522e-009     -1.6003e-008    -2.41e-008     
  -0.75           1.4605e-009     -4.9642e-008    -1.8988e-008   
  -0.8            -1.0772e-009    -1.9236e-007    1.9758e-008    
  -0.85           2.4445e-009     -6.0941e-007    -1.742e-009    
  -0.9            4.205e-010      -1.5556e-006    2.8514e-008    
  -0.95           8.206e-010      -3.503e-006     6.7858e-008    
  -1              3.746e-010      -6.6752e-006    1.2378e-007    
  -1.05           5.48e-011       -1.13649e-005   1.5372e-007    
  -1.1            -2.3202e-009    -1.7113e-005    2.4794e-007    
  -1.15           -2.546e-009     -2.3635e-005    3.0569e-007    
  -1.2            -2.5194e-009    -3.1315e-005    3.8548e-007    
  -1.25           -2.1308e-009    -3.8761e-005    4.5033e-007    
  -1.3            -1.5212e-009    -5.1215e-005    5.5304e-007    
  -1.35           -2.476e-009     -5.9879e-005    6.1199e-007    
  -1.4            -2.5678e-009    -6.8673e-005    6.5837e-007    
  -1.45           -2.338e-009     -7.9044e-005    7.2342e-007    
  -1.5            -1.7547e-009    -9.0416e-005    7.9585e-007    
  -1.55           -1.3017e-009    -0.000101571    8.9998e-007    
  -1.6            -2.4749e-009    -0.00011968     1.08589e-006   
  -1.65           -1.9222e-009    -0.00012215     1.2121e-006    
  -1.7            -2.2379e-009    -0.00014155     1.594e-006     
  -1.75           -2.5319e-009    -0.00015778     2.1271e-006    
  -1.8            -2.5839e-009    -0.00015838     2.8774e-006    
  -1.85           -2.3052e-009    -0.0001735      3.9235e-006    
  -1.9            -1.7129e-009    -0.00014291     5.1565e-006    
  -1.95           -1.2975e-009    -0.00017554     7.0997e-006    
  -2              -2.6075e-009    -0.00018072     9.3296e-006    
  -2.05           1.7133e-009     -0.00018809     1.2028e-005    
  -2.1            2.54e-009       -0.00015225     1.502e-005     
  -2.15           2.738e-009      -0.00010106     1.8442e-005    
  -2.2            2.5678e-009     -0.00010896     2.221e-005     
  -2.25           1.9699e-009     -0.00011874     2.6549e-005    
  -2.3            2.4185e-009     -0.00011209     3.1469e-005    
  -2.35           -2.5876e-009    -6.4725e-005    3.6475e-005    
  -2.4            -2.2775e-009    -7.2347e-005    4.1765e-005    
  -2.45           -1.6613e-009    -7.7471e-005    4.7277e-005    
  -2.5            -1.2897e-009    -8.2771e-005    5.2628e-005    
  -2.55           -2.6112e-009    -8.5507e-005    5.8738e-005    
  -2.6            -2.4406e-009    -9.9355e-005    6.5162e-005    
  -2.65           -1.3193e-009    -8.894e-005     7.0713e-005    
  -2.7            2.7286e-009     -0.00019759     5.0935e-005    
  -2.75           2.4182e-009     -0.0002101      9.579e-005     
  -2.8            1.7419e-009     -0.00026862     0.000105704    
  -2.85           2.2548e-009     -0.00028218     0.00011488     
  -2.9            1.5487e-009     -0.00026505     0.00012503     
  -2.95           2.6012e-009     -0.00027005     0.00013482     
  -3              2.7366e-009     -0.00033819     0.00014528     
  -3.05           2.4622e-009     -0.00049955     0.00015553     
  -3.1            1.7944e-009     -0.00051291     0.00016607     
  -3.15           2.4918e-009     -0.00041319     0.0001768      
  -3.2            2.7272e-009     -0.00036083     0.00018792     
  -3.25           2.6263e-009     -0.00034196     0.0001992      
  -3.3            2.075e-009      -0.00036376     0.00021068     
  -3.35           2.3728e-009     -0.00045351     0.00022248     
  -3.4            2.6615e-009     -0.00048509     0.00023443     
  -3.45           2.7211e-009     -0.00047689     0.00024639     
  -3.5            2.3333e-009     -0.00049511     0.00025873     
  -3.55           1.6531e-009     -0.00058683     0.00027123     
  -3.6            2.5535e-009     -0.00059787     0.00028379     
  -3.65           2.7395e-009     -0.00056987     0.00029652     
  -3.7            2.5409e-009     -0.00058808     0.00030976     
  -3.75           1.9217e-009     -0.00055148     0.00032305     
  -3.8            -2.5584e-009    -0.001097       0.00033646     
  -3.85           -2.5771e-009    -0.0010706      0.00034949     
  -3.9            -2.2418e-009    -0.0011095      0.00036315     
  -3.95           -2.1779e-009    -0.0011872      0.00037696     
  -4              -2.5058e-009    -0.0012673      0.00039091     
  -4.05           -2.6078e-009    -0.0012415      0.00040495     
  -4.1            -2.4049e-009    -0.0014156      0.0004193      
  -4.15           -1.8297e-009    -0.0014695      0.00043355     
  -4.2            -1.3448e-009    -0.001508       0.00044796     
  -4.25           -2.5922e-009    -0.0015664      0.00046266     
  -4.3            -2.5326e-009    -0.0015039      0.00047717     
  -4.35           -2.0861e-009    -0.001703       0.00049214     
  -4.4            -1.486e-009     -0.0016649      0.00050675     
  -4.45           -2.544e-009     -0.0015929      0.00052201     
  -4.5            -2.5901e-009    -0.0017049      0.00053743     
  -4.55           -2.3032e-009    -0.0020447      0.00055258     
  -4.6            -1.6941e-009    -0.0021927      0.0005682      
  -4.65           -1.2961e-009    -0.0022125      0.00058384     
  -4.7            -2.6059e-009    -0.0022207      0.00059978     
  -4.75           -2.4605e-009    -0.002298       0.0006157      
  -4.8            -1.9367e-009    -0.0023464      0.00063203     
  -4.85           -1.3931e-009    -0.0023044      0.00064764     
  -4.9            -2.5714e-009    -0.0023395      0.00066385     
  -4.95           -2.5632e-009    -0.0025026      0.00067976     
  -5              -2.1897e-009    -0.0024346      0.00069557     
END_DB

BEGIN_DB
 ICCAP_VAR VS         0              
 ICCAP_VAR VB         2.5            
 ICCAP_VAR VD         -0.1           

 #VG              IG              ID              IB             
  0               -8.818e-010     -5.5729e-005    5.5737e-005    
  -0.05           -1.3279e-009    -6.2717e-005    6.27e-005      
  -0.1            -2.6185e-009    -7.0018e-005    7.0057e-005    
  -0.15           -2.5085e-009    -7.7769e-005    7.7697e-005    
  -0.2            -2.0174e-009    -8.5747e-005    8.5712e-005    
  -0.25           -1.4574e-009    -9.4023e-005    9.4015e-005    
  -0.3            -2.566e-009     -0.000102621    0.00010262     
  -0.35           -2.5973e-009    -0.000111609    0.000111523    
  -0.4            -1.4649e-009    -0.00012064     0.0001208      
  -0.45           -2.575e-009     -0.0001301      0.00013029     
  -0.5            -2.5952e-009    -0.00013991     0.00013995     
  -0.55           -2.2496e-009    -0.00014983     0.00014991     
  -0.6            -1.6399e-009    -0.00015998     0.00016015     
  -0.65           -1.2892e-009    -0.00017042     0.00017052     
  -0.7            -2.6281e-009    -0.00018108     0.0001813      
  -0.75           -2.4447e-009    -0.00019206     0.00019214     
  -0.8            -1.8927e-009    -0.00020305     0.00020316     
  -0.85           -1.3777e-009    -0.00021432     0.00021445     
  -0.9            -2.6016e-009    -0.0002258      0.00022601     
  -0.95           -2.5648e-009    -0.00023752     0.00023757     
  -1              -2.1392e-009    -0.00024935     0.00024946     
  -1.05           -1.5449e-009    -0.00026121     0.00026127     
  -1.1            -2.5328e-009    -0.00027334     0.00027341     
  -1.15           -2.6205e-009    -0.00028564     0.0002856      
  -1.2            -2.3607e-009    -0.00029802     0.00029809     
  -1.25           -1.7764e-009    -0.00031045     0.00031051     
  -1.3            -1.3328e-009    -0.00032305     0.00032309     
  -1.35           -2.621e-009     -0.0003358      0.00033571     
  -1.4            -2.5128e-009    -0.00034892     0.0003485      
  -1.45           -2.024e-009     -0.00036234     0.00036117     
  -1.5            -1.4622e-009    -0.00037655     0.00037381     
  -1.55           -2.565e-009     -0.00039147     0.00038632     
  -1.6            -2.5976e-009    -0.00040732     0.00039874     
  -1.65           -2.2658e-009    -0.00042304     0.00041108     
  -1.7            -1.6581e-009    -0.00043868     0.00042322     
  -1.75           -1.2915e-009    -0.00045392     0.00043515     
  -1.8            -2.6268e-009    -0.00046882     0.00044701     
  -1.85           -2.4411e-009    -0.00048335     0.00045853     
  -1.9            -1.9054e-009    -0.00049709     0.00046966     
  -1.95           -1.3883e-009    -0.00051051     0.00048063     
  -2              -2.5937e-009    -0.00052343     0.00049147     
  -2.05           -2.5637e-009    -0.00053591     0.00050179     
  -2.1            -2.1502e-009    -0.00054791     0.000512       
  -2.15           -1.5561e-009    -0.00055961     0.00052194     
  -2.2            -1.2618e-009    -0.00057093     0.00053162     
  -2.25           -2.6211e-009    -0.00058189     0.00054107     
  -2.3            -2.3657e-009    -0.00059269     0.00055041     
  -2.35           -1.7797e-009    -0.00060288     0.0005594      
  -2.4            -1.333e-009     -0.0006127      0.00056811     
  -2.45           -2.6146e-009    -0.00062258     0.00057679     
  -2.5            -2.507e-009     -0.00063207     0.00058493     
  -2.55           -2.0365e-009    -0.00064128     0.00059313     
  -2.6            -1.4616e-009    -0.00065019     0.00060124     
  -2.65           -2.5624e-009    -0.00065866     0.00060893     
  -2.7            -2.6035e-009    -0.00066707     0.00061655     
  -2.75           -2.2786e-009    -0.00067549     0.00062398     
  -2.8            -1.6653e-009    -0.00068366     0.00063122     
  -2.85           -1.2906e-009    -0.00069147     0.00063832     
  -2.9            -2.6277e-009    -0.00069897     0.00064556     
  -2.95           -2.4529e-009    -0.00070648     0.00065216     
  -3              -1.9068e-009    -0.00071353     0.00065892     
  -3.05           -1.3912e-009    -0.00072048     0.00066543     
  -3.1            -2.597e-009     -0.0007275      0.00067162     
  -3.15           -2.5648e-009    -0.00073462     0.00067801     
  -3.2            -2.1633e-009    -0.00074132     0.00068426     
  -3.25           -1.5595e-009    -0.00074781     0.00069017     
  -3.3            -1.2644e-009    -0.00075421     0.000696       
  -3.35           -2.6231e-009    -0.00076058     0.00070192     
  -3.4            -2.3728e-009    -0.000767       0.00070787     
  -3.45           -1.7832e-009    -0.00077285     0.00071344     
  -3.5            -1.3332e-009    -0.00077895     0.00071883     
  -3.55           -2.6154e-009    -0.00078468     0.00072439     
  -3.6            -2.5165e-009    -0.00079075     0.00072985     
  -3.65           -2.0455e-009    -0.00079632     0.00073505     
  -3.7            -1.4701e-009    -0.00080191     0.00074022     
  -3.75           -2.5675e-009    -0.00080682     0.00074512     
  -3.8            -2.6018e-009    -0.00081244     0.00075017     
  -3.85           -2.2769e-009    -0.00081741     0.00075485     
  -3.9            -1.6765e-009    -0.00082276     0.00075978     
  -3.95           -1.293e-009     -0.00082751     0.00076462     
  -4              -2.6259e-009    -0.00083317     0.00076943     
  -4.05           -2.4504e-009    -0.00083818     0.00077372     
  -4.1            -1.9227e-009    -0.00084251     0.00077802     
  -4.15           -1.397e-009     -0.00084765     0.00078253     
