! VERSION = 6.00
BEGIN_HEADER
 ICCAP_INPUTS
  VG         V  B GROUND SMU4 0.001 LIN        1    0          -5         101  -0.05     
  VS         V  E GROUND SMU2 0.1 CON        0
  VB         V  C GROUND SMU3 0.1 LIN        3    0          5          3    2.5       
  VD         V  S GROUND SMU1 0.1 LIN        2    -0.1       -5         2    -4.9      
 ICCAP_OUTPUTS
  IG         I  B GROUND SMU4 B
  ID         I  S GROUND SMU1 B
  IB         I  C GROUND SMU3 B
END_HEADER

BEGIN_DB
 ICCAP_VAR VS         0              
 ICCAP_VAR VB         0              
 ICCAP_VAR VD         -0.1           

 #VG              IG              ID              IB             
  0               1.1326e-009     3.586e-010      -1.2766e-008   
  -0.05           -1.3723e-009    7.825e-010      1.3375e-008    
  -0.1            1.335e-009      -1.0138e-009    -1.2813e-008   
  -0.15           -1.3836e-009    8.216e-010      1.2986e-008    
  -0.2            1.3172e-009     -1.0801e-009    -1.2973e-008   
  -0.25           -1.3825e-009    8.698e-010      1.2709e-008    
  -0.3            1.3031e-009     -7.389e-010     -1.3384e-008   
  -0.35           -1.3688e-009    9.184e-010      1.2652e-008    
  -0.4            1.362e-009      -7.783e-010     -1.361e-008    
  -0.45           -1.3492e-009    9.722e-010      1.2611e-008    
  -0.5            1.3749e-009     -8.511e-010     -1.3389e-008   
  -0.55           -1.3322e-009    9.145e-010      1.2922e-008    
  -0.6            1.3777e-009     -1.384e-009     -1.2965e-008   
  -0.65           -1.3776e-009    -1.8424e-009    1.3307e-008    
  -0.7            1.3326e-009     -8.7118e-009    -1.2781e-008   
  -0.75           -1.3568e-009    -2.8824e-008    -1.3019e-008   
  -0.8            1.3183e-009     -1.03576e-007   -1.2769e-008   
  -0.85           1.3464e-009     -3.3242e-007    7.667e-009     
  -0.9            -1.3815e-009    -9.3105e-007    1.3189e-008    
  -0.95           -7.718e-010     -2.2756e-006    -4.341e-009    
  -1              1.3646e-009     -4.7221e-006    -1.3243e-008   
  -1.05           -1.3839e-009    -8.2795e-006    1.3458e-008    
  -1.1            1.1101e-009     -1.3002e-005    -1.2846e-008   
  -1.15           -1.3831e-009    -1.8195e-005    1.3476e-008    
  -1.2            1.2897e-009     -2.3953e-005    -1.3045e-008   
  -1.25           -1.3212e-009    -2.9581e-005    1.2636e-008    
  -1.3            1.3383e-009     -3.5377e-005    -1.2815e-008   
  -1.35           -1.3704e-009    -4.0841e-005    1.316e-008     
  -1.4            1.3797e-009     -4.6291e-005    -1.3566e-008   
  -1.45           -1.374e-009     -5.1391e-005    1.3062e-008    
  -1.5            1.3076e-009     -5.6416e-005    -1.265e-008    
  -1.55           -1.3348e-009    -6.108e-005     1.2596e-008    
  -1.6            1.3557e-009     -6.5686e-005    -1.3078e-008   
  -1.65           -1.3808e-009    -6.9956e-005    1.3458e-008    
  -1.7            1.374e-009      -7.4145e-005    -1.3319e-008   
  -1.75           -1.305e-009     -7.812e-005     1.2856e-008    
  -1.8            1.3195e-009     -8.1949e-005    -1.2836e-008   
  -1.85           -1.3502e-009    -8.5631e-005    1.2713e-008    
  -1.9            1.3709e-009     -8.9173e-005    -1.3408e-008   
  -1.95           -1.3818e-009    -9.2508e-005    1.3476e-008    
  -2              1.2901e-009     -9.5831e-005    -1.2979e-008   
  -2.05           -1.3176e-009    -9.8912e-005    1.2581e-008    
  -2.1            1.3357e-009     -0.000101949    -1.2714e-008   
  -2.15           -1.368e-009     -0.000104845    1.3049e-008    
  -2.2            1.377e-009      -0.000107667    -1.3581e-008   
  -2.25           -1.3733e-009    -0.000110344    1.3062e-008    
  -2.3            1.3041e-009     -0.000113027    -1.2699e-008   
  -2.35           3.488e-010      -0.00011559     1.3365e-008    
  -2.4            -1.3796e-009    -0.00011799     1.3363e-008    
  -2.45           1.3004e-009     -0.0001204      -1.2827e-008   
  -2.5            -1.3283e-009    -0.00012269     1.2629e-008    
  -2.55           1.3504e-009     -0.000125       -1.2867e-008   
  -2.6            -1.3779e-009    -0.00012715     1.3329e-008    
  -2.65           1.3774e-009     -0.00012933     -1.3461e-008   
  -2.7            -1.2969e-009    -0.00013138     1.2938e-008    
  -2.75           1.3162e-009     -0.00013335     -1.2733e-008   
  -2.8            -1.3441e-009    -0.00013528     1.2707e-008    
  -2.85           1.3656e-009     -0.00013721     -1.3322e-008   
  -2.9            -1.3828e-009    -0.00013904     1.3509e-008    
  -2.95           1.3655e-009     -0.00014088     -1.3034e-008   
  -3              -1.3128e-009    -0.00014255     1.2594e-008    
  -3.05           1.3332e-009     -0.00014435     -1.2736e-008   
  -3.1            -1.3633e-009    -0.00014604     1.3011e-008    
  -3.15           1.3782e-009     -0.00014761     -1.3573e-008   
  -3.2            -1.376e-009     -0.00014922     1.3311e-008    
  -3.25           1.2983e-009     -0.00015073     -1.2793e-008   
  -3.3            -1.3268e-009    -0.00015226     1.2561e-008    
  -3.35           1.3475e-009     -0.00015377     -1.2858e-008   
  -3.4            -1.3768e-009    -0.00015522     1.3311e-008    
  -3.45           1.3752e-009     -0.00015663     -1.3395e-008   
  -3.5            -1.2943e-009    -0.00015801     1.2945e-008    
  -3.55           1.3156e-009     -0.00015931     -1.2779e-008   
  -3.6            -1.3437e-009    -0.00016072     1.2637e-008    
  -3.65           1.3657e-009     -0.00016199     -1.329e-008    
  -3.7            -1.383e-009     -0.0001633      1.3505e-008    
  -3.75           1.3646e-009     -0.00016458     -1.3037e-008   
  -3.8            -1.3095e-009    -0.00016586     1.2647e-008    
  -3.85           1.3279e-009     -0.000167       -1.2774e-008   
  -3.9            -1.358e-009     -0.00016821     1.287e-008     
  -3.95           1.3757e-009     -0.00016929     -1.3478e-008   
  -4              -1.3781e-009    -0.00017044     1.3282e-008    
  -4.05           1.2966e-009     -0.00017155     -1.2853e-008   
  -4.1            -1.3239e-009    -0.00017262     1.2716e-008    
  -4.15           1.3463e-009     -0.00017361     -1.2941e-008   
  -4.2            -1.3768e-009    -0.00017481     1.3342e-008    
  -4.25           1.3778e-009     -0.0001757      -1.3464e-008   
  -4.3            -1.2935e-009    -0.00017678     1.2976e-008    
  -4.35           1.3122e-009     -0.0001776      -1.2748e-008   
  -4.4            -1.3406e-009    -0.00017862     1.2701e-008    
  -4.45           1.3636e-009     -0.00017967     -1.3219e-008   
  -4.5            -1.3843e-009    -0.00018043     1.3467e-008    
  -4.55           1.3655e-009     -0.00018135     -1.3071e-008   
  -4.6            -1.3081e-009    -0.00018242     1.2678e-008    
  -4.65           1.3271e-009     -0.00018309     -1.2792e-008   
  -4.7            -1.359e-009     -0.00018404     1.2937e-008    
  -4.75           1.3781e-009     -0.00018488     -1.354e-008    
  -4.8            -1.3783e-009    -0.00018574     1.3224e-008    
  -4.85           1.295e-009      -0.00018642     -1.2855e-008   
  -4.9            -1.3255e-009    -0.0001873      1.2741e-008    
  -4.95           1.3456e-009     -0.00018815     -1.29e-008     
  -5              -1.378e-009     -0.00018888     1.3254e-008    
END_DB

BEGIN_DB
 ICCAP_VAR VS         0              
 ICCAP_VAR VB         0              
 ICCAP_VAR VD         -5             

 #VG              IG              ID              IB             
  0               -1.189e-009     -2.85e-010      1.3409e-008    
  -0.05           1.3172e-009     -1.1001e-009    -1.2963e-008   
  -0.1            -1.3797e-009    8.582e-010      1.2733e-008    
  -0.15           1.3022e-009     -7.532e-010     -1.3389e-008   
  -0.2            -1.3624e-009    9.094e-010      1.2635e-008    
  -0.25           1.3621e-009     -7.88e-010      -1.36e-008     
  -0.3            -1.3455e-009    9.675e-010      1.2581e-008    
  -0.35           1.3744e-009     -8.303e-010     -1.3271e-008   
  -0.4            -1.3299e-009    1.0196e-009     1.2835e-008    
  -0.45           1.3761e-009     -9.057e-010     -1.2895e-008   
  -0.5            -1.3134e-009    5.659e-010      1.3266e-008    
  -0.55           1.3649e-009     -1.4474e-009    -1.272e-008    
  -0.6            -1.383e-009     -1.8235e-009    1.3428e-008    
  -0.65           1.3186e-009     -8.9222e-009    -1.2841e-008   
  -0.7            -1.2972e-009    -2.9909e-008    -1.2769e-008   
  -0.75           8.461e-010      -1.0214e-007    -1.1262e-008   
  -0.8            -1.3215e-009    -3.6086e-007    1.8989e-008    
  -0.85           -1.082e-009     -1.03164e-006   2.1844e-008    
  -0.9            1.3036e-009     -2.7236e-006    4.4499e-008    
  -0.95           1.1958e-009     -6.1292e-006    9.3466e-008    
  -1              1.1895e-009     -1.1946e-005    1.6522e-007    
  -1.05           1.3797e-009     -2.0854e-005    2.9396e-007    
  -1.1            1.4369e-009     -3.3007e-005    4.349e-007     
  -1.15           1.3915e-009     -4.8269e-005    5.964e-007     
  -1.2            1.3477e-009     -6.6546e-005    7.7128e-007    
  -1.25           1.3559e-009     -8.7712e-005    9.5316e-007    
  -1.3            1.4004e-009     -0.000111403    1.138e-006     
  -1.35           9.761e-010      -0.00013732     1.3331e-006    
  -1.4            1.1975e-009     -0.00016567     1.4933e-006    
  -1.45           1.3868e-009     -0.00019599     1.6459e-006    
  -1.5            1.4569e-009     -0.00022823     1.7865e-006    
  -1.55           1.4083e-009     -0.0002619      1.9153e-006    
  -1.6            1.3457e-009     -0.00029711     2.025e-006     
  -1.65           1.2802e-009     -0.00033384     2.1175e-006    
  -1.7            1.4154e-009     -0.0003717      2.199e-006     
  -1.75           1.4019e-009     -0.00041089     2.2586e-006    
  -1.8            1.3379e-009     -0.00045088     2.2996e-006    
  -1.85           1.1696e-009     -0.00049283     2.3283e-006    
  -1.9            1.3529e-009     -0.00053508     2.3453e-006    
  -1.95           1.3947e-009     -0.00057853     2.3416e-006    
  -2              1.3433e-009     -0.0006222      2.3251e-006    
  -2.05           1.0582e-009     -0.00066668     2.2985e-006    
  -2.1            1.2724e-009     -0.00071214     2.264e-006     
  -2.15           1.3815e-009     -0.00075787     2.2154e-006    
  -2.2            1.3539e-009     -0.00080512     2.1596e-006    
  -2.25           1.2953e-009     -0.00085209     2.0965e-006    
  -2.3            1.18e-009       -0.00089992     2.0243e-006    
  -2.35           1.3469e-009     -0.0009484      1.9537e-006    
  -2.4            1.3753e-009     -0.00099743     1.8724e-006    
  -2.45           1.3198e-009     -0.00104635     1.7901e-006    
  -2.5            1.0875e-009     -0.00109581     1.7033e-006    
  -2.55           -1.3368e-009    -0.0011447      1.6238e-006    
  -2.6            -1.3853e-009    -0.0011955      1.5381e-006    
  -2.65           -1.3258e-009    -0.001247       1.4519e-006    
  -2.7            -1.0742e-009    -0.001298       1.367e-006     
  -2.75           -1.2844e-009    -0.0013496      1.2766e-006    
  -2.8            -1.3819e-009    -0.0014011      1.1965e-006    
  -2.85           -1.3518e-009    -0.001454       1.1177e-006    
  -2.9            -1.2938e-009    -0.0015069      1.04e-006      
  -2.95           1.3119e-009     -0.001561       9.615e-007     
  -3              1.3791e-009     -0.0016139      8.8722e-007    
  -3.05           1.3355e-009     -0.0016675      8.171e-007     
  -3.1            1.0149e-009     -0.0017212      7.508e-007     
  -3.15           1.2419e-009     -0.001775       6.9291e-007    
  -3.2            1.3672e-009     -0.0018288      6.3164e-007    
  -3.25           1.3564e-009     -0.0018836      5.7579e-007    
  -3.3            1.2998e-009     -0.0019374      5.2304e-007    
  -3.35           1.1537e-009     -0.0019921      4.7287e-007    
  -3.4            1.3375e-009     -0.0020475      4.3215e-007    
  -3.45           1.3785e-009     -0.0021023      3.8866e-007    
  -3.5            1.321e-009      -0.0021578      3.4954e-007    
  -3.55           1.0574e-009     -0.0022132      3.1272e-007    
  -3.6            1.2724e-009     -0.0022685      2.8457e-007    
  -3.65           1.377e-009      -0.0023251      2.5293e-007    
  -3.7            1.3433e-009     -0.0023803      2.2465e-007    
  -3.75           1.2887e-009     -0.0024376      1.9825e-007    
  -3.8            1.1924e-009     -0.0024932      1.7489e-007    
  -3.85           1.3506e-009     -0.0025492      1.578e-007     
  -3.9            1.3689e-009     -0.0026066      1.3869e-007    
  -3.95           1.3136e-009     -0.0026615      1.2077e-007    
  -4              1.1022e-009     -0.0027177      1.0484e-007    
  -4.05           -1.3476e-009    -0.0027722      9.8664e-008    
  -4.1            -1.3816e-009    -0.0028284      8.4393e-008    
  -4.15           -1.3255e-009    -0.0028829      7.4307e-008    
  -4.2            -1.0891e-009    -0.0029412      6.6291e-008    
  -4.25           -1.292e-009     -0.0029967      5.3824e-008    
  -4.3            -1.3847e-009    -0.0030522      4.8299e-008    
  -4.35           -1.3494e-009    -0.0031121      4.2619e-008    
  -4.4            -1.2901e-009    -0.0031681      3.8011e-008    
  -4.45           -1.2144e-009    -0.0032273      3.4273e-008    
  -4.5            -1.3664e-009    -0.0032859      2.6715e-008    
  -4.55           -1.3714e-009    -0.0033416      2.3842e-008    
  -4.6            -1.3153e-009    -0.0034013      2.1462e-008    
  -4.65           -1.1288e-009    -0.0034591      1.9856e-008    
  -4.7            -1.3219e-009    -0.00352        1.359e-008     
  -4.75           -1.386e-009     -0.0035732      1.2903e-008    
  -4.8            -1.3371e-009    -0.0036265      1.153e-008     
  -4.85           -1.032e-009     -0.0036846      1.1324e-008    
  -4.9            5.52e-010       -0.0037411      1.8886e-008    
  -4.95           -1.314e-009     -0.0037984      1.8559e-008    
  -5              -1.1254e-009    -0.0038513      8.231e-009     
END_DB

BEGIN_DB
 ICCAP_VAR VS         0              
 ICCAP_VAR VB         2.5            
 ICCAP_VAR VD         -0.1           

 #VG              IG              ID              IB             
  0               1.1631e-009     3.217e-010      -1.2771e-008   
  -0.05           -1.3028e-009    7.406e-010      1.3414e-008    
  -0.1            1.3548e-009     -9.404e-010     -1.2844e-008   
  -0.15           -1.3756e-009    7.742e-010      1.3448e-008    
  -0.2            1.3391e-009     -9.995e-010     -1.2771e-008   
  -0.25           -1.3845e-009    8.114e-010      1.3203e-008    
  -0.3            1.3226e-009     -1.0575e-009    -1.2898e-008   
  -0.35           -1.384e-009     8.53e-010       1.2887e-008    
  -0.4            1.3094e-009     -7.237e-010     -1.3272e-008   
  -0.45           -1.3726e-009    9.004e-010      1.2705e-008    
  -0.5            1.2914e-009     -7.586e-010     -1.3442e-008   
  -0.55           -1.3523e-009    9.53e-010       1.2767e-008    
  -0.6            1.3714e-009     -7.939e-010     -1.3494e-008   
  -0.65           -1.3396e-009    1.0099e-009     1.2749e-008    
  -0.7            1.3786e-009     -8.317e-010     -1.3202e-008   
  -0.75           -1.3248e-009    1.0703e-009     1.3001e-008    
  -0.8            1.3736e-009     -8.766e-010     -1.2939e-008   
  -0.85           -1.3078e-009    7.281e-010      1.3186e-008    
  -0.9            1.3602e-009     -9.248e-010     -1.2809e-008   
  -0.95           -1.3662e-009    7.619e-010      1.3418e-008    
  -1              1.3429e-009     -9.838e-010     -1.2748e-008   
  -1.05           -1.3804e-009    7.75e-010       1.3309e-008    
  -1.1            1.327e-009      -1.1402e-009    -1.2752e-008   
  -1.15           -1.0531e-009    -1.5547e-009    1.292e-008     
  -1.2            1.3127e-009     -3.3179e-009    -1.3157e-008   
  -1.25           -1.3206e-009    -1.2273e-008    -1.2714e-008   
  -1.3            1.3327e-009     -5.0628e-008    -1.2802e-008   
  -1.35           1.3613e-009     -1.9871e-007    6.464e-009     
  -1.4            -1.3846e-009    -6.4667e-007    1.3416e-008    
  -1.45           -7.606e-010     -1.7981e-006    -4.155e-009    
  -1.5            1.3662e-009     -3.9822e-006    -1.3373e-008   
  -1.55           -1.3859e-009    -7.3864e-006    1.3368e-008    
  -1.6            8.379e-010      -1.1948e-005    -1.3346e-008   
  -1.65           -1.3381e-009    -1.7087e-005    1.2782e-008    
  -1.7            1.3612e-009     -2.261e-005     -1.326e-008    
  -1.75           -1.3866e-009    -2.8002e-005    1.3455e-008    
  -1.8            1.3685e-009     -3.3383e-005    -1.2943e-008   
  -1.85           -1.3103e-009    -3.8501e-005    1.2671e-008    
  -1.9            1.3303e-009     -4.3451e-005    -1.279e-008    
  -1.95           -1.3633e-009    -4.8036e-005    1.3127e-008    
  -2              1.3756e-009     -5.2544e-005    -1.3537e-008   
  -2.05           -1.3753e-009    -5.6743e-005    1.3253e-008    
  -2.1            1.3e-009        -6.0828e-005    -1.2694e-008   
  -2.15           -1.3269e-009    -6.4661e-005    1.2696e-008    
  -2.2            1.3498e-009     -6.8427e-005    -1.3042e-008   
  -2.25           -1.3825e-009    -7.1965e-005    1.3388e-008    
  -2.3            1.3736e-009     -7.5414e-005    -1.3209e-008   
  -2.35           -1.3034e-009    -7.8716e-005    1.2794e-008    
  -2.4            1.3192e-009     -8.1933e-005    -1.2845e-008   
  -2.45           -1.3495e-009    -8.4994e-005    1.2898e-008    
  -2.5            1.3692e-009     -8.8004e-005    -1.3436e-008   
  -2.55           -1.3839e-009    -9.0806e-005    1.335e-008     
  -2.6            1.2907e-009     -9.364e-005     -1.2873e-008   
  -2.65           -1.3174e-009    -9.6289e-005    1.2645e-008    
  -2.7            1.34e-009       -9.8957e-005    -1.2876e-008   
  -2.75           -1.3732e-009    -0.000101444    1.3207e-008    
  -2.8            1.379e-009      -0.000103935    -1.3479e-008   
  -2.85           -1.3724e-009    -0.000106263    1.2953e-008    
  -2.9            1.3065e-009     -0.000108616    -1.2736e-008   
  -2.95           -1.3383e-009    -0.000110867    1.2715e-008    
  -3              1.3583e-009     -0.000113052    -1.3227e-008   
  -3.05           1.2161e-009     -0.00011528     1.27e-008      
  -3.1            1.3593e-009     -0.00011723     -3.581e-009    
  -3.15           -1.3149e-009    -0.00011931     1.265e-008     
  -3.2            1.3325e-009     -0.00012127     -1.2854e-008   
  -3.25           -1.3682e-009    -0.00012326     1.3139e-008    
  -3.3            1.3777e-009     -0.00012509     -1.3592e-008   
  -3.35           -1.3723e-009    -0.00012692     1.3217e-008    
  -3.4            1.3023e-009     -0.00012868     -1.2684e-008   
  -3.45           -1.3347e-009    -0.00013049     1.2612e-008    
  -3.5            1.3524e-009     -0.00013213     -1.3122e-008   
  -3.55           -1.3828e-009    -0.00013381     1.3437e-008    
  -3.6            1.3709e-009     -0.0001354      -1.3329e-008   
  -3.65           -1.3029e-009    -0.00013704     1.275e-008     
  -3.7            1.3216e-009     -0.00013853     -1.2815e-008   
  -3.75           -1.3532e-009    -0.00014016     1.2929e-008    
  -3.8            1.371e-009      -0.00014165     -1.3552e-008   
  -3.85           -1.3827e-009    -0.00014309     1.3311e-008    
  -3.9            1.2907e-009     -0.00014438     -1.2785e-008   
  -3.95           -1.3205e-009    -0.00014587     1.2656e-008    
  -4              1.3376e-009     -0.0001472      -1.2908e-008   
  -4.05           -1.3755e-009    -0.00014853     1.3325e-008    
  -4.1            1.3778e-009     -0.00014981     -1.3471e-008   
  -4.15           -1.2911e-009    -0.00015118     1.2934e-008    
