! VERSION = 6.00
BEGIN_HEADER
 ICCAP_INPUTS
  VG         V  B GROUND SMU4 0.001 LIN        1    0          -5         101  -0.05     
  VS         V  E GROUND SMU2 0.1 CON        0
  VB         V  C GROUND SMU3 0.1 LIN        3    0          5          3    2.5       
  VD         V  S GROUND SMU1 0.1 LIN        2    -0.1       -5         2    -4.9      
 ICCAP_OUTPUTS
  IG         I  B GROUND SMU4 B
  ID         I  S GROUND SMU1 B
  IB         I  C GROUND SMU3 B
END_HEADER

BEGIN_DB
 ICCAP_VAR VS         0              
 ICCAP_VAR VB         0              
 ICCAP_VAR VD         -0.1           

 #VG              IG              ID              IB             
  0               -3.239e-010     1.611e-010      4.07e-009      
  -0.05           5.991e-010      1.2794e-009     -1.4347e-008   
  -0.1            -1.3386e-009    1.0543e-009     1.292e-008     
  -0.15           1.3881e-009     -8.628e-010     -1.3347e-008   
  -0.2            -1.3257e-009    7.208e-010      1.3281e-008    
  -0.25           1.3766e-009     -9.109e-010     -1.3055e-008   
  -0.3            -1.3162e-009    7.542e-010      1.3573e-008    
  -0.35           1.3598e-009     -9.641e-010     -1.2906e-008   
  -0.4            -1.3888e-009    7.861e-010      1.3743e-008    
  -0.45           1.3434e-009     -1.0309e-009    -1.2848e-008   
  -0.5            -1.3955e-009    7.812e-010      1.3459e-008    
  -0.55           1.3317e-009     -1.2563e-009    -1.2912e-008   
  -0.6            -1.0999e-009    -1.7048e-009    1.3127e-008    
  -0.65           1.3177e-009     -3.292e-009     -1.3622e-008   
  -0.7            -1.3797e-009    -8.5287e-009    1.2889e-008    
  -0.75           1.3198e-009     -3.2694e-008    1.3185e-008    
  -0.8            1.3179e-009     -1.1415e-007    1.1618e-008    
  -0.85           -1.3474e-009    -3.4272e-007    1.2905e-008    
  -0.9            1.364e-009      -9.4846e-007    -1.3491e-008   
  -0.95           8.115e-010      -2.2963e-006    5.087e-009     
  -1              -1.3675e-009    -4.5073e-006    1.3233e-008    
  -1.05           1.3863e-009     -8.0229e-006    -1.391e-008    
  -1.1            -7.638e-010     -1.2459e-005    1.3463e-008    
  -1.15           1.3817e-009     -1.7722e-005    -1.3756e-008   
  -1.2            -1.3998e-009    -2.3281e-005    1.3518e-008    
  -1.25           1.3016e-009     -2.9171e-005    -1.2987e-008   
  -1.3            -1.3291e-009    -3.4924e-005    1.2817e-008    
  -1.35           1.3471e-009     -4.0793e-005    -1.3134e-008   
  -1.4            -1.3842e-009    -4.6346e-005    1.3514e-008    
  -1.45           1.3918e-009     -5.1937e-005    -1.38e-008     
  -1.5            -1.3043e-009    -5.7193e-005    1.3091e-008    
  -1.55           1.3171e-009     -6.2426e-005    -1.287e-008    
  -1.6            -1.3506e-009    -6.7342e-005    1.2887e-008    
  -1.65           1.3688e-009     -7.2262e-005    -1.3542e-008   
  -1.7            -1.397e-009     -7.6864e-005    1.3645e-008    
  -1.75           1.3856e-009     -8.1437e-005    -1.3544e-008   
  -1.8            -1.32e-009      -8.575e-005     1.2827e-008    
  -1.85           1.3324e-009     -9.0117e-005    -1.3071e-008   
  -1.9            -1.3698e-009    -9.4147e-005    1.3203e-008    
  -1.95           1.3839e-009     -9.8186e-005    -1.394e-008    
  -2              -1.3963e-009    -0.000101995    1.3546e-008    
  -2.05           1.3085e-009     -0.000105796    -1.2867e-008   
  -2.1            -1.3357e-009    -0.000109366    1.2828e-008    
  -2.15           1.3528e-009     -0.000112972    -1.3245e-008   
  -2.2            9.523e-010      -0.00011642     1.2839e-008    
  -2.25           -1.3271e-009    -0.00011972     1.2782e-008    
  -2.3            1.3379e-009     -0.00012304     -1.3163e-008   
  -2.35           -1.3726e-009    -0.00012618     1.3425e-008    
  -2.4            1.387e-009      -0.00012933     -1.3957e-008   
  -2.45           -1.3926e-009    -0.00013232     1.3353e-008    
  -2.5            1.3152e-009     -0.00013532     -1.285e-008    
  -2.55           -1.344e-009     -0.00013812     1.2853e-008    
  -2.6            1.3558e-009     -0.00014104     -1.3417e-008   
  -2.65           -1.3891e-009    -0.00014374     1.3698e-008    
  -2.7            1.3884e-009     -0.00014645     -1.3748e-008   
  -2.75           -1.3148e-009    -0.00014905     1.2919e-008    
  -2.8            1.3264e-009     -0.00015165     -1.2932e-008   
  -2.85           -1.3562e-009    -0.00015413     1.313e-008     
  -2.9            1.3783e-009     -0.00015666     -1.3826e-008   
  -2.95           -1.3967e-009    -0.00015903     1.3629e-008    
  -3              1.3035e-009     -0.00016143     -1.2969e-008   
  -3.05           -1.3315e-009    -0.00016374     1.2835e-008    
  -3.1            1.3444e-009     -0.00016604     -1.3137e-008   
  -3.15           -1.3772e-009    -0.00016825     1.3538e-008    
  -3.2            1.3891e-009     -0.00017043     -1.3976e-008   
  -3.25           -1.3881e-009    -0.00017255     1.3314e-008    
  -3.3            1.316e-009      -0.00017468     -1.2845e-008   
  -3.35           -1.3436e-009    -0.00017671     1.2851e-008    
  -3.4            1.3635e-009     -0.00017876     -1.3493e-008   
  -3.45           -1.3939e-009    -0.00018068     1.3686e-008    
  -3.5            1.3875e-009     -0.00018269     -1.3716e-008   
  -3.55           -1.3209e-009    -0.00018457     1.2852e-008    
  -3.6            1.3302e-009     -0.00018647     -1.3028e-008   
  -3.65           -1.3601e-009    -0.00018829     1.3097e-008    
  -3.7            1.3792e-009     -0.00019014     -1.3865e-008   
  -3.75           -1.3965e-009    -0.00019192     1.3596e-008    
  -3.8            1.3056e-009     -0.0001937      -1.296e-008    
  -3.85           -1.3357e-009    -0.00019538     1.2807e-008    
  -3.9            1.3469e-009     -0.00019707     -1.325e-008    
  -3.95           -1.3804e-009    -0.00019871     1.3565e-008    
  -4              1.39e-009       -0.00020036     -1.3968e-008   
  -4.05           -1.3877e-009    -0.00020194     1.3054e-008    
  -4.1            1.319e-009      -0.00020355     -1.2777e-008   
  -4.15           -1.3457e-009    -0.00020507     1.2955e-008    
  -4.2            1.3648e-009     -0.00020662     -1.3569e-008   
  -4.25           -1.3952e-009    -0.00020809     1.3749e-008    
  -4.3            1.3846e-009     -0.00020957     -1.3562e-008   
  -4.35           -1.3233e-009    -0.00021104     1.2841e-008    
  -4.4            1.3331e-009     -0.00021247     -1.3069e-008   
  -4.45           -1.3651e-009    -0.00021385     1.3246e-008    
  -4.5            1.3846e-009     -0.00021523     -1.3986e-008   
  -4.55           -1.3953e-009    -0.00021659     1.345e-008     
  -4.6            1.3058e-009     -0.00021794     -1.2961e-008   
  -4.65           -1.3383e-009    -0.00021924     1.2839e-008    
  -4.7            1.352e-009      -0.00022055     -1.3255e-008   
  -4.75           -1.3888e-009    -0.0002218      1.3509e-008    
  -4.8            1.3913e-009     -0.00022307     -1.3765e-008   
  -4.85           -1.3105e-009    -0.00022432     1.3051e-008    
  -4.9            1.3191e-009     -0.00022553     -1.2902e-008   
  -4.95           -1.3507e-009    -0.0002267      1.2953e-008    
  -5              1.3733e-009     -0.00022791     -1.3719e-008   
END_DB

BEGIN_DB
 ICCAP_VAR VS         0              
 ICCAP_VAR VB         0              
 ICCAP_VAR VD         -5             

 #VG              IG              ID              IB             
  0               1.1362e-009     3.619e-010      -1.2767e-008   
  -0.05           -1.3921e-009    7.903e-010      1.3651e-008    
  -0.1            1.3417e-009     -1.0454e-009    -1.2858e-008   
  -0.15           -1.3975e-009    8.312e-010      1.3382e-008    
  -0.2            1.3306e-009     -1.1144e-009    -1.3083e-008   
  -0.25           -1.3902e-009    8.768e-010      1.307e-008     
  -0.3            1.3133e-009     -7.671e-010     -1.38e-008     
  -0.35           -1.3749e-009    9.309e-010      1.2855e-008    
  -0.4            1.3809e-009     -8.135e-010     -1.3883e-008   
  -0.45           -1.356e-009     9.522e-010      1.2812e-008    
  -0.5            1.3906e-009     -1.0007e-009    -1.3582e-008   
  -0.55           -8.277e-010     -1.8072e-009    1.3085e-008    
  -0.6            1.3927e-009     -3.1512e-009    -1.3137e-008   
  -0.65           -1.328e-009     -7.6892e-009    1.3762e-008    
  -0.7            -1.3651e-009    -3.2681e-008    -1.2394e-008   
  -0.75           -1.3141e-009    -1.1328e-007    -9.933e-009    
  -0.8            -1.1973e-009    -3.7177e-007    1.0738e-008    
  -0.85           9.373e-010      -1.093e-006     2.6817e-008    
  -0.9            1.1673e-009     -2.8271e-006    5.2098e-008    
  -0.95           1.3592e-009     -6.2797e-006    1.05353e-007   
  -1              1.32e-009       -1.2205e-005    1.7892e-007    
  -1.05           1.3176e-009     -2.1223e-005    2.9522e-007    
  -1.1            1.453e-009      -3.3496e-005    4.4354e-007    
  -1.15           1.436e-009      -4.9259e-005    6.1108e-007    
  -1.2            1.3919e-009     -6.8101e-005    7.9395e-007    
  -1.25           1.2882e-009     -9.0192e-005    9.8545e-007    
  -1.3            1.4068e-009     -0.00011502     1.1825e-006    
  -1.35           1.3476e-009     -0.00014279     1.3747e-006    
  -1.4            1.4464e-009     -0.00017305     1.5619e-006    
  -1.45           1.4832e-009     -0.0002056      1.7417e-006    
  -1.5            1.418e-009      -0.00024027     1.9065e-006    
  -1.55           1.3602e-009     -0.00027693     2.0531e-006    
  -1.6            1.3672e-009     -0.00031558     2.1886e-006    
  -1.65           1.4565e-009     -0.00035588     2.3072e-006    
  -1.7            1.4082e-009     -0.00039774     2.4064e-006    
  -1.75           1.3512e-009     -0.00044103     2.4885e-006    
  -1.8            1.2562e-009     -0.00048587     2.5512e-006    
  -1.85           1.4111e-009     -0.00053251     2.6045e-006    
  -1.9            1.4074e-009     -0.00057989     2.6346e-006    
  -1.95           1.3476e-009     -0.00062818     2.6507e-006    
  -2              1.155e-009      -0.00067763     2.6501e-006    
  -2.05           1.3533e-009     -0.00072801     2.6419e-006    
  -2.1            1.4047e-009     -0.00077947     2.6165e-006    
  -2.15           1.3492e-009     -0.00083164     2.5789e-006    
  -2.2            1.0504e-009     -0.00088457     2.5312e-006    
  -2.25           1.2765e-009     -0.00093839     2.4805e-006    
  -2.3            1.3901e-009     -0.00099296     2.4127e-006    
  -2.35           1.367e-009      -0.00104827     2.3409e-006    
  -2.4            1.3137e-009     -0.00110401     2.2625e-006    
  -2.45           -1.334e-009     -0.0011595      2.1772e-006    
  -2.5            -1.1044e-009    -0.0012164      2.1001e-006    
  -2.55           -1.3148e-009    -0.0012741      2.0063e-006    
  -2.6            -1.3971e-009    -0.0013323      1.918e-006     
  -2.65           -1.3556e-009    -0.0013908      1.8258e-006    
  -2.7            -1.3069e-009    -0.0014504      1.7336e-006    
  -2.75           -1.2417e-009    -0.0015098      1.6422e-006    
  -2.8            -1.3825e-009    -0.0015701      1.5468e-006    
  -2.85           -1.3766e-009    -0.0016303      1.4569e-006    
  -2.9            -1.328e-009     -0.0016916      1.3682e-006    
  -2.95           -1.1574e-009    -0.0017527      1.283e-006     
  -3              -1.3456e-009    -0.0018146      1.195e-006     
  -3.05           -1.3952e-009    -0.0018764      1.1145e-006    
  -3.1            -1.3468e-009    -0.0019388      1.0368e-006    
  -3.15           1.209e-009      -0.0020022      9.6101e-007    
  -3.2            1.3675e-009     -0.0020653      8.8589e-007    
  -3.25           1.3822e-009     -0.0021291      8.1658e-007    
  -3.3            1.3282e-009     -0.0021924      7.5108e-007    
  -3.35           1.1142e-009     -0.002256       6.8853e-007    
  -3.4            1.32e-009       -0.0023203      6.3514e-007    
  -3.45           1.3921e-009     -0.0023847      5.798e-007     
  -3.5            1.3468e-009     -0.0024492      5.2844e-007    
  -3.55           1.2985e-009     -0.0025138      4.7983e-007    
  -3.6            1.2429e-009     -0.002579       4.3487e-007    
  -3.65           1.3813e-009     -0.0026438      3.9761e-007    
  -3.7            1.3736e-009     -0.0027096      3.5921e-007    
  -3.75           1.3162e-009     -0.0027758      3.2292e-007    
  -3.8            1.157e-009      -0.0028415      2.8988e-007    
  -3.85           1.3455e-009     -0.0029072      2.6457e-007    
  -3.9            1.3937e-009     -0.0029734      2.3643e-007    
  -3.95           1.341e-009      -0.0030392      2.1083e-007    
  -4              1.0672e-009     -0.0031055      1.8722e-007    
  -4.05           1.2838e-009     -0.0031719      1.7142e-007    
  -4.1            1.3927e-009     -0.0032386      1.5097e-007    
  -4.15           1.3643e-009     -0.0033051      1.3346e-007    
  -4.2            1.3057e-009     -0.0033718      1.1709e-007    
  -4.25           1.2729e-009     -0.0034386      1.0243e-007    
  -4.3            -1.4042e-009    -0.0035046      9.8086e-008    
  -4.35           -1.3532e-009    -0.003571       8.5091e-008    
  -4.4            -1.048e-009     -0.003638       7.6546e-008    
  -4.45           -1.274e-009     -0.0037055      6.2838e-008    
  -4.5            -1.3964e-009    -0.0037725      5.755e-008     
  -4.55           -1.3759e-009    -0.0038394      5.1301e-008    
  -4.6            -1.3163e-009    -0.0039067      4.6224e-008    
  -4.65           -1.1901e-009    -0.0039738      4.184e-008     
  -4.7            -1.3675e-009    -0.004041       3.3468e-008    
  -4.75           -1.3995e-009    -0.0041082      3.0348e-008    
  -4.8            -1.3386e-009    -0.0041755      2.73e-008      
  -4.85           -1.1036e-009    -0.0042429      2.5327e-008    
  -4.9            -1.3151e-009    -0.0043105      1.8205e-008    
  -4.95           -1.3982e-009    -0.0043771      1.7499e-008    
  -5              -1.3619e-009    -0.0044445      1.6059e-008    
END_DB

BEGIN_DB
 ICCAP_VAR VS         0              
 ICCAP_VAR VB         2.5            
 ICCAP_VAR VD         -0.1           

 #VG              IG              ID              IB             
  0               -1.2129e-009    -2.554e-010     1.323e-008     
  -0.05           1.3372e-009     -1.0783e-009    -1.3049e-008   
  -0.1            -1.4032e-009    8.662e-010      1.3004e-008    
  -0.15           1.3177e-009     -7.402e-010     -1.3571e-008   
  -0.2            -1.3872e-009    9.202e-010      1.2841e-008    
  -0.25           1.3022e-009     -7.779e-010     -1.3783e-008   
  -0.3            -1.3658e-009    9.785e-010      1.2834e-008    
  -0.35           1.3938e-009     -8.207e-010     -1.3723e-008   
  -0.4            -1.3473e-009    1.049e-009      1.3102e-008    
  -0.45           1.3947e-009     -8.639e-010     -1.3284e-008   
  -0.5            -1.328e-009     7.222e-010      1.3322e-008    
  -0.55           1.3851e-009     -9.18e-010      -1.299e-008    
  -0.6            -1.3133e-009    7.593e-010      1.3616e-008    
  -0.65           1.3628e-009     -9.779e-010     -1.2899e-008   
  -0.7            -1.3962e-009    8.007e-010      1.358e-008     
  -0.75           1.3422e-009     -1.0406e-009    -1.2913e-008   
  -0.8            -1.4047e-009    8.448e-010      1.3213e-008    
  -0.85           1.3286e-009     -1.1127e-009    -1.3178e-008   
  -0.9            -1.3964e-009    8.917e-010      1.2922e-008    
  -0.95           1.3079e-009     -7.62e-010      -1.3674e-008   
  -1              -1.3753e-009    9.458e-010      1.2814e-008    
  -1.05           1.3886e-009     -8.244e-010     -1.3797e-008   
  -1.1            -1.3555e-009    8.886e-010      1.2859e-008    
  -1.15           1.3972e-009     -1.4813e-009    -1.343e-008    
  -1.2            -1.3367e-009    -1.9414e-009    1.311e-008     
  -1.25           -1.3413e-009    -1.4226e-008    -1.2908e-008   
  -1.3            1.3449e-009     -5.8306e-008    -1.2988e-008   
  -1.35           1.3792e-009     -2.099e-007     6.764e-009     
  -1.4            -1.4016e-009    -6.5071e-007    1.364e-008     
  -1.45           -7.953e-010     -1.7406e-006    -4.618e-009    
  -1.5            1.3715e-009     -3.8864e-006    -1.3447e-008   
  -1.55           -1.402e-009     -7.1732e-006    1.3689e-008    
  -1.6            1.016e-009      -1.1605e-005    -1.2918e-008   
  -1.65           -1.3115e-009    -1.6641e-005    1.3055e-008    
  -1.7            1.3257e-009     -2.2137e-005    -1.2917e-008   
  -1.75           -1.3565e-009    -2.7524e-005    1.2959e-008    
  -1.8            1.3785e-009     -3.3017e-005    -1.35e-008     
  -1.85           -1.4002e-009    -3.8276e-005    1.3645e-008    
  -1.9            1.3863e-009     -4.3413e-005    -1.3507e-008   
  -1.95           -1.3226e-009    -4.8248e-005    1.2831e-008    
  -2              1.3364e-009     -5.3048e-005    -1.298e-008    
  -2.05           -1.3715e-009    -5.7525e-005    1.3137e-008    
  -2.1            1.3891e-009     -6.1979e-005    -1.377e-008    
  -2.15           -1.3987e-009    -6.6178e-005    1.3514e-008    
  -2.2            1.3062e-009     -7.0344e-005    -1.3046e-008   
  -2.25           -1.3365e-009    -7.4264e-005    1.2807e-008    
  -2.3            1.3493e-009     -7.8191e-005    -1.3108e-008   
  -2.35           -1.3845e-009    -8.1873e-005    1.3444e-008    
  -2.4            1.3936e-009     -8.5562e-005    -1.3896e-008   
  -2.45           -1.3936e-009    -8.9064e-005    1.3336e-008    
  -2.5            1.316e-009      -9.2561e-005    -1.2891e-008   
  -2.55           -1.3454e-009    -9.5851e-005    1.2897e-008    
  -2.6            1.3599e-009     -9.918e-005     -1.3316e-008   
  -2.65           -1.3918e-009    -0.000102306    1.3638e-008    
  -2.7            1.3905e-009     -0.000105451    -1.3776e-008   
  -2.75           -1.3131e-009    -0.000108447    1.2968e-008    
  -2.8            1.325e-009      -0.000111456    -1.2914e-008   
  -2.85           1.3303e-009     -0.00011435     1.2928e-008    
  -2.9            -1.3612e-009    -0.00011715     1.301e-008     
  -2.95           1.3759e-009     -0.00011994     -1.3801e-008   
  -3              -1.3957e-009    -0.0001226      1.3803e-008    
  -3.05           1.3008e-009     -0.0001253      -1.3076e-008   
  -3.1            -1.3303e-009    -0.00012786     1.2726e-008    
  -3.15           1.3417e-009     -0.00013043     -1.2896e-008   
  -3.2            -1.371e-009     -0.00013287     1.3206e-008    
  -3.25           1.3819e-009     -0.00013535     -1.4034e-008   
  -3.3            -1.39e-009      -0.00013771     1.3743e-008    
  -3.35           1.3107e-009     -0.00014008     -1.2843e-008   
  -3.4            -1.3422e-009    -0.00014232     1.2652e-008    
  -3.45           1.3539e-009     -0.00014461     -1.2983e-008   
  -3.5            -1.3804e-009    -0.0001468      1.3466e-008    
  -3.55           1.3823e-009     -0.00014897     -1.4103e-008   
  -3.6            -1.3789e-009    -0.00015108     1.3669e-008    
  -3.65           1.3227e-009     -0.00015319     -1.2725e-008   
  -3.7            -1.3521e-009    -0.00015519     1.2687e-008    
  -3.75           1.3622e-009     -0.00015727     -1.3144e-008   
  -3.8            -1.388e-009     -0.00015918     1.3681e-008    
  -3.85           1.3813e-009     -0.00016116     -1.3918e-008   
  -3.9            -1.3203e-009    -0.000163       1.2921e-008    
  -3.95           1.3343e-009     -0.00016494     -1.2758e-008   
  -4              -1.3602e-009    -0.00016673     1.2942e-008    
  -4.05           1.3735e-009     -0.00016855     -1.3652e-008   
  -4.1            -1.3914e-009    -0.00017032     1.3873e-008    
  -4.15           1.3786e-009     -0.00017205     -1.3746e-008   
