! VERSION = 6.00
BEGIN_HEADER
 ICCAP_INPUTS
  VG         V  B GROUND SMU4 0.001 LIN        2    0          -5         6    -1        
  VS         V  E GROUND SMU2 0.1 CON        0
  VD         V  S GROUND SMU1 0.1 LIN        1    0          -5         101  -0.05     
  VB         V  C GROUND SMU3 0.1 LIN        3    0          2.5        2    2.5       
 ICCAP_OUTPUTS
  ID         I  S GROUND SMU1 B
  IB         I  C GROUND SMU3 B
  IG         I  B GROUND SMU4 B
END_HEADER

BEGIN_DB
 ICCAP_VAR VG         0              
 ICCAP_VAR VS         0              
 ICCAP_VAR VB         0              

 #VD              ID              IB              IG             
  0               -1.0011e-009    -3.1818e-008    -2.9308e-009   
  -0.05           -1.9887e-009    -1.5187e-008    1.9557e-009    
  -0.1            2.7109e-009     -1.0916e-008    5.671e-010     
  -0.15           2.6987e-009     1.1744e-008     7.167e-010     
  -0.2            2.666e-009      1.1854e-008     8.88e-010      
  -0.25           2.5792e-009     1.2366e-008     1.071e-009     
  -0.3            2.4146e-009     1.2887e-008     1.2862e-009    
  -0.35           2.1685e-009     1.3326e-008     1.5312e-009    
  -0.4            1.8665e-009     1.366e-008      1.7791e-009    
  -0.45           2.4342e-009     1.3549e-008     -2.228e-010    
  -0.5            2.5397e-009     1.3234e-008     -2.86e-011     
  -0.55           2.6301e-009     1.3237e-008     1.613e-010     
  -0.6            2.6879e-009     1.2956e-008     3.358e-010     
  -0.65           2.7029e-009     1.2266e-008     5.023e-010     
  -0.7            2.6999e-009     1.1763e-008     6.445e-010     
  -0.75           2.686e-009      1.1629e-008     8.015e-010     
  -0.8            2.6283e-009     1.2176e-008     9.834e-010     
  -0.85           2.4915e-009     1.2725e-008     1.1918e-009    
  -0.9            2.2838e-009     1.3134e-008     1.437e-009     
  -0.95           1.9767e-009     1.3584e-008     1.6781e-009    
  -1              2.3917e-009     1.3529e-008     -2.899e-010    
  -1.05           2.5088e-009     1.334e-008      -9.9e-011      
  -1.1            2.5915e-009     1.3291e-008     1.042e-010     
  -1.15           2.6484e-009     1.279e-008      2.872e-010     
  -1.2            2.6798e-009     1.2097e-008     4.429e-010     
  -1.25           2.7077e-009     1.1693e-008     5.916e-010     
  -1.3            2.7096e-009     1.188e-008      7.43e-010      
  -1.35           2.6753e-009     1.2231e-008     9.182e-010     
  -1.4            2.569e-009      1.2976e-008     1.1164e-009    
  -1.45           2.3545e-009     1.3399e-008     1.3412e-009    
  -1.5            2.0694e-009     1.348e-008      1.5811e-009    
  -1.55           2.3332e-009     1.3521e-008     -1.4955e-009   
  -1.6            -1.419e-009     1.2554e-008     -2.1165e-009   
  -1.65           -2.0777e-009    -1.161e-008     3.429e-010     
  -1.7            -1.0199e-009    -2.1861e-008    2.3657e-009    
  -1.75           2.1662e-009     -8.835e-009     1.5342e-009    
  -1.8            1.8193e-009     1.3542e-008     1.7721e-009    
  -1.85           2.4471e-009     1.3369e-008     -2.072e-010    
  -1.9            2.5375e-009     1.3312e-008     -1.62e-011     
  -1.95           2.6129e-009     1.3096e-008     1.706e-010     
  -2              2.6644e-009     1.269e-008      3.391e-010     
  -2.05           2.6961e-009     1.1968e-008     4.917e-010     
  -2.1            2.7127e-009     1.1676e-008     6.44e-010      
  -2.15           2.7007e-009     1.1749e-008     8.021e-010     
  -2.2            2.6492e-009     1.2145e-008     9.783e-010     
  -2.25           2.5191e-009     1.2726e-008     1.1873e-009    
  -2.3            2.3036e-009     1.3112e-008     1.4183e-009    
  -2.35           2.0202e-009     1.3534e-008     1.6719e-009    
  -2.4            2.3775e-009     1.3611e-008     -3.117e-010    
  -2.45           2.4899e-009     1.3117e-008     -1.367e-010    
  -2.5            2.5845e-009     1.3229e-008     5.89e-011      
  -2.55           2.6577e-009     1.3063e-008     2.451e-010     
  -2.6            2.6947e-009     1.2431e-008     4.147e-010     
  -2.65           2.7069e-009     1.1859e-008     5.728e-010     
  -2.7            2.6984e-009     1.1949e-008     7.209e-010     
  -2.75           2.6557e-009     1.2033e-008     8.871e-010     
  -2.8            2.5633e-009     1.2716e-008     1.0771e-009    
  -2.85           2.4013e-009     1.3262e-008     1.3002e-009    
  -2.9            2.1453e-009     1.3429e-008     1.5382e-009    
  -2.95           1.8602e-009     1.3666e-008     1.7812e-009    
  -3              2.4324e-009     1.3566e-008     -2.196e-010    
  -3.05           2.5424e-009     1.3267e-008     -2.81e-011     
  -3.1            2.6371e-009     1.3157e-008     1.668e-010     
  -3.15           2.689e-009      1.2929e-008     3.463e-010     
  -3.2            2.7122e-009     1.2229e-008     5.017e-010     
  -3.25           2.7061e-009     1.1865e-008     6.523e-010     
  -3.3            2.6785e-009     1.198e-008      8.064e-010     
  -3.35           2.6164e-009     1.2452e-008     9.909e-010     
  -3.4            2.4808e-009     1.3035e-008     1.1966e-009    
  -3.45           2.2649e-009     1.345e-008      1.4396e-009    
  -3.5            1.9834e-009     1.3662e-008     1.6928e-009    
  -3.55           2.3776e-009     1.357e-008      -2.95e-010     
  -3.6            2.5022e-009     1.3125e-008     -1.067e-010    
  -3.65           2.6031e-009     1.3237e-008     8.86e-011      
  -3.7            2.668e-009      1.3033e-008     2.702e-010     
  -3.75           2.7016e-009     1.2358e-008     4.394e-010     
  -3.8            2.7049e-009     1.1905e-008     5.918e-010     
  -3.85           2.6944e-009     1.1732e-008     7.421e-010     
  -3.9            2.6495e-009     1.2176e-008     9.14e-010      
  -3.95           2.5454e-009     1.2882e-008     1.1138e-009    
  -4              2.36e-009       1.3328e-008     1.3321e-009    
  -4.05           2.102e-009      1.3511e-008     1.5851e-009    
  -4.1            2.3225e-009     1.3637e-008     -1.4866e-009   
  -4.15           -1.4399e-009    1.2535e-008     -2.1149e-009   
  -4.2            -1.3988e-009    -2.9925e-008    3.4876e-009    
  -4.25           2.6969e-009     -1.285e-009     7.041e-010     
  -4.3            2.654e-009      1.215e-008      8.709e-010     
  -4.35           2.5692e-009     1.274e-008      1.0649e-009    
  -4.4            2.403e-009      1.324e-008      1.2845e-009    
  -4.45           2.1615e-009     1.3488e-008     1.5239e-009    
  -4.5            2.2858e-009     1.3726e-008     -1.4911e-009   
  -4.55           -1.4586e-009    1.2423e-008     -2.0968e-009   
  -4.6            -2.0752e-009    -1.2275e-008    1.7163e-009    
  -4.65           2.7007e-009     -1.0443e-008    6.714e-010     
  -4.7            2.6669e-009     1.1893e-008     8.339e-010     
  -4.75           2.5983e-009     1.2508e-008     1.0178e-009    
  -4.8            2.4541e-009     1.3164e-008     1.2248e-009    
  -4.85           2.2324e-009     1.349e-008      1.4587e-009    
  -4.9            1.9428e-009     1.3699e-008     1.713e-009     
  -4.95           2.3782e-009     1.3489e-008     -2.754e-010    
  -5              2.497e-009      1.3109e-008     -8.9e-011      
END_DB

BEGIN_DB
 ICCAP_VAR VG         -1             
 ICCAP_VAR VS         0              
 ICCAP_VAR VB         0              

 #VD              ID              IB              IG             
  0               -1.1187e-007    -3.1195e-008    -5.208e-010    
  -0.05           -3.9714e-006    1.2607e-008     1.8481e-009    
  -0.1            -5.5588e-006    -2.9634e-008    2.3374e-009    
  -0.15           -6.2658e-006    -3.1921e-008    2.6088e-009    
  -0.2            -6.6197e-006    -3.1854e-008    2.8476e-009    
  -0.25           -6.8605e-006    -3.119e-008     3.0509e-009    
  -0.3            -7.059e-006     -2.9675e-008    3.2096e-009    
  -0.35           -7.2324e-006    -1.1288e-008    1.223e-010     
  -0.4            -7.1435e-006    1.3129e-008     -1.4744e-009   
  -0.45           -7.4973e-006    1.2508e-008     1.3353e-009    
  -0.5            -7.5554e-006    -3.0922e-008    3.1395e-009    
  -0.55           -7.699e-006     -2.922e-008     3.2768e-009    
  -0.6            -7.8101e-006    -1.1777e-008    1.611e-010     
  -0.65           -7.7616e-006    1.2908e-008     -1.4796e-009   
  -0.7            -8.0206e-006    1.2386e-008     1.2688e-009    
  -0.75           -8.0863e-006    -3.0209e-008    3.2021e-009    
  -0.8            -8.2055e-006    -1.1171e-008    1.131e-010     
  -0.85           -8.064e-006     1.326e-008      -1.4716e-009   
  -0.9            -8.4301e-006    1.2625e-008     1.3601e-009    
  -0.95           -8.4551e-006    -3.0922e-008    3.1085e-009    
  -1              -8.5548e-006    -2.944e-008     3.2537e-009    
  -1.05           -8.6684e-006    -1.1525e-008    1.48e-010      
  -1.1            -8.5318e-006    1.3046e-008     -1.4777e-009   
  -1.15           -8.8628e-006    1.2513e-008     1.2832e-009    
  -1.2            -8.8993e-006    -3.0545e-008    3.1704e-009    
  -1.25           -9.0288e-006    -1.1033e-008    1.038e-010     
  -1.3            -8.8499e-006    1.332e-008      -1.4687e-009   
  -1.35           -9.2357e-006    1.2684e-008     1.3779e-009    
  -1.4            -9.251e-006     -3.1191e-008    3.0763e-009    
  -1.45           -9.3394e-006    -2.9762e-008    3.2357e-009    
  -1.5            -9.4618e-006    -1.1365e-008    1.298e-010     
  -1.55           -9.2622e-006    1.313e-008      -1.4753e-009   
  -1.6            -9.6258e-006    1.2475e-008     1.3143e-009    
  -1.65           -9.6622e-006    -3.0766e-008    3.1563e-009    
  -1.7            -9.7509e-006    -2.8947e-008    3.2875e-009    
  -1.75           -9.8556e-006    -1.2013e-008    1.704e-010     
  -1.8            -9.6704e-006    1.2898e-008     -1.4809e-009   
  -1.85           -1.00291e-005   1.2231e-008     1.2587e-009    
  -1.9            -1.00716e-005   -3.0036e-008    3.2212e-009    
  -1.95           -1.01819e-005   -1.1228e-008    1.153e-010     
  -2              -9.9818e-006    1.3186e-008     -1.4716e-009   
  -2.05           -1.03776e-005   1.2556e-008     1.3442e-009    
  -2.1            -1.0393e-005    -3.088e-008     3.1263e-009    
  -2.15           -1.04713e-005   -2.9097e-008    3.2773e-009    
  -2.2            -1.05818e-005   -1.1624e-008    1.518e-010     
  -2.25           -1.03762e-005   1.2968e-008     -1.4799e-009   
  -2.3            -1.07635e-005   1.2346e-008     1.282e-009     
  -2.35           -1.07847e-005   -3.0257e-008    3.1945e-009    
  -2.4            -1.08962e-005   -1.111e-008     1.003e-010     
  -2.45           -1.06788e-005   1.3351e-008     -1.4694e-009   
  -2.5            -1.11006e-005   1.2693e-008     1.3587e-009    
  -2.55           -1.10914e-005   -3.1141e-008    3.0964e-009    
  -2.6            -1.11839e-005   -2.937e-008     3.2518e-009    
  -2.65           -1.12931e-005   -1.1384e-008    1.358e-010     
  -2.7            -1.107e-005     -5.3e-011       -1.7805e-009   
  -2.75           -1.1271e-005    1.2497e-008     7.669e-010     
  -2.8            -1.1483e-005    -3.0866e-008    3.105e-009     
  -2.85           -1.1496e-005    -2.8012e-008    2.2033e-009    
  -2.9            -1.1672e-005    -1.3879e-008    2.351e-010     
  -2.95           -1.1469e-005    1.4899e-008     -1.3813e-009   
  -3              -1.1615e-005    3.79e-010       3.3392e-009    
  -3.05           -1.1852e-005    -3.1541e-008    2.6906e-009    
  -3.1            -1.1939e-005    -1.9169e-008    1.7198e-009    
  -3.15           -1.202e-005     -3.0031e-008    3.1187e-009    
  -3.2            -1.2071e-005    -2.712e-008     2.2194e-009    
  -3.25           -1.2219e-005    -1.2824e-008    2.344e-010     
  -3.3            -1.1986e-005    1.6282e-008     -1.379e-009    
  -3.35           -1.2302e-005    1.4064e-008     9.766e-010     
  -3.4            -1.2449e-005    -1.2542e-008    3.427e-009     
  -3.45           -1.2476e-005    -2.0532e-008    2.654e-009     
  -3.5            -1.2578e-005    -1.5819e-008    1.6832e-009    
  -3.55           -1.2482e-005    -9.88e-010      -2.6212e-009   
  -3.6            -1.2565e-005    1.8359e-008     5.634e-010     
  -3.65           -1.2769e-005    -3.111e-009     3.484e-009     
  -3.7            -1.2932e-005    -1.083e-008     3.3592e-009    
  -3.75           -1.2965e-005    -1.4388e-008    2.3788e-009    
  -3.8            -1.3089e-005    -9.297e-009     3.3195e-009    
  -3.85           -1.3126e-005    -1.0848e-008    2.2836e-009    
  -3.9            -1.3053e-005    7.85e-009       -2.3515e-009   
  -3.95           -1.3095e-005    2.944e-008      3.164e-010     
  -4              -1.3298e-005    8.284e-009      3.3986e-009    
  -4.05           -1.3191e-005    1.1835e-008     -1.2238e-009   
  -4.1            -1.3242e-005    4.5508e-008     -1.4927e-009   
  -4.15           -1.3492e-005    3.481e-008      3.4914e-009    
  -4.2            -1.3341e-005    2.4041e-008     -1.5253e-009   
  -4.25           -1.3486e-005    5.4455e-008     -1.4442e-009   
  -4.3            -1.3708e-005    4.4668e-008     3.4567e-009    
  -4.35           -1.3586e-005    3.9988e-008     -1.8125e-009   
  -4.4            -1.3749e-005    6.8561e-008     -1.515e-009    
  -4.45           -1.3996e-005    7.7797e-008     3.2161e-009    
  -4.5            -1.4007e-005    6.072e-008      -9.869e-010    
  -4.55           -1.3984e-005    1.03729e-007    -1.4791e-009   
  -4.6            -1.4293e-005    1.04523e-007    3.4277e-009    
  -4.65           -1.4203e-005    9.5167e-008     -1.2487e-009   
  -4.7            -1.4434e-005    1.0849e-007     -7.68e-010     
  -4.75           -1.4358e-005    1.5226e-007     -1.4804e-009   
  -4.8            -1.4665e-005    1.6276e-007     3.2988e-009    
  -4.85           -1.4657e-005    1.5385e-007     -1.0431e-009   
  -4.9            -1.4664e-005    2.0823e-007     -1.4617e-009   
  -4.95           -1.4984e-005    2.1685e-007     3.4865e-009    
  -5              -1.4875e-005    2.1857e-007     -1.2956e-009   
END_DB

BEGIN_DB
 ICCAP_VAR VG         -2             
 ICCAP_VAR VS         0              
 ICCAP_VAR VB         0              

 #VD              ID              IB              IG             
  0               -1.1121e-006    1.9649e-008     9.004e-010     
  -0.05           -6.569e-005     -1.3007e-008    3.4541e-009    
  -0.1            -0.00012692     -2.2028e-008    -6.999e-010    
  -0.15           -0.00018459     1.8591e-008     -1.4894e-009   
  -0.2            -0.00023962     1.3042e-008     1.4488e-009    
  -0.25           -0.00029029     -1.6969e-008    3.078e-010     
  -0.3            -0.00033691     1.4585e-008     -2.558e-009    
  -0.35           -0.00038061     1.3323e-008     3.967e-010     
  -0.4            -0.00042066     -9.904e-009     3.4522e-009    
  -0.45           -0.00045688     -1.209e-008     1.81e-010      
  -0.5            -0.00048822     1.5393e-008     -2.3004e-009   
  -0.55           -0.0005173      1.3144e-008     5.792e-010     
  -0.6            -0.00054292     -2.9945e-008    3.2156e-009    
  -0.65           -0.00056457     -2.6638e-008    2.0784e-009    
  -0.7            -0.00058351     -3.0525e-008    3.1572e-009    
  -0.75           -0.00059931     -2.4958e-008    1.9901e-009    
  -0.8            -0.00061317     -3.1069e-008    3.0854e-009    
  -0.85           -0.0006246      -2.2901e-008    1.89e-009      
  -0.9            -0.00063452     -3.1528e-008    3.0127e-009    
  -0.95           -0.00064292     -2.1588e-008    1.7988e-009    
  -1              -0.0006505      -3.1667e-008    2.9329e-009    
  -1.05           -0.00065666     -1.9899e-008    1.7139e-009    
  -1.1            -0.00066175     -5.772e-009     -2.7384e-009   
  -1.15           -0.00066731     1.2271e-008     7.889e-010     
  -1.2            -0.00067245     -3.1937e-008    2.8219e-009    
  -1.25           -0.00067716     -1.7755e-008    3.232e-010     
  -1.3            -0.00067944     1.4459e-008     -1.3735e-009   
  -1.35           -0.0006843      -7.88e-010      3.1746e-009    
  -1.4            -0.00068834     -2.5534e-008    2.0514e-009    
  -1.45           -0.00069221     -3.0764e-008    3.1395e-009    
  -1.5            -0.00069495     -2.3867e-008    1.9469e-009    
  -1.55           -0.00069849     -3.1288e-008    3.0704e-009    
  -1.6            -0.00070132     -2.2136e-008    1.8503e-009    
  -1.65           -0.00070422     -3.1741e-008    2.9847e-009    
  -1.7            -0.00070715     -2.0756e-008    1.7599e-009    
  -1.75           -0.00070997     -3.1869e-008    2.9033e-009    
  -1.8            -0.00071278     -1.9025e-008    1.6796e-009    
  -1.85           -0.00071455     -5.617e-009     -2.7619e-009   
  -1.9            -0.00071761     1.211e-008      8.088e-010     
  -1.95           -0.00072059     -3.1925e-008    2.7683e-009    
  -2              -0.00072302     -1.7234e-008    3.028e-010     
  -2.05           -0.00072377     1.4616e-008     -1.3647e-009   
  -2.1            -0.00072721     -8.37e-010      3.1485e-009    
  -2.15           -0.00072999     -2.4654e-008    1.9848e-009    
  -2.2            -0.00073261     -3.1206e-008    3.1024e-009    
  -2.25           -0.00073481     -2.2944e-008    1.8963e-009    
  -2.3            -0.00073734     -3.1554e-008    3.0258e-009    
  -2.35           -0.00073922     -2.1319e-008    1.7984e-009    
  -2.4            -0.00074145     -3.1842e-008    2.9301e-009    
  -2.45           -0.00074375     -1.9782e-008    1.7134e-009    
  -2.5            -0.00074479     -5.716e-009     -2.7445e-009   
  -2.55           -0.00074742     1.2295e-008     7.951e-010     
  -2.6            -0.00074977     -3.1898e-008    2.8126e-009    
  -2.65           -0.00075192     -1.7661e-008    3.156e-010     
  -2.7            -0.00075211     1.4768e-008     -1.3736e-009   
  -2.75           -0.00075525     -4.92e-010      3.1784e-009    
  -2.8            -0.00075763     -2.5172e-008    2.0308e-009    
  -2.85           -0.00075977     -3.034e-008     3.128e-009     
  -2.9            -0.00076165     -2.3076e-008    1.9286e-009    
  -2.95           -0.00076366     -3.0401e-008    3.0481e-009    
  -3              -0.00076537     -2.0687e-008    1.8316e-009    
  -3.05           -0.00076755     -2.9832e-008    2.969e-009     
  -3.1            -0.00076907     -1.8144e-008    1.7443e-009    
  -3.15           -0.00077003     -2.866e-009     -2.7222e-009   
  -3.2            -0.00077248     1.6341e-008     7.671e-010     
  -3.25           -0.00077508     -8.251e-009     3.4544e-009    
  -3.3            -0.00077645     -1.6254e-008    2.509e-009     
  -3.35           -0.00077866     -1.3167e-008    3.2105e-009    
  -3.4            -0.00078054     -1.676e-009     3.4726e-009    
  -3.45           -0.00078192     -9.179e-009     2.6581e-009    
  -3.5            -0.00078287     1.1466e-008     -2.3155e-009   
  -3.55           -0.00078456     3.5278e-008     4.246e-010     
  -3.6            -0.00078731     2.79e-010       3.3891e-009    
  -3.65           -0.00078718     2.5808e-008     -2.0135e-009   
  -3.7            -0.00078902     5.5042e-008     -9.18e-011     
  -3.75           -0.00079206     3.0533e-008     2.1292e-009    
  -3.8            -0.00079283     5.8778e-008     -2.5486e-009   
  -3.85           -0.00079451     9.2031e-008     6.206e-010     
  -3.9            -0.00079714     6.6028e-008     1.5219e-009    
  -3.95           -0.00079917     1.02121e-007    -1.412e-009    
  -4              -0.00079837     1.4209e-007     -1.3623e-009   
  -4.05           -0.0008012      1.7089e-007     3.1302e-009    
  -4.1            -0.0008026      1.9923e-007     -2.129e-009    
  -4.15           -0.00080371     2.6037e-007     1.503e-010     
