! VERSION = 6.00
BEGIN_HEADER
 ICCAP_INPUTS
  VG         V  B GROUND SMU4 0.001 LIN        1    0          -5         101  -0.05     
  VS         V  E GROUND SMU2 0.1 CON        0
  VB         V  C GROUND SMU3 0.1 LIN        3    0          5          3    2.5       
  VD         V  S GROUND SMU1 0.1 LIN        2    -0.1       -5         2    -4.9      
 ICCAP_OUTPUTS
  IG         I  B GROUND SMU4 B
  ID         I  S GROUND SMU1 B
  IB         I  C GROUND SMU3 B
END_HEADER

BEGIN_DB
 ICCAP_VAR VS         0              
 ICCAP_VAR VB         0              
 ICCAP_VAR VD         -0.1           

 #VG              IG              ID              IB             
  0               -4.716e-010     1.4245e-009     1.1363e-008    
  -0.05           -1.4396e-009    1.136e-010      1.501e-008     
  -0.1            -1.3832e-009    2.64e-010       1.5788e-008    
  -0.15           -2.3547e-009    4.107e-010      1.6171e-008    
  -0.2            -2.3298e-009    -1.4623e-009    1.1025e-008    
  -0.25           -2.5086e-009    -1.4659e-009    -5.826e-009    
  -0.3            -2.6938e-009    -1.4499e-009    -5.525e-009    
  -0.35           -2.8308e-009    -1.405e-009     -4.499e-009    
  -0.4            -1.3273e-009    -2.5305e-009    -3.571e-009    
  -0.45           3.4727e-009     -1.5153e-009    -3.1786e-008   
  -0.5            1.0502e-009     2.5363e-009     1.2745e-008    
  -0.55           -1.4211e-009    1.7899e-009     1.3376e-008    
  -0.6            -2.8157e-009    -2.0317e-009    1.5748e-008    
  -0.65           -2.8872e-009    -3.7035e-009    -3.801e-009    
  -0.7            1.8146e-009     -1.0764e-008    1.305e-008     
  -0.75           3.4008e-009     -3.3141e-008    -1.0474e-008   
  -0.8            2e-012          -1.2003e-007    1.2234e-008    
  -0.85           3.2798e-009     -3.7559e-007    -3.0444e-008   
  -0.9            3.103e-009      -1.02904e-006   1.33e-008      
  -0.95           8.05e-010       -2.4887e-006    1.1434e-008    
  -1              1.2901e-009     -5.2737e-006    1.2684e-008    
  -1.05           1.8603e-009     -9.3861e-006    1.3621e-008    
  -1.1            -1.7501e-009    -1.4437e-005    1.3686e-008    
  -1.15           -1.4975e-009    -2.0594e-005    1.1716e-008    
  -1.2            -1.4985e-009    -2.7217e-005    1.2311e-008    
  -1.25           -1.3991e-009    -3.4086e-005    1.4152e-008    
  -1.3            -2.0844e-009    -4.099e-005     1.5534e-008    
  -1.35           -1.5607e-009    -4.7864e-005    1.1757e-008    
  -1.4            -1.4969e-009    -5.4488e-005    1.2007e-008    
  -1.45           -1.4613e-009    -6.0932e-005    1.3456e-008    
  -1.5            -2.4343e-009    -6.7209e-005    1.4928e-008    
  -1.55           -1.7474e-009    -7.333e-005     1.1369e-008    
  -1.6            -1.4963e-009    -7.9183e-005    1.1738e-008    
  -1.65           -1.4976e-009    -8.4814e-005    1.237e-008     
  -1.7            -1.3999e-009    -9.0279e-005    1.4182e-008    
  -1.75           -2.0825e-009    -9.5571e-005    1.5619e-008    
  -1.8            -1.5501e-009    -0.000100753    1.1762e-008    
  -1.85           -1.4967e-009    -0.000105744    1.1985e-008    
  -1.9            -1.4646e-009    -0.00011051     1.3349e-008    
  -1.95           3.54e-010       -0.00011529     1.1129e-008    
  -2              1.7716e-009     -0.00011983     -2.1679e-008   
  -2.05           3.3954e-009     -0.00012422     -1.0325e-008   
  -2.1            2.073e-009      -0.0001285      1.3734e-008    
  -2.15           6.009e-010      -0.00013252     1.278e-008     
  -2.2            1.0264e-009     -0.00013658     1.2012e-008    
  -2.25           1.5838e-009     -0.0001406      1.3402e-008    
  -2.3            2.1327e-009     -0.00014433     1.3659e-008    
  -2.35           6.41e-010       -0.00014795     1.262e-008     
  -2.4            1.0852e-009     -0.00015165     1.2045e-008    
  -2.45           1.6447e-009     -0.00015524     1.3455e-008    
  -2.5            2.1902e-009     -0.0001586      1.354e-008     
  -2.55           6.8e-010        -0.00016188     1.2297e-008    
  -2.6            1.1319e-009     -0.00016525     1.2116e-008    
  -2.65           1.7001e-009     -0.00016849     1.3578e-008    
  -2.7            2.2484e-009     -0.00017154     1.3584e-008    
  -2.75           7.216e-010      -0.00017456     1.227e-008     
  -2.8            1.1972e-009     -0.00017763     1.209e-008     
  -2.85           1.7573e-009     -0.0001806      1.3284e-008    
  -2.9            2.3084e-009     -0.00018338     1.3471e-008    
  -2.95           7.629e-010      -0.00018615     1.1963e-008    
  -3              1.2552e-009     -0.00018897     1.2459e-008    
  -3.05           1.8204e-009     -0.00019166     1.3601e-008    
  -3.1            4.145e-010      -0.00019418     1.3307e-008    
  -3.15           8.171e-010      -0.0001968      1.1953e-008    
  -3.2            1.3166e-009     -0.00019942     1.2673e-008    
  -3.25           1.8787e-009     -0.00020191     1.3635e-008    
  -3.3            4.558e-010      -0.00020425     1.3204e-008    
  -3.35           8.566e-010      -0.00020665     1.1807e-008    
  -3.4            1.3707e-009     -0.00020905     1.2895e-008    
  -3.45           1.9324e-009     -0.00021133     1.3571e-008    
  -3.5            4.972e-010      -0.00021351     1.3107e-008    
  -3.55           9.091e-010      -0.00021576     1.1888e-008    
  -3.6            1.4523e-009     -0.00021801     1.2759e-008    
  -3.65           2.0076e-009     -0.00022013     1.3652e-008    
  -3.7            5.395e-010      -0.00022215     1.3006e-008    
  -3.75           9.704e-010      -0.00022428     1.1858e-008    
  -3.8            1.5128e-009     -0.00022634     1.3206e-008    
  -3.85           2.0605e-009     -0.00022833     1.372e-008     
  -3.9            5.786e-010      -0.00023018     1.273e-008     
  -3.95           1.0156e-009     -0.00023216     1.2001e-008    
  -4              1.568e-009      -0.00023407     1.3321e-008    
  -4.05           2.1125e-009     -0.00023591     1.3684e-008    
  -4.1            6.177e-010      -0.00023769     1.2601e-008    
  -4.15           1.0642e-009     -0.0002395      1.2164e-008    
  -4.2            1.6339e-009     -0.00024134     1.3103e-008    
  -4.25           2.1715e-009     -0.000243       1.3627e-008    
  -4.3            6.611e-010      -0.00024469     1.2454e-008    
  -4.35           1.1153e-009     -0.00024639     1.1966e-008    
  -4.4            1.6857e-009     -0.00024807     1.3195e-008    
  -4.45           2.2345e-009     -0.00024965     1.3628e-008    
  -4.5            6.987e-010      -0.00025124     1.2342e-008    
  -4.55           1.1719e-009     -0.00025282     1.2021e-008    
  -4.6            1.7428e-009     -0.00025441     1.3271e-008    
  -4.65           2.2874e-009     -0.0002559      1.3544e-008    
  -4.7            7.438e-010      -0.00025739     1.2293e-008    
  -4.75           1.2233e-009     -0.00025893     1.22e-008      
  -4.8            1.8041e-009     -0.00026036     1.3338e-008    
  -4.85           3.895e-010      -0.00026174     1.3378e-008    
  -4.9            7.887e-010      -0.00026312     1.2091e-008    
  -4.95           1.2748e-009     -0.00026458     1.2286e-008    
  -5              1.8535e-009     -0.00026591     1.341e-008     
END_DB

BEGIN_DB
 ICCAP_VAR VS         0              
 ICCAP_VAR VB         0              
 ICCAP_VAR VD         -5             

 #VG              IG              ID              IB             
  0               -1.2652e-009    -1.3175e-009    -2.1971e-008   
  -0.05           -2.1142e-009    -1.5138e-009    1.0375e-008    
  -0.1            3.497e-009      -1.5091e-009    -3.1042e-008   
  -0.15           9.849e-010      2.5782e-009     1.2492e-008    
  -0.2            1.2004e-009     2.4222e-009     1.2887e-008    
  -0.25           -1.3757e-009    2.0339e-009     1.3164e-008    
  -0.3            -2.3259e-009    3.717e-010      1.6222e-008    
  -0.35           -2.3426e-009    -1.5231e-009    1.1089e-008    
  -0.4            3.2358e-009     -1.7889e-009    -3.196e-008    
  -0.45           -1.03e-011      2.4504e-009     -3.652e-009    
  -0.5            1.843e-010      2.4159e-009     1.3316e-008    
  -0.55           -1.5022e-009    4.114e-010      1.281e-008     
  -0.6            -1.4929e-009    -3.0071e-009    1.2179e-008    
  -0.65           -2.9088e-009    -1.1024e-008    -2.1448e-008   
  -0.7            -2.8547e-009    -3.7212e-008    1.411e-009     
  -0.75           3.388e-009      -1.2941e-007    1.0645e-008    
  -0.8            1.5249e-009     -4.2282e-007    2.0605e-008    
  -0.85           -1.3539e-009    -1.209e-006     1.7797e-008    
  -0.9            -1.8562e-009    -3.1763e-006    7.043e-008     
  -0.95           2.2194e-009     -7.2203e-006    1.0707e-007    
  -1              3.3681e-009     -1.4474e-005    2.1062e-007    
  -1.05           2.5191e-009     -2.4993e-005    3.5517e-007    
  -1.1            1.6065e-009     -3.9584e-005    5.2312e-007    
  -1.15           1.4055e-009     -5.8232e-005    7.2433e-007    
  -1.2            3.5865e-009     -8.0885e-005    9.3914e-007    
  -1.25           2.3562e-009     -0.000106789    1.1971e-006    
  -1.3            3.534e-009      -0.000136       1.4338e-006    
  -1.35           3.6216e-009     -0.00016843     1.6547e-006    
  -1.4            3.3212e-009     -0.00020415     1.8733e-006    
  -1.45           2.3617e-009     -0.00024272     2.0815e-006    
  -1.5            1.5487e-009     -0.00028359     2.2703e-006    
  -1.55           1.4083e-009     -0.00032707     2.4503e-006    
  -1.6            3.5341e-009     -0.0003727      2.602e-006     
  -1.65           2.8427e-009     -0.00041962     2.7518e-006    
  -1.7            1.8146e-009     -0.00046883     2.8655e-006    
  -1.75           3.4648e-009     -0.00052008     2.9572e-006    
  -1.8            3.56e-009       -0.00057223     3.0466e-006    
  -1.85           3.2404e-009     -0.0006273      3.0987e-006    
  -1.9            2.2667e-009     -0.00068304     3.1342e-006    
  -1.95           1.4712e-009     -0.00073998     3.1451e-006    
  -2              3.5049e-009     -0.00079825     3.1472e-006    
  -2.05           3.4557e-009     -0.00085684     3.1405e-006    
  -2.1            2.7832e-009     -0.00091743     3.1078e-006    
  -2.15           1.7506e-009     -0.00097894     3.0601e-006    
  -2.2            3.4147e-009     -0.0010414      2.9972e-006    
  -2.25           3.5128e-009     -0.00110403     2.945e-006     
  -2.3            -1.4901e-009    -0.0011663      2.8565e-006    
  -2.35           -1.4621e-009    -0.0012312      2.7936e-006    
  -2.4            -2.418e-009     -0.0012968      2.7036e-006    
  -2.45           -1.7354e-009    -0.0013635      2.6009e-006    
  -2.5            -1.4899e-009    -0.0014306      2.4985e-006    
  -2.55           -1.4959e-009    -0.0014976      2.3908e-006    
  -2.6            -1.4022e-009    -0.0015663      2.2852e-006    
  -2.65           -2.0834e-009    -0.0016355      2.1752e-006    
  -2.7            -1.5454e-009    -0.0017051      2.0617e-006    
  -2.75           -1.4946e-009    -0.0017751      1.9505e-006    
  -2.8            -1.466e-009     -0.0018453      1.84e-006      
  -2.85           -2.4295e-009    -0.0019164      1.7338e-006    
  -2.9            -1.7471e-009    -0.0019883      1.6248e-006    
  -2.95           -1.489e-009     -0.0020601      1.5221e-006    
  -3              -1.4986e-009    -0.002132       1.4213e-006    
  -3.05           -1.4095e-009    -0.0022048      1.3265e-006    
  -3.1            -2.1072e-009    -0.0022783      1.2337e-006    
  -3.15           -1.5541e-009    -0.0023523      1.1427e-006    
  -3.2            -1.4904e-009    -0.0024257      1.0568e-006    
  -3.25           3.284e-009      -0.0025012      9.597e-007     
  -3.3            2.4383e-009     -0.0025762      8.8101e-007    
  -3.35           1.5186e-009     -0.002651       8.0331e-007    
  -3.4            3.4786e-009     -0.0027264      7.3378e-007    
  -3.45           3.4507e-009     -0.0028012      6.8003e-007    
  -3.5            2.9352e-009     -0.0028773      6.1846e-007    
  -3.55           1.9094e-009     -0.0029533      5.586e-007     
  -3.6            3.3936e-009     -0.0030296      5.019e-007     
  -3.65           3.5e-009        -0.0031055      4.6777e-007    
  -3.7            3.2896e-009     -0.0031818      4.1972e-007    
  -3.75           2.4556e-009     -0.0032604      3.7609e-007    
  -3.8            1.524e-009      -0.0033372      3.3277e-007    
  -3.85           3.4773e-009     -0.0034148      2.9715e-007    
  -3.9            3.4482e-009     -0.003491       2.7585e-007    
  -3.95           2.946e-009      -0.0035692      2.4531e-007    
  -4              1.9197e-009     -0.003647       2.1492e-007    
  -4.05           3.4035e-009     -0.0037247      1.8599e-007    
  -4.1            3.5e-009        -0.0038023      1.7842e-007    
  -4.15           3.2971e-009     -0.0038799      1.5532e-007    
  -4.2            2.4583e-009     -0.0039587      1.3552e-007    
  -4.25           -2.1298e-009    -0.004035       1.3821e-007    
  -4.3            -1.5656e-009    -0.0041137      1.2022e-007    
  -4.35           -1.4903e-009    -0.0041917      1.0771e-007    
  -4.4            -1.4756e-009    -0.0042702      9.754e-008     
  -4.45           1.559e-010      -0.0043513      6.2794e-008    
  -4.5            -2.901e-010     -0.0044291      5.2001e-008    
  -4.55           -8.062e-010     -0.0045068      4.3515e-008    
  -4.6            -1.1913e-009    -0.004585       3.9914e-008    
  -4.65           -1.6058e-009    -0.0046626      3.3831e-008    
  -4.7            -1.9635e-009    -0.0047424      2.9158e-008    
  -4.75           -2.2298e-009    -0.0048223      2.6045e-008    
  -4.8            -2.6671e-009    -0.004901       2.291e-008     
  -4.85           -2.9121e-009    -0.0049794      2.0302e-008    
  -4.9            -2.8654e-009    -0.0050589      2.1085e-008    
  -4.95           -2.5792e-009    -0.0051371      2.7767e-008    
  -5              -1.9137e-009    -0.0052156      2.7183e-008    
END_DB

BEGIN_DB
 ICCAP_VAR VS         0              
 ICCAP_VAR VB         2.5            
 ICCAP_VAR VD         -0.1           

 #VG              IG              ID              IB             
  0               -1.2328e-009    -1.1918e-009    -1.1425e-008   
  -0.05           -2.433e-009     -1.4857e-009    1.1245e-008    
  -0.1            -2.6158e-009    -1.4723e-009    -5.053e-009    
  -0.15           -2.7753e-009    -1.4356e-009    -5.119e-009    
  -0.2            -1.2609e-009    -2.6084e-009    -4.055e-009    
  -0.25           3.5334e-009     -1.461e-009     -3.1019e-008   
  -0.3            6.951e-010      2.7096e-009     -1.18e-009     
  -0.35           8.547e-010      2.6782e-009     1.1994e-008    
  -0.4            1.0534e-009     2.5907e-009     1.2843e-008    
  -0.45           1.2542e-009     2.4062e-009     1.3329e-008    
  -0.5            1.4957e-009     2.1397e-009     1.3488e-008    
  -0.55           -1.4955e-009    2.2803e-009     1.3608e-008    
  -0.6            -2.0839e-009    -1.529e-009     1.2205e-008    
  -0.65           1.5003e-009     -1.4287e-009    -3.0148e-008   
  -0.7            3.4088e-009     1.494e-010      -9.469e-009    
  -0.75           -1.5043e-009    2.2035e-009     1.3578e-008    
  -0.8            -2.046e-009     -1.5652e-009    1.1967e-008    
  -0.85           1.8516e-009     -2.1165e-009    -1.3961e-008   
  -0.9            5.84e-010       2.7012e-009     -1.0487e-008   
  -0.95           7.35e-010       2.6972e-009     1.203e-008     
  -1              9.074e-010      2.6576e-009     1.214e-008     
  -1.05           1.0965e-009     2.5253e-009     1.2682e-008    
  -1.1            -1.4066e-009    1.8805e-009     1.3425e-008    
  -1.15           -2.4499e-009    -3.279e-010     1.5795e-008    
  -1.2            -2.1628e-009    -4.0586e-009    1.1246e-008    
  -1.25           4.998e-010      -1.1443e-008    6.069e-009     
  -1.3            8.965e-010      -5.8335e-008    1.2004e-008    
  -1.35           3.3302e-009     -2.3533e-007    -5.595e-009    
  -1.4            3.0754e-009     -7.3484e-007    1.3345e-008    
  -1.45           7.714e-010      -1.9889e-006    1.1321e-008    
  -1.5            1.2431e-009     -4.5444e-006    1.2266e-008    
  -1.55           1.817e-009      -8.4966e-006    1.3635e-008    
  -1.6            -1.6712e-009    -1.3457e-005    1.3547e-008    
  -1.65           -1.4902e-009    -1.9448e-005    1.1778e-008    
  -1.7            -1.49e-009      -2.5817e-005    1.2538e-008    
  -1.75           -1.3777e-009    -3.2299e-005    1.4242e-008    
  -1.8            -1.9991e-009    -3.8683e-005    1.5692e-008    
  -1.85           -1.5305e-009    -4.5033e-005    1.1869e-008    
  -1.9            -1.497e-009     -5.0982e-005    1.2163e-008    
  -1.95           -1.447e-009     -5.6733e-005    1.3651e-008    
  -2              -2.3549e-009    -6.2292e-005    1.5119e-008    
  -2.05           -1.6975e-009    -6.7688e-005    1.1417e-008    
  -2.1            -1.4912e-009    -7.2828e-005    1.1722e-008    
  -2.15           -1.4899e-009    -7.7791e-005    1.2449e-008    
  -2.2            -1.3838e-009    -8.2603e-005    1.4159e-008    
  -2.25           -2.0371e-009    -8.7273e-005    1.558e-008     
  -2.3            -1.5431e-009    -9.1832e-005    1.1859e-008    
  -2.35           -1.495e-009     -9.6188e-005    1.2005e-008    
  -2.4            -1.4536e-009    -0.000100422    1.3509e-008    
  -2.45           -2.4084e-009    -0.000104566    1.5034e-008    
  -2.5            -1.7365e-009    -0.000108637    1.1384e-008    
  -2.55           -1.4955e-009    -0.000112554    1.1728e-008    
  -2.6            -1.4992e-009    -0.00011636     1.1688e-008    
  -2.65           -1.4222e-009    -0.00012009     1.4013e-008    
  -2.7            -2.2409e-009    -0.0001237      1.536e-008     
  -2.75           -1.6251e-009    -0.0001273      1.1627e-008    
  -2.8            -1.4885e-009    -0.00013074     1.1797e-008    
  -2.85           -1.483e-009     -0.00013411     1.2808e-008    
  -2.9            -1.3635e-009    -0.00013738     1.4506e-008    
  -2.95           -1.9484e-009    -0.00014062     1.5874e-008    
  -3              -1.5144e-009    -0.00014381     1.1914e-008    
  -3.05           -1.4945e-009    -0.0001469      1.2229e-008    
  -3.1            -1.4474e-009    -0.00014987     1.3762e-008    
  -3.15           -2.3386e-009    -0.00015285     1.5384e-008    
  -3.2            -1.6789e-009    -0.00015578     1.1532e-008    
  -3.25           -1.4836e-009    -0.00015861     1.1849e-008    
  -3.3            -1.4901e-009    -0.00016136     1.2522e-008    
  -3.35           -1.3842e-009    -0.00016407     1.4337e-008    
  -3.4            -2.0288e-009    -0.00016671     1.5938e-008    
  -3.45           -1.5321e-009    -0.0001694      1.1951e-008    
  -3.5            -1.4901e-009    -0.00017193     1.2179e-008    
  -3.55           -1.453e-009     -0.00017442     1.3615e-008    
  -3.6            -2.3889e-009    -0.0001769      1.5221e-008    
  -3.65           -1.7354e-009    -0.00017936     1.1457e-008    
  -3.7            -1.486e-009     -0.00018173     1.186e-008     
  -3.75           -1.4915e-009    -0.00018406     1.2403e-008    
  -3.8            -1.3983e-009    -0.00018636     1.4152e-008    
  -3.85           -2.0905e-009    -0.00018859     1.5883e-008    
  -3.9            -1.5531e-009    -0.00019087     1.1933e-008    
  -3.95           -1.4855e-009    -0.000193       1.2164e-008    
  -4              -1.4653e-009    -0.00019514     1.3441e-008    
  -4.05           -2.4359e-009    -0.00019721     1.4993e-008    
  -4.1            -1.7839e-009    -0.00019931     1.135e-008     
  -4.15           -1.4952e-009    -0.00020135     1.1839e-008    
