! VERSION = 6.00
BEGIN_HEADER
 ICCAP_INPUTS
  VG         V  B GROUND SMU4 0.001 LIN        2    0          -5         6    -1        
  VS         V  E GROUND SMU2 0.1 CON        0
  VD         V  S GROUND SMU1 0.1 LIN        1    0          -5         101  -0.05     
  VB         V  C GROUND SMU3 0.1 LIN        3    0          2.5        2    2.5       
 ICCAP_OUTPUTS
  ID         I  S GROUND SMU1 B
  IB         I  C GROUND SMU3 B
  IG         I  B GROUND SMU4 B
END_HEADER

BEGIN_DB
 ICCAP_VAR VG         0              
 ICCAP_VAR VS         0              
 ICCAP_VAR VB         0              

 #VD              ID              IB              IG             
  0               2.434e-010      3.606e-009      -2.621e-010    
  -0.05           1.3201e-009     -1.2698e-008    -1.3139e-009   
  -0.1            -9.509e-010     -1.2917e-008    1.3709e-009    
  -0.15           7.845e-010      1.364e-008      -1.3905e-009   
  -0.2            -1.0022e-009    -1.2835e-008    1.3559e-009    
  -0.25           8.166e-010      1.3492e-008     -1.4012e-009   
  -0.3            -1.0497e-009    -1.2805e-008    1.3417e-009    
  -0.35           8.505e-010      1.3256e-008     -1.4024e-009   
  -0.4            -1.1035e-009    -1.3101e-008    1.3287e-009    
  -0.45           8.864e-010      1.2963e-008     -1.398e-009    
  -0.5            -7.456e-010     -1.3591e-008    1.3146e-009    
  -0.55           9.261e-010      1.2846e-008     -1.3849e-009   
  -0.6            -7.749e-010     -1.3749e-008    1.302e-009     
  -0.65           9.754e-010      1.2774e-008     -1.3686e-009   
  -0.7            -8.047e-010     -1.3762e-008    1.3912e-009    
  -0.75           1.0262e-009     1.275e-008      -1.3536e-009   
  -0.8            -8.406e-010     -1.3485e-008    1.3973e-009    
  -0.85           1.0788e-009     1.3076e-008     -1.3376e-009   
  -0.9            -8.776e-010     -1.3166e-008    1.3948e-009    
  -0.95           7.317e-010      1.3459e-008     -1.3265e-009   
  -1              -9.149e-010     -1.2991e-008    1.3849e-009    
  -1.05           7.608e-010      1.3543e-008     -1.3116e-009   
  -1.1            -9.613e-010     -1.2865e-008    1.3685e-009    
  -1.15           7.903e-010      1.3603e-008     -1.3925e-009   
  -1.2            -1.013e-009     -1.2697e-008    1.3536e-009    
  -1.25           8.231e-010      1.334e-008      -1.4015e-009   
  -1.3            -1.0632e-009    -1.2868e-008    1.3402e-009    
  -1.35           8.555e-010      1.3056e-008     -1.4025e-009   
  -1.4            -7.247e-010     -1.3523e-008    1.3267e-009    
  -1.45           8.956e-010      1.2822e-008     -1.3967e-009   
  -1.5            -7.51e-010      -1.3596e-008    1.3143e-009    
  -1.55           9.423e-010      1.2725e-008     -1.3829e-009   
  -1.6            -7.808e-010     -1.3789e-008    1.3016e-009    
  -1.65           9.889e-010      1.2717e-008     -1.3677e-009   
  -1.7            -8.119e-010     -1.3681e-008    1.3934e-009    
  -1.75           1.0359e-009     1.2847e-008     -1.3517e-009   
  -1.8            -8.476e-010     -1.3382e-008    1.3976e-009    
  -1.85           1.0938e-009     1.3094e-008     -1.3374e-009   
  -1.9            -8.865e-010     -1.3015e-008    1.3957e-009    
  -1.95           7.392e-010      1.3658e-008     -1.3241e-009   
  -2              -9.294e-010     -1.2764e-008    1.3841e-009    
  -2.05           7.674e-010      1.374e-008      -1.312e-009    
  -2.1            -9.753e-010     -1.2786e-008    1.3715e-009    
  -2.15           7.962e-010      1.3531e-008     -1.3962e-009   
  -2.2            -1.0261e-009    -1.2733e-008    1.3541e-009    
  -2.25           8.292e-010      1.3357e-008     -1.4039e-009   
  -2.3            -1.0797e-009    -1.3028e-008    1.3412e-009    
  -2.35           8.662e-010      1.3027e-008     -1.4016e-009   
  -2.4            -7.308e-010     -1.3567e-008    1.3263e-009    
  -2.45           9.076e-010      1.2751e-008     -1.3939e-009   
  -2.5            -7.601e-010     -1.3669e-008    1.3134e-009    
  -2.55           9.519e-010      1.2667e-008     -1.3785e-009   
  -2.6            -7.911e-010     -1.3756e-008    1.2983e-009    
  -2.65           1e-009          1.2661e-008     -1.3612e-009   
  -2.7            -8.222e-010     -1.355e-008     1.394e-009     
  -2.75           1.0527e-009     1.2865e-008     -1.3457e-009   
  -2.8            -8.577e-010     -1.3124e-008    1.3989e-009    
  -2.85           1.1088e-009     1.3083e-008     -1.3327e-009   
  -2.9            -9e-010         -1.2968e-008    1.3924e-009    
  -2.95           7.467e-010      1.3606e-008     -1.32e-009     
  -3              -9.425e-010     -1.2799e-008    1.3802e-009    
  -3.05           7.749e-010      1.3673e-008     -1.3046e-009   
  -3.1            -9.904e-010     -1.2808e-008    1.3651e-009    
  -3.15           8.047e-010      1.3552e-008     -1.3982e-009   
  -3.2            -1.0412e-009    -1.2836e-008    1.3488e-009    
  -3.25           8.395e-010      1.3147e-008     -1.4025e-009   
  -3.3            -1.0955e-009    -1.3112e-008    1.3362e-009    
  -3.35           8.804e-010      1.2859e-008     -1.3993e-009   
  -3.4            -7.397e-010     -1.3578e-008    1.3232e-009    
  -3.45           9.194e-010      1.2717e-008     -1.387e-009    
  -3.5            -7.71e-010      -1.3742e-008    1.3087e-009    
  -3.55           9.659e-010      1.2715e-008     -1.3715e-009   
  -3.6            -8.011e-010     -1.3708e-008    1.387e-009     
  -3.65           1.0132e-009     1.2693e-008     -1.3561e-009   
  -3.7            -8.349e-010     -1.3384e-008    1.3957e-009    
  -3.75           1.0722e-009     1.2945e-008     -1.3429e-009   
  -3.8            -8.726e-010     -1.3116e-008    1.395e-009     
  -3.85           7.262e-010      1.3582e-008     -1.3296e-009   
  -3.9            -9.155e-010     -1.2878e-008    1.386e-009     
  -3.95           7.555e-010      1.3679e-008     -1.315e-009    
  -4              -9.592e-010     -1.2831e-008    1.3751e-009    
  -4.05           7.837e-010      1.3672e-008     -1.3891e-009   
  -4.1            -1.0084e-009    -1.2735e-008    1.3588e-009    
  -4.15           8.157e-010      1.3466e-008     -1.3995e-009   
  -4.2            -1.0655e-009    -1.2965e-008    1.3457e-009    
  -4.25           8.523e-010      1.3113e-008     -1.4021e-009   
  -4.3            -1.1172e-009    -1.3088e-008    1.3319e-009    
  -4.35           8.927e-010      1.2893e-008     -1.3959e-009   
  -4.4            -7.555e-010     -1.3566e-008    1.316e-009     
  -4.45           9.363e-010      1.2781e-008     -1.3805e-009   
  -4.5            -7.875e-010     -1.3692e-008    1.3015e-009    
  -4.55           9.836e-010      1.2785e-008     -1.3643e-009   
  -4.6            -8.187e-010     -1.3517e-008    1.3914e-009    
  -4.65           1.0313e-009     1.2818e-008     -1.3475e-009   
  -4.7            -8.547e-010     -1.3267e-008    1.3968e-009    
  -4.75           1.087e-009      1.3053e-008     -1.335e-009    
  -4.8            -8.963e-010     -1.3041e-008    1.3931e-009    
  -4.85           7.305e-010      1.3575e-008     -1.3201e-009   
  -4.9            -9.437e-010     -1.2857e-008    1.3812e-009    
  -4.95           7.58e-010       1.368e-008      -1.3089e-009   
  -5              -9.889e-010     -1.2827e-008    1.3637e-009    
END_DB

BEGIN_DB
 ICCAP_VAR VG         -1             
 ICCAP_VAR VS         0              
 ICCAP_VAR VB         0              

 #VD              ID              IB              IG             
  0               -1.0033e-007    1.1944e-008     -3.026e-010    
  -0.05           -3.1548e-006    -1.2787e-008    -1.1601e-009   
  -0.1            -4.5176e-006    1.3108e-008     -1.391e-009    
  -0.15           -5.086e-006     1.3547e-008     -1.3932e-009   
  -0.2            -5.4191e-006    1.3537e-008     -1.3958e-009   
  -0.25           -5.5894e-006    1.3598e-008     -1.3975e-009   
  -0.3            -5.735e-006     1.3555e-008     -1.3976e-009   
  -0.35           -5.8675e-006    1.3604e-008     -1.3977e-009   
  -0.4            -5.9929e-006    1.3638e-008     -1.3985e-009   
  -0.45           -6.0773e-006    1.3668e-008     -1.399e-009    
  -0.5            -6.1714e-006    1.3697e-008     -1.3985e-009   
  -0.55           -6.2552e-006    1.3709e-008     -1.3985e-009   
  -0.6            -6.3464e-006    1.3713e-008     -1.3982e-009   
  -0.65           -6.4346e-006    1.3694e-008     -1.3967e-009   
  -0.7            -6.5126e-006    1.3659e-008     -1.3954e-009   
  -0.75           -6.5902e-006    1.3686e-008     -1.3924e-009   
  -0.8            -6.67e-006      1.3561e-008     -1.3911e-009   
  -0.85           -6.7442e-006    1.3563e-008     -1.3885e-009   
  -0.9            -6.8176e-006    1.3549e-008     -1.3858e-009   
  -0.95           -6.8964e-006    1.3478e-008     -1.3838e-009   
  -1              -6.9624e-006    1.3323e-008     -1.3784e-009   
  -1.05           -7.0088e-006    1.329e-008      -1.3776e-009   
  -1.1            -7.1229e-006    1.3296e-008     -1.3736e-009   
  -1.15           -7.173e-006     1.3213e-008     -1.3704e-009   
  -1.2            -7.2959e-006    1.3215e-008     -1.3667e-009   
  -1.25           -7.3634e-006    1.3086e-008     -1.3636e-009   
  -1.3            -7.3761e-006    1.3042e-008     -1.3618e-009   
  -1.35           -7.4569e-006    1.2941e-008     -1.3578e-009   
  -1.4            -7.5126e-006    1.2909e-008     -1.3539e-009   
  -1.45           -7.5758e-006    1.2861e-008     -1.3503e-009   
  -1.5            -7.6501e-006    1.2773e-008     -1.349e-009    
  -1.55           -7.736e-006     1.2856e-008     -1.3482e-009   
  -1.6            -7.7542e-006    1.2801e-008     -1.3435e-009   
  -1.65           -7.8471e-006    1.2768e-008     -1.3401e-009   
  -1.7            -7.8727e-006    1.2831e-008     -1.3363e-009   
  -1.75           -7.9626e-006    1.2828e-008     -1.3348e-009   
  -1.8            -8.0022e-006    1.2788e-008     -1.3315e-009   
  -1.85           -8.1157e-006    1.2765e-008     -1.3295e-009   
  -1.9            -8.1972e-006    1.2798e-008     -1.3256e-009   
  -1.95           -8.2656e-006    1.2679e-008     -1.3245e-009   
  -2              -8.3124e-006    1.2737e-008     -1.3212e-009   
  -2.05           -8.3351e-006    1.2787e-008     -1.3199e-009   
  -2.1            -8.3974e-006    1.2766e-008     -1.3167e-009   
  -2.15           -8.4429e-006    1.2778e-008     -1.3138e-009   
  -2.2            -8.5507e-006    1.2833e-008     -1.3107e-009   
  -2.25           -8.5816e-006    1.29e-008       -1.308e-009    
  -2.3            -8.6524e-006    1.2962e-008     -1.3062e-009   
  -2.35           -8.6958e-006    1.3005e-008     -1.3022e-009   
  -2.4            -8.7644e-006    1.3052e-008     -1.3006e-009   
  -2.45           -8.8207e-006    1.3143e-008     -1.3899e-009   
  -2.5            -8.8989e-006    1.3425e-008     -1.392e-009    
  -2.55           -8.9611e-006    1.3583e-008     -1.3951e-009   
  -2.6            -9.0488e-006    1.3562e-008     -1.3975e-009   
  -2.65           -9.1238e-006    1.3627e-008     -1.3986e-009   
  -2.7            -9.1154e-006    1.3633e-008     -1.4012e-009   
  -2.75           -9.1799e-006    1.3652e-008     -1.402e-009    
  -2.8            -9.2956e-006    1.3731e-008     -1.3995e-009   
  -2.85           -9.364e-006     1.3859e-008     -1.4005e-009   
  -2.9            -9.3858e-006    1.3889e-008     -1.4012e-009   
  -2.95           -9.4466e-006    1.393e-008      -1.3996e-009   
  -3              -9.4968e-006    1.4014e-008     -1.4003e-009   
  -3.05           -9.5633e-006    1.4046e-008     -1.3995e-009   
  -3.1            -9.621e-006     1.4263e-008     -1.397e-009    
  -3.15           -9.6769e-006    1.4353e-008     -1.3962e-009   
  -3.2            -9.7421e-006    1.4499e-008     -1.3948e-009   
  -3.25           -9.794e-006     1.4623e-008     -1.3896e-009   
  -3.3            -9.8519e-006    1.4767e-008     -1.3888e-009   
  -3.35           -9.9145e-006    1.504e-008      -1.3846e-009   
  -3.4            -1.00494e-005   1.5324e-008     -1.3825e-009   
  -3.45           -9.9953e-006    1.5701e-008     -1.3787e-009   
  -3.5            -1.00515e-005   1.6055e-008     -1.3754e-009   
  -3.55           -1.02737e-005   1.4738e-008     5.957e-010     
  -3.6            -1.02958e-005   4.95e-010       1.3926e-009    
  -3.65           -1.03552e-005   1.251e-009      1.3952e-009    
  -3.7            -1.04112e-005   1.7745e-008     5.751e-010     
  -3.75           -1.04504e-005   1.9403e-008     -1.3093e-009   
  -3.8            -1.04628e-005   2.0894e-008     -1.306e-009    
  -3.85           -1.05908e-005   1.6555e-008     7.447e-010     
  -3.9            -1.06376e-005   1.8319e-008     7.144e-010     
  -3.95           -1.07081e-005   1.8183e-008     1.0966e-009    
  -4              -1.0806e-005    1.3996e-008     1.3952e-009    
  -4.05           -1.07942e-005   3.905e-009      1.3214e-009    
  -4.1            -1.08524e-005   1.2135e-008     -6.974e-010    
  -4.15           -1.08809e-005   3.6202e-008     -1.306e-009    
  -4.2            -1.10171e-005   3.3474e-008     7.46e-010      
  -4.25           -1.11299e-005   1.6448e-008     1.3947e-009    
  -4.3            -1.11125e-005   2.1456e-008     1.3298e-009    
  -4.35           -1.1156e-005    5.2058e-008     -1.0562e-009   
  -4.4            -1.1243e-005    5.7654e-008     -1.3909e-009   
  -4.45           -1.1327e-005    5.8568e-008     7.071e-010     
  -4.5            -1.1438e-005    4.4536e-008     1.3694e-009    
  -4.55           -1.143e-005     5.8025e-008     -7.516e-010    
  -4.6            -1.1448e-005    8.6682e-008     -1.3443e-009   
  -4.65           -1.1602e-005    9.0517e-008     8.121e-010     
  -4.7            -1.1716e-005    8.0615e-008     1.3316e-009    
  -4.75           -1.1702e-005    9.7864e-008     -8.619e-010    
  -4.8            -1.176e-005     1.2123e-007     -1.3866e-009   
  -4.85           -1.189e-005     1.398e-007      7.13e-010      
  -4.9            -1.1997e-005    1.3298e-007     1.3954e-009    
  -4.95           -1.2027e-005    1.5491e-007     -7.152e-010    
  -5              -1.2031e-005    1.9445e-007     -1.3213e-009   
END_DB

BEGIN_DB
 ICCAP_VAR VG         -2             
 ICCAP_VAR VS         0              
 ICCAP_VAR VB         0              

 #VD              ID              IB              IG             
  0               -5.8544e-007    1.2804e-008     2.007e-010     
  -0.05           -5.32e-005      5.937e-009      1.3164e-009    
  -0.1            -0.00010275     -1.363e-008     1.3898e-009    
  -0.15           -0.00014953     -1.4114e-008    1.3367e-009    
  -0.2            -0.00019356     -1.3636e-008    1.3931e-009    
  -0.25           -0.0002346      -1.2822e-008    1.315e-009     
  -0.3            -0.00027264     -1.3455e-008    1.3779e-009    
  -0.35           -0.00030767     -1.3145e-008    1.386e-009     
  -0.4            -0.00033965     -1.29e-008      1.3408e-009    
  -0.45           -0.00036856     -1.3668e-008    1.3923e-009    
  -0.5            -0.00039451     -1.2861e-008    1.3185e-009    
  -0.55           -0.00041748     -1.3476e-008    1.3787e-009    
  -0.6            -0.00043765     -1.3165e-008    1.2965e-009    
  -0.65           -0.00045518     -1.304e-008     1.3592e-009    
  -0.7            -0.00047015     -1.3509e-008    1.3876e-009    
  -0.75           -0.00048312     -1.2795e-008    1.337e-009     
  -0.8            -0.00049401     -1.3638e-008    1.3919e-009    
  -0.85           -0.00050344     -1.2938e-008    1.3147e-009    
  -0.9            -0.00051147     -1.3365e-008    1.376e-009     
  -0.95           -0.00051822     -1.318e-008     1.3866e-009    
  -1              -0.00052436     -1.2888e-008    1.3389e-009    
  -1.05           -0.0005296      -1.3686e-008    1.3933e-009    
  -1.1            -0.00053441     -1.2868e-008    1.3164e-009    
  -1.15           -0.00053868     -1.3396e-008    1.3791e-009    
  -1.2            -0.0005425      -1.3131e-008    1.3825e-009    
  -1.25           -0.00054619     -1.2895e-008    1.3403e-009    
  -1.3            -0.00054944     -1.3655e-008    1.3933e-009    
  -1.35           -0.00055261     -1.2848e-008    1.3174e-009    
  -1.4            -0.00055556     -1.3398e-008    1.3816e-009    
  -1.45           -0.00055834     -1.3169e-008    1.382e-009     
  -1.5            -0.00056116     -1.2876e-008    1.342e-009     
  -1.55           -0.00056365     -1.3622e-008    1.3936e-009    
  -1.6            -0.00056621     -1.2825e-008    1.319e-009     
  -1.65           -0.00056866     -1.3649e-008    1.3817e-009    
  -1.7            -0.00057093     -1.3148e-008    1.2999e-009    
  -1.75           -0.00057329     -1.3088e-008    1.3625e-009    
  -1.8            -0.00057542     -1.3488e-008    1.3881e-009    
  -1.85           -0.00057773     -1.286e-008     1.3394e-009    
  -1.9            -0.00057978     -1.364e-008     1.3919e-009    
  -1.95           -0.00058191     -1.2891e-008    1.3169e-009    
  -2              -0.00058398     -1.3444e-008    1.3783e-009    
  -2.05           -0.00058592     -1.3166e-008    1.3842e-009    
  -2.1            -0.00058798     -1.2906e-008    1.3395e-009    
  -2.15           -0.00058984     -1.3683e-008    1.3926e-009    
  -2.2            -0.00059179     -1.2852e-008    1.32e-009      
  -2.25           -0.00059366     -1.3489e-008    1.3791e-009    
  -2.3            -0.00059543     -1.3153e-008    1.2973e-009    
  -2.35           -0.00059738     -1.3025e-008    1.3578e-009    
  -2.4            -0.00059905     -1.3456e-008    1.3864e-009    
  -2.45           -0.00060096     -1.2901e-008    1.3364e-009    
  -2.5            -0.00060262     -1.3582e-008    1.3929e-009    
  -2.55           -0.0006044      -1.2853e-008    1.3144e-009    
  -2.6            -0.00060614     -1.3179e-008    1.3764e-009    
  -2.65           -0.00060771     -1.3044e-008    1.3843e-009    
  -2.7            -0.0006095      -1.2785e-008    1.3374e-009    
  -2.75           -0.00061105     -1.346e-008     1.3919e-009    
  -2.8            -0.00061273     -1.2619e-008    1.315e-009     
  -2.85           -0.00061438     -1.2967e-008    1.376e-009     
  -2.9            -0.00061591     -1.2651e-008    1.3853e-009    
  -2.95           -0.0006176      -1.2225e-008    1.3392e-009    
  -3              -0.00061909     -1.2668e-008    1.3894e-009    
  -3.05           -0.00062066     -1.1507e-008    1.3164e-009    
  -3.1            -0.00062211     -1.2515e-008    1.3806e-009    
  -3.15           -0.00062371     -1.0825e-008    1.3804e-009    
  -3.2            -0.00062514     -4.621e-009     1.3413e-009    
  -3.25           -0.00062663     -9.912e-009     1.3936e-009    
  -3.3            -0.00062791     1.7966e-008     -1.3344e-009   
  -3.35           -0.00062923     1.9415e-008     -1.3804e-009   
  -3.4            -0.00063044     2.1791e-008     -1.3889e-009   
  -3.45           -0.00063234     2.0511e-008     6.568e-010     
  -3.5            -0.00063408     1.1994e-008     1.3361e-009    
  -3.55           -0.00063497     1.0862e-008     -8.794e-010    
  -3.6            -0.00063624     3.5185e-008     -1.3931e-009   
  -3.65           -0.00063807     3.6147e-008     6.77e-010      
  -3.7            -0.0006398      2.103e-008      1.3642e-009    
  -3.75           -0.0006406      3.5293e-008     -8.024e-010    
  -3.8            -0.00064178     6.4765e-008     -1.3074e-009   
  -3.85           -0.00064367     7.0088e-008     9.823e-010     
  -3.9            -0.00064505     6.4976e-008     1.3862e-009    
  -3.95           -0.00064617     8.7244e-008     -7.43e-010     
  -4              -0.00064734     1.183e-007      -1.3965e-009   
  -4.05           -0.00064917     1.4572e-007     7.061e-010     
  -4.1            -0.00065081     1.5315e-007     1.3522e-009    
  -4.15           -0.00065158     1.9237e-007     -8.414e-010    
